# Hz S RI R 50
2400000000.0000000000 0.157481491565704401214276231258 0.062940724194049835205078125000 0.001902564195916057066676474463 -0.000583162473049014806747436523 0 0 0 0 
2400166666.6666665077 0.157231852412223788162393134371 0.061390288174152367328684221093 0.002009080722928047180175781250 -0.000696374278049916028976440430 0 0 0 0 
2400333333.3333334923 0.157215505838394192794638115629 0.059280470013618469238281250000 0.002076575066894292831420898438 -0.000711678527295589447021484375 0 0 0 0 
2400500000.0000000000 0.157114252448081997970419365629 0.057465273886919021606445312500 0.002141570206731557846069335938 -0.000755687244236469268798828125 0 0 0 0 
2400666666.6666665077 0.157143294811248807052450615629 0.055325306951999657367746721093 0.002135252812877296967747353662 -0.001041033305227756933925009619 0 0 0 0 
2400833333.3333334923 0.157413616776466397384481865629 0.053451832383871078491210937500 0.002220912603661417961120605469 -0.001126703107729553959490131909 0 0 0 0 
2401000000.0000000000 0.157451137900352505782919365629 0.051342554390430450439453125000 0.002433219691738485856297158350 -0.001255894661881030039546347510 0 0 0 0 
2401166666.6666665077 0.157557860016822787185830634371 0.049157392233610153198242187500 0.002344630192965269088745117188 -0.001316201058216392993927001953 0 0 0 0 
2401333333.3333334923 0.157653406262397793868856865629 0.047036468982696533203125000000 0.002252909354865550994873046875 -0.001405251445248723030090332031 0 0 0 0 
2401500000.0000000000 0.158053129911422701736611884371 0.045079372823238372802734375000 0.002251025522127747969386435400 -0.001689187018200754902483295972 0 0 0 0 
2401666666.6666665077 0.158463507890701293945312500000 0.043071433901786797260324846093 0.002278099767863750891444540869 -0.001879794057458638928057026440 0 0 0 0 
2401833333.3333334923 0.158926248550415011306924384371 0.040789812803268432617187500000 0.002293054712936282157897949219 -0.002073506126180291175842285156 0 0 0 0 
2402000000.0000000000 0.159218803048133905608807481258 0.039019834250211722637136091407 0.002080456353724002838134765625 -0.002343291649594902992248535156 0 0 0 0 
2402166666.6666665077 0.159899055957794189453125000000 0.036980748176574707031250000000 0.002061243867501616911647177588 -0.002545435912907123999354697119 0 0 0 0 
2402333333.3333334923 0.160455361008644104003906250000 0.034981306642293930053710937500 0.001983022317290306091308593750 -0.002688013948500155968907021631 0 0 0 0 
2402500000.0000000000 0.161335825920105008224325615629 0.033209316432476036762277971093 0.001755195786245167038561176831 -0.002903679152950644926783896338 0 0 0 0 
2402666666.6666665077 0.161853030323982211013955634371 0.031284969300031661987304687500 0.001719379913993180014966655200 -0.002823769114911555810215615381 0 0 0 0 
2402833333.3333334923 0.162930309772491510589276231258 0.029731526970863338815709298046 0.001599145820364356040954589844 -0.003236651886254549026489257812 0 0 0 0 
2403000000.0000000000 0.163655132055282592773437500000 0.028022093698382381093958670704 0.001189751666970551013946533203 -0.003210209775716065926792763818 0 0 0 0 
2403166666.6666665077 0.164594277739524813553018134371 0.026454599574208259582519531250 0.001183873624540864987614297021 -0.003448139643296598954441689600 0 0 0 0 
2403333333.3333334923 0.165567621588706997970419365629 0.025122299790382388723353201954 0.000817529857158660888671875000 -0.003469743300229310989379882812 0 0 0 0 
2403500000.0000000000 0.166342109441757202148437500000 0.023530274629592898977259451954 0.000723076227586716413497924805 -0.003463618457317351861241006006 0 0 0 0 
2403666666.6666665077 0.167473360896110506912393134371 0.022116323933005329477330391796 0.000632675422821193933486938477 -0.003544559003785253004786826025 0 0 0 0 
2403833333.3333334923 0.168450146913528386871661268742 0.021091638132929798471471016796 0.000346688495483249425888061523 -0.003566595958545804023742675781 0 0 0 0 
2404000000.0000000000 0.169477060437202509124432481258 0.019926894456148151052454764454 0.000174414541106671094894409180 -0.003646322991698979897740029443 0 0 0 0 
2404166666.6666665077 0.170482665300369290450888115629 0.018689347431063648569127266796 -0.000009708557627163827419281006 -0.003635535482317208810093545068 0 0 0 0 
2404333333.3333334923 0.171356007456779507736044365629 0.017657361924648288381556326954 -0.000430094689363613724708557129 -0.003621526760980486869812011719 0 0 0 0 
2404500000.0000000000 0.172261178493499811370526231258 0.016763096675276759756068045704 -0.000489288184326142072677612305 -0.003639042377471923828125000000 0 0 0 0 
2404666666.6666665077 0.173349350690841702560263115629 0.015945807099342349660853201954 -0.000667496642563492059707641602 -0.003668219316750764846801757812 0 0 0 0 
2404833333.3333334923 0.174414813518524197677450615629 0.015225462615489959716796875000 -0.000868148810695856809616088867 -0.003515034448355435891392373193 0 0 0 0 
2405000000.0000000000 0.175289630889892605880575615629 0.014498669654130939138392264454 -0.001144227222539484934565878760 -0.003516725264489651159999228369 0 0 0 0 
2405166666.6666665077 0.176253974437713595291299384371 0.013745420612394809722900390625 -0.001250515575520694038988422925 -0.003345612436532973809483193506 0 0 0 0 
2405333333.3333334923 0.176912799477577209472656250000 0.013159720227122310293177420704 -0.001448088325560092926025390625 -0.003227191045880318121669150244 0 0 0 0 
2405500000.0000000000 0.177726209163665799239950615629 0.012763881124556069809883318555 -0.001632612198591232082964253003 -0.003143684007227420806884765625 0 0 0 0 
2405666666.6666665077 0.178331032395362909515057481258 0.012381867505609989166259765625 -0.001676925690844655036926269531 -0.002955357311293483214137411963 0 0 0 0 
2405833333.3333334923 0.178746059536933898925781250000 0.012037548236548900604248046875 -0.001992182340472937063929892432 -0.002904328051954507827758789062 0 0 0 0 
2406000000.0000000000 0.179367333650588989257812500000 0.011543084867298599588414376171 -0.001890108105726540088653564453 -0.002686500782147049903869628906 0 0 0 0 
2406166666.6666665077 0.179698333144187899490518134371 0.011496878229081630706787109375 -0.002226412529125810103175497900 -0.002740891883149743080139160156 0 0 0 0 
2406333333.3333334923 0.180264964699745205978231865629 0.011090448126196859532366367773 -0.002153494162485003905055380713 -0.002408209489658474922180175781 0 0 0 0 
2406500000.0000000000 0.180559769272804288009481865629 0.010794338770210739480992501171 -0.002365353051573038101196289062 -0.002413348993286490006687783350 0 0 0 0 
2406666666.6666665077 0.180552944540977505782919365629 0.010617603547871109354039376171 -0.002292036078870296911952353369 -0.002156203379854559898376464844 0 0 0 0 
2406833333.3333334923 0.180822178721427889724893134371 0.010344789363443849736223789648 -0.002352192532271147207972861182 -0.001993278507143259048461914062 0 0 0 0 
2407000000.0000000000 0.180952236056327792068643134371 0.009894683957099914550781250000 -0.002567783463746308846714638818 -0.001900848816148936965345073169 0 0 0 0 
2407166666.6666665077 0.181076794862747192382812500000 0.009606441482901573181152343750 -0.002548641758039594130275107275 -0.001818201970309019088745117188 0 0 0 0 
2407333333.3333334923 0.180802270770072909256143134371 0.009279124438762664794921875000 -0.002578610787168145179748535156 -0.001842805999331176064134907300 0 0 0 0 
2407500000.0000000000 0.180571421980857904632244981258 0.008813320659101009368896484375 -0.002497543115168809890747070312 -0.001553023117594420909881591797 0 0 0 0 
2407666666.6666665077 0.180394440889358492752236884371 0.008477580733597278594970703125 -0.002718121744692326025721884619 -0.001567909610457717938664101709 0 0 0 0 
2407833333.3333334923 0.179866015911102294921875000000 0.007767763454467058181762695312 -0.002715621609240769906284951318 -0.001474880380555986924412392725 0 0 0 0 
2408000000.0000000000 0.179446354508399991134481865629 0.007158159743994474411010742188 -0.002672026632353663010838173975 -0.001065261429175734953639365088 0 0 0 0 
2408166666.6666665077 0.178950116038322504241619981258 0.006704450119286775588989257812 -0.002662469632923603057861328125 -0.001179560436867177920100546729 0 0 0 0 
2408333333.3333334923 0.178693994879722595214843750000 0.005872610956430435180664062500 -0.002865257672965527014491415869 -0.000809240445960313081741333008 0 0 0 0 
2408500000.0000000000 0.177920401096343994140625000000 0.005185443442314863204956054688 -0.002745739184319972991943359375 -0.000891069415956735610961914062 0 0 0 0 
2408666666.6666665077 0.177411422133445711990518134371 0.004163890611380338668823242188 -0.002636192133650184111354208838 -0.000697236217092722654342651367 0 0 0 0 
2408833333.3333334923 0.176708161830902099609375000000 0.003361038863658905029296875000 -0.002604825654998422102687216650 -0.000713273766450583934783935547 0 0 0 0 
2409000000.0000000000 0.175918951630592401702557481258 0.002166893798857926888706826318 -0.002650533569976686997654580225 -0.000509250210598111152648925781 0 0 0 0 
2409166666.6666665077 0.175275206565856905838174384371 0.001143237343057990074157714844 -0.002507915021851658821105957031 -0.000430999934906140024035853253 0 0 0 0 
2409333333.3333334923 0.174584761261940002441406250000 -0.000067908156779594719409942627 -0.002614606404677032990696572412 -0.000428818952059373313754481183 0 0 0 0 
2409500000.0000000000 0.173830419778823908050213731258 -0.001717564766295254013658833081 -0.002586274174973369078395224463 -0.000534418912138789892196655273 0 0 0 0 
2409666666.6666665077 0.172924131155014010330361884371 -0.003002133686095476150512695312 -0.002578823594376444816589355469 -0.000427391467383131384849548340 0 0 0 0 
2409833333.3333334923 0.172288984060287503341513115629 -0.004362703766673803329467773438 -0.002443474950268865065333701025 -0.000278144550975412076145726337 0 0 0 0 
2410000000.0000000000 0.171889662742614801604901231258 -0.005830043461173772811889648438 -0.002575410064309835000279091943 -0.000233937302255071699619293213 0 0 0 0 
2410166666.6666665077 0.171062245965003995040731865629 -0.007426188793033360567574785449 -0.002450669417157769203186035156 -0.000135692913318052887916564941 0 0 0 0 
2410333333.3333334923 0.170312002301216097732705634371 -0.009077793918550014495849609375 -0.002404615981504321098327636719 -0.000133538691443391090065556659 0 0 0 0 
2410500000.0000000000 0.169851228594779996017294365629 -0.010738731361925600224505039648 -0.002529354998841882185695029150 -0.000082331214798614382743835449 0 0 0 0 
2410666666.6666665077 0.169245988130569513518963731258 -0.012708215974271299189557460352 -0.002633360447362064881565713037 0.000188066071132198003217420035 0 0 0 0 
2410833333.3333334923 0.168811932206153897384481865629 -0.014337232336401939392089843750 -0.002526853932067751884460449219 0.000108708416519220904864449773 0 0 0 0 
2411000000.0000000000 0.168474942445755004882812500000 -0.016330478712916370737096016796 -0.002489640610292553901672363281 0.000298072409350425004959106445 0 0 0 0 
2411166666.6666665077 0.168068617582321194747763115629 -0.018330872058868411672571951954 -0.002525811316445469856262207031 0.000274668098427355289459228516 0 0 0 0 
2411333333.3333334923 0.167935401201248196700888115629 -0.020191032439470291137695312500 -0.002501322655007243156433105469 0.000261026987573131918907165527 0 0 0 0 
2411500000.0000000000 0.167651638388633700271768134371 -0.022270159795880321157435233204 -0.002507772063836454911472939600 0.000301565742120146805613917218 0 0 0 0 
2411666666.6666665077 0.167586207389831487457598768742 -0.024220736697316169738769531250 -0.002494639251381158828735351562 0.000370256282621994614601135254 0 0 0 0 
2411833333.3333334923 0.167775064706802395919638115629 -0.026004591956734660757044608204 -0.002585562178865075111389160156 0.000570267846342176198959350586 0 0 0 0 
2412000000.0000000000 0.167919427156448392013388115629 -0.028099993243813521648366560157 -0.002626471919938921928405761719 0.000505685398820787668228149414 0 0 0 0 
2412166666.6666665077 0.167680591344833401779013115629 -0.030256079509854320180872733204 -0.002462615258991717858555459131 0.000661798811051994562149047852 0 0 0 0 
2412333333.3333334923 0.168093949556350708007812500000 -0.031952932476997382427175153907 -0.002648212481290102005004882812 0.000672275957185775041580200195 0 0 0 0 
2412500000.0000000000 0.168409138917923001388388115629 -0.033922340720891952514648437500 -0.002461683237925171852111816406 0.000814787519630044698715209961 0 0 0 0 
2412666666.6666665077 0.168662920594215393066406250000 -0.035894002765417098999023437500 -0.002447524806484580039978027344 0.000882357941009104251861572266 0 0 0 0 
2412833333.3333334923 0.169145077466964693924111884371 -0.037655960768461227416992187500 -0.002438553143292665915248251807 0.001143533387221395969390869141 0 0 0 0 
2413000000.0000000000 0.169354572892188998123330634371 -0.039393875747919082641601562500 -0.002476215595379472212550497900 0.001059010275639594034907675635 0 0 0 0 
2413166666.6666665077 0.169946119189262390136718750000 -0.041251827031373977661132812500 -0.002445386722683906988856650244 0.001251498586498200893402099609 0 0 0 0 
2413333333.3333334923 0.170523568987846402267294365629 -0.043047502636909491802175153907 -0.002534357830882072015049599756 0.001332504558376967906951904297 0 0 0 0 
2413500000.0000000000 0.171166345477104187011718750000 -0.044474538415670401836354841407 -0.002345005050301551818847656250 0.001394666964188217899919819409 0 0 0 0 
2413666666.6666665077 0.171791985630989102462606865629 -0.046150431036949157714843750000 -0.002312734723091125921962118994 0.001478763413615524985669780200 0 0 0 0 
2413833333.3333334923 0.172250613570213290115518134371 -0.047486964613199227069895158593 -0.002205653814598917961120605469 0.001587894512340426011326455225 0 0 0 0 
2414000000.0000000000 0.172705039381980895996093750000 -0.048980399966239929199218750000 -0.002173564629629253907444619287 0.001715371385216712951660156250 0 0 0 0 
2414166666.6666665077 0.173411995172500610351562500000 -0.050248321145772927021067033593 -0.002039764542132616043090820312 0.001740582636557519002201699365 0 0 0 0 
2414333333.3333334923 0.174066081643104608733807481258 -0.051515478640794747089426408593 -0.001941324793733655972721718896 0.001952402642928064086316752856 0 0 0 0 
2414500000.0000000000 0.174777582287788391113281250000 -0.052673585712909698486328125000 -0.001982331741601229147670126807 0.001829825923778116919873881763 0 0 0 0 
2414666666.6666665077 0.175230979919433593750000000000 -0.053657982498407356952707658593 -0.001713898614980279965641640771 0.001975689548999071121215820312 0 0 0 0 
2414833333.3333334923 0.175697758793830899337606865629 -0.054683096706867218017578125000 -0.001566927414387464956996298682 0.002225290751084684891941689600 0 0 0 0 
2415000000.0000000000 0.176232889294624300857705634371 -0.055373474955558776855468750000 -0.001561273937113583087921142578 0.002094680210575460953953408350 0 0 0 0 
2415166666.6666665077 0.176737099885940607268963731258 -0.056248236447572708129882812500 -0.001438357285223901054979633862 0.002272146288305521011352539062 0 0 0 0 
2415333333.3333334923 0.177118808031082208831463731258 -0.056938391178846359252929687500 -0.001339102629572153091430664062 0.002114549046382308006286621094 0 0 0 0 
2415500000.0000000000 0.177452296018600491622763115629 -0.057596266269683837890625000000 -0.001495457487180829048156738281 0.002087969332933425903320312500 0 0 0 0 
2415666666.6666665077 0.177860081195831298828125000000 -0.058144200593233108520507812500 -0.001275313436053693077684711987 0.002152772620320320129394531250 0 0 0 0 
2415833333.3333334923 0.178050056099891690353231865629 -0.058517411351203918457031250000 -0.001213868614286184094072651440 0.002199542010203003883361816406 0 0 0 0 
2416000000.0000000000 0.178061991930007906814736884371 -0.059024408459663391113281250000 -0.001142829540185630104662251050 0.002377114491537212891819619287 0 0 0 0 
2416166666.6666665077 0.178330406546592712402343750000 -0.059322699904441826557199846093 -0.001024602912366390011431049878 0.002277495572343469099757529150 0 0 0 0 
2416333333.3333334923 0.178389117121696499923544365629 -0.059629753232002258300781250000 -0.001000721124000846905949257959 0.002296166494488716125488281250 0 0 0 0 
2416500000.0000000000 0.178249955177307101150674384371 -0.059927221387624740600585937500 -0.000945370178669691085815429688 0.002459159353747963905334472656 0 0 0 0 
2416666666.6666665077 0.177902057766914395431356865629 -0.060179721564054489135742187500 -0.000915413605980575084686279297 0.002336329547688364982604980469 0 0 0 0 
2416833333.3333334923 0.177886232733726501464843750000 -0.060496911406517028808593750000 -0.000660637451801449060440063477 0.002416092902421950860264443506 0 0 0 0 
2417000000.0000000000 0.177328959107398986816406250000 -0.060623485594987869262695312500 -0.000688783125951886177062988281 0.002328487113118172125575400244 0 0 0 0 
2417166666.6666665077 0.176838800311088589767294365629 -0.060795236378908157348632812500 -0.000610322400461882352828979492 0.002458503469824790954589843750 0 0 0 0 
2417333333.3333334923 0.176319658756256103515625000000 -0.060897812247276313091237653907 -0.000691561785060912370681762695 0.002336803358048201040980673682 0 0 0 0 
2417500000.0000000000 0.175665169954299899002236884371 -0.061347026377916342998464216407 -0.000512272003106772899627685547 0.002652239752933382987976074219 0 0 0 0 
2417666666.6666665077 0.175019606947898892501669365629 -0.061395991593599319458007812500 -0.000271296245045960003703516827 0.002542600966989994049072265625 0 0 0 0 
2417833333.3333334923 0.174195259809493990799111884371 -0.061633858829736709594726562500 -0.000228011704166419804096221924 0.002474788576364517211914062500 0 0 0 0 
2418000000.0000000000 0.173132881522178705413494981258 -0.062108114361763000488281250000 -0.000126469749375246492311200552 0.002453541150316596031188964844 0 0 0 0 
2418166666.6666665077 0.172312498092651394943075615629 -0.062241289764642722392995466407 -0.000320260965963825583457946777 0.002449668012559413909912109375 0 0 0 0 
2418333333.3333334923 0.171527996659278897384481865629 -0.062667265534400939941406250000 -0.000025403529434697699138914415 0.002408872358500957922694540869 0 0 0 0 
2418500000.0000000000 0.170213267207145690917968750000 -0.063153602182865142822265625000 0.000206697906833141987949925555 0.002436197595670818848850869287 0 0 0 0 
2418666666.6666665077 0.169273883104324313064736884371 -0.063572935760021209716796875000 0.000035102417314192280173301697 0.002378745470196009115931845557 0 0 0 0 
2418833333.3333334923 0.167883396148681612869424384371 -0.064019888639450073242187500000 0.000064747880969662219285964966 0.002422961406409740014317177881 0 0 0 0 
2419000000.0000000000 0.166716635227203396896200615629 -0.064677424728870391845703125000 0.000333974021486937999725341797 0.002513301791623235182521201025 0 0 0 0 
2419166666.6666665077 0.165547743439674405196981865629 -0.065386742353439331054687500000 0.000233425307669676813200274057 0.002388017950579524040222167969 0 0 0 0 
2419333333.3333334923 0.164099767804145812988281250000 -0.065964840352535247802734375000 0.000319841550663113594055175781 0.002291377400979400114772177588 0 0 0 0 
2419500000.0000000000 0.162979304790496798416299384371 -0.066908590495586395263671875000 0.000510913261678069829940795898 0.002468635793775320053100585938 0 0 0 0 
2419666666.6666665077 0.161849126219749506194744981258 -0.067858405411243438720703125000 0.000661575351841747760772705078 0.002334458986297249794006347656 0 0 0 0 
2419833333.3333334923 0.160561174154281588455361884371 -0.068763129413127899169921875000 0.000652533723041415214538574219 0.002278768690302968025207519531 0 0 0 0 
