# Hz S RI R 50
2400000000.0000000000 0.155729189515113802810830634371 0.110969617962837205360493442186 -0.003015685826539992852451943506 -0.001200031023472547964808798682 0 0 0 0 
2400166666.6666665077 0.155067160725593594650106865629 0.108698718249797793289346259371 -0.003209666814655065970179892432 -0.001026726909913123087642050635 0 0 0 0 
2400333333.3333334923 0.154899016022682189941406250000 0.106289528310298905799946567186 -0.003357724053785204887390136719 -0.000943853519856929779052734375 0 0 0 0 
2400500000.0000000000 0.154551416635513305664062500000 0.103570908308029202560263115629 -0.003276113420724869208094931494 -0.000821748806629329919815063477 0 0 0 0 
2400666666.6666665077 0.154394194483756991287393134371 0.101145863533020005653462192186 -0.003369998419657350020167685400 -0.000528513861354440450668334961 0 0 0 0 
2400833333.3333334923 0.153993278741836603362713731258 0.098367832601070404052734375000 -0.003489603986963630156276083838 -0.000513660896103829253851735803 0 0 0 0 
2401000000.0000000000 0.154029667377471896072549384371 0.095446333289146423339843750000 -0.003490133909508585929870605469 -0.000355143652996048277050572528 0 0 0 0 
2401166666.6666665077 0.153923019766807611663494981258 0.092634655535221099853515625000 -0.003354567801579833030700683594 -0.000188024176168255507946014404 0 0 0 0 
2401333333.3333334923 0.153838381171226501464843750000 0.089644223451614379882812500000 -0.003561905818060040907618857275 -0.000047473222366534166712353365 0 0 0 0 
2401500000.0000000000 0.154131010174751309493856865629 0.086671210825443267822265625000 -0.003539134515449405150172568213 0.000141305048600770505979815073 0 0 0 0 
2401666666.6666665077 0.154322654008865411956463731258 0.083539254963397979736328125000 -0.003363139694556593894958496094 0.000171840176335535889298039569 0 0 0 0 
2401833333.3333334923 0.154631346464157104492187500000 0.080637931823730468750000000000 -0.003386568278074264960048056494 0.000497891334816813468933105469 0 0 0 0 
2402000000.0000000000 0.155117571353912409026776231258 0.077661655843257904052734375000 -0.003354095155373216109034872900 0.000504510942846536636352539062 0 0 0 0 
2402166666.6666665077 0.155785545706748990157919365629 0.075038611888885498046875000000 -0.003171672113239765167236328125 0.000658755423501133918762207031 0 0 0 0 
2402333333.3333334923 0.156562179327011108398437500000 0.071960657835006713867187500000 -0.003109603188931941986083984375 0.000736027373932301998138427734 0 0 0 0 
2402500000.0000000000 0.157714873552322387695312500000 0.069165706634521484375000000000 -0.003058654256165028052089072119 0.000762220297474414110183715820 0 0 0 0 
2402666666.6666665077 0.158622428774833706954794365629 0.066588103771209716796875000000 -0.002963143633678555922267294775 0.000869763840455561876296997070 0 0 0 0 
2402833333.3333334923 0.159816339612007113357705634371 0.063885755836963653564453125000 -0.002801979426294565200805664062 0.000942151760682463645935058594 0 0 0 0 
2403000000.0000000000 0.161350235342979403396768134371 0.061256952583789832378347028907 -0.002696113660931586785557412256 0.000894317636266350746154785156 0 0 0 0 
2403166666.6666665077 0.162980198860168512542401231258 0.058847688138484961772878278907 -0.002562105888500810103175497900 0.001041346928104758045793842847 0 0 0 0 
2403333333.3333334923 0.164306581020355196853799384371 0.056639619171619422222097028907 -0.002440461656078695817234658350 0.000939271238166838884353637695 0 0 0 0 
2403500000.0000000000 0.166035994887351989746093750000 0.054024208337068557739257812500 -0.002343744505196810202357626807 0.000726755708456039428710937500 0 0 0 0 
2403666666.6666665077 0.167973220348358209808026231258 0.051885318011045462871511091407 -0.002437966642901300950291298975 0.000898538681212812662124633789 0 0 0 0 
2403833333.3333334923 0.169628947973251287262286268742 0.049850445240736007690429687500 -0.002484014257788658142089843750 0.000649192021228373050689697266 0 0 0 0 
2404000000.0000000000 0.171288460493087796310263115629 0.047692127525806427001953125000 -0.002414676360785961151123046875 0.000559051346499472856521606445 0 0 0 0 
2404166666.6666665077 0.173320487141609191894531250000 0.046060893684625632549245466407 -0.002664644038304686980006552588 0.000457090704003349000781458722 0 0 0 0 
2404333333.3333334923 0.175118446350097711761151231258 0.044222794473171227191965471093 -0.002698850817978382110595703125 0.000444547797087580019801539288 0 0 0 0 
2404500000.0000000000 0.176811784505844088455361884371 0.042666565626859671855886091407 -0.002853573998436332182643271338 0.000688363856170326471328735352 0 0 0 0 
2404666666.6666665077 0.178687170147895812988281250000 0.041407380253076553344726562500 -0.002749798819422721862792968750 0.000591309973970055580139160156 0 0 0 0 
2404833333.3333334923 0.180535346269607488434161268742 0.040263723582029342651367187500 -0.003012319561094046072718954932 0.000668776687234640121459960938 0 0 0 0 
2405000000.0000000000 0.182031273841857910156250000000 0.039569851011037826538085937500 -0.003222235245630145072937011719 0.000967625644989311695098876953 0 0 0 0 
2405166666.6666665077 0.183762207627296503265057481258 0.038619365543127059936523437500 -0.003261550795286893844604492188 0.001075866282917558930040669019 0 0 0 0 
2405333333.3333334923 0.185408115386962890625000000000 0.038145780563354492187500000000 -0.003299898467957973913905478369 0.001297769951634109020233154297 0 0 0 0 
2405500000.0000000000 0.186976045370101900955361884371 0.037593916058540337299387346093 -0.003422687295824288888218545068 0.001403497066348790905596088940 0 0 0 0 
2405666666.6666665077 0.188562944531440707107705634371 0.037209160625934600830078125000 -0.003220088779926300048828125000 0.001700846361927687904955219800 0 0 0 0 
2405833333.3333334923 0.190166100859642001053018134371 0.037035405635833740234375000000 -0.003126852679997683005092001807 0.001732907607220113060594868237 0 0 0 0 
2406000000.0000000000 0.191319480538368197342080634371 0.036975111812353127216379533593 -0.003081890055909752845764160156 0.001922095660120249011396098560 0 0 0 0 
2406166666.6666665077 0.192662969231605502029580634371 0.036683712154626853252370466407 -0.002937467768788338141200400244 0.002025610534474254088160849463 0 0 0 0 
2406333333.3333334923 0.193793192505836486816406250000 0.036957081407308578491210937500 -0.003133720019832253889796591650 0.002164509147405623955967568506 0 0 0 0 
2406500000.0000000000 0.194903880357742309570312500000 0.037044066935777657245676408593 -0.002997969742864369912388466943 0.002226891228929162025451660156 0 0 0 0 
2406666666.6666665077 0.195557117462158203125000000000 0.037220839411020278930664062500 -0.002972996793687344031092978369 0.002118131844326854185817099463 0 0 0 0 
2406833333.3333334923 0.196506410837173489669638115629 0.037555448710918433452565778907 -0.002843069145455956892726279150 0.002330227289348841147181845557 0 0 0 0 
2407000000.0000000000 0.196934998035430908203125000000 0.037878964096307761455495466407 -0.002813977655023335976841591943 0.002393855014815926985499716650 0 0 0 0 
2407166666.6666665077 0.197534963488578796386718750000 0.038124017417430877685546875000 -0.002781526418402791023254394531 0.002474995795637369155883789062 0 0 0 0 
2407333333.3333334923 0.197613835334777804275674384371 0.038637768477201461791992187500 -0.002931223483756185011622763525 0.002574363257735968069789267432 0 0 0 0 
2407500000.0000000000 0.197781309485435513595419365629 0.038926217705011367797851562500 -0.002641218947246671156642294775 0.002626650966703892187831259619 0 0 0 0 
2407666666.6666665077 0.197890967130661010742187500000 0.039101772010326392436940778907 -0.002785908523947000937220908057 0.002910533221438527107238769531 0 0 0 0 
2407833333.3333334923 0.197536870837211608886718750000 0.039355583488941192626953125000 -0.002794923260807991027832031250 0.003119930857792497114894247900 0 0 0 0 
2408000000.0000000000 0.197558090090751703460369981258 0.039582893252372741699218750000 -0.002762100659310818152186728369 0.003221743740141392187831259619 0 0 0 0 
2408166666.6666665077 0.197172924876213101486044365629 0.039562910795211791992187500000 -0.002746588317677379088160849463 0.003332036314532161192653036963 0 0 0 0 
2408333333.3333334923 0.196701332926750210861044365629 0.039469409734010703350026716407 -0.002711054636165500120875693213 0.003651762614026666121241904150 0 0 0 0 
2408500000.0000000000 0.196058124303817804534588731258 0.039477299898862838745117187500 -0.002688264707103372053859091650 0.003767170477658510208129882812 0 0 0 0 
2408666666.6666665077 0.195454776287078912933026231258 0.039269406348466873168945312500 -0.002479086397215723991394042969 0.004080595914274454116821289062 0 0 0 0 
2408833333.3333334923 0.194741562008857699295205634371 0.039060954004526138305664062500 -0.002464226447045803070068359375 0.004113446455448865890502929688 0 0 0 0 
2409000000.0000000000 0.193827286362648010253906250000 0.038355812430381781841237653907 -0.002142800251021980805637978662 0.004408852197229862213134765625 0 0 0 0 
2409166666.6666665077 0.192709162831306513030682481258 0.037787176668643951416015625000 -0.002049085684120655059814453125 0.004533388186246156692504882812 0 0 0 0 
2409333333.3333334923 0.191813245415687588790731865629 0.037078611552715301513671875000 -0.001845387159846723079681396484 0.004768156446516513824462890625 0 0 0 0 
2409500000.0000000000 0.190510615706443786621093750000 0.036110203713178641582448591407 -0.001524043269455432891845703125 0.004831513855606318387503339551 0 0 0 0 
2409666666.6666665077 0.189452946186065701583700615629 0.035044517368078231811523437500 -0.001320363022387027957318950122 0.005080492235720157623291015625 0 0 0 0 
2409833333.3333334923 0.188198596239089993575888115629 0.033725570887327187274973283593 -0.000984254875220358371734619141 0.005141487810760737332815839551 0 0 0 0 
2410000000.0000000000 0.187029168009757995605468750000 0.032315488904714577411692033593 -0.000896794081199914216995239258 0.005239888560026884078979492188 0 0 0 0 
2410166666.6666665077 0.185897082090377807617187500000 0.030669542029500011098841483204 -0.000710754829924553632736206055 0.005141260568052530288696289062 0 0 0 0 
2410333333.3333334923 0.184677913784980801681356865629 0.029009144753217700613001639454 -0.000469348015030845999717712402 0.005351820494979619979858398438 0 0 0 0 
2410500000.0000000000 0.183507025241851806640625000000 0.027346529066562649118443673046 -0.000107838197436649406522196637 0.005275043193250895413870527051 0 0 0 0 
2410666666.6666665077 0.182292297482490511795205634371 0.025197794660925868642786795704 0.000163649543537758290767669678 0.005309303756803274154663085938 0 0 0 0 
2410833333.3333334923 0.181401222944259588043536268742 0.023018535226583480834960937500 0.000382604339392855817645472394 0.005246018525213003158569335938 0 0 0 0 
2411000000.0000000000 0.180442869663238497635049384371 0.020902978256344798696497733204 0.000536513922270387411117553711 0.005275580100715160369873046875 0 0 0 0 
2411166666.6666665077 0.179463192820549011230468750000 0.018790664151310920715332031250 0.000851311138831079006195068359 0.005198027472943068418020917676 0 0 0 0 
2411333333.3333334923 0.178727701306343106368856865629 0.016135180369019508361816406250 0.000968698703218251466751098633 0.005262957885861396789550781250 0 0 0 0 
2411500000.0000000000 0.178243979811668395996093750000 0.013728085905313490086565586523 0.001224161940626800060272216797 0.005113896913826465606689453125 0 0 0 0 
2411666666.6666665077 0.177649378776550292968750000000 0.011362064629793170583704764454 0.001493768766522407965419150244 0.005032830405980348587036132812 0 0 0 0 
2411833333.3333334923 0.177067607641220092773437500000 0.008949974551796913146972656250 0.001667878939770162105560302734 0.005063085351139307022094726562 0 0 0 0 
2412000000.0000000000 0.177156627178192110916299384371 0.006169673521071671572213457324 0.001875200774520636038539267432 0.004711202345788478851318359375 0 0 0 0 
2412166666.6666665077 0.177178591489791897872763115629 0.003698147367686032815220498193 0.002057097619399427933933877100 0.004811914172023534774780273438 0 0 0 0 
2412333333.3333334923 0.177044585347175598144531250000 0.001085387077182530923130654443 0.002413429087027906937840127100 0.004922484047710896405691816113 0 0 0 0 
2412500000.0000000000 0.177521586418151910979901231258 -0.001635951455682516098022460938 0.002706243889406322999241494287 0.004771715961396694183349609375 0 0 0 0 
2412666666.6666665077 0.177731558680534390548544365629 -0.004386673681437969207763671875 0.002982510719448328018188476562 0.004611675627529621124267578125 0 0 0 0 
2412833333.3333334923 0.178388372063636807540731865629 -0.006818298250436782836914062500 0.003192097181454300880432128906 0.004551187157630920410156250000 0 0 0 0 
2413000000.0000000000 0.178965225815773010253906250000 -0.009473608806729316711425781250 0.003369728103280067010166787256 0.004326330032199621200561523438 0 0 0 0 
2413166666.6666665077 0.179676085710525512695312500000 -0.011822913773357869929303554102 0.003695821622386575178859091650 0.004095989745110273361206054688 0 0 0 0 
2413333333.3333334923 0.180686905980110196212606865629 -0.014379394240677360189417655079 0.003899667644873261885402060400 0.003706649877130984826328896631 0 0 0 0 
2413500000.0000000000 0.181655615568161010742187500000 -0.016980879008769989013671875000 0.004155425820499658584594726562 0.003615359310060739950892783057 0 0 0 0 
2413666666.6666665077 0.182892158627510098556356865629 -0.019448924809694290161132812500 0.004341917578130961331839277051 0.003271630499511957168579101562 0 0 0 0 
2413833333.3333334923 0.184070870280265808105468750000 -0.021700475364923480642298514454 0.004364918917417526245117187500 0.002921326318755745887756347656 0 0 0 0 
2414000000.0000000000 0.185087621212005587478799384371 -0.023788927122950550424596016796 0.004437404684722424420828534863 0.002387102926149963898899697412 0 0 0 0 
2414166666.6666665077 0.186664298176765386383380018742 -0.025936689227819439279576485546 0.004548005294054746627807617188 0.002125015715137124061584472656 0 0 0 0 
2414333333.3333334923 0.187864333391189602950888115629 -0.028100086376070979726771170704 0.004433344118297100067138671875 0.001770435716025531075121235425 0 0 0 0 
2414500000.0000000000 0.189285725355148287674111884371 -0.029857896268367770803431326954 0.004367809742689132690429687500 0.001516732037998735904693603516 0 0 0 0 
2414666666.6666665077 0.190691232681274386306924384371 -0.031545765697956092143972028907 0.004299501888453960418701171875 0.001181344850920140960096049731 0 0 0 0 
2414833333.3333334923 0.191981449723243713378906250000 -0.033074181526899337768554687500 0.004208159632980824384207441113 0.001072153216227889060974121094 0 0 0 0 
2415000000.0000000000 0.193268969655036898513955634371 -0.034450855106115341186523437500 0.004218460060656070709228515625 0.000966257357504218816757202148 0 0 0 0 
2415166666.6666665077 0.194786503911018399337606865629 -0.035757657140493392944335937500 0.004002243280410766601562500000 0.000673190981615334749221801758 0 0 0 0 
2415333333.3333334923 0.196335613727569607833700615629 -0.036984350532293319702148437500 0.003837698604911566214320517432 0.000604194006882607936859130859 0 0 0 0 
2415500000.0000000000 0.197684258222580011565838731258 -0.037881225347518920898437500000 0.003682889509946107864379882812 0.000355456344550475478172302246 0 0 0 0 
2415666666.6666665077 0.199057191610336303710937500000 -0.038797851651906967163085937500 0.003648727899417281150817871094 0.000250781507929786985546666278 0 0 0 0 
2415833333.3333334923 0.200131267309188787262286268742 -0.039568889886140823364257812500 0.003630731720477343039271689307 0.000074162722739856690168380737 0 0 0 0 
2416000000.0000000000 0.201216593384742709060830634371 -0.040258429944515228271484375000 0.003555021015927195982692099463 -0.000066171713115181773900985718 0 0 0 0 
2416166666.6666665077 0.202415466308593805511151231258 -0.040856052190065376972238908593 0.003361516399309039115905761719 -0.000098650118161458522081375122 0 0 0 0 
2416333333.3333334923 0.203262105584144592285156250000 -0.041154857724905007099192033593 0.003323810407891869978663779150 -0.000320888677379116415977478027 0 0 0 0 
2416500000.0000000000 0.204201549291610690017861884371 -0.041441634297370910644531250000 0.003077966859564185142517089844 -0.000335601856932043975025731219 0 0 0 0 
2416666666.6666665077 0.204638808965683011154013115629 -0.041822224855422966693918596093 0.003075644373893737792968750000 -0.000525311974342912435531616211 0 0 0 0 
2416833333.3333334923 0.205143690109252901931924384371 -0.041824240237474441528320312500 0.002797310706228017807006835938 -0.000395536888390779495239257812 0 0 0 0 
2417000000.0000000000 0.205583125352859497070312500000 -0.041898526251316070556640625000 0.002624986693263053894042968750 -0.000558696046937257051467895508 0 0 0 0 
2417166666.6666665077 0.205448046326637295821981865629 -0.041752576828002929687500000000 0.002423330908641219139099121094 -0.000503853196278214454650878906 0 0 0 0 
2417333333.3333334923 0.205596953630447387695312500000 -0.041523460298776626586914062500 0.002183580538257956938502646338 -0.000487073877593502402305603027 0 0 0 0 
2417500000.0000000000 0.205635190010070800781250000000 -0.041346590965986251831054687500 0.002246506744995712800266884912 -0.000264571513980627114146632062 0 0 0 0 
2417666666.6666665077 0.205314576625824002364950615629 -0.040971413254737847065012346093 0.002193644409999250931980752100 -0.000257728650467470288276672363 0 0 0 0 
2417833333.3333334923 0.205248191952705411056356865629 -0.040699198842048651958425153907 0.002059812424704432921168661963 -0.000179721653694286888271886005 0 0 0 0 
2418000000.0000000000 0.204687982797622708419638115629 -0.040222465991973876953125000000 0.002079945290461183027980185400 -0.000021345724235288798809051514 0 0 0 0 
2418166666.6666665077 0.203954264521598788162393134371 -0.040029902011156082153320312500 0.002118511591106653213500976562 -0.000143944896990433308199205942 0 0 0 0 
2418333333.3333334923 0.203317493200302096267861884371 -0.039601750671863562847097028907 0.002089756075292826132533408057 0.000047699217248009517788887024 0 0 0 0 
2418500000.0000000000 0.202364519238472012618856865629 -0.039491917937994003295898437500 0.002173304790630937056300497900 0.000141371041536331203862866812 0 0 0 0 
2418666666.6666665077 0.201610252261161804199218750000 -0.039263784885406487201731096093 0.002204880351200699806213378906 0.000144799749250523800223749982 0 0 0 0 
2418833333.3333334923 0.200375303626060513595419365629 -0.039204873144626617431640625000 0.002307593589648603959324502100 0.000245741306571289896965026855 0 0 0 0 
2419000000.0000000000 0.199158012866973904708700615629 -0.039295941591262817382812500000 0.002423041732981801033020019531 0.000398758624214679002761840820 0 0 0 0 
2419166666.6666665077 0.197780907154083307464276231258 -0.039323851466178887104074846093 0.002523794304579495949986123193 0.000300518993753939921229761945 0 0 0 0 
2419333333.3333334923 0.196478307247161892989950615629 -0.039693154394626617431640625000 0.002418451476842164993286132812 0.000368237146176397800445556641 0 0 0 0 
2419500000.0000000000 0.194915890693664606292401231258 -0.039861813187599182128906250000 0.002600269159302115006687783350 0.000403116689994931221008300781 0 0 0 0 
2419666666.6666665077 0.193199187517166109939736884371 -0.040474560111761093139648437500 0.002832363825291395187377929688 0.000271594064543023705482482910 0 0 0 0 
2419833333.3333334923 0.191479563713073702713174384371 -0.040993399918079383159597028907 0.002890126314014195962193154443 0.000307296402752399390369969501 0 0 0 0 
2420000000.0000000000 0.189736187458038302322549384371 -0.041894543915987021709401716407 0.003065611701458692984340048682 0.000115764938527718199931006160 0 0 0 0 
