# Hz S RI R 50
2400000000.0000000000 0.155334934592247009277343750000 0.108762361109256702751402201557 0.002662243088707327842712402344 0.003535730298608541922328329932 0 0 0 0 
2400166666.6666665077 0.154875680804252596756143134371 0.106520101428031893631143134371 0.003049327526241540908813476562 0.003480094019323586983921670068 0 0 0 0 
2400333333.3333334923 0.154692873358726501464843750000 0.104382537305355099777059990629 0.003007989842444657845738076318 0.003277494572103023962733603369 0 0 0 0 
2400500000.0000000000 0.154597759246826199630575615629 0.101732477545738206337055942186 0.003179031191393733024597167969 0.003163729561492801146266318213 0 0 0 0 
2400666666.6666665077 0.154711306095123291015625000000 0.099242679774761199951171875000 0.003138732630759478049037314307 0.003181444481015204949619912256 0 0 0 0 
2400833333.3333334923 0.154539585113525390625000000000 0.096260592341423034667968750000 0.003276259871199727058410644531 0.002951647853478788895847939600 0 0 0 0 
2401000000.0000000000 0.154625266790389986892861884371 0.093580052256584167480468750000 0.003278554882854222817661904443 0.002854611957445741133448935400 0 0 0 0 
2401166666.6666665077 0.154495254158973693847656250000 0.090534500777721405029296875000 0.003392864717170596122741699219 0.002768076956272124810459756006 0 0 0 0 
2401333333.3333334923 0.154711633920669611175213731258 0.088006787002086639404296875000 0.003382810624316335158107138525 0.002783427247777581214904785156 0 0 0 0 
2401500000.0000000000 0.155162096023559598068075615629 0.084801942110061645507812500000 0.003467467613518238067626953125 0.002656130352988839149475097656 0 0 0 0 
2401666666.6666665077 0.155483588576316805740518134371 0.082007601857185363769531250000 0.003406898584216833114624023438 0.002539566485211253166198730469 0 0 0 0 
2401833333.3333334923 0.155889049172401400467080634371 0.079245612025260925292968750000 0.003564740531146525902989052881 0.002580525819212197823765420068 0 0 0 0 
2402000000.0000000000 0.156787127256393404861611884371 0.076367385685443878173828125000 0.003740552347153425216674804688 0.002469094470143318176269531250 0 0 0 0 
2402166666.6666665077 0.157248884439468411544638115629 0.073713421821594238281250000000 0.003671794664114714102504111182 0.002463751239702105955836630713 0 0 0 0 
2402333333.3333334923 0.158433824777603204925213731258 0.071016259491443634033203125000 0.003929899074137210845947265625 0.002438962925225495858433388818 0 0 0 0 
2402500000.0000000000 0.159330427646636990646200615629 0.068388000130653381347656250000 0.004034518264234066009521484375 0.002442280063405632972717285156 0 0 0 0 
2402666666.6666665077 0.160581395030021695236044365629 0.065944209694862365722656250000 0.004159154370427131652832031250 0.002348452340811491012573242188 0 0 0 0 
2402833333.3333334923 0.161603197455406188964843750000 0.063435867428779602050781250000 0.004433181136846542358398437500 0.002241072244942187829258584131 0 0 0 0 
2403000000.0000000000 0.163136869668960599044638115629 0.060906663537025451660156250000 0.004599698819220066070556640625 0.001955050509423017935511923682 0 0 0 0 
2403166666.6666665077 0.164731726050376892089843750000 0.058632388710975646972656250000 0.004783007781952620419974042676 0.001743457047268748066545795972 0 0 0 0 
2403333333.3333334923 0.166278347373008700271768134371 0.056343518197536468505859375000 0.004935862496495246887207031250 0.001602418022230267958400107275 0 0 0 0 
2403500000.0000000000 0.168031558394432095626669365629 0.054092910140752792358398437500 0.005151600576937198638916015625 0.001224559615366161086438823169 0 0 0 0 
2403666666.6666665077 0.169867187738418606857138115629 0.052273087203502661968190778907 0.005130754783749580383300781250 0.001100173685699701092363667065 0 0 0 0 
2403833333.3333334923 0.171549081802368191818075615629 0.050154801458120353008229841407 0.005248682573437690734863281250 0.000796018459368497133255004883 0 0 0 0 
2404000000.0000000000 0.173204705119132995605468750000 0.048210330307483673095703125000 0.005072887986898422241210937500 0.000404672347940504605143946515 0 0 0 0 
2404166666.6666665077 0.174938336014747591873330634371 0.046676427125930793071706403907 0.005152571946382522583007812500 0.000249097443884238600730895996 0 0 0 0 
2404333333.3333334923 0.176695108413696289062500000000 0.044968839734792709350585937500 0.005242377519607543945312500000 -0.000153132132254540893152514047 0 0 0 0 
2404500000.0000000000 0.178368374705314608474893134371 0.043477017432451248168945312500 0.005215440876781941327566816113 -0.000431287771789357120364588605 0 0 0 0 
2404666666.6666665077 0.180119857192039489746093750000 0.042393583804368972778320312500 0.004908822476863861083984375000 -0.000571259122807532548904418945 0 0 0 0 
2404833333.3333334923 0.181921273469924899002236884371 0.041300669312477111816406250000 0.005093037616461515426635742188 -0.000804178474936634302139282227 0 0 0 0 
2405000000.0000000000 0.183232679963111905196981865629 0.040617164224386222148854841407 0.004785068333148956298828125000 -0.001106167677789926962611533057 0 0 0 0 
2405166666.6666665077 0.184759050607681302169638115629 0.039800480008125312114675153907 0.004945722874253988265991210938 -0.001294659567065536975860595703 0 0 0 0 
2405333333.3333334923 0.186276152729988098144531250000 0.039324749261140823364257812500 0.004767186008393765363211347363 -0.001328843180090188980102539062 0 0 0 0 
2405500000.0000000000 0.187880232930183410644531250000 0.038755554705858230590820312500 0.004669510293751955032348632812 -0.001596492365933954932569194263 0 0 0 0 
2405666666.6666665077 0.189170584082603510100994981258 0.038459464907646179199218750000 0.004486892838031054410452558301 -0.001676348736509680964826274341 0 0 0 0 
2405833333.3333334923 0.190539002418518094161825615629 0.038074210286140441894531250000 0.004492067266255617141723632812 -0.001871226355433464050292968750 0 0 0 0 
2406000000.0000000000 0.191710352897643987457598768742 0.038018885999917977069895158593 0.004307355266064404573922441699 -0.002076535951346158981323242188 0 0 0 0 
2406166666.6666665077 0.192619442939758300781250000000 0.037871722131967551494557966407 0.004268192686140537261962890625 -0.002171853324398397965672158350 0 0 0 0 
2406333333.3333334923 0.193671181797981289962606865629 0.037900730967521667480468750000 0.004211590625345706939697265625 -0.002394731156527996063232421875 0 0 0 0 
2406500000.0000000000 0.194622129201889010330361884371 0.038045521825551986694335937500 0.003986450377851724624633789062 -0.002441855147480965094325400244 0 0 0 0 
2406666666.6666665077 0.195352166891097994705361884371 0.038070518523454673076589216407 0.003939701244235038757324218750 -0.002616464160382748083827353369 0 0 0 0 
2406833333.3333334923 0.196031466126442011077557481258 0.038172673434019088745117187500 0.003813490970060228867771767725 -0.002718752250075339837315224756 0 0 0 0 
2407000000.0000000000 0.196474626660347012618856865629 0.038685493171215057373046875000 0.003584369318559765815734863281 -0.002893291879445313973667763818 0 0 0 0 
2407166666.6666665077 0.197009474039077786544638115629 0.038548130542039871215820312500 0.003678856883198022842407226562 -0.003021235344931482835056923975 0 0 0 0 
2407333333.3333334923 0.196941763162612887283486884371 0.038873568177223212505300153907 0.003435362828895450072047568213 -0.003066208446398376984837197412 0 0 0 0 
2407500000.0000000000 0.197082430124282809158486884371 0.039110250771045691753347028907 0.003180420491844416098353720557 -0.003229085355997086004969931494 0 0 0 0 
2407666666.6666665077 0.197075679898261996170205634371 0.039128489792346947406809221093 0.003053255379199982123133993994 -0.003383903298527001900913857568 0 0 0 0 
2407833333.3333334923 0.196722552180290194412393134371 0.039216347038745880126953125000 0.002989866537973285155055380713 -0.003465898567810655073878622900 0 0 0 0 
2408000000.0000000000 0.196858942508697509765625000000 0.039234578609466552734375000000 0.002823489252477883858921670068 -0.003418396692723035812377929688 0 0 0 0 
2408166666.6666665077 0.196189075708389309982138115629 0.039150234311819076538085937500 0.002669111825525761084315634619 -0.003650864586234093146083212744 0 0 0 0 
2408333333.3333334923 0.195936352014541598220986884371 0.038874335587024688720703125000 0.002501230686902999877929687500 -0.003728839335963129997253417969 0 0 0 0 
2408500000.0000000000 0.195345059037208612640057481258 0.038667801767587661743164062500 0.002209037076681851907017373193 -0.003647188656032084985020302881 0 0 0 0 
2408666666.6666665077 0.194695413112640408614950615629 0.038180261850357062602956403907 0.002075420925393701033351279150 -0.003804873442277311845066689600 0 0 0 0 
2408833333.3333334923 0.194033429026603698730468750000 0.037647828459739691997487653907 0.002069412032142281965968466650 -0.003704169066622852845432900537 0 0 0 0 
2409000000.0000000000 0.193047702312469510177450615629 0.036916844546794891357421875000 0.001820538658648729107500385815 -0.003651986364275217056274414062 0 0 0 0 
2409166666.6666665077 0.192126229405403109451455634371 0.036028318107128143310546875000 0.001725126290693878910662006909 -0.003667397424578667120692587744 0 0 0 0 
2409333333.3333334923 0.191200107336044311523437500000 0.035115920007228851318359375000 0.001534064766019582965253520435 -0.003697580657899380163905478369 0 0 0 0 
2409500000.0000000000 0.190237805247306795974893134371 0.033926263451576232910156250000 0.001572423032484949068782187354 -0.003715323982760310173034667969 0 0 0 0 
2409666666.6666665077 0.188949823379516601562500000000 0.032824382185935967182199846093 0.001485613291151822046992636572 -0.003529337234795093970057822119 0 0 0 0 
2409833333.3333334923 0.187872707843780489822549384371 0.031351845711469650268554687500 0.001248976914212108092067099463 -0.003711080178618431091308593750 0 0 0 0 
2410000000.0000000000 0.186893835663795498946981865629 0.029969604685902598989466483204 0.001148490235209465026855468750 -0.003650502534583210945129394531 0 0 0 0 
2410166666.6666665077 0.185877531766891507247763115629 0.028211269527673721313476562500 0.001069382182322442965266562354 -0.003608254715800284905674599756 0 0 0 0 
2410333333.3333334923 0.184705704450607299804687500000 0.026525788009166720998743826954 0.000721793505363166332244873047 -0.003947959281504154205322265625 0 0 0 0 
2410500000.0000000000 0.183609694242477389236611884371 0.024504166096448898315429687500 0.000520551635418087244033813477 -0.003740158630535006956813193213 0 0 0 0 
2410666666.6666665077 0.182886660099029513260049384371 0.022479712963104251516321951954 0.000812858517747372388839721680 -0.003660351736471056938171386719 0 0 0 0 
2410833333.3333334923 0.181980445981025695800781250000 0.020181640982627868652343750000 0.000300743558909744024276733398 -0.003770590526983141899108886719 0 0 0 0 
2411000000.0000000000 0.181273594498634310623330634371 0.017894675955176349985142891796 0.000389248976716771721839904785 -0.003772006137296556992771767725 0 0 0 0 
2411166666.6666665077 0.180522173643112210372763115629 0.015837691724300391460378278907 0.000080521087511442601680755615 -0.003642720868811010880711220850 0 0 0 0 
2411333333.3333334923 0.179972007870674105545205634371 0.013295851647853849583635899023 -0.000084765706560574471950531006 -0.003478349186480044884922646631 0 0 0 0 
2411500000.0000000000 0.179322943091392489334268134371 0.011062704958021640777587890625 -0.000112265704956371296517787794 -0.003610910847783089117762900244 0 0 0 0 
2411666666.6666665077 0.178981080651283291915731865629 0.008704226464033126831054687500 -0.000283678120467811822891235352 -0.003360402770340443091151572119 0 0 0 0 
2411833333.3333334923 0.178725406527519198318643134371 0.006209034007042646408081054688 -0.000367167376680299585491734637 -0.003253868082538247108459472656 0 0 0 0 
2412000000.0000000000 0.178700298070907592773437500000 0.003654832718893886046168661963 -0.000329589005559682900279444562 -0.003205338027328252792358398438 0 0 0 0 
2412166666.6666665077 0.178849652409553500076455634371 0.001168321003206074020983051831 -0.000494083622470498085021972656 -0.003057194408029317855834960938 0 0 0 0 
2412333333.3333334923 0.178871408104896600921307481258 -0.001290057087317109107971191406 -0.000485584401758387684822082520 -0.002912057098001242117640829932 0 0 0 0 
2412500000.0000000000 0.179206147789955111404580634371 -0.003908274695277214050292968750 -0.000606994784902781248092651367 -0.002897759201005101203918457031 0 0 0 0 
2412666666.6666665077 0.179586797952652005294638115629 -0.006537064444273710250854492188 -0.000604358909185975790023803711 -0.002897132653743029074427939307 0 0 0 0 
2412833333.3333334923 0.180279150605201693435830634371 -0.008997962810099124908447265625 -0.000617323967162519693374633789 -0.002746867947280406951904296875 0 0 0 0 
2413000000.0000000000 0.180945843458175686935263115629 -0.011365553364157680166224295704 -0.000490158796310424804687500000 -0.002575782127678393883946084131 0 0 0 0 
2413166666.6666665077 0.181847959756851196289062500000 -0.013727408833801749837855155079 -0.000509847537614405155181884766 -0.002581572625786066055297851562 0 0 0 0 
2413333333.3333334923 0.182788074016570989410723768742 -0.016185237094759941101074218750 -0.000448729842901229912608546124 -0.002715315902605652809143066406 0 0 0 0 
2413500000.0000000000 0.183630079030990600585937500000 -0.018694812431931499135950858204 -0.000467094767373055219650268555 -0.002705069724470376968383789062 0 0 0 0 
2413666666.6666665077 0.184853643178939791580361884371 -0.020742662250995639455775076954 -0.000432191154686734080314636230 -0.002693587681278585953953408350 0 0 0 0 
2413833333.3333334923 0.186069160699844388107138115629 -0.022964170202612880361536795704 -0.000543974980246275663375854492 -0.002781539689749478860142373193 0 0 0 0 
2414000000.0000000000 0.187041908502578707595986884371 -0.025174705311656001699427420704 -0.000575087498873472213745117188 -0.002794674597680569128749228369 0 0 0 0 
2414166666.6666665077 0.188272655010223388671875000000 -0.027016077190637588500976562500 -0.000637400895357131958007812500 -0.002747679594904183907749795068 0 0 0 0 
2414333333.3333334923 0.189545974135398892501669365629 -0.028950063511729240417480468750 -0.000889860966708511114120483398 -0.002781292656436562971827841650 0 0 0 0 
2414500000.0000000000 0.190716758370399502853231865629 -0.030568864196538928640345389454 -0.000797344313468784093856811523 -0.002881612395867704911472939600 0 0 0 0 
2414666666.6666665077 0.191864117980003412444744981258 -0.032195594161748893047292341407 -0.001032308326102792999864887769 -0.002732443623244761986973427881 0 0 0 0 
2414833333.3333334923 0.193131998181343106368856865629 -0.033637553453445441509206403907 -0.001198794227093457958818745190 -0.002616233658045529885532998193 0 0 0 0 
2415000000.0000000000 0.194362595677375793457031250000 -0.035040371119976036762277971093 -0.001243628445081413009046245044 -0.002646198961883782906773232568 0 0 0 0 
2415166666.6666665077 0.195732548832893399337606865629 -0.036211863160133361816406250000 -0.001368751050904392979265522534 -0.002534681232646108107325888525 0 0 0 0 
2415333333.3333334923 0.196997150778770502288494981258 -0.037184286862611770629882812500 -0.001334304339252412102342915112 -0.002593690762296319007873535156 0 0 0 0 
2415500000.0000000000 0.198126330971717806717080634371 -0.038036327809095382690429687500 -0.001515559270046650929691933740 -0.002594111952930688858032226562 0 0 0 0 
2415666666.6666665077 0.199223712086677606780682481258 -0.038923412561416632915456403907 -0.001367919147014617919921875000 -0.002499528694897890090942382812 0 0 0 0 
2415833333.3333334923 0.200240001082420404632244981258 -0.039593834429979317401926408593 -0.001486531808041035912157368237 -0.002447061240673065185546875000 0 0 0 0 
2416000000.0000000000 0.201170235872268704513388115629 -0.040012083947658538818359375000 -0.001379355089738965034484863281 -0.002222624607384204864501953125 0 0 0 0 
2416166666.6666665077 0.202016636729240389724893134371 -0.040718317031860351562500000000 -0.001362986629828810908673930591 -0.002280352637171744866612099756 0 0 0 0 
2416333333.3333334923 0.202718496322631808181924384371 -0.040928989648818969726562500000 -0.001492677838541566891911172021 -0.002288867719471455054042197119 0 0 0 0 
2416500000.0000000000 0.203419819474220303634481865629 -0.041217539459466927265207658593 -0.001389472046867012977600097656 -0.002144404221326113180873251807 0 0 0 0 
2416666666.6666665077 0.203735843300819396972656250000 -0.041542571038007743144948591407 -0.001383061287924646897556923975 -0.002142441459000111059901572119 0 0 0 0 
2416833333.3333334923 0.204113215208053588867187500000 -0.041574135422706597065012346093 -0.001427146024070679924608540112 -0.002242148621007800102233886719 0 0 0 0 
2417000000.0000000000 0.204299151897430392166299384371 -0.041719250380992889404296875000 -0.001371649093925952911376953125 -0.002153351670131086869480752100 0 0 0 0 
2417166666.6666665077 0.204175680875778198242187500000 -0.041497956961393363262136091407 -0.001380261499434709982631064307 -0.002384132239967585043666220557 0 0 0 0 
2417333333.3333334923 0.204090982675552395919638115629 -0.041307963430881500244140625000 -0.001417786697857082106946635669 -0.002469665138050913810729980469 0 0 0 0 
2417500000.0000000000 0.203935846686363192459268134371 -0.041278906166553497314453125000 -0.001565517275594175078748393481 -0.002552916994318366050720214844 0 0 0 0 
2417666666.6666665077 0.203551977872848510742187500000 -0.041015475988388061523437500000 -0.001673021237365901903865195166 -0.002635393291711806817295693506 0 0 0 0 
2417833333.3333334923 0.203108638525009210784588731258 -0.040759716182947158813476562500 -0.001947713317349553108215332031 -0.002697935793548821969273232568 0 0 0 0 
2418000000.0000000000 0.202489107847213800628338731258 -0.040476050227880477905273437500 -0.002132115885615348815917968750 -0.002748307073488831953761435400 0 0 0 0 
2418166666.6666665077 0.201809853315353393554687500000 -0.040198177099227912212331403907 -0.002296409336850047111511230469 -0.002673219423741101784947060693 0 0 0 0 
2418333333.3333334923 0.201110213994979886154013115629 -0.040085863322019577026367187500 -0.002524732844904065132141113281 -0.002602602588012814955470419775 0 0 0 0 
2418500000.0000000000 0.200058937072753906250000000000 -0.040037643164396292949636091407 -0.002725736238062382178065634619 -0.002658034907653927803039550781 0 0 0 0 
2418666666.6666665077 0.199127927422523498535156250000 -0.039794970303773880004882812500 -0.002879118779674171967747353662 -0.002581428037956357002258300781 0 0 0 0 
2418833333.3333334923 0.197977229952812194824218750000 -0.039874065667390823364257812500 -0.003168354742228984832763671875 -0.002401219913735986189601279150 0 0 0 0 
2419000000.0000000000 0.196572005748748807052450615629 -0.040023688226938247680664062500 -0.003268733853474258942845009912 -0.002351072384044528007507324219 0 0 0 0 
2419166666.6666665077 0.195343032479286193847656250000 -0.040291097015142440795898437500 -0.003258795710280538038966513525 -0.002052304334938526153564453125 0 0 0 0 
2419333333.3333334923 0.193913385272026089767294365629 -0.040631301701068878173828125000 -0.003534750547260046005249023438 -0.001955562038347125053405761719 0 0 0 0 
2419500000.0000000000 0.192439615726471002776776231258 -0.040968898683786392211914062500 -0.003496131626889110045192099463 -0.001746308291330934004542685400 0 0 0 0 
2419666666.6666665077 0.190882936120033291915731865629 -0.041817076504230499267578125000 -0.003603055374696851210353232275 -0.001594698289409280040143657153 0 0 0 0 
2419833333.3333334923 0.189288124442100497146768134371 -0.042328525334596626972238908593 -0.003640489187091588973999023438 -0.001475835917517543055890727466 0 0 0 0 
