# Version 1.00
#
freq[Hz];re:Trc1_S11;im:Trc1_S11;re:Trc2_S21;im:Trc2_S21;
2.400000000000000E+009;1.605841070413590E-001;5.708963423967362E-002;3.899927483871579E-003;2.443315926939249E-003;
2.400166666666667E+009;1.608381420373917E-001;5.538715422153473E-002;3.930242266505957E-003;2.481327857822180E-003;
2.400333333333334E+009;1.607240140438080E-001;5.367167294025421E-002;4.134258255362511E-003;2.396806608885527E-003;
2.400500000000000E+009;1.607826054096222E-001;5.185767635703087E-002;4.310870543122292E-003;2.386726438999176E-003;
2.400666666666667E+009;1.609961539506912E-001;5.014409869909287E-002;4.293936304748058E-003;2.156917704269290E-003;
2.400833333333334E+009;1.612698435783386E-001;4.832992330193520E-002;4.466094542294741E-003;2.118560252711177E-003;
2.401000000000000E+009;1.613583415746689E-001;4.622313007712364E-002;4.610736388713121E-003;2.066329587250948E-003;
2.401166666666667E+009;1.617281883955002E-001;4.424434155225754E-002;4.687477834522724E-003;1.974917016923428E-003;
2.401333333333334E+009;1.617677062749863E-001;4.244774952530861E-002;4.718492738902569E-003;1.778847770765424E-003;
2.401500000000000E+009;1.624690592288971E-001;4.067060723900795E-002;4.803509917110205E-003;1.817601383663714E-003;
2.401666666666667E+009;1.627563685178757E-001;3.887424618005753E-002;5.019836593419313E-003;1.683181966654956E-003;
2.401833333333334E+009;1.631820648908615E-001;3.696599975228310E-002;5.082701332867146E-003;1.526798820123076E-003;
2.402000000000000E+009;1.635529696941376E-001;3.527265787124634E-002;5.288320593535900E-003;1.361912116408348E-003;
2.402166666666667E+009;1.639365106821060E-001;3.347827121615410E-002;5.185657646507025E-003;1.140498672612011E-003;
2.402333333333334E+009;1.643791496753693E-001;3.172170743346214E-002;5.285473540425301E-003;9.932011598721147E-004;
2.402500000000000E+009;1.651910543441773E-001;3.010725975036621E-002;5.477762315422297E-003;8.028468582779169E-004;
2.402666666666667E+009;1.657476276159287E-001;2.854285202920437E-002;5.612430162727833E-003;6.741997203789651E-004;
2.402833333333334E+009;1.664320081472397E-001;2.688136696815491E-002;5.530054215341806E-003;3.688748693093658E-004;
2.403000000000000E+009;1.668675988912582E-001;2.551249414682388E-002;5.608463659882546E-003;3.122873386018910E-005;
2.403166666666667E+009;1.677790135145187E-001;2.415127679705620E-002;5.474477540701628E-003;-6.207539991009980E-005;
2.403333333333334E+009;1.684345155954361E-001;2.281326614320278E-002;5.526763387024403E-003;-4.446910461410880E-004;
2.403500000000000E+009;1.691987067461014E-001;2.154958248138428E-002;5.538756959140301E-003;-4.698898992501199E-004;
2.403666666666667E+009;1.698939651250839E-001;2.026743814349175E-002;5.521658807992935E-003;-7.592976326122880E-004;
2.403833333333334E+009;1.707319766283035E-001;1.918472535908222E-002;5.602126941084862E-003;-8.621325832791627E-004;
2.404000000000000E+009;1.715008467435837E-001;1.806648448109627E-002;5.387933924794197E-003;-1.023918390274048E-003;
2.404166666666667E+009;1.721705049276352E-001;1.705057360231876E-002;5.418135784566402E-003;-1.261530560441315E-003;
2.404333333333334E+009;1.729119718074799E-001;1.605787500739098E-002;5.224404856562614E-003;-1.595846260897815E-003;
2.404500000000000E+009;1.733880192041397E-001;1.531551033258438E-002;5.224667023867369E-003;-1.938719418831170E-003;
2.404666666666667E+009;1.742855012416840E-001;1.442347001284361E-002;5.138810258358717E-003;-2.062842948362231E-003;
2.404833333333334E+009;1.748306900262833E-001;1.363065186887980E-002;4.875908605754376E-003;-2.051514340564609E-003;
2.405000000000000E+009;1.755520403385162E-001;1.297027803957462E-002;4.733684938400984E-003;-2.313067670911551E-003;
2.405166666666667E+009;1.758781671524048E-001;1.248437725007534E-002;4.727415740489960E-003;-2.316320547834039E-003;
2.405333333333334E+009;1.765434145927429E-001;1.165529992431402E-002;4.427996464073658E-003;-2.425358863547444E-003;
2.405500000000000E+009;1.768318265676498E-001;1.128136646002531E-002;4.407878965139389E-003;-2.567827003076673E-003;
2.405666666666667E+009;1.773577332496643E-001;1.083320658653975E-002;4.288294818252325E-003;-2.691440517082810E-003;
2.405833333333334E+009;1.775852590799332E-001;1.045274268835783E-002;4.203558433800936E-003;-2.662091981619597E-003;
2.406000000000000E+009;1.779814362525940E-001;9.913852438330650E-003;3.967168740928173E-003;-2.686809049919248E-003;
2.406166666666667E+009;1.781442165374756E-001;9.699570946395397E-003;3.945822827517986E-003;-2.861212473362684E-003;
2.406333333333334E+009;1.783905923366547E-001;9.143019095063210E-003;3.766596084460616E-003;-2.880241489037871E-003;
2.406500000000000E+009;1.784094870090485E-001;8.855914697051048E-003;3.561223624274135E-003;-3.024827688932419E-003;
2.406666666666667E+009;1.783713102340698E-001;8.466918952763081E-003;3.604728728532791E-003;-3.048241371288896E-003;
2.406833333333334E+009;1.784052401781082E-001;7.962838746607304E-003;3.435441991314292E-003;-3.159932093694806E-003;
2.407000000000000E+009;1.783873140811920E-001;7.503252010792494E-003;3.423448186367750E-003;-3.218322526663542E-003;
2.407166666666667E+009;1.784466803073883E-001;7.109800353646278E-003;3.264400642365217E-003;-3.220201237127185E-003;
2.407333333333334E+009;1.781481206417084E-001;6.444130092859268E-003;3.098371205851436E-003;-3.306353464722633E-003;
2.407500000000000E+009;1.778586655855179E-001;6.096168421208859E-003;2.952982205897570E-003;-3.411427140235901E-003;
2.407666666666667E+009;1.776358038187027E-001;5.539313424378634E-003;2.958561060950160E-003;-3.378210123628378E-003;
2.407833333333334E+009;1.771073788404465E-001;4.666373133659363E-003;2.922415733337402E-003;-3.418595762923360E-003;
2.408000000000000E+009;1.768223494291306E-001;3.964184317737818E-003;2.792993793264031E-003;-3.381747053936124E-003;
2.408166666666667E+009;1.763353347778320E-001;3.370441496372223E-003;2.635351847857237E-003;-3.507031127810478E-003;
2.408333333333334E+009;1.760911643505096E-001;2.407722640782595E-003;2.664301777258515E-003;-3.447253722697496E-003;
2.408500000000000E+009;1.753014624118805E-001;1.484386273659766E-003;2.627840265631676E-003;-3.498926991596818E-003;
2.408666666666667E+009;1.748711615800858E-001;4.144831036683172E-004;2.459472743794322E-003;-3.605512203648686E-003;
2.408833333333334E+009;1.741262972354889E-001;-6.724422564730048E-004;2.463971031829715E-003;-3.520354162901640E-003;
2.409000000000000E+009;1.735955327749252E-001;-1.666767755523324E-003;2.326241694390774E-003;-3.644271055236459E-003;
2.409166666666667E+009;1.732481122016907E-001;-2.989763393998146E-003;2.373050898313522E-003;-3.596127498894930E-003;
2.409333333333334E+009;1.726261973381043E-001;-4.401757847517729E-003;2.225895412266254E-003;-3.563525155186653E-003;
2.409500000000000E+009;1.719338297843933E-001;-5.844177212566137E-003;2.225841395556927E-003;-3.639887319877744E-003;
2.409666666666667E+009;1.713264286518097E-001;-7.063499186187983E-003;2.129809465259314E-003;-3.515111980959773E-003;
2.409833333333334E+009;1.707239598035812E-001;-8.548345416784287E-003;2.092996845021844E-003;-3.794528776779771E-003;
2.410000000000000E+009;1.703171879053116E-001;-1.006613951176405E-002;2.100885380059481E-003;-3.619947005063295E-003;
2.410166666666667E+009;1.698195040225983E-001;-1.190946530550718E-002;1.968645723536611E-003;-3.709778422489762E-003;
2.410333333333334E+009;1.694048196077347E-001;-1.344870962202549E-002;2.015904523432255E-003;-3.706742310896516E-003;
2.410500000000000E+009;1.691033393144608E-001;-1.530032791197300E-002;1.927406643517315E-003;-3.803959349170327E-003;
2.410666666666667E+009;1.686383932828903E-001;-1.701007597148418E-002;1.917794346809387E-003;-3.792794188484550E-003;
2.410833333333334E+009;1.685395091772080E-001;-1.876816898584366E-002;2.019746927544475E-003;-4.013989586383104E-003;
2.411000000000000E+009;1.682148873806000E-001;-2.052679285407066E-002;1.903286320157349E-003;-4.036462865769863E-003;
2.411166666666667E+009;1.678088158369064E-001;-2.243146672844887E-002;1.827156636863947E-003;-4.032053519040346E-003;
2.411333333333334E+009;1.676821410655975E-001;-2.415211685001850E-002;1.768863294273615E-003;-4.050083924084902E-003;
2.411500000000000E+009;1.677015870809555E-001;-2.633379213511944E-002;1.752854790538549E-003;-4.294191952794790E-003;
2.411666666666667E+009;1.677487939596176E-001;-2.812715806066990E-002;1.771217095665634E-003;-4.329158458858728E-003;
2.411833333333334E+009;1.678286045789719E-001;-3.011336736381054E-002;1.610541017726064E-003;-4.440344404429197E-003;
2.412000000000000E+009;1.679271161556244E-001;-3.193359076976776E-002;1.463461900129914E-003;-4.629584960639477E-003;
2.412166666666667E+009;1.679592877626419E-001;-3.368472307920456E-002;1.503644743934274E-003;-4.785216413438320E-003;
2.412333333333334E+009;1.685416251420975E-001;-3.552539646625519E-002;1.345741329714656E-003;-4.804493393748999E-003;
2.412500000000000E+009;1.686478853225708E-001;-3.711471334099770E-002;1.267606741748750E-003;-5.082843359559774E-003;
2.412666666666667E+009;1.690194755792618E-001;-3.924526646733284E-002;1.217357465066016E-003;-5.104572512209415E-003;
2.412833333333334E+009;1.693993657827377E-001;-4.097319394350052E-002;1.068811514414847E-003;-5.208463408052921E-003;
2.413000000000000E+009;1.698721945285797E-001;-4.256260022521019E-002;7.350085070356727E-004;-5.276747979223728E-003;
2.413166666666667E+009;1.703006476163864E-001;-4.413508623838425E-002;4.651187337003648E-004;-5.462490953505039E-003;
2.413333333333334E+009;1.707427948713303E-001;-4.564092308282852E-002;2.843841211870313E-004;-5.303253419697285E-003;
2.413500000000000E+009;1.712993830442429E-001;-4.720266535878182E-002;1.191587653011084E-004;-5.460936576128006E-003;
2.413666666666667E+009;1.718020886182785E-001;-4.865768179297447E-002;-6.617014878429472E-005;-5.642375908792019E-003;
2.413833333333334E+009;1.720808446407318E-001;-5.009293556213379E-002;-3.305704449303448E-004;-5.559543613344431E-003;
2.414000000000000E+009;1.725966334342957E-001;-5.129186809062958E-002;-4.825128999073058E-004;-5.656983237713575E-003;
2.414166666666667E+009;1.733081191778183E-001;-5.241543054580689E-002;-5.925776204094291E-004;-5.482669919729233E-003;
2.414333333333334E+009;1.737310141324997E-001;-5.365268886089325E-002;-8.364920504391193E-004;-5.694089923053980E-003;
2.414500000000000E+009;1.744973957538605E-001;-5.454662069678307E-002;-1.070800935849547E-003;-5.529612768441439E-003;
2.414666666666667E+009;1.746652126312256E-001;-5.557605996727943E-002;-1.228290610015392E-003;-5.622507072985172E-003;
2.414833333333334E+009;1.752405017614365E-001;-5.649089813232422E-002;-1.517590833827853E-003;-5.507666151970625E-003;
2.415000000000000E+009;1.755514889955521E-001;-5.724455416202545E-002;-1.807279419153929E-003;-5.571714602410793E-003;
2.415166666666667E+009;1.759235858917236E-001;-5.794307962059975E-002;-1.820349134504795E-003;-5.433110985904932E-003;
2.415333333333334E+009;1.761594414710999E-001;-5.857799574732781E-002;-2.145702717825770E-003;-5.400955677032471E-003;
2.415500000000000E+009;1.765640079975128E-001;-5.909170210361481E-002;-2.284145914018154E-003;-5.328892730176449E-003;
2.415666666666667E+009;1.766619384288788E-001;-5.961478874087334E-002;-2.553723985329270E-003;-5.247566383332014E-003;
2.415833333333334E+009;1.768042892217636E-001;-6.002486869692802E-002;-2.612919313833118E-003;-5.265612155199051E-003;
2.416000000000000E+009;1.766771823167801E-001;-6.046905741095543E-002;-2.822700422257185E-003;-5.117450375109911E-003;
2.416166666666667E+009;1.768776327371597E-001;-6.070891022682190E-002;-2.887613838538528E-003;-4.954255651682615E-003;
2.416333333333334E+009;1.766767054796219E-001;-6.100970134139061E-002;-3.201725427061319E-003;-4.957793746143580E-003;
2.416500000000000E+009;1.765428334474564E-001;-6.131816655397415E-002;-3.497326513752341E-003;-4.763323813676834E-003;
2.416666666666667E+009;1.761200129985809E-001;-6.149899959564209E-002;-3.369950223714113E-003;-4.586462397128344E-003;
2.416833333333334E+009;1.759380996227264E-001;-6.187251210212708E-002;-3.729081014171243E-003;-4.584887530654669E-003;
2.417000000000000E+009;1.752347648143768E-001;-6.208437681198120E-002;-3.925300203263760E-003;-4.462917800992727E-003;
2.417166666666667E+009;1.748224049806595E-001;-6.214721128344536E-002;-3.915532026439905E-003;-4.353158175945282E-003;
2.417333333333334E+009;1.743074804544449E-001;-6.229962408542633E-002;-4.142744466662407E-003;-4.195841029286385E-003;
2.417500000000000E+009;1.734714806079865E-001;-6.272068619728088E-002;-4.198882263153791E-003;-4.084002692252398E-003;
2.417666666666667E+009;1.729011237621307E-001;-6.282854825258255E-002;-4.290723241865635E-003;-3.761890111491084E-003;
2.417833333333334E+009;1.719951033592224E-001;-6.308007240295410E-002;-4.383890423923731E-003;-3.690075129270554E-003;
2.418000000000000E+009;1.709017455577850E-001;-6.348954141139984E-002;-4.561653360724449E-003;-3.611838212236762E-003;
2.418166666666667E+009;1.700908094644547E-001;-6.368064880371094E-002;-4.651769530028105E-003;-3.507345914840698E-003;
2.418333333333334E+009;1.692306846380234E-001;-6.413365900516510E-002;-4.751234780997038E-003;-3.341719741001725E-003;
2.418500000000000E+009;1.680379211902618E-001;-6.456579267978668E-002;-4.775810986757278E-003;-3.100551664829254E-003;
2.418666666666667E+009;1.670200526714325E-001;-6.506087630987167E-002;-4.799750167876482E-003;-2.988923806697130E-003;
2.418833333333334E+009;1.655639410018921E-001;-6.570840626955032E-002;-4.980199970304966E-003;-2.967562293633819E-003;
2.419000000000000E+009;1.645587980747223E-001;-6.626974046230316E-002;-4.968751221895218E-003;-2.854088321328163E-003;
2.419166666666667E+009;1.633908301591873E-001;-6.685081124305725E-002;-5.185008980333805E-003;-2.664504339918494E-003;
2.419333333333334E+009;1.620771586894989E-001;-6.748523563146591E-002;-5.113139748573303E-003;-2.474111504852772E-003;
2.419500000000000E+009;1.609412878751755E-001;-6.852180510759354E-002;-5.315849557518959E-003;-2.280045067891479E-003;
2.419666666666667E+009;1.599623262882233E-001;-6.942688673734665E-002;-5.343396682292223E-003;-2.092581940814853E-003;
2.419833333333334E+009;1.585348546504974E-001;-7.036169618368149E-002;-5.430016200989485E-003;-2.071013906970620E-003;
2.420000000000000E+009;1.574475318193436E-001;-7.140703499317169E-002;-5.448568146675825E-003;-1.836526673287153E-003;
2.420166666666667E+009;1.563092768192291E-001;-7.260412722826004E-002;-5.545697640627623E-003;-1.659525558352470E-003;
2.420333333333334E+009;1.552066206932068E-001;-7.388667017221451E-002;-5.600892473012209E-003;-1.523331156931818E-003;
2.420500000000000E+009;1.543542593717575E-001;-7.512152940034866E-002;-5.638973787426949E-003;-1.327784266322851E-003;
2.420666666666667E+009;1.532478332519531E-001;-7.625406980514526E-002;-5.572661291807890E-003;-1.196452765725553E-003;
2.420833333333334E+009;1.522793471813202E-001;-7.787219434976578E-002;-5.773350596427918E-003;-1.022768672555685E-003;
2.421000000000000E+009;1.513666063547134E-001;-7.923358678817749E-002;-5.842206068336964E-003;-7.860988262109458E-004;
2.421166666666667E+009;1.505916267633438E-001;-8.061897009611130E-002;-5.860279779881239E-003;-7.203834829851985E-004;
2.421333333333334E+009;1.500177979469299E-001;-8.241377025842667E-002;-5.961895920336247E-003;-3.969411191064864E-004;
2.421500000000000E+009;1.492105871438980E-001;-8.394101262092590E-002;-5.834055133163929E-003;-1.317139976890758E-004;
2.421666666666667E+009;1.486248373985291E-001;-8.557888120412827E-002;-6.029389798641205E-003;4.457902468857355E-005;
2.421833333333334E+009;1.481587886810303E-001;-8.715478330850601E-002;-5.941470619291067E-003;1.141653847298585E-004;
2.422000000000000E+009;1.477727442979813E-001;-8.892995119094849E-002;-6.055029574781656E-003;3.455467231106013E-004;
2.422166666666667E+009;1.473671942949295E-001;-9.077728539705277E-002;-5.992158316075802E-003;5.228777299635112E-004;
2.422333333333334E+009;1.471713036298752E-001;-9.233157336711884E-002;-5.996413063257933E-003;6.698810611851513E-004;
2.422500000000000E+009;1.469123363494873E-001;-9.392704814672470E-002;-6.013768259435892E-003;8.709366666153073E-004;
2.422666666666667E+009;1.467313617467880E-001;-9.568946063518524E-002;-5.930432118475437E-003;1.037582755088806E-003;
2.422833333333334E+009;1.468236744403839E-001;-9.744873642921448E-002;-5.796786397695541E-003;1.403662492521107E-003;
2.423000000000000E+009;1.468106210231781E-001;-9.898742288351059E-002;-5.848288070410490E-003;1.567252795211971E-003;
2.423166666666667E+009;1.468922793865204E-001;-1.009072139859200E-001;-5.757645703852177E-003;1.790999667719007E-003;
2.423333333333334E+009;1.471275240182877E-001;-1.020888835191727E-001;-5.601204000413418E-003;1.985332695767283E-003;
2.423500000000000E+009;1.472101360559464E-001;-1.039287969470024E-001;-5.644828081130981E-003;2.209923695772886E-003;
2.423666666666667E+009;1.474268436431885E-001;-1.054450571537018E-001;-5.599413998425007E-003;2.454426139593124E-003;
2.423833333333334E+009;1.479356884956360E-001;-1.068601533770561E-001;-5.343765951693058E-003;2.626683097332716E-003;
2.424000000000000E+009;1.481083929538727E-001;-1.081144064664841E-001;-5.447142291814089E-003;2.734410343691707E-003;
2.424166666666667E+009;1.483863443136215E-001;-1.095060184597969E-001;-5.269071552902460E-003;2.829253673553467E-003;
2.424333333333334E+009;1.487801074981690E-001;-1.106986403465271E-001;-5.099480040371418E-003;3.247923217713833E-003;
2.424500000000000E+009;1.492727845907211E-001;-1.119196563959122E-001;-4.900692030787468E-003;3.453298239037395E-003;
2.424666666666667E+009;1.496923714876175E-001;-1.128682196140289E-001;-4.904009867459536E-003;3.662555711343885E-003;
2.424833333333334E+009;1.499693691730499E-001;-1.139321848750114E-001;-4.632425960153341E-003;3.883014665916562E-003;
2.425000000000000E+009;1.503737866878510E-001;-1.149599850177765E-001;-4.548498895019293E-003;3.949351143091917E-003;
2.425166666666667E+009;1.506276875734329E-001;-1.157704517245293E-001;-4.291756078600884E-003;4.114421550184488E-003;
2.425333333333334E+009;1.510189920663834E-001;-1.165924146771431E-001;-4.022633191198111E-003;4.311027470976114E-003;
2.425500000000000E+009;1.513178944587708E-001;-1.173679605126381E-001;-3.789716633036733E-003;4.468183498829603E-003;
2.425666666666667E+009;1.513288617134094E-001;-1.179775670170784E-001;-3.573489841073751E-003;4.574150312691927E-003;
2.425833333333334E+009;1.516789793968201E-001;-1.185108125209808E-001;-3.282579127699137E-003;4.803021438419819E-003;
2.426000000000000E+009;1.517571806907654E-001;-1.191181316971779E-001;-3.104010364040732E-003;4.765124060213566E-003;
2.426166666666667E+009;1.520455628633499E-001;-1.196194663643837E-001;-3.002792131155729E-003;4.841023124754429E-003;
2.426333333333334E+009;1.518907845020294E-001;-1.198543682694435E-001;-2.734880661591888E-003;4.936636425554752E-003;
2.426500000000000E+009;1.519588828086853E-001;-1.201958954334259E-001;-2.530146390199661E-003;4.914972465485334E-003;
2.426666666666667E+009;1.519715934991837E-001;-1.203638464212418E-001;-2.253876766189933E-003;5.009625572711229E-003;
2.426833333333334E+009;1.517250984907150E-001;-1.205908954143524E-001;-2.052649622783065E-003;4.955028183758259E-003;
2.427000000000000E+009;1.513915210962296E-001;-1.208335533738136E-001;-1.761789782904089E-003;4.960837773978710E-003;
2.427166666666667E+009;1.509836316108704E-001;-1.208578795194626E-001;-1.569317886605859E-003;4.896707367151976E-003;
2.427333333333334E+009;1.505273133516312E-001;-1.210465133190155E-001;-1.519885612651706E-003;4.923689179122448E-003;
2.427500000000000E+009;1.500493437051773E-001;-1.212310567498207E-001;-1.282677636481822E-003;4.925397690385580E-003;
2.427666666666667E+009;1.493677943944931E-001;-1.213569492101669E-001;-1.081838854588568E-003;4.687050823122263E-003;
