# Hz S RI R 
2400000000.0000000000 0.173358142375945989410723768742 0.049144744873046881938893903907 0.003736572805792092843296670068 0.007058882154524326324462890625 0 0 0 0 
2400166666.6666665077 0.173863604664802606780682481258 0.048674073070287697528879533593 0.003837684169411658807041787256 0.007005563005805016431326581738 0 0 0 0 
2400333333.3333334923 0.174456045031547601897869981258 0.047782868146896362304687500000 0.003933981060981751355642987988 0.006911106873303651809692382812 0 0 0 0 
2400500000.0000000000 0.174817949533462496658486884371 0.047126632183790206909179687500 0.003980358596891164779663085938 0.006947682239115238189697265625 0 0 0 0 
2400666666.6666665077 0.175000280141830388824786268742 0.046496566385030753398854841407 0.004310147371143102645874023438 0.006792597938328981399536132812 0 0 0 0 
2400833333.3333334923 0.175359711050987188141192518742 0.045929025858640670776367187500 0.004443021956831216812133789062 0.006781664676964282989501953125 0 0 0 0 
2401000000.0000000000 0.175531625747680691818075615629 0.045024704188108437274973283593 0.004633412696421146392822265625 0.006789723876863718032836914062 0 0 0 0 
2401166666.6666665077 0.175563767552375793457031250000 0.044440504163503646850585937500 0.005051851272583007812500000000 0.006789128761738538742065429688 0 0 0 0 
2401333333.3333334923 0.175495162606239291092080634371 0.043690603226423256610910783593 0.004917625803500413894653320312 0.006720782257616519927978515625 0 0 0 0 
2401500000.0000000000 0.175773039460182189941406250000 0.043007761240005493164062500000 0.005349209532141686353201581738 0.006873541511595249176025390625 0 0 0 0 
2401666666.6666665077 0.175760835409164400955361884371 0.042362380772829062725026716407 0.005522429011762142181396484375 0.006586234550923109054565429688 0 0 0 0 
2401833333.3333334923 0.175497621297836303710937500000 0.041548278182744979858398437500 0.005772041156888008117675781250 0.006525706034153699874877929688 0 0 0 0 
2402000000.0000000000 0.175266340374946594238281250000 0.040775973349809646606445312500 0.005797529127448797225952148438 0.006491560488939285278320312500 0 0 0 0 
2402166666.6666665077 0.175064101815223693847656250000 0.039821714162826538085937500000 0.006164799910038709640502929688 0.006260094698518514633178710938 0 0 0 0 
2402333333.3333334923 0.174958661198616000076455634371 0.038955532014369971538503278907 0.006529170554131270322317792676 0.006093924399465323361868573926 0 0 0 0 
2402500000.0000000000 0.175080612301826504806356865629 0.037757042795419692993164062500 0.006763247773051261901855468750 0.006031683646142482757568359375 0 0 0 0 
2402666666.6666665077 0.174511849880218505859375000000 0.036724906414747238159179687500 0.006952615454792976379394531250 0.005818463861942291259765625000 0 0 0 0 
2402833333.3333334923 0.174024358391761807540731865629 0.035655483603477478027343750000 0.007315220311284065246582031250 0.005641043186187744140625000000 0 0 0 0 
2403000000.0000000000 0.173903509974479703048544365629 0.034412577748298651958425153907 0.007648430764675140380859375000 0.005242695566266775131225585938 0 0 0 0 
2403166666.6666665077 0.173676729202270507812500000000 0.033106021583080291748046875000 0.007645624689757823944091796875 0.005153204314410687360281659863 0 0 0 0 
2403333333.3333334923 0.173298060894012506683026231258 0.031673211604356772685964216407 0.007810040377080441388601972363 0.004926254041492938995361328125 0 0 0 0 
2403500000.0000000000 0.172717720270156888107138115629 0.030171912163496020925501639454 0.008081247098743915557861328125 0.004778368398547173413748456738 0 0 0 0 
2403666666.6666665077 0.172351524233818109710369981258 0.028476297855377200735071951954 0.008359311148524284362792968750 0.004366970155388116836547851562 0 0 0 0 
2403833333.3333334923 0.172257527709007290939169365629 0.026835255324840549123743826954 0.008508585393428802490234375000 0.004034084733575583371634198926 0 0 0 0 
2404000000.0000000000 0.171865642070770291427450615629 0.025095762684941288339635079296 0.008495279587805271148681640625 0.003678377717733383178710937500 0 0 0 0 
2404166666.6666665077 0.171297937631607111175213731258 0.023380136117339130746861641796 0.008669385686516761779785156250 0.003421614179387689070460654150 0 0 0 0 
2404333333.3333334923 0.170980244874954195877236884371 0.021522618830204010009765625000 0.008771851658821105957031250000 0.003194981021806598143336630713 0 0 0 0 
2404500000.0000000000 0.170712292194366510589276231258 0.019366975873708728445032889454 0.008915774524211883544921875000 0.002767913276329637007472372900 0 0 0 0 
2404666666.6666665077 0.170507654547691400725994981258 0.017602320760488510131835937500 0.008975777775049209594726562500 0.002398479729890822930576943506 0 0 0 0 
2404833333.3333334923 0.170203581452369689941406250000 0.015690101310610771179199218750 0.009055296890437602996826171875 0.002125950530171393914463662256 0 0 0 0 
2405000000.0000000000 0.169959068298339788238848768742 0.013617763295769689732561680273 0.009033036418259143829345703125 0.001951858168467879078508686597 0 0 0 0 
2405166666.6666665077 0.169836789369583102127236884371 0.011742001399397850036621093750 0.008952601812779903411865234375 0.001464378437958657958387065356 0 0 0 0 
2405333333.3333334923 0.170093208551406888107138115629 0.009630433283746242523193359375 0.009052594192326068878173828125 0.001216560718603431961656879956 0 0 0 0 
2405500000.0000000000 0.170026540756225613693075615629 0.007741128560155630111694335938 0.008892662823200225830078125000 0.001155128935351968028424907153 0 0 0 0 
2405666666.6666665077 0.169872775673866299728231865629 0.005352451466023921966552734375 0.009162549860775470733642578125 0.000358132732799276709556579590 0 0 0 0 
2405833333.3333334923 0.170246288180351312835369981258 0.003885286860167980194091796875 0.008793214336037635803222656250 0.000199491565581411096170702524 0 0 0 0 
2406000000.0000000000 0.170566111803054809570312500000 0.001476150238886475996730185400 0.008759156800806522369384765625 -0.000084650680946651846170425415 0 0 0 0 
2406166666.6666665077 0.170813933014869689941406250000 -0.000253389822319150025218409406 0.008796432055532932281494140625 -0.000213383595109917196348467416 0 0 0 0 
2406333333.3333334923 0.171296298503875704666299384371 -0.002304792171344161033630371094 0.008735955692827701568603515625 -0.000547624076716601848602294922 0 0 0 0 
2406500000.0000000000 0.171681344509124811370526231258 -0.004304762929677963256835937500 0.008646832779049873352050781250 -0.000662879843730479478836059570 0 0 0 0 
2406666666.6666665077 0.172129318118095397949218750000 -0.006219129543751478195190429688 0.008612198755145072937011718750 -0.000972637615632265806198120117 0 0 0 0 
2406833333.3333334923 0.172796025872230502029580634371 -0.008240461349487304687500000000 0.008518045768141746520996093750 -0.001072276849299669048906635815 0 0 0 0 
2407000000.0000000000 0.173417389392852810958700615629 -0.010096609592437740671178048046 0.008515208028256893157958984375 -0.001425695605576037926914834131 0 0 0 0 
2407166666.6666665077 0.174221560359001187423544365629 -0.011825428344309329986572265625 0.008376987650990486145019531250 -0.001619379152543843009351420825 0 0 0 0 
2407333333.3333334923 0.174710452556610107421875000000 -0.013818437233567239588727382227 0.008221156895160675048828125000 -0.001793043571524322032928466797 0 0 0 0 
2407500000.0000000000 0.175483807921409606933593750000 -0.015529572032392030198066912305 0.008233524858951568603515625000 -0.002092595212161540985107421875 0 0 0 0 
2407666666.6666665077 0.176354795694351196289062500000 -0.017127200961112979543665701954 0.008064399473369121551513671875 -0.002234149957075715065002441406 0 0 0 0 
2407833333.3333334923 0.177004471421241788009481865629 -0.018886558711528781545618826954 0.007937321439385414123535156250 -0.002566204406321049170253134619 0 0 0 0 
2408000000.0000000000 0.177862554788589505294638115629 -0.020452788099646568298339843750 0.007902966812252998352050781250 -0.002851826604455709891078329932 0 0 0 0 
2408166666.6666665077 0.178402826189994812011718750000 -0.021864220499992370605468750000 0.007736740168184041976928710938 -0.002992709865793586210963583838 0 0 0 0 
2408333333.3333334923 0.179390385746955899337606865629 -0.023232867941260341299036795704 0.007521999068558216094970703125 -0.003147647017613052888157509912 0 0 0 0 
2408500000.0000000000 0.179892867803573608398437500000 -0.024750975891947749746302420704 0.007480265572667121887207031250 -0.003483899170532823042628622900 0 0 0 0 
2408666666.6666665077 0.180488377809524508377236884371 -0.026095317676663398742675781250 0.007381190545856952667236328125 -0.003551614936441183090209960938 0 0 0 0 
2408833333.3333334923 0.180910021066665704925213731258 -0.027121076360344890249232108204 0.007224948611110448837280273438 -0.003655732376500964164733886719 0 0 0 0 
2409000000.0000000000 0.181392669677734402755575615629 -0.028110777959227558481236641796 0.006987255532294511795043945312 -0.003717169864103198051452636719 0 0 0 0 
2409166666.6666665077 0.181990325450897189041299384371 -0.029211286455392840993861014454 0.006814558058977127075195312500 -0.003785877255722879929783486475 0 0 0 0 
2409333333.3333334923 0.182424128055572509765625000000 -0.030014589428901668893834298046 0.006762118078768253326416015625 -0.003978380933403968811035156250 0 0 0 0 
2409500000.0000000000 0.182627424597740201095419365629 -0.030835246667265888559361641796 0.006765569560229778289794921875 -0.003967062104493379592895507812 0 0 0 0 
2409666666.6666665077 0.182999327778816195388955634371 -0.031428325921297073364257812500 0.006684879772365093231201171875 -0.004159207921475172042846679688 0 0 0 0 
2409833333.3333334923 0.183204904198646600921307481258 -0.031899113208055503154714216407 0.006664850749075412750244140625 -0.004244700539857149124145507812 0 0 0 0 
2410000000.0000000000 0.183570817112922696212606865629 -0.032266382128000259399414062500 0.006505151279270648956298828125 -0.004271363373845815658569335938 0 0 0 0 
2410166666.6666665077 0.183647215366363497635049384371 -0.032776266336441040039062500000 0.006576919462531805038452148438 -0.004447523970156908035278320312 0 0 0 0 
2410333333.3333334923 0.183589100837707491775674384371 -0.033132702112197882915456403907 0.006385926157236099243164062500 -0.004550470039248467359060956738 0 0 0 0 
2410500000.0000000000 0.183742657303810091873330634371 -0.033348258584737777709960937500 0.006416002754122018814086914062 -0.004694799892604351043701171875 0 0 0 0 
2410666666.6666665077 0.183533415198326110839843750000 -0.033804953098297119140625000000 0.006410960573703050613403320312 -0.004821879789233207702636718750 0 0 0 0 
2410833333.3333334923 0.183652713894844110686932481258 -0.033971562981605529785156250000 0.006451793946325778961181640625 -0.005012199748307467374319745801 0 0 0 0 
2411000000.0000000000 0.183322772383689908126669365629 -0.034330110996961586689035783593 0.006450803019106388092041015625 -0.005120716989040374755859375000 0 0 0 0 
2411166666.6666665077 0.182984188199043301681356865629 -0.034516684710979461669921875000 0.006502699572592973709106445312 -0.005427176598459482192993164062 0 0 0 0 
2411333333.3333334923 0.182572051882743807693643134371 -0.034961506724357611919362653907 0.006545059382915496826171875000 -0.005678302608430385589599609375 0 0 0 0 
2411500000.0000000000 0.182044416666030911544638115629 -0.035492014139890670776367187500 0.006236389279365540418142987988 -0.005953600164502859115600585938 0 0 0 0 
2411666666.6666665077 0.181798055768013000488281250000 -0.035804182291030876850168596093 0.006281350739300251007080078125 -0.006084129679948092374319745801 0 0 0 0 
2411833333.3333334923 0.181110873818397494217080634371 -0.036016747355461120605468750000 0.006224934943020343780517578125 -0.006324161775410175323486328125 0 0 0 0 
2412000000.0000000000 0.180263489484786987304687500000 -0.036398146301507949829101562500 0.006193412002176046371459960938 -0.006723819300532341003417968750 0 0 0 0 
2412166666.6666665077 0.179306194186210604568643134371 -0.037024702876806259155273437500 0.005895021837204694747924804688 -0.006965062581002712249755859375 0 0 0 0 
2412333333.3333334923 0.178769439458847101409588731258 -0.037426203489303588867187500000 0.005796947050839663419241620801 -0.007129488047212362289428710938 0 0 0 0 
2412500000.0000000000 0.177555397152900695800781250000 -0.037971824407577521587331403907 0.005715196486562491330618573926 -0.007508751936256886395926191113 0 0 0 0 
2412666666.6666665077 0.176534995436668395996093750000 -0.038783900439739227294921875000 0.005496382247656583786010742188 -0.007806707173585891723632812500 0 0 0 0 
2412833333.3333334923 0.175292551517486600021200615629 -0.039518382400274276733398437500 0.005163108464330434799194335938 -0.008174424059689044952392578125 0 0 0 0 
2413000000.0000000000 0.174279734492301913162393134371 -0.040175348520278930664062500000 0.005010275635868310928344726562 -0.008260569535195827484130859375 0 0 0 0 
2413166666.6666665077 0.172837004065513610839843750000 -0.040989331901073462749440778907 0.004625856876373291015625000000 -0.008493961766362190246582031250 0 0 0 0 
2413333333.3333334923 0.171673595905304010589276231258 -0.041808713227510452270507812500 0.004422130528837442398071289062 -0.008707457222044467926025390625 0 0 0 0 
2413500000.0000000000 0.170396715402603204925213731258 -0.042951118201017379760742187500 0.004342651460319758328909589551 -0.008999134413897991180419921875 0 0 0 0 
2413666666.6666665077 0.169210284948348999023437500000 -0.044174436479806900024414062500 0.004015791229903697967529296875 -0.009146953932940959930419921875 0 0 0 0 
2413833333.3333334923 0.167758062481880187988281250000 -0.045297663658857352519948591407 0.003662430681288241906407021631 -0.009411763399839401245117187500 0 0 0 0 
2414000000.0000000000 0.166489332914352389236611884371 -0.046621173620223999023437500000 0.003299503587186336951014853369 -0.009568704292178153991699218750 0 0 0 0 
2414166666.6666665077 0.165269047021865789215411268742 -0.047645956277847290039062500000 0.003139800624921917915344238281 -0.009713972918689250946044921875 0 0 0 0 
2414333333.3333334923 0.164199098944664001464843750000 -0.049099497497081756591796875000 0.002808411605656147003173828125 -0.009849063120782375335693359375 0 0 0 0 
2414500000.0000000000 0.163183093070983886718750000000 -0.050647296011447913433034528907 0.002496091881766914887669228662 -0.010011875070631500589390938671 0 0 0 0 
2414666666.6666665077 0.161910176277160589020098768742 -0.052142061293125152587890625000 0.002044954802840948104858398438 -0.010042216628789899998674961523 0 0 0 0 
2414833333.3333334923 0.160730943083763094803018134371 -0.053882058709859848022460937500 0.001645155251026153998133993994 -0.010275114327669140207310860546 0 0 0 0 
2415000000.0000000000 0.159733653068542508224325615629 -0.055380765348672866821289062500 0.001349253230728209018707275391 -0.010134285315871240443219569727 0 0 0 0 
2415166666.6666665077 0.158897653222084100921307481258 -0.057228792458772659301757812500 0.001025679986923933029174804688 -0.010358572937548160552978515625 0 0 0 0 
2415333333.3333334923 0.158030346035957308670205634371 -0.059194244444370269775390625000 0.000656586082186549901962280273 -0.010496296919882299250592616602 0 0 0 0 
2415500000.0000000000 0.157179057598114013671875000000 -0.061009984463453292846679687500 0.000297467398922890424728393555 -0.010391761548817159480084804102 0 0 0 0 
2415666666.6666665077 0.156521454453468294998330634371 -0.062890537083148956298828125000 -0.000152862136019393801689147949 -0.010585272684693339956263358204 0 0 0 0 
2415833333.3333334923 0.155800700187683105468750000000 -0.064797587692737579345703125000 -0.000691569410264492034912109375 -0.010537251830101009714146798046 0 0 0 0 
2416000000.0000000000 0.155187427997589111328125000000 -0.066756598651409149169921875000 -0.000845254457090049982070922852 -0.010503644123673440760602382227 0 0 0 0 
2416166666.6666665077 0.154775857925415011306924384371 -0.068803854286670684814453125000 -0.001275643357075751044629741138 -0.010554295033216479909876639454 0 0 0 0 
2416333333.3333334923 0.154214575886726407150106865629 -0.070845514535903930664062500000 -0.001582910539582371928571391528 -0.010393774136900900059710117773 0 0 0 0 
2416500000.0000000000 0.153797656297683688064736884371 -0.072868913412094116210937500000 -0.002013823017477989196777343750 -0.010504636913537980860700038477 0 0 0 0 
2416666666.6666665077 0.153389304876327486892861884371 -0.074715033173561096191406250000 -0.002341171959415078163146972656 -0.010178278200328350067138671875 0 0 0 0 
2416833333.3333334923 0.153296217322349603850994981258 -0.076936498284339904785156250000 -0.002666814485564827919006347656 -0.010433908551931379490862461523 0 0 0 0 
2417000000.0000000000 0.152796149253845187088174384371 -0.078774139285087585449218750000 -0.003272329689934850172755576025 -0.010113152675330640620221522852 0 0 0 0 
2417166666.6666665077 0.152614966034889193435830634371 -0.080568753182888031005859375000 -0.003424846567213534875157021631 -0.010180446319282060105293474805 0 0 0 0 
2417333333.3333334923 0.152582198381424005706463731258 -0.082342639565467834472656250000 -0.003653339343145490126368857275 -0.009866809472441673278808593750 0 0 0 0 
2417500000.0000000000 0.152370631694793701171875000000 -0.084220178425312042236328125000 -0.004285057075321674346923828125 -0.009813406504690647125244140625 0 0 0 0 
2417666666.6666665077 0.152391746640205411056356865629 -0.085601754486560821533203125000 -0.004432487767189741134643554688 -0.009567221626639366149902343750 0 0 0 0 
2417833333.3333334923 0.152481824159622192382812500000 -0.087255463004112243652343750000 -0.004907020833343266573434160449 -0.009562723338603973388671875000 0 0 0 0 
2418000000.0000000000 0.152377381920814486404580634371 -0.088924773037433624267578125000 -0.005239959340542554855346679688 -0.009516214020550251007080078125 0 0 0 0 
2418166666.6666665077 0.152411639690399197677450615629 -0.089889369904994964599609375000 -0.005649921949952840805053710938 -0.009111332707107067108154296875 0 0 0 0 
2418333333.3333334923 0.152803316712379511077557481258 -0.091457754373550415039062500000 -0.006022355984896421432495117188 -0.008877348154783248901367187500 0 0 0 0 
2418500000.0000000000 0.152825847268104608733807481258 -0.092436194419860839843750000000 -0.006313298828899860382080078125 -0.008772653527557849884033203125 0 0 0 0 
2418666666.6666665077 0.153148278594017001053018134371 -0.093723081052303314208984375000 -0.006731422152370215329642011426 -0.008420238271355628967285156250 0 0 0 0 
2418833333.3333334923 0.153049439191818209549111884371 -0.094576522707939147949218750000 -0.006983856670558452606201171875 -0.008124346844851970672607421875 0 0 0 0 
2419000000.0000000000 0.153266310691833496093750000000 -0.095197893679141998291015625000 -0.007215471472591161727905273438 -0.007869888097047805786132812500 0 0 0 0 
2419166666.6666665077 0.153484880924224909026776231258 -0.095840066671371459960937500000 -0.007411831524223089218139648438 -0.007578774355351924896240234375 0 0 0 0 
2419333333.3333334923 0.153365597128868103027343750000 -0.096356868743896484375000000000 -0.007796116638928651809692382812 -0.007183510344475507736206054688 0 0 0 0 
2419500000.0000000000 0.153747424483299310882244981258 -0.096949182450771331787109375000 -0.008092082105576992034912109375 -0.006849387194961309432983398438 0 0 0 0 
2419666666.6666665077 0.154021382331848089020098768742 -0.097279049456119537353515625000 -0.008352214470505714416503906250 -0.006670523900538682937622070312 0 0 0 0 
2419833333.3333334923 0.153959169983863802810830634371 -0.097432270646095275878906250000 -0.008464056067168712615966796875 -0.006366129498928785324096679688 0 0 0 0 
