# Version 1.00
#
freq[Hz];re:Trc1_S11;im:Trc1_S11;re:Trc2_S21;im:Trc2_S21;
2.400000000000000E+009;1.733210235834122E-001;4.938438162207604E-002;6.475304253399372E-003;4.614431876689196E-003;
2.400166666666667E+009;1.737672537565231E-001;4.883632808923721E-002;6.505976431071758E-003;4.212715663015842E-003;
2.400333333333334E+009;1.740329116582871E-001;4.796113818883896E-002;6.457109004259110E-003;3.906961064785719E-003;
2.400500000000000E+009;1.745549589395523E-001;4.759498313069344E-002;6.564708426594734E-003;3.408894175663590E-003;
2.400666666666667E+009;1.748491525650024E-001;4.689813032746315E-002;6.655270233750343E-003;3.013062290847302E-003;
2.400833333333334E+009;1.749787926673889E-001;4.629012569785118E-002;6.637163460254669E-003;2.967457054182887E-003;
2.401000000000000E+009;1.751672476530075E-001;4.556438326835632E-002;6.330235395580530E-003;2.586487215012312E-003;
2.401166666666667E+009;1.752120554447174E-001;4.495039209723473E-002;6.578332744538784E-003;2.242360031232238E-003;
2.401333333333334E+009;1.750585883855820E-001;4.413120821118355E-002;6.464888807386160E-003;1.949593541212380E-003;
2.401500000000000E+009;1.752759218215942E-001;4.355019703507423E-002;6.510711275041103E-003;1.857764902524650E-003;
2.401666666666667E+009;1.751690804958344E-001;4.304794967174530E-002;6.405310705304146E-003;1.379901892505586E-003;
2.401833333333334E+009;1.751748025417328E-001;4.215157032012940E-002;6.316291168332100E-003;1.188528141938150E-003;
2.402000000000000E+009;1.749320477247238E-001;4.153395444154739E-002;6.404371466487646E-003;1.007591257803142E-003;
2.402166666666667E+009;1.747572273015976E-001;4.036005958914757E-002;6.307414267212153E-003;6.115016876719892E-004;
2.402333333333334E+009;1.743105500936508E-001;3.951467946171761E-002;6.260910537093878E-003;4.861378693021834E-004;
2.402500000000000E+009;1.744373291730881E-001;3.846857696771622E-002;6.148290820419788E-003;2.602997992653400E-004;
2.402666666666667E+009;1.741682589054108E-001;3.714873641729355E-002;5.900857970118523E-003;-2.283019239257556E-005;
2.402833333333334E+009;1.736713647842407E-001;3.615222126245499E-002;5.837900098413229E-003;-2.911532938014716E-004;
2.403000000000000E+009;1.733224689960480E-001;3.467398509383202E-002;5.482768174260855E-003;-4.092691815458238E-004;
2.403166666666667E+009;1.730924397706986E-001;3.350925445556641E-002;5.390226840972900E-003;-7.548852590844035E-004;
2.403333333333334E+009;1.727807223796845E-001;3.196952119469643E-002;5.187429953366518E-003;-9.480887092649937E-004;
2.403500000000000E+009;1.725365221500397E-001;3.037740476429462E-002;5.016205832362175E-003;-8.883954142220318E-004;
2.403666666666667E+009;1.719597429037094E-001;2.868180535733700E-002;4.674735013395548E-003;-1.028048689477146E-003;
2.403833333333334E+009;1.715369671583176E-001;2.699551545083523E-002;4.737989511340857E-003;-1.227639149874449E-003;
2.404000000000000E+009;1.713813543319702E-001;2.533505856990814E-002;4.398512188345194E-003;-1.140979467891157E-003;
2.404166666666667E+009;1.709801554679871E-001;2.341395244002342E-002;4.114442039281130E-003;-1.266779028810561E-003;
2.404333333333334E+009;1.706214398145676E-001;2.154771238565445E-002;3.985743969678879E-003;-1.490138703957200E-003;
2.404500000000000E+009;1.702578365802765E-001;1.954708062112331E-002;3.642481053248048E-003;-1.398334512487054E-003;
2.404666666666667E+009;1.700116693973541E-001;1.758798584342003E-002;3.640359034761787E-003;-1.251546549610794E-003;
2.404833333333334E+009;1.697819083929062E-001;1.553853508085012E-002;3.492085961624980E-003;-1.135970000177622E-003;
2.405000000000000E+009;1.699278205633164E-001;1.349990162998438E-002;3.341260366141796E-003;-1.398045802488923E-003;
2.405166666666667E+009;1.697633415460587E-001;1.153130363672972E-002;3.350141691043973E-003;-1.201494014821947E-003;
2.405333333333334E+009;1.697511821985245E-001;9.104096330702305E-003;3.198032965883613E-003;-1.098121283575892E-003;
2.405500000000000E+009;1.697418689727783E-001;7.258086465299130E-003;3.166574053466320E-003;-9.060301817953587E-004;
2.405666666666667E+009;1.699634790420532E-001;5.320408847182989E-003;3.102217102423310E-003;-9.959938470274210E-004;
2.405833333333334E+009;1.700586974620819E-001;3.215972799807787E-003;3.167711663991213E-003;-8.388740825466812E-004;
2.406000000000000E+009;1.704372316598892E-001;1.143927802331746E-003;3.077804576605558E-003;-7.285085157491267E-004;
2.406166666666667E+009;1.707044094800949E-001;-6.298166117630899E-004;3.162276698276401E-003;-7.637981325387955E-004;
2.406333333333334E+009;1.712782084941864E-001;-2.819748828187585E-003;3.143244655802846E-003;-6.073957192711532E-004;
2.406500000000000E+009;1.717600971460342E-001;-4.903700202703476E-003;3.322742879390717E-003;-6.959218881092966E-004;
2.406666666666667E+009;1.719580590724945E-001;-6.782174576073885E-003;3.317207796499133E-003;-5.283002392388880E-004;
2.406833333333334E+009;1.727406680583954E-001;-8.809912018477917E-003;3.388116834685206E-003;-6.291187019087374E-004;
2.407000000000000E+009;1.733167767524719E-001;-1.059239823371172E-002;3.601250238716602E-003;-5.965896416455507E-004;
2.407166666666667E+009;1.741003692150116E-001;-1.234673336148262E-002;3.658187342807651E-003;-7.351604872383177E-004;
2.407333333333334E+009;1.747275292873383E-001;-1.419435348361731E-002;3.788119181990624E-003;-6.606383831240237E-004;
2.407500000000000E+009;1.754983365535736E-001;-1.584708131849766E-002;3.824556712061167E-003;-9.665151010267437E-004;
2.407666666666667E+009;1.762022525072098E-001;-1.747008599340916E-002;4.041461739689112E-003;-1.092267222702503E-003;
2.407833333333334E+009;1.769018322229385E-001;-1.907974295318127E-002;4.125280771404505E-003;-1.179306651465595E-003;
2.408000000000000E+009;1.777929365634918E-001;-2.068676799535751E-002;4.149529617279768E-003;-1.383375027216971E-003;
2.408166666666667E+009;1.785322725772858E-001;-2.192847616970539E-002;4.309287760406733E-003;-1.728079863823950E-003;
2.408333333333334E+009;1.794988811016083E-001;-2.335607819259167E-002;4.323460161685944E-003;-1.756010809913278E-003;
2.408500000000000E+009;1.799870878458023E-001;-2.472040615975857E-002;4.338709171861410E-003;-2.119916724041104E-003;
2.408666666666667E+009;1.805863678455353E-001;-2.602609246969223E-002;4.383426625281572E-003;-2.183426404371858E-003;
2.408833333333334E+009;1.811240166425705E-001;-2.703982964158058E-002;4.170133266597986E-003;-2.460850868374109E-003;
2.409000000000000E+009;1.815906167030335E-001;-2.788096480071545E-002;4.291583783924580E-003;-2.753274282440543E-003;
2.409166666666667E+009;1.820789724588394E-001;-2.894035726785660E-002;4.031479358673096E-003;-2.976004732772708E-003;
2.409333333333334E+009;1.827083379030228E-001;-2.984792366623879E-002;3.908399026840925E-003;-3.028757404536009E-003;
2.409500000000000E+009;1.828839182853699E-001;-3.057743795216084E-002;3.939947113394737E-003;-3.358143148943782E-003;
2.409666666666667E+009;1.830977350473404E-001;-3.117701970040798E-002;3.771777730435133E-003;-3.429653123021126E-003;
2.409833333333334E+009;1.832658350467682E-001;-3.148627281188965E-002;3.545592073351145E-003;-3.549895947799087E-003;
2.410000000000000E+009;1.837065219879150E-001;-3.194435313344002E-002;3.450021613389254E-003;-3.697197185829282E-003;
2.410166666666667E+009;1.837505251169205E-001;-3.247193247079849E-002;3.045838791877031E-003;-3.807713044807315E-003;
2.410333333333334E+009;1.837917715311050E-001;-3.288444131612778E-002;2.978356555104256E-003;-3.962978255003691E-003;
2.410500000000000E+009;1.839293092489243E-001;-3.328685835003853E-002;2.841069363057613E-003;-3.964272327721119E-003;
2.410666666666667E+009;1.837120652198792E-001;-3.342628106474876E-002;2.706861589103937E-003;-4.188977647572756E-003;
2.410833333333334E+009;1.835437566041946E-001;-3.365109115839005E-002;2.356811659410596E-003;-4.130488727241755E-003;
2.411000000000000E+009;1.833123266696930E-001;-3.393044695258141E-002;2.247015014290810E-003;-4.168187733739615E-003;
2.411166666666667E+009;1.830958276987076E-001;-3.438210114836693E-002;2.119004027917981E-003;-4.131452180445194E-003;
2.411333333333334E+009;1.827753335237503E-001;-3.456282243132591E-002;1.964494818821549E-003;-4.132053814828396E-003;
2.411500000000000E+009;1.821255683898926E-001;-3.513568267226219E-002;1.789532951079309E-003;-4.194016102701426E-003;
2.411666666666667E+009;1.814449131488800E-001;-3.521421179175377E-002;1.604707562364638E-003;-4.199036397039890E-003;
2.411833333333334E+009;1.808296740055084E-001;-3.583221882581711E-002;1.527047599665821E-003;-4.216777626425028E-003;
2.412000000000000E+009;1.802037507295609E-001;-3.627556189894676E-002;1.398098422214389E-003;-4.253301303833723E-003;
2.412166666666667E+009;1.792473345994949E-001;-3.674625977873802E-002;1.187592628411949E-003;-4.085049498826265E-003;
2.412333333333334E+009;1.783460229635239E-001;-3.739841282367706E-002;1.193190924823284E-003;-4.159639123827219E-003;
2.412500000000000E+009;1.772595345973969E-001;-3.791024908423424E-002;1.211618189699948E-003;-4.004144575446844E-003;
2.412666666666667E+009;1.763370633125305E-001;-3.865325450897217E-002;1.018717535771430E-003;-3.929056227207184E-003;
2.412833333333334E+009;1.749817281961441E-001;-3.945717588067055E-002;8.851055172272027E-004;-4.078990314155817E-003;
2.413000000000000E+009;1.737136095762253E-001;-4.020193591713905E-002;8.549077901989222E-004;-4.102042410522699E-003;
2.413166666666667E+009;1.724541485309601E-001;-4.097996279597282E-002;8.452113834209740E-004;-3.877263981848955E-003;
2.413333333333334E+009;1.710066497325897E-001;-4.197628796100617E-002;8.138057310134172E-004;-3.865438979119062E-003;
2.413500000000000E+009;1.697183102369309E-001;-4.291660711169243E-002;9.147660457529128E-004;-4.017974715679884E-003;
2.413666666666667E+009;1.684888005256653E-001;-4.419448599219322E-002;6.555104046128690E-004;-4.046323709189892E-003;
2.413833333333334E+009;1.671911478042603E-001;-4.531541839241982E-002;7.767470669932663E-004;-4.012204241007567E-003;
2.414000000000000E+009;1.657871901988983E-001;-4.676798358559609E-002;5.564429447986186E-004;-4.155583214014769E-003;
2.414166666666667E+009;1.647118330001831E-001;-4.798693582415581E-002;4.796280991286039E-004;-4.132705274969339E-003;
2.414333333333334E+009;1.634864807128906E-001;-4.943378642201424E-002;4.804049094673246E-004;-4.212814848870039E-003;
2.414500000000000E+009;1.624547988176346E-001;-5.089487880468369E-002;2.851258323062211E-004;-4.279998131096363E-003;
2.414666666666667E+009;1.611839830875397E-001;-5.235872045159340E-002;3.302081022411585E-004;-4.185739904642105E-003;
2.414833333333334E+009;1.600679010152817E-001;-5.410363897681236E-002;6.806179590057582E-005;-4.437357652932406E-003;
2.415000000000000E+009;1.590720862150192E-001;-5.566672608256340E-002;4.986259227734990E-005;-4.522605799138546E-003;
2.415166666666667E+009;1.581069678068161E-001;-5.738262087106705E-002;-1.714062091195956E-004;-4.510802216827869E-003;
2.415333333333334E+009;1.573252677917481E-001;-5.930400639772415E-002;-2.363364328630269E-004;-4.374984651803970E-003;
2.415500000000000E+009;1.566092669963837E-001;-6.115979701280594E-002;-2.664432977326214E-004;-4.455867689102888E-003;
2.415666666666667E+009;1.559353768825531E-001;-6.299400329589844E-002;-6.213973392732441E-004;-4.478854592889547E-003;
2.415833333333334E+009;1.552722901105881E-001;-6.494716554880142E-002;-5.242450279183686E-004;-4.378287587314844E-003;
2.416000000000000E+009;1.544957458972931E-001;-6.684679538011551E-002;-1.008905353955925E-003;-4.452726338058710E-003;
2.416166666666667E+009;1.542780846357346E-001;-6.884092092514038E-002;-1.087660901248455E-003;-4.255281295627356E-003;
2.416333333333334E+009;1.537288129329681E-001;-7.086031138896942E-002;-1.056514913216233E-003;-4.429899156093597E-003;
2.416500000000000E+009;1.533535122871399E-001;-7.282539457082748E-002;-1.328457961790264E-003;-4.318516235798597E-003;
2.416666666666667E+009;1.531253457069397E-001;-7.472865283489227E-002;-1.377384760417044E-003;-4.114212468266487E-003;
2.416833333333334E+009;1.529152691364288E-001;-7.676789909601212E-002;-1.341310329735279E-003;-4.157148767262697E-003;
2.417000000000000E+009;1.525884121656418E-001;-7.873868197202683E-002;-1.333452295511961E-003;-3.971072379499674E-003;
2.417166666666667E+009;1.525410860776901E-001;-8.047723770141602E-002;-1.503742067143321E-003;-3.990475088357925E-003;
2.417333333333334E+009;1.525475084781647E-001;-8.216457068920136E-002;-1.485584769397974E-003;-3.827396081760526E-003;
2.417500000000000E+009;1.524260193109512E-001;-8.411154896020889E-002;-1.380059518851340E-003;-3.753536380827427E-003;
2.417666666666667E+009;1.525701731443405E-001;-8.541482686996460E-002;-1.548024942167103E-003;-3.848267486318946E-003;
2.417833333333334E+009;1.526803970336914E-001;-8.708111941814423E-002;-1.555269118398428E-003;-3.810667200013995E-003;
2.418000000000000E+009;1.527301967144013E-001;-8.867545425891876E-002;-1.599661423824728E-003;-3.899673698469997E-003;
2.418166666666667E+009;1.527420282363892E-001;-8.991343528032303E-002;-1.651603728532791E-003;-3.948717843741179E-003;
2.418333333333334E+009;1.533114612102509E-001;-9.114278852939606E-002;-1.743640052154660E-003;-3.941195551306009E-003;
2.418500000000000E+009;1.533436179161072E-001;-9.235350042581558E-002;-1.773789757862687E-003;-4.083062056452036E-003;
2.418666666666667E+009;1.535571217536926E-001;-9.339540451765060E-002;-1.936764572747052E-003;-4.222193732857704E-003;
2.418833333333334E+009;1.536322385072708E-001;-9.441693872213364E-002;-2.162372227758169E-003;-4.405593033879995E-003;
2.419000000000000E+009;1.537168473005295E-001;-9.524208307266235E-002;-2.252913312986493E-003;-4.419039934873581E-003;
2.419166666666667E+009;1.539440602064133E-001;-9.596189856529236E-002;-2.383957616984844E-003;-4.565088078379631E-003;
2.419333333333334E+009;1.539144217967987E-001;-9.628012031316757E-002;-2.769714454188943E-003;-4.495746456086636E-003;
2.419500000000000E+009;1.543105542659760E-001;-9.682401269674301E-002;-2.902502892538905E-003;-4.455841146409512E-003;
2.419666666666667E+009;1.543380618095398E-001;-9.729289263486862E-002;-3.270400455221534E-003;-4.543637391179800E-003;
2.419833333333334E+009;1.544782966375351E-001;-9.745381027460098E-002;-3.445300739258528E-003;-4.447159357368946E-003;
2.420000000000000E+009;1.545277386903763E-001;-9.768169373273850E-002;-3.705652430653572E-003;-4.221397452056408E-003;
2.420166666666667E+009;1.545846611261368E-001;-9.767471253871918E-002;-3.959242254495621E-003;-4.312687553465366E-003;
2.420333333333334E+009;1.546889841556549E-001;-9.769194573163986E-002;-4.036522004753351E-003;-4.030820913612843E-003;
2.420500000000000E+009;1.546443700790405E-001;-9.739231318235397E-002;-4.451008513569832E-003;-3.752901218831539E-003;
2.420666666666667E+009;1.544122397899628E-001;-9.702610969543457E-002;-4.612153861671686E-003;-3.828112501651049E-003;
2.420833333333334E+009;1.543358415365219E-001;-9.695369750261307E-002;-4.782757256180048E-003;-3.644516225904226E-003;
2.421000000000000E+009;1.540944725275040E-001;-9.654040634632111E-002;-4.891713615506887E-003;-3.587814746424556E-003;
2.421166666666667E+009;1.538207232952118E-001;-9.639941900968552E-002;-5.257473327219486E-003;-3.469289746135473E-003;
2.421333333333334E+009;1.534902751445770E-001;-9.600744396448135E-002;-5.524730309844017E-003;-3.202885156497359E-003;
2.421500000000000E+009;1.528303176164627E-001;-9.553695470094681E-002;-5.699189845472574E-003;-3.013266483321786E-003;
2.421666666666667E+009;1.523496955633164E-001;-9.520848840475082E-002;-5.875970236957073E-003;-2.818842884153128E-003;
2.421833333333334E+009;1.517958492040634E-001;-9.478378295898438E-002;-5.959923379123211E-003;-2.379328012466431E-003;
2.422000000000000E+009;1.508368998765945E-001;-9.438996762037277E-002;-6.227244623005390E-003;-2.091084374114871E-003;
2.422166666666667E+009;1.501917988061905E-001;-9.441518783569336E-002;-6.371566560119391E-003;-1.810866990126669E-003;
2.422333333333334E+009;1.492848098278046E-001;-9.416405856609345E-002;-6.349883042275906E-003;-1.555758761242032E-003;
2.422500000000000E+009;1.482422202825546E-001;-9.357353299856186E-002;-6.523047573864460E-003;-1.142727793194354E-003;
2.422666666666667E+009;1.470808237791061E-001;-9.345904737710953E-002;-6.714489310979843E-003;-1.056570559740067E-003;
2.422833333333334E+009;1.459251344203949E-001;-9.331633150577545E-002;-6.654695142060518E-003;-5.115956300869584E-004;
2.423000000000000E+009;1.446650028228760E-001;-9.317780286073685E-002;-6.635656114667654E-003;-2.182374009862542E-004;
2.423166666666667E+009;1.435002535581589E-001;-9.319357573986054E-002;-6.591225974261761E-003;-2.645937456691172E-005;
2.423333333333334E+009;1.420942544937134E-001;-9.300857037305832E-002;-6.511515472084284E-003;3.931771498173475E-004;
2.423500000000000E+009;1.405633091926575E-001;-9.341133385896683E-002;-6.512007676064968E-003;5.358037305995822E-004;
2.423666666666667E+009;1.391101777553558E-001;-9.350783377885819E-002;-6.432087626308203E-003;9.380169794894755E-004;
2.423833333333334E+009;1.376717388629913E-001;-9.385014325380325E-002;-6.466258782893419E-003;1.152043114416301E-003;
2.424000000000000E+009;1.361666619777679E-001;-9.396868944168091E-002;-6.135703064501286E-003;1.459411461837590E-003;
2.424166666666667E+009;1.346444487571716E-001;-9.432981908321381E-002;-6.110694259405136E-003;1.626565586775541E-003;
2.424333333333334E+009;1.332521736621857E-001;-9.487994760274887E-002;-5.847702268511057E-003;1.965706702321768E-003;
2.424500000000000E+009;1.317268311977387E-001;-9.555853158235550E-002;-5.793662276118994E-003;2.132076304405928E-003;
2.424666666666667E+009;1.302987188100815E-001;-9.596558660268784E-002;-5.570401903241873E-003;2.438267227262259E-003;
2.424833333333334E+009;1.286737024784088E-001;-9.687231481075287E-002;-5.344154778867960E-003;2.583469264209271E-003;
2.425000000000000E+009;1.275051236152649E-001;-9.768258035182953E-002;-5.238736048340797E-003;2.611368196085095E-003;
2.425166666666667E+009;1.260370612144470E-001;-9.864744544029236E-002;-5.078650079667568E-003;2.871362259611487E-003;
2.425333333333334E+009;1.247960701584816E-001;-9.965384751558304E-002;-4.841970279812813E-003;3.064949298277497E-003;
2.425500000000000E+009;1.237745583057404E-001;-1.008091047406197E-001;-4.736746195703745E-003;3.219757694751024E-003;
2.425666666666667E+009;1.224836036562920E-001;-1.020361855626106E-001;-4.500196781009436E-003;3.365425625815988E-003;
2.425833333333334E+009;1.214565932750702E-001;-1.033253371715546E-001;-4.251956008374691E-003;3.276447765529156E-003;
2.426000000000000E+009;1.205089315772057E-001;-1.047760546207428E-001;-4.041034262627363E-003;3.426439361646771E-003;
2.426166666666667E+009;1.198746711015701E-001;-1.061858609318733E-001;-3.884705714881420E-003;3.591106273233891E-003;
2.426333333333334E+009;1.188729032874107E-001;-1.077220290899277E-001;-3.735516685992479E-003;3.584074089303613E-003;
2.426500000000000E+009;1.181413158774376E-001;-1.092480123043060E-001;-3.651106031611562E-003;3.578514326363802E-003;
2.426666666666667E+009;1.176358014345169E-001;-1.106451675295830E-001;-3.448354313150048E-003;3.584227291867137E-003;
2.426833333333334E+009;1.170473694801331E-001;-1.123517006635666E-001;-3.380110953003168E-003;3.969316370785236E-003;
2.427000000000000E+009;1.164601519703865E-001;-1.140162348747253E-001;-3.154004923999310E-003;3.802803810685873E-003;
2.427166666666667E+009;1.160924062132835E-001;-1.155527606606484E-001;-3.031903179362416E-003;3.682933282107115E-003;
2.427333333333334E+009;1.157947406172752E-001;-1.170594170689583E-001;-2.951149130240083E-003;3.959310241043568E-003;
2.427500000000000E+009;1.156102046370506E-001;-1.187869533896446E-001;-2.765804063528776E-003;4.005285911262035E-003;
2.427666666666667E+009;1.153460890054703E-001;-1.203918233513832E-001;-2.558586886152625E-003;3.801289713010192E-003;
