# Hz S RI R 50
2400000000.0000000000 0.168219074606895502288494981258 0.040973115712404251098632812500 0.002231502672657371001002646338 0.002074063057079910798313759912 0 0 0 0 
2400166666.6666665077 0.168750926852226312835369981258 0.040379382669925689697265625000 0.002263191388919949965236044775 0.001944161602295934937120747144 0 0 0 0 
2400333333.3333334923 0.169262245297432001311932481258 0.039455231279134750366210937500 0.002371026668697596029994345557 0.001870351959951221942901611328 0 0 0 0 
2400500000.0000000000 0.169753760099411010742187500000 0.038379937410354607318918596093 0.002483808668330312208888388525 0.001984770875424147085902548682 0 0 0 0 
2400666666.6666665077 0.170033246278762789627236884371 0.037778306752443306659738908593 0.002612808952108025984523154150 0.001761089661158621094347309644 0 0 0 0 
2400833333.3333334923 0.170592725276946993728799384371 0.037116657942533493041992187500 0.002876440761610866026637411963 0.001719017396681010939954448169 0 0 0 0 
2401000000.0000000000 0.170805707573890713790731865629 0.036213364452123641967773437500 0.002889325143769382996800088037 0.001595188514329493045806884766 0 0 0 0 
2401166666.6666665077 0.171075463294982910156250000000 0.035178314894437789916992187500 0.003110713325440884070155478369 0.001512200455181301073787070166 0 0 0 0 
2401333333.3333334923 0.171051800251007107833700615629 0.034380562603473663330078125000 0.003046816680580378012416220557 0.001341777155175805091857910156 0 0 0 0 
2401500000.0000000000 0.171468228101730402190838731258 0.033613845705986022949218750000 0.003212091745808721022364951025 0.001222435850650072097778320312 0 0 0 0 
2401666666.6666665077 0.171613022685050992111044365629 0.032725181430578231811523437500 0.003271544817835092978236533057 0.000892613432370126247406005859 0 0 0 0 
2401833333.3333334923 0.171717852354049710372763115629 0.031955115497112267231027971093 0.003374601481482387022731161963 0.000777808541897684335708618164 0 0 0 0 
2402000000.0000000000 0.171790361404419000823651231258 0.031043160706758499145507812500 0.003214501542970538139343261719 0.000624494627118110656738281250 0 0 0 0 
2402166666.6666665077 0.171571895480155889313067518742 0.029999574646353721618652343750 0.003342451993376017050502158057 0.000633221119642257690429687500 0 0 0 0 
2402333333.3333334923 0.171587690711021395584268134371 0.029048396274447441101074218750 0.003471278352662920951843261719 0.000463890464743599295616149902 0 0 0 0 
2402500000.0000000000 0.171808093786239596267861884371 0.028102748095989230764368826954 0.003255793591961265043971396338 0.000250436307396739721298217773 0 0 0 0 
2402666666.6666665077 0.171680048108100891113281250000 0.027288056910037990915318673046 0.003233985975384711785557412256 0.000168852362548932406023302621 0 0 0 0 
2402833333.3333334923 0.171463236212730407714843750000 0.026287281885743141174316406250 0.003164648078382014794590615381 0.000038305195630528032779693604 0 0 0 0 
2403000000.0000000000 0.171448931097984286209268134371 0.025104511529207229614257812500 0.003135672304779291152954101562 -0.000044942094973521307110786438 0 0 0 0 
2403166666.6666665077 0.171414062380790710449218750000 0.024051345884799960744837576954 0.003222199389711021943333291162 0.000147252736496739089488983154 0 0 0 0 
2403333333.3333334923 0.171254009008407592773437500000 0.022805355489254001272181326954 0.003289500018581748008728027344 -0.000346481218002736622661036359 0 0 0 0 
2403500000.0000000000 0.171191453933715792556924384371 0.021748846396803859365443045704 0.003204655367881060080287314307 -0.000277279352303594405024927960 0 0 0 0 
2403666666.6666665077 0.170924797654151888748330634371 0.020403243601322170602818673046 0.003282453166320919990539550781 -0.000304308865452185273170471191 0 0 0 0 
2403833333.3333334923 0.170729041099548312088174384371 0.019189737737178799020787423046 0.003276073373854159875157021631 -0.000587373913731426000595092773 0 0 0 0 
2404000000.0000000000 0.170610681176185607910156250000 0.018039507791399959218958670704 0.003172096097841858863830566406 -0.000603604421485215425491333008 0 0 0 0 
2404166666.6666665077 0.170435309410095187088174384371 0.016641318798065189016321951954 0.003343485295772552923915243994 -0.000545444723684340715408325195 0 0 0 0 
2404333333.3333334923 0.170477539300918606857138115629 0.015290645882487300527552420704 0.003396221203729509873631142725 -0.000824339920654892921447753906 0 0 0 0 
2404500000.0000000000 0.170084893703460693359375000000 0.013829285278916360682477382227 0.003429339965805410905125283350 -0.000872930861078202724456787109 0 0 0 0 
2404666666.6666665077 0.170187115669250488281250000000 0.012529934756457810837715349805 0.003369567915797234015223837744 -0.001207683118991554000257182544 0 0 0 0 
2404833333.3333334923 0.170220449566841097732705634371 0.010994112119078639638880545704 0.003276938572525978088378906250 -0.001153163379058242061017680591 0 0 0 0 
2405000000.0000000000 0.170089185237884493728799384371 0.009407017379999160766601562500 0.003343429416418075995204306494 -0.001508489716798067092895507812 0 0 0 0 
2405166666.6666665077 0.169973835349083002288494981258 0.008001501671969890594482421875 0.003250456880778073830845498193 -0.001529903034679592089412070166 0 0 0 0 
2405333333.3333334923 0.170059189200401306152343750000 0.006467076484113931655883789062 0.003073947736993432044982910156 -0.001862310455180705027339316260 0 0 0 0 
2405500000.0000000000 0.169953495264053289215411268742 0.004840734880417585372924804688 0.003256699303165078163146972656 -0.001812663045711814923527382959 0 0 0 0 
2405666666.6666665077 0.169988512992858886718750000000 0.003300307784229516983032226562 0.003061056369915605025050497900 -0.002055656630545855002162314307 0 0 0 0 
2405833333.3333334923 0.169796362519264193435830634371 0.001735457102768122933031391675 0.002921176608651876015904091943 -0.002050584880635141892674111475 0 0 0 0 
2406000000.0000000000 0.169806659221649197677450615629 -0.000025143202947219830343519517 0.002718521282076836066005087744 -0.002212003339082003073451376807 0 0 0 0 
2406166666.6666665077 0.169548422098159790039062500000 -0.001464265049435198090196919019 0.002735986141487956047058105469 -0.002397929085418581962585449219 0 0 0 0 
2406333333.3333334923 0.169723659753799410720986884371 -0.003300438169389963150024414062 0.002333301585167645974400185693 -0.002491760766133666038513183594 0 0 0 0 
2406500000.0000000000 0.169492095708847101409588731258 -0.004811882507055997848510742188 0.002357442863285541968104697119 -0.002522326773032546043395996094 0 0 0 0 
2406666666.6666665077 0.169241636991500910003338731258 -0.006396412383764982223510742188 0.002247191499918698830845498193 -0.002670006360858678817749023438 0 0 0 0 
2406833333.3333334923 0.169240191578865106780682481258 -0.008093250915408134460449218750 0.002220434136688708825352334131 -0.002674414543434977965113974463 0 0 0 0 
2407000000.0000000000 0.169025629758834811111611884371 -0.009568898007273674011230468750 0.002068816218525170846226357568 -0.002729974454268813133239746094 0 0 0 0 
2407166666.6666665077 0.169125482439994812011718750000 -0.010831981897354129446009451954 0.001815560972318053028703999097 -0.002885756082832812829258584131 0 0 0 0 
2407333333.3333334923 0.168757870793342590332031250000 -0.012360379099845889699915701954 0.001610575476661324934718466650 -0.003007044782862066788914345850 0 0 0 0 
2407500000.0000000000 0.168621331453323392013388115629 -0.013581885024905209977119646680 0.001573732588440180041669536060 -0.002877791645005344910862588037 0 0 0 0 
2407666666.6666665077 0.168590083718299893478231865629 -0.014816999435424809891670427930 0.001368437893688678958295512622 -0.002993220463395119147059775244 0 0 0 0 
2407833333.3333334923 0.168371498584747286697549384371 -0.016080580651760101318359375000 0.001161665422841906981227255713 -0.002852074801921844916102743994 0 0 0 0 
2408000000.0000000000 0.168379157781601007659588731258 -0.017231428995728489267369454296 0.001020989031530916907666850513 -0.002743677468970417976379394531 0 0 0 0 
2408166666.6666665077 0.168312072753906305511151231258 -0.018183024600148200988769531250 0.001022047479636966965318989331 -0.002839083084836602210998535156 0 0 0 0 
2408333333.3333334923 0.168542549014091491699218750000 -0.019149847328662868845006173046 0.000636852462776005268096923828 -0.002823548624292016029357910156 0 0 0 0 
2408500000.0000000000 0.168423414230346707443075615629 -0.020131807774305340158482735546 0.000600469298660755157470703125 -0.002657051431015133857727050781 0 0 0 0 
2408666666.6666665077 0.168577447533607510665731865629 -0.020922018215060230600377266796 0.000464719603769481182098388672 -0.002622762927785515785217285156 0 0 0 0 
2408833333.3333334923 0.168630719184875488281250000000 -0.021799499168992039072056954296 0.000552891287952661514282226562 -0.002559405053034425215480185400 0 0 0 0 
2409000000.0000000000 0.168768420815467806717080634371 -0.022759001702070239675501639454 0.000358846737071871811717432843 -0.002469916362315415902378701318 0 0 0 0 
2409166666.6666665077 0.168969705700874300857705634371 -0.023681655526161190378209298046 0.000276622828096151406138819562 -0.002209058497101068930384970557 0 0 0 0 
2409333333.3333334923 0.169220045208930996993856865629 -0.024479011073708530771275704296 0.000238374894252046888500767841 -0.002242810558527708053588867188 0 0 0 0 
2409500000.0000000000 0.169256553053855895996093750000 -0.025438128039240840566614920704 0.000204668453079648288801470346 -0.002160086296498775915858603369 0 0 0 0 
2409666666.6666665077 0.169557720422744806487713731258 -0.026166580617427829397181326954 0.000239222834352403906270703726 -0.001953964587301015853881835938 0 0 0 0 
2409833333.3333334923 0.169575750827789306640625000000 -0.027030270546674728393554687500 0.000325757806422188878059387207 -0.002053012140095233917236328125 0 0 0 0 
2410000000.0000000000 0.169878497719764709472656250000 -0.027970485389232638967493826954 0.000276958424365148002475184308 -0.002069070702418684959411621094 0 0 0 0 
2410166666.6666665077 0.169946432113647488693075615629 -0.028784105554223060607910156250 0.000410631881095468997955322266 -0.002024807967245579199550009619 0 0 0 0 
2410333333.3333334923 0.169796481728553799728231865629 -0.029749665409326549875279610546 0.000504762690979987382888793945 -0.001886098994873464107513427734 0 0 0 0 
2410500000.0000000000 0.169911742210388211349325615629 -0.030425170436501499521275704296 0.000452254869742318987846374512 -0.002029955619946122169494628906 0 0 0 0 
2410666666.6666665077 0.169670701026916503906250000000 -0.031531699001789093017578125000 0.000448133127065375501483363019 -0.002041617175564169883728027344 0 0 0 0 
2410833333.3333334923 0.169902622699737604339276231258 -0.032444424927234649658203125000 0.000491097045596688985824584961 -0.002006321679800748825073242188 0 0 0 0 
2411000000.0000000000 0.169545099139213589767294365629 -0.033152621239423751831054687500 0.000533382350113242864608764648 -0.002014794154092669920680380713 0 0 0 0 
2411166666.6666665077 0.169564336538314791580361884371 -0.033919412642717361450195312500 0.000531179772224277257919311523 -0.002124414546415210203883505713 0 0 0 0 
2411333333.3333334923 0.169120907783508300781250000000 -0.034894794225692749023437500000 0.000679113785736262798309326172 -0.002170602092519402937648154150 0 0 0 0 
2411500000.0000000000 0.168870076537132290939169365629 -0.035939596593379967426340471093 0.000686420884449034929275512695 -0.002192907966673374176025390625 0 0 0 0 
2411666666.6666665077 0.168887063860893305022869981258 -0.036664873361587517475168596093 0.000712657929398119449615478516 -0.002442620228976010842564248193 0 0 0 0 
2411833333.3333334923 0.168570905923843411544638115629 -0.037339314818382263183593750000 0.000692105328198522329330444336 -0.002497865352779626846313476562 0 0 0 0 
2412000000.0000000000 0.168255925178527804275674384371 -0.038225956261157989501953125000 0.000726503611076623201370239258 -0.002442761790007352828979492188 0 0 0 0 
2412166666.6666665077 0.167889237403869601150674384371 -0.039121061563491821289062500000 0.000684411032125353813171386719 -0.002666258718818426132202148438 0 0 0 0 
2412333333.3333334923 0.167651757597923306564169365629 -0.040081772953271872783620466407 0.000606780231464654207229614258 -0.002881343476474285125732421875 0 0 0 0 
2412500000.0000000000 0.167186632752418490310830634371 -0.041135624051094062114675153907 0.000538058055099099874496459961 -0.003039529547095299200770712744 0 0 0 0 
2412666666.6666665077 0.166809648275375393966513115629 -0.042034920305013656616210937500 0.000603192835114896297454833984 -0.003045677440240979194641113281 0 0 0 0 
2412833333.3333334923 0.166381061077117892166299384371 -0.042876198887825012207031250000 0.000367171422112733125686645508 -0.003276882227510213851928710938 0 0 0 0 
2413000000.0000000000 0.166040137410163907150106865629 -0.043922189623117446899414062500 0.000216889020521193688541966571 -0.003477589925751090049743652344 0 0 0 0 
2413166666.6666665077 0.165543988347053500076455634371 -0.045029766857624047016184221093 0.000016582936950726441364695890 -0.003644218435510993003845214844 0 0 0 0 
2413333333.3333334923 0.164887651801109286209268134371 -0.045920211821794509887695312500 -0.000204677839064970612525939941 -0.003661120776087046103236533057 0 0 0 0 
2413500000.0000000000 0.164374202489852905273437500000 -0.047094859182834632183034528907 -0.000434601155575364773899632587 -0.003717567073181271986720419775 0 0 0 0 
2413666666.6666665077 0.163959860801696805099325615629 -0.048044174909591681743581403907 -0.000592776981648057699203491211 -0.003671872662380338148829794775 0 0 0 0 
2413833333.3333334923 0.163483411073684692382812500000 -0.048878081142902367328684221093 -0.001030439278110861995099711841 -0.003693687729537487030029296875 0 0 0 0 
2414000000.0000000000 0.162878662347793606857138115629 -0.049982529133558273315429687500 -0.001161518157459795908686972510 -0.003836162155494093894958496094 0 0 0 0 
2414166666.6666665077 0.162451118230819702148437500000 -0.051061064004898071289062500000 -0.001483490224927664019941020435 -0.003782694693654776053187704932 0 0 0 0 
2414333333.3333334923 0.162037402391433688064736884371 -0.052052862942218780517578125000 -0.001776612829416990063310932690 -0.003625030163675547079799033057 0 0 0 0 
2414500000.0000000000 0.161929860711097689529580634371 -0.052778631448745727539062500000 -0.001890524756163358905194926685 -0.003588177496567368941066122900 0 0 0 0 
2414666666.6666665077 0.161530911922454806228799384371 -0.053827513009309768676757812500 -0.002055014017969369888305664062 -0.003468541661277412934544228662 0 0 0 0 
2414833333.3333334923 0.161186009645462008377236884371 -0.054981991648674011230468750000 -0.002137774368748068809509277344 -0.003242904320359230041503906250 0 0 0 0 
2415000000.0000000000 0.160728245973587008377236884371 -0.055975314229726791381835937500 -0.002376066520810126824619912256 -0.003169867908582090897801064600 0 0 0 0 
2415166666.6666665077 0.160557687282562311370526231258 -0.057237856090068817138671875000 -0.002653190633282064957859658350 -0.002882834291085600852966308594 0 0 0 0 
2415333333.3333334923 0.160338968038558987716513115629 -0.058272272348403930664062500000 -0.002635617041960359053370810400 -0.002849677577614783807041787256 0 0 0 0 
2415500000.0000000000 0.160206362605094909667968750000 -0.059413410723209381103515625000 -0.002794858301058412031886435400 -0.002459045732393860816955566406 0 0 0 0 
2415666666.6666665077 0.159896478056907709319744981258 -0.060756873339414596557617187500 -0.002736200578510760827305459131 -0.002333937212824821905848837744 0 0 0 0 
2415833333.3333334923 0.159905135631561307052450615629 -0.061992835253477096557617187500 -0.002907562069594860076904296875 -0.002195327077060937881469726562 0 0 0 0 
2416000000.0000000000 0.159634619951248196700888115629 -0.063221126794815063476562500000 -0.002905035624280571937561035156 -0.002271307865157722993137978662 0 0 0 0 
2416166666.6666665077 0.159558117389679010589276231258 -0.064459890127182006835937500000 -0.002805257448926568031311035156 -0.002058734884485601945164345850 0 0 0 0 
2416333333.3333334923 0.159251660108566311935263115629 -0.065634526312351226806640625000 -0.002967015374451876120326376807 -0.001831883448176085948944091797 0 0 0 0 
2416500000.0000000000 0.159044951200485201736611884371 -0.066986463963985443115234375000 -0.002938515506684780120849609375 -0.001744954730384052016614604419 0 0 0 0 
2416666666.6666665077 0.158817231655120905120526231258 -0.068129621446132659912109375000 -0.002908619586378335952758789062 -0.001582947559654712893842387622 0 0 0 0 
2416833333.3333334923 0.158550277352333096603231865629 -0.069432698190212249755859375000 -0.002971180016174912886378622900 -0.001585802529007195992710732568 0 0 0 0 
2417000000.0000000000 0.157965779304504394531250000000 -0.070525430142879486083984375000 -0.003015411784872413115260458838 -0.001565887127071619033813476562 0 0 0 0 
2417166666.6666665077 0.157702386379241887848223768742 -0.071492776274681091308593750000 -0.002904121531173586845397949219 -0.001420137821696699099299765479 0 0 0 0 
2417333333.3333334923 0.157457470893859891036825615629 -0.072652637958526611328125000000 -0.003034504596143960952758789062 -0.001479306374676526026484824072 0 0 0 0 
2417500000.0000000000 0.157166704535484286209268134371 -0.073768667876720428466796875000 -0.003198394551873207092285156250 -0.001280406839214264912846230615 0 0 0 0 
2417666666.6666665077 0.157039299607276888748330634371 -0.074690118432044982910156250000 -0.003184135304763913154602050781 -0.001187172019854187965393066406 0 0 0 0 
2417833333.3333334923 0.156768694519996587555255018742 -0.075572557747364044189453125000 -0.003348084399476646943333291162 -0.001105843693949281952501606519 0 0 0 0 
2418000000.0000000000 0.156359568238258389571981865629 -0.076450966298580169677734375000 -0.003212453564628959135768271338 -0.000924601103179156780242919922 0 0 0 0 
2418166666.6666665077 0.156114384531974792480468750000 -0.077253714203834533691406250000 -0.003407064592465757889988564600 -0.000878625607583671808242797852 0 0 0 0 
2418333333.3333334923 0.156071841716766412933026231258 -0.078221276402473449707031250000 -0.003455429337918757958653115381 -0.000618932128418236970901489258 0 0 0 0 
2418500000.0000000000 0.155725017189979608733807481258 -0.078949682414531707763671875000 -0.003467299276962875886204384912 -0.000453961343737319111824035645 0 0 0 0 
2418666666.6666665077 0.155659526586532592773437500000 -0.079810507595539093017578125000 -0.003419562941417098045349121094 -0.000296426092972979003756922589 0 0 0 0 
2418833333.3333334923 0.155280068516731289962606865629 -0.080548830330371856689453125000 -0.003287526546046137809753417969 -0.000231426136451773399680537091 0 0 0 0 
2419000000.0000000000 0.154860898852348299881143134371 -0.081232339143753051757812500000 -0.003402613103389739990234375000 -0.000036910354538122192025184631 0 0 0 0 
2419166666.6666665077 0.154747560620307894607705634371 -0.081889539957046508789062500000 -0.003280120901763439178466796875 0.000122299345093779292985639029 0 0 0 0 
2419333333.3333334923 0.154321819543838500976562500000 -0.082362115383148193359375000000 -0.003115668427199124856236123193 0.000192316569155082106590270996 0 0 0 0 
2419500000.0000000000 0.154215082526206997970419365629 -0.083266951143741607666015625000 -0.003159627085551619963404990088 0.000319931306876242215007227765 0 0 0 0 
2419666666.6666665077 0.153820902109146090408486884371 -0.083890236914157867431640625000 -0.003023379016667604012730263818 0.000501643109600991010665893555 0 0 0 0 
2419833333.3333334923 0.153542757034301813323651231258 -0.084295563399791717529296875000 -0.002841694047674537138697958838 0.000433616078225895816653651105 0 0 0 0 
