# Hz S RI R 50
2400000000.0000000000 0.173684179782867403885049384371 0.049137666821479797363281250000 0.003808917012065649032592773438 0.001529515022411942915675497900 0 0 0 0 
2400166666.6666665077 0.174151748418808011154013115629 0.048748619854450232768972028907 0.003753996221348642869236611475 0.001325452816672622940660786206 0 0 0 0 
2400333333.3333334923 0.174601584672927911956463731258 0.047889415174722671508789062500 0.003705906448885798887965536963 0.001330629806034266948699951172 0 0 0 0 
2400500000.0000000000 0.175164625048637390136718750000 0.047240007668733596801757812500 0.003763199783861637115478515625 0.001270294655114412090898823315 0 0 0 0 
2400666666.6666665077 0.175116717815399197677450615629 0.046431045979261398315429687500 0.003612121799960732893702841650 0.001010367996059357903124165112 0 0 0 0 
2400833333.3333334923 0.175485268235206604003906250000 0.046039246022701263427734375000 0.003633219050243496894836425781 0.001018990646116435961482382666 0 0 0 0 
2401000000.0000000000 0.175503179430961608886718750000 0.045410241931676871562917341407 0.003435325575992465019226074219 0.000872912001796066761016845703 0 0 0 0 
2401166666.6666665077 0.175685748457908602615518134371 0.044698420912027359008789062500 0.003398332512006164030787802588 0.000983488163910806179046630859 0 0 0 0 
2401333333.3333334923 0.175561100244522094726562500000 0.043978087604045867919921875000 0.003536364762112497849705361475 0.000992156332358717918395996094 0 0 0 0 
2401500000.0000000000 0.175824120640754699707031250000 0.043178286403417587280273437500 0.003494224976748228073120117188 0.000831537647172808647155761719 0 0 0 0 
2401666666.6666665077 0.175474435091018704513388115629 0.042750481516122817993164062500 0.003543917322531342940089560400 0.000755610002670437097549438477 0 0 0 0 
2401833333.3333334923 0.175426453351974487304687500000 0.041790667921304702758789062500 0.003444301197305322127101279150 0.001054834458045661015751504053 0 0 0 0 
2402000000.0000000000 0.175168156623840304275674384371 0.041089497506618499755859375000 0.003396633779630064964294433594 0.000894688651897013187408447266 0 0 0 0 
2402166666.6666665077 0.174985826015472412109375000000 0.039953913539648062969167341407 0.003374252002686262130737304688 0.000823700858745723962783813477 0 0 0 0 
2402333333.3333334923 0.174739986658096313476562500000 0.039111740887165069580078125000 0.003572077024728060202357626807 0.001010552863590419075609516675 0 0 0 0 
2402500000.0000000000 0.174748271703720092773437500000 0.037911996245384223247487653907 0.003662981791421771049499511719 0.000828072545118629932403564453 0 0 0 0 
2402666666.6666665077 0.174420118331909207443075615629 0.037073463201522827148437500000 0.003592521650716661973240517725 0.000934584240894764661788940430 0 0 0 0 
2402833333.3333334923 0.173960387706756591796875000000 0.035946775227785110473632812500 0.003602898679673672156092978369 0.000803208502475172281265258789 0 0 0 0 
2403000000.0000000000 0.173667177557945306975994981258 0.034549444913864142681081403907 0.003662304487079381942749023438 0.000764128169976174831390380859 0 0 0 0 
2403166666.6666665077 0.173328861594200106521768134371 0.033155083656311042095143903907 0.003739455249160528182983398438 0.000911698502022773027420043945 0 0 0 0 
2403333333.3333334923 0.173020794987678500076455634371 0.031594023108482360839843750000 0.003849831176921724839451455225 0.000811987498309463262557983398 0 0 0 0 
2403500000.0000000000 0.172364547848701504806356865629 0.030143236741423610342005545704 0.004083365667611361417288495801 0.000885379209648817777633666992 0 0 0 0 
2403666666.6666665077 0.172103866934776306152343750000 0.028231810778379440307617187500 0.003949343226850032806396484375 0.000630716909654438495635986328 0 0 0 0 
2403833333.3333334923 0.171916455030441311935263115629 0.026749607175588611257532889454 0.004247739445418119430541992188 0.000635904783848673105239868164 0 0 0 0 
2404000000.0000000000 0.171509802341461209396200615629 0.024987660348415381694753278907 0.004451683256775140762329101562 0.000620377657469362020492553711 0 0 0 0 
2404166666.6666665077 0.170895889401435907561932481258 0.022909499704837799072265625000 0.004386234562844038009643554688 0.000690934888552874326705932617 0 0 0 0 
2404333333.3333334923 0.170728668570518493652343750000 0.021117400377988818777064139454 0.004587975796312093734741210938 0.000464523880509659702151697980 0 0 0 0 
2404500000.0000000000 0.170409351587295504470986884371 0.019054949283599850046178048046 0.004861480090767145156860351562 0.000236977590247988700866699219 0 0 0 0 
2404666666.6666665077 0.170130878686904907226562500000 0.017183275893330570566197579296 0.004839750938117504119873046875 0.000145216094097122604220789777 0 0 0 0 
2404833333.3333334923 0.169891551136970492263955634371 0.015172790735960010183314139454 0.005076208617538213729858398438 0.000024656355890328999271596602 0 0 0 0 
2405000000.0000000000 0.169771403074264498611611884371 0.012993792071938519913643084180 0.005252931732684373855590820312 -0.000140070900670252713278093881 0 0 0 0 
2405166666.6666665077 0.169678077101707486251669365629 0.011015095748007299250592616602 0.005269927438348531723022460938 -0.000291769683826714808314722882 0 0 0 0 
2405333333.3333334923 0.169603541493415804763955634371 0.008864875882863998413085937500 0.005439724773168563842773437500 -0.000513579929247498512268066406 0 0 0 0 
2405500000.0000000000 0.169655591249465886871661268742 0.006774766370654106140136718750 0.005357770249247550964355468750 -0.000594362674746662378311157227 0 0 0 0 
2405666666.6666665077 0.169822216033935602386151231258 0.004811921622604131698608398438 0.005575773771852254867553710938 -0.000948920729570090770721435547 0 0 0 0 
2405833333.3333334923 0.169934943318367004394531250000 0.002881618682295083999633789062 0.005491527263075113296508789062 -0.001265633036382495923283242334 0 0 0 0 
2406000000.0000000000 0.170409813523292513748330634371 0.000585349742323160171508789062 0.005474077071994543075561523438 -0.001571483910083770968793559497 0 0 0 0 
2406166666.6666665077 0.170516744256019592285156250000 -0.001200514379888772964477539062 0.005535665899515151977539062500 -0.001857744297012686946271586841 0 0 0 0 
2406333333.3333334923 0.171104148030281094650106865629 -0.003317915368825196786167763818 0.005562753882259131345267011426 -0.001935314270667731978772807544 0 0 0 0 
2406500000.0000000000 0.171445474028587313553018134371 -0.005131581798195838928222656250 0.005427936557680368423461914062 -0.002116963034495710892918252100 0 0 0 0 
2406666666.6666665077 0.171879440546035794357138115629 -0.007158783730119466781616210938 0.005594094283878803253173828125 -0.002547864103689790205714560400 0 0 0 0 
2406833333.3333334923 0.172544553875923212249432481258 -0.009061645716428756713867187500 0.005263046827167272567749023438 -0.002750474028289318084716796875 0 0 0 0 
2407000000.0000000000 0.173176869750022888183593750000 -0.010973884724080560856829258398 0.005272631999105215072631835938 -0.002947998698800801797154091943 0 0 0 0 
2407166666.6666665077 0.173940300941467312911825615629 -0.012676645070314410818079764454 0.005314664449542760848999023438 -0.003147959941998124122619628906 0 0 0 0 
2407333333.3333334923 0.174529716372489901443643134371 -0.014560678973793979990025704296 0.005098633933812379837036132812 -0.003436719067394732995274209131 0 0 0 0 
2407500000.0000000000 0.175296783447265597244424384371 -0.016080297529697421682337576954 0.005153463687747716903686523438 -0.003658799687400459809544228662 0 0 0 0 
2407666666.6666665077 0.176124230027198791503906250000 -0.017711468040943149221400076954 0.004912863951176404953002929688 -0.003967309836298227310180664062 0 0 0 0 
2407833333.3333334923 0.176701620221138000488281250000 -0.019508915022015571594238281250 0.004946142435073853406424237988 -0.004211192484945058822631835938 0 0 0 0 
2408000000.0000000000 0.177768930792808504959268134371 -0.020993571728467941284179687500 0.004855512641370297345633222363 -0.004432735033333302411551191113 0 0 0 0 
2408166666.6666665077 0.178274899721145602127236884371 -0.022334974259138110769251639454 0.004722313955426216125488281250 -0.004621925763785839080810546875 0 0 0 0 
2408333333.3333334923 0.179213047027587890625000000000 -0.023625053465366360055943673046 0.004438389092683792114257812500 -0.004952425137162209424490644238 0 0 0 0 
2408500000.0000000000 0.179777637124061612228231865629 -0.024887265637516978872278983204 0.004350025206804276380057050488 -0.004980488680303096771240234375 0 0 0 0 
2408666666.6666665077 0.180520653724670410156250000000 -0.026158934459090229379674141796 0.004246132448315620422363281250 -0.005277468822896481427664472363 0 0 0 0 
2408833333.3333334923 0.181012019515037508865518134371 -0.027304351329803470266321951954 0.003941898234188556671142578125 -0.005479069892317056655883789062 0 0 0 0 
2409000000.0000000000 0.181509092450141906738281250000 -0.028195250779390338552454764454 0.003737478749826550917384482275 -0.005645018070936203002929687500 0 0 0 0 
2409166666.6666665077 0.182077288627624511718750000000 -0.029103606939315799367884451954 0.003615377238020300865173339844 -0.005907373968511819839477539062 0 0 0 0 
2409333333.3333334923 0.182584062218666104415731865629 -0.029814200475811958312988281250 0.003300177166238427162170410156 -0.006032811943441629409790039062 0 0 0 0 
2409500000.0000000000 0.182816937565803500076455634371 -0.030791588127613071096400076954 0.003009190084412693977355957031 -0.006068461574614048004150390625 0 0 0 0 
2409666666.6666665077 0.183242782950401306152343750000 -0.031255885958671569824218750000 0.002903418848291039900538779150 -0.006346791051328182220458984375 0 0 0 0 
2409833333.3333334923 0.183524921536445589920205634371 -0.031722865998744971538503278907 0.002571159042418003082275390625 -0.006291727069765329360961914062 0 0 0 0 
2410000000.0000000000 0.183870255947113009353799384371 -0.032286826521158218383789062500 0.002366078319028019905090332031 -0.006484567653387784957885742188 0 0 0 0 
2410166666.6666665077 0.184086173772811889648437500000 -0.032582398504018776630442033593 0.002123763784766197204589843750 -0.006509386468678712844848632812 0 0 0 0 
2410333333.3333334923 0.184036582708358792404013115629 -0.032909952104091637348215471093 0.001894121058285235924961709131 -0.006529162172228097915649414062 0 0 0 0 
2410500000.0000000000 0.184178203344345092773437500000 -0.033304311335086822509765625000 0.001575140282511710903765034253 -0.006870421580970287322998046875 0 0 0 0 
2410666666.6666665077 0.183845356106758089920205634371 -0.033820386976003646850585937500 0.001446224167011678002001118237 -0.006997696124017238616943359375 0 0 0 0 
2410833333.3333334923 0.183823779225349398513955634371 -0.034089922904968261718750000000 0.001164167071692645983455038916 -0.006893416400998830795288085938 0 0 0 0 
2411000000.0000000000 0.183513730764389010330361884371 -0.034292668104171752929687500000 0.000918288191314786672592163086 -0.006957709323614835739135742188 0 0 0 0 
2411166666.6666665077 0.183199554681778009612713731258 -0.034499984234571456909179687500 0.000704744190443307161331176758 -0.007112230174243450164794921875 0 0 0 0 
2411333333.3333334923 0.182821214199066189864950615629 -0.034844376146793372417409528907 0.000378819910110905820697230206 -0.007149110548198223114013671875 0 0 0 0 
2411500000.0000000000 0.182109221816062899490518134371 -0.035315789282321929931640625000 0.000218553264858201200335902081 -0.007249482907354831695556640625 0 0 0 0 
2411666666.6666665077 0.181761384010314913650674384371 -0.035699006170034408569335937500 -0.000191680694115348187371930533 -0.007209325209259986877441406250 0 0 0 0 
2411833333.3333334923 0.180910289287567110916299384371 -0.036047082394361502910573591407 -0.000562949164304882287979125977 -0.007415040396153926849365234375 0 0 0 0 
2412000000.0000000000 0.180092155933380099197549384371 -0.036454066634178161621093750000 -0.000802753260359168052673339844 -0.007471454329788684844970703125 0 0 0 0 
2412166666.6666665077 0.179173111915588406661825615629 -0.037134263664484017108957658593 -0.001053662388585508086560893481 -0.007263693492859601974487304688 0 0 0 0 
2412333333.3333334923 0.178427144885063199142294365629 -0.037477266043424613262136091407 -0.001231515430845320007921528394 -0.007336837239563465118408203125 0 0 0 0 
2412500000.0000000000 0.177160650491714505294638115629 -0.038167592138051986694335937500 -0.001542706391774117946624755859 -0.007329422514885663986206054688 0 0 0 0 
2412666666.6666665077 0.176176175475120488922442518742 -0.038952529430389397357981096093 -0.001981236506253480911254882812 -0.007267365232110024365896894238 0 0 0 0 
2412833333.3333334923 0.175008103251457186599893134371 -0.039608076214790337299387346093 -0.002140503143891692161560058594 -0.007157047279179096221923828125 0 0 0 0 
2413000000.0000000000 0.173662960529327392578125000000 -0.040383003652095801616628278907 -0.002447451930493115945103310693 -0.007066289894282817840576171875 0 0 0 0 
2413166666.6666665077 0.172421485185623196700888115629 -0.041201889514923102642018903907 -0.002730738604441285133361816406 -0.007011967711150646209716796875 0 0 0 0 
2413333333.3333334923 0.171080544590950012207031250000 -0.042190231382846832275390625000 -0.003039607545360922813415527344 -0.006840907502919436368460370801 0 0 0 0 
2413500000.0000000000 0.169817432761192294021768134371 -0.043296519666910171508789062500 -0.003415549872443079948425292969 -0.006798211485147476196289062500 0 0 0 0 
2413666666.6666665077 0.168444320559501703460369981258 -0.044319827109575271606445312500 -0.003626002697274088859558105469 -0.006640034262090921401977539062 0 0 0 0 
2413833333.3333334923 0.167185619473457308670205634371 -0.045454096049070358276367187500 -0.004012522287666797637939453125 -0.006620666943490505218505859375 0 0 0 0 
2414000000.0000000000 0.165772125124931307693643134371 -0.046920932829380042339284528907 -0.004298180807381868362426757812 -0.006326517555862665176391601562 0 0 0 0 
2414166666.6666665077 0.164478942751884488204794365629 -0.048148997128009803081472028907 -0.004504016134887933731079101562 -0.006084439344704151153564453125 0 0 0 0 
2414333333.3333334923 0.163284376263618496993856865629 -0.049637693911790847778320312500 -0.004741067066788673400878906250 -0.005829578731209039688110351562 0 0 0 0 
2414500000.0000000000 0.162200346589088412185830634371 -0.051068030297756202007253278907 -0.005054129753261804580688476562 -0.005665748845785856246948242188 0 0 0 0 
2414666666.6666665077 0.161050960421562194824218750000 -0.052589278668165206909179687500 -0.005311186425387859344482421875 -0.005531736183911561965942382812 0 0 0 0 
2414833333.3333334923 0.159986883401870699783486884371 -0.054336920380592353130300153907 -0.005373613908886910352225019238 -0.005086930003017187118530273438 0 0 0 0 
2415000000.0000000000 0.158841937780380304534588731258 -0.055874042212963097309152971093 -0.005744515452533960342407226562 -0.004979722667485476407522870801 0 0 0 0 
2415166666.6666665077 0.157870247960090609451455634371 -0.057820804417133331298828125000 -0.005863375961780548095703125000 -0.004798781126737594604492187500 0 0 0 0 
2415333333.3333334923 0.157237723469734191894531250000 -0.059574224054813391948659528907 -0.005812691990286111831665039062 -0.004342023283243179321289062500 0 0 0 0 
2415500000.0000000000 0.156397596001625088790731865629 -0.061333220452070243144948591407 -0.006148222368210554122924804688 -0.004097700119018554687500000000 0 0 0 0 
2415666666.6666665077 0.155612125992774991134481865629 -0.063165247440338134765625000000 -0.006242791656404733657836914062 -0.003838945645838975906372070312 0 0 0 0 
2415833333.3333334923 0.154937639832496587555255018742 -0.065223835408687591552734375000 -0.006326154805719851580148027637 -0.003533270442858337922337197412 0 0 0 0 
2416000000.0000000000 0.154291734099388094803018134371 -0.067093059420585632324218750000 -0.006452755536884068575387285449 -0.003219399368390440940856933594 0 0 0 0 
2416166666.6666665077 0.153996437788009588043536268742 -0.069018281996250152587890625000 -0.006444353144615888595581054688 -0.002949441783130168914794921875 0 0 0 0 
2416333333.3333334923 0.153433442115783691406250000000 -0.070943817496299743652343750000 -0.006546761840581893920898437500 -0.002598836785182356834411621094 0 0 0 0 
2416500000.0000000000 0.153130963444709805587606865629 -0.073121704161167144775390625000 -0.006625530309975147247314453125 -0.002298543928191065788269042969 0 0 0 0 
2416666666.6666665077 0.152692496776580810546875000000 -0.074970617890357971191406250000 -0.006559907924383878707885742188 -0.002026096219196916060206747900 0 0 0 0 
2416833333.3333334923 0.152592152357101412674111884371 -0.076964884996414184570312500000 -0.006608440540730953216552734375 -0.001774002332240343093872070312 0 0 0 0 
2417000000.0000000000 0.152171343564987210372763115629 -0.078955389559268951416015625000 -0.006658558733761310577392578125 -0.001400703680701554038404155200 0 0 0 0 
2417166666.6666665077 0.152198567986488286774005018742 -0.080631673336029052734375000000 -0.006531414575874806317801191113 -0.001200760249048472101326967554 0 0 0 0 
2417333333.3333334923 0.152109324932098388671875000000 -0.082428269088268280029296875000 -0.006452060304582118988037109375 -0.001094804378226398988011025537 0 0 0 0 
2417500000.0000000000 0.152069643139839200118856865629 -0.084178991615772247314453125000 -0.006418271455913782119750976562 -0.000788526900578290224075317383 0 0 0 0 
2417666666.6666665077 0.152216941118240411956463731258 -0.085698708891868591308593750000 -0.006414874922484160336966230176 -0.000467810605186968987614232196 0 0 0 0 
2417833333.3333334923 0.152293533086776705642861884371 -0.087255388498306274414062500000 -0.006217263173311948776245117188 -0.000275478174444288015365600586 0 0 0 0 
2418000000.0000000000 0.152350887656211908538494981258 -0.088748253881931304931640625000 -0.006288749165832996368408203125 -0.000084545659774448722600936890 0 0 0 0 
2418166666.6666665077 0.152473866939544705489950615629 -0.089936144649982452392578125000 -0.006084352266043424606323242188 0.000126278842799365493372240610 0 0 0 0 
2418333333.3333334923 0.152855724096298190017861884371 -0.091361001133918762207031250000 -0.006238284520804882049560546875 0.000322259555105119889408665790 0 0 0 0 
2418500000.0000000000 0.152988910675048800369424384371 -0.092462368309497833251953125000 -0.006173050962388516339773847363 0.000544032023753970861434936523 0 0 0 0 
2418666666.6666665077 0.153281852602958706954794365629 -0.093516416847705841064453125000 -0.005976689979434013366699218750 0.000713833025656640529632568359 0 0 0 0 
2418833333.3333334923 0.153297215700149508377236884371 -0.094450548291206359863281250000 -0.005870486609637737274169921875 0.000815127452369779348373413086 0 0 0 0 
2419000000.0000000000 0.153472796082496587555255018742 -0.095120057463645935058593750000 -0.005869637709110975265502929688 0.000994413043372333049774169922 0 0 0 0 
2419166666.6666665077 0.153709962964057894607705634371 -0.095875017344951629638671875000 -0.005841432139277458190917968750 0.001316068577580153942108154297 0 0 0 0 
2419333333.3333334923 0.153767228126525906661825615629 -0.096233673393726348876953125000 -0.005811658687889575958251953125 0.001343089970760047002079629053 0 0 0 0 
2419500000.0000000000 0.154119923710823086837606865629 -0.096969567239284515380859375000 -0.005899670533835887908935546875 0.001563314814120531082153320312 0 0 0 0 
2419666666.6666665077 0.154363527894020108321981865629 -0.097293451428413391113281250000 -0.005673663690686225891113281250 0.001811163849197328090667724609 0 0 0 0 
2419833333.3333334923 0.154375419020652798751669365629 -0.097309291362762451171875000000 -0.005646154284477233886718750000 0.002095597330480813980102539062 0 0 0 0 
