# Version 1.00
#
freq[Hz];re:Trc1_S11;im:Trc1_S11;re:Trc2_S21;im:Trc2_S21;
2.400000000000000E+009;1.574727445840836E-001;6.297976523637772E-002;2.024228684604168E-003;-5.463246488943696E-004;
2.400166666666667E+009;1.573688834905624E-001;6.122609600424767E-002;2.036099787801504E-003;-7.351247477345169E-004;
2.400333333333334E+009;1.572338193655014E-001;5.942836776375771E-002;2.190956613048911E-003;-7.643706630915403E-004;
2.400500000000000E+009;1.572558879852295E-001;5.734369903802872E-002;2.148078987374902E-003;-8.427947177551687E-004;
2.400666666666667E+009;1.572149693965912E-001;5.552976205945015E-002;2.159404102712870E-003;-7.947920821607113E-004;
2.400833333333334E+009;1.572179049253464E-001;5.351974442601204E-002;2.339370315894485E-003;-1.113605452701449E-003;
2.401000000000000E+009;1.574224382638931E-001;5.120890587568283E-002;2.218226902186871E-003;-1.311117317527533E-003;
2.401166666666667E+009;1.575066447257996E-001;4.913873970508575E-002;2.249229699373245E-003;-1.277473405934870E-003;
2.401333333333334E+009;1.578063815832138E-001;4.710276797413826E-002;2.370209665969014E-003;-1.593387569300830E-003;
2.401500000000000E+009;1.581326425075531E-001;4.514159262180328E-002;2.278590109199286E-003;-1.722775516100228E-003;
2.401666666666667E+009;1.584107577800751E-001;4.297255352139473E-002;2.345169661566615E-003;-1.881628064438701E-003;
2.401833333333334E+009;1.588190644979477E-001;4.081173613667488E-002;2.282032044604421E-003;-1.937941415235400E-003;
2.402000000000000E+009;1.591289341449738E-001;3.881717100739479E-002;2.135282615199685E-003;-2.272869693115354E-003;
2.402166666666667E+009;1.597590446472168E-001;3.683557733893395E-002;2.051084768027067E-003;-2.434702124446631E-003;
2.402333333333334E+009;1.604544520378113E-001;3.477188199758530E-002;1.952786464244127E-003;-2.635840559378266E-003;
2.402500000000000E+009;1.613683253526688E-001;3.303116932511330E-002;1.731017488054931E-003;-2.812280552461743E-003;
2.402666666666667E+009;1.619330495595932E-001;3.133076429367065E-002;1.752268173731864E-003;-2.918625948950648E-003;
2.402833333333334E+009;1.627043336629868E-001;2.963422052562237E-002;1.497245510108769E-003;-3.079455578699708E-003;
2.403000000000000E+009;1.636699885129929E-001;2.805244922637940E-002;1.322348602116108E-003;-3.291097935289145E-003;
2.403166666666667E+009;1.646390855312347E-001;2.649854123592377E-002;1.149695832282305E-003;-3.432163968682289E-003;
2.403333333333334E+009;1.654517650604248E-001;2.497628517448902E-002;9.784458670765162E-004;-3.367610508576036E-003;
2.403500000000000E+009;1.662521362304688E-001;2.358383685350418E-002;6.691784365102649E-004;-3.502035979181528E-003;
2.403666666666667E+009;1.674307584762573E-001;2.220225147902966E-002;5.722026107832789E-004;-3.560803597792983E-003;
2.403833333333334E+009;1.685885190963745E-001;2.090514637529850E-002;2.747812250163406E-004;-3.630707506090403E-003;
2.404000000000000E+009;1.694898009300232E-001;1.970499008893967E-002;1.073734092642553E-004;-3.716032020747662E-003;
2.404166666666667E+009;1.703556180000305E-001;1.873119361698628E-002;-1.493013987783343E-004;-3.756430465728045E-003;
2.404333333333334E+009;1.714048832654953E-001;1.767257042229176E-002;-4.116529598832130E-004;-3.682580543681979E-003;
2.404500000000000E+009;1.723404973745346E-001;1.669523678719997E-002;-6.302621331997216E-004;-3.551211906597018E-003;
2.404666666666667E+009;1.732910573482513E-001;1.584267057478428E-002;-9.681442170403898E-004;-3.510923357680440E-003;
2.404833333333334E+009;1.743374764919281E-001;1.513906102627516E-002;-8.764764643274248E-004;-3.437401959672570E-003;
2.405000000000000E+009;1.751626580953598E-001;1.452488265931606E-002;-1.138030551373959E-003;-3.425417002290487E-003;
2.405166666666667E+009;1.759983301162720E-001;1.368968561291695E-002;-1.323508098721504E-003;-3.279982367530465E-003;
2.405333333333334E+009;1.769440472126007E-001;1.303549669682980E-002;-1.481259474530816E-003;-3.092846600338817E-003;
2.405500000000000E+009;1.775425225496292E-001;1.283577643334866E-002;-1.590660656802356E-003;-3.113081445917487E-003;
2.405666666666667E+009;1.782058328390122E-001;1.246096659451723E-002;-1.827234751544893E-003;-3.012258559465408E-003;
2.405833333333334E+009;1.787354648113251E-001;1.205410063266754E-002;-1.867506885901094E-003;-2.802177099511027E-003;
2.406000000000000E+009;1.793757379055023E-001;1.149661839008331E-002;-1.858594012446702E-003;-2.664455911144614E-003;
2.406166666666667E+009;1.796854883432388E-001;1.143662072718144E-002;-2.022041240707040E-003;-2.712513320147991E-003;
2.406333333333334E+009;1.802572906017304E-001;1.107916608452797E-002;-2.176105277612805E-003;-2.567633287981153E-003;
2.406500000000000E+009;1.804325580596924E-001;1.082778163254261E-002;-2.264992566779256E-003;-2.279798267409205E-003;
2.406666666666667E+009;1.804949045181274E-001;1.063326094299555E-002;-2.369961002841592E-003;-2.301587490364909E-003;
2.406833333333334E+009;1.807821840047836E-001;1.041490118950605E-002;-2.449287334457040E-003;-2.124904422089458E-003;
2.407000000000000E+009;1.808960735797882E-001;9.964596480131149E-003;-2.370208036154509E-003;-2.044061198830605E-003;
2.407166666666667E+009;1.809525340795517E-001;9.654460474848747E-003;-2.488496480509639E-003;-1.823606202378869E-003;
2.407333333333334E+009;1.807126402854919E-001;9.336128830909729E-003;-2.533950610086322E-003;-1.822504447773099E-003;
2.407500000000000E+009;1.805860102176666E-001;8.846340700984001E-003;-2.666376763954759E-003;-1.677610329352319E-003;
2.407666666666667E+009;1.803537607192993E-001;8.555317297577858E-003;-2.640206133946776E-003;-1.491983071900904E-003;
2.407833333333334E+009;1.798427551984787E-001;7.849026471376419E-003;-2.605283167213202E-003;-1.404449692927301E-003;
2.408000000000000E+009;1.795128583908081E-001;7.187447510659695E-003;-2.724026795476675E-003;-1.252703834325075E-003;
2.408166666666667E+009;1.790811717510223E-001;6.790667772293091E-003;-2.754508284851909E-003;-1.198532409034669E-003;
2.408333333333334E+009;1.786251217126846E-001;5.936041940003634E-003;-2.681658370420337E-003;-1.166405272670090E-003;
2.408500000000000E+009;1.780494153499603E-001;5.057161673903465E-003;-2.694773022085428E-003;-1.033093314617872E-003;
2.408666666666667E+009;1.773075461387634E-001;4.194840323179960E-003;-2.713165944442153E-003;-7.314267568290234E-004;
2.408833333333334E+009;1.765735894441605E-001;3.203980159014463E-003;-2.628239104524255E-003;-7.492129225283861E-004;
2.409000000000000E+009;1.758538186550140E-001;2.052014926448464E-003;-2.643658313900232E-003;-7.016012095846236E-004;
2.409166666666667E+009;1.751184463500977E-001;9.759768145158887E-004;-2.627348294481635E-003;-6.604666123166680E-004;
2.409333333333334E+009;1.745085418224335E-001;-1.660543493926525E-004;-2.607952337712050E-003;-6.211417494341731E-004;
2.409500000000000E+009;1.736946403980255E-001;-1.671314937993884E-003;-2.698705531656742E-003;-5.371946026571095E-004;
2.409666666666667E+009;1.730134040117264E-001;-3.011205466464162E-003;-2.444786252453923E-003;-3.657499037217349E-004;
2.409833333333334E+009;1.722716242074966E-001;-4.331054631620646E-003;-2.505658660084009E-003;-3.407142648939043E-004;
2.410000000000000E+009;1.716239154338837E-001;-5.825275555253029E-003;-2.557024825364351E-003;-2.954257652163506E-004;
2.410166666666667E+009;1.710101664066315E-001;-7.507320959120989E-003;-2.629369962960482E-003;-1.500467915320769E-004;
2.410333333333334E+009;1.702690571546555E-001;-9.106931276619434E-003;-2.606249880045652E-003;-1.182257910841145E-004;
2.410500000000000E+009;1.697898060083389E-001;-1.084675360471010E-002;-2.449072897434235E-003;-7.941814692458138E-005;
2.410666666666667E+009;1.693023443222046E-001;-1.290095876902342E-002;-2.342424355447292E-003;-3.049108272534795E-005;
2.410833333333334E+009;1.686844229698181E-001;-1.435726601630449E-002;-2.461183350533247E-003;-1.039177295751870E-004;
2.411000000000000E+009;1.684502959251404E-001;-1.628240942955017E-002;-2.535677282139659E-003;2.163299795938656E-004;
2.411166666666667E+009;1.680683940649033E-001;-1.827890798449516E-002;-2.485200529918075E-003;2.465592115186155E-004;
2.411333333333334E+009;1.679035276174545E-001;-2.027357369661331E-002;-2.423222875222564E-003;1.403923815814778E-004;
2.411500000000000E+009;1.676897108554840E-001;-2.228891663253307E-002;-2.508660545572639E-003;2.632766845636070E-004;
2.411666666666667E+009;1.675416380167007E-001;-2.420237474143505E-002;-2.470490755513310E-003;3.205326211173087E-004;
2.411833333333334E+009;1.676751822233200E-001;-2.596210874617100E-002;-2.481873612850905E-003;3.899398143403232E-004;
2.412000000000000E+009;1.676683574914932E-001;-2.807410061359406E-002;-2.470364794135094E-003;5.183357861824334E-004;
2.412166666666667E+009;1.676938086748123E-001;-3.004547581076622E-002;-2.627194160595536E-003;5.789603455923498E-004;
2.412333333333334E+009;1.682400405406952E-001;-3.203298524022102E-002;-2.384990686550736E-003;6.791476043872535E-004;
2.412500000000000E+009;1.683412790298462E-001;-3.384543582797051E-002;-2.444405108690262E-003;7.940560462884605E-004;
2.412666666666667E+009;1.687509417533875E-001;-3.575786203145981E-002;-2.482565585523844E-003;7.215299410745502E-004;
2.412833333333334E+009;1.691636890172958E-001;-3.749554231762886E-002;-2.460557036101818E-003;1.006532344035804E-003;
2.413000000000000E+009;1.694922447204590E-001;-3.943180665373802E-002;-2.450858009979129E-003;1.210083486512303E-003;
2.413166666666667E+009;1.698776781558991E-001;-4.115721955895424E-002;-2.523036673665047E-003;1.160912914201617E-003;
2.413333333333334E+009;1.705776751041412E-001;-4.283047094941139E-002;-2.472804393619299E-003;1.266055507585406E-003;
2.413500000000000E+009;1.710739731788635E-001;-4.442584514617920E-002;-2.320963889360428E-003;1.233346760272980E-003;
2.413666666666667E+009;1.716950237751007E-001;-4.616864398121834E-002;-2.255568513646722E-003;1.407827134244144E-003;
2.413833333333334E+009;1.722553968429565E-001;-4.756790772080421E-002;-2.229668665677309E-003;1.492900890298188E-003;
2.414000000000000E+009;1.727605909109116E-001;-4.892319813370705E-002;-2.238799119368196E-003;1.510989386588335E-003;
2.414166666666667E+009;1.733643561601639E-001;-5.021022260189056E-002;-2.006742870435119E-003;1.744382316246629E-003;
2.414333333333334E+009;1.741269975900650E-001;-5.152476578950882E-002;-1.969070872291923E-003;1.734152669087052E-003;
2.414500000000000E+009;1.748694479465485E-001;-5.269311740994453E-002;-1.950262812897563E-003;1.841928460635245E-003;
2.414666666666667E+009;1.752623468637466E-001;-5.365060642361641E-002;-1.816297299228609E-003;1.826074090786278E-003;
2.414833333333334E+009;1.756497919559479E-001;-5.465386435389519E-002;-1.800228375941515E-003;1.948157325387001E-003;
2.415000000000000E+009;1.762841045856476E-001;-5.555810779333115E-002;-1.697349012829363E-003;2.033819677308202E-003;
2.415166666666667E+009;1.767956763505936E-001;-5.614791437983513E-002;-1.525870640762150E-003;2.113877329975367E-003;
2.415333333333334E+009;1.772540062665939E-001;-5.690395459532738E-002;-1.331252511590719E-003;1.999598462134600E-003;
2.415500000000000E+009;1.776204109191895E-001;-5.757268145680428E-002;-1.377961016260088E-003;2.141921548172832E-003;
2.415666666666667E+009;1.778979152441025E-001;-5.808529630303383E-002;-1.199595397338271E-003;2.198771806433797E-003;
2.415833333333334E+009;1.782155781984329E-001;-5.858050659298897E-002;-1.224505482241511E-003;2.237321808934212E-003;
2.416000000000000E+009;1.781781911849976E-001;-5.886212736368179E-002;-1.209835987538099E-003;2.217389410361648E-003;
2.416166666666667E+009;1.783714294433594E-001;-5.932681635022163E-002;-9.878547862172127E-004;2.346324734389782E-003;
2.416333333333334E+009;1.783540248870850E-001;-5.963016673922539E-002;-9.669951978139579E-004;2.258815336972475E-003;
2.416500000000000E+009;1.781548261642456E-001;-5.999708175659180E-002;-9.469041833654046E-004;2.251365687698126E-003;
2.416666666666667E+009;1.779411882162094E-001;-6.017001718282700E-002;-7.454678416252136E-004;2.328842412680388E-003;
2.416833333333334E+009;1.777736842632294E-001;-6.036841124296188E-002;-7.395646534860134E-004;2.379892626777291E-003;
2.417000000000000E+009;1.772727817296982E-001;-6.068841740489006E-002;-7.183359120972455E-004;2.359328325837851E-003;
2.417166666666667E+009;1.768381595611572E-001;-6.074131652712822E-002;-5.125576280988753E-004;2.433559857308865E-003;
2.417333333333334E+009;1.764169782400131E-001;-6.083967536687851E-002;-6.366310408338904E-004;2.410194836556912E-003;
2.417500000000000E+009;1.756579577922821E-001;-6.137509271502495E-002;-4.007990646641702E-004;2.404951490461826E-003;
2.417666666666667E+009;1.750832200050354E-001;-6.143681704998016E-002;-2.487669989932329E-004;2.428418025374413E-003;
2.417833333333334E+009;1.741741448640823E-001;-6.169997900724411E-002;-2.949473273474723E-004;2.469175728037953E-003;
2.418000000000000E+009;1.731740534305573E-001;-6.207305192947388E-002;-1.469710259698331E-004;2.390294801443815E-003;
2.418166666666667E+009;1.722422838211060E-001;-6.231228634715080E-002;-1.650527119636536E-004;2.424269448965788E-003;
2.418333333333334E+009;1.715324521064758E-001;-6.270933151245117E-002;-1.085087715182453E-004;2.478837035596371E-003;
2.418500000000000E+009;1.703395992517471E-001;-6.308419257402420E-002;-6.202125950949267E-005;2.480388851836324E-003;
2.418666666666667E+009;1.693495810031891E-001;-6.364652514457703E-002;1.337976864306256E-004;2.364487852901220E-003;
2.418833333333334E+009;1.679835915565491E-001;-6.418322026729584E-002;1.960244408110157E-004;2.400589408352971E-003;
2.419000000000000E+009;1.667655110359192E-001;-6.470138579607010E-002;2.543357841204852E-004;2.352306852117181E-003;
2.419166666666667E+009;1.655479967594147E-001;-6.533899903297424E-002;3.842629957944155E-004;2.399186370894313E-003;
2.419333333333334E+009;1.640144735574722E-001;-6.602806597948074E-002;2.980123390443623E-004;2.323296153917909E-003;
2.419500000000000E+009;1.630557626485825E-001;-6.703156977891922E-002;4.647091263905168E-004;2.238258020952344E-003;
2.419666666666667E+009;1.618320941925049E-001;-6.793687492609024E-002;5.311588756740093E-004;2.350267721340060E-003;
2.419833333333334E+009;1.604851931333542E-001;-6.871428340673447E-002;5.167833296582103E-004;2.271532779559493E-003;
2.420000000000000E+009;1.594793945550919E-001;-6.994142383337021E-002;5.695019499398768E-004;2.311170333996415E-003;
2.420166666666667E+009;1.583175361156464E-001;-7.109722495079041E-002;8.993710507638753E-004;2.192069543525577E-003;
2.420333333333334E+009;1.571919173002243E-001;-7.243047654628754E-002;8.295027073472738E-004;2.103036036714912E-003;
2.420500000000000E+009;1.561588495969772E-001;-7.329789549112320E-002;9.112714324146509E-004;2.058278070762754E-003;
2.420666666666667E+009;1.551439464092255E-001;-7.465309649705887E-002;9.401770075783134E-004;1.949903438799083E-003;
2.420833333333334E+009;1.542578786611557E-001;-7.622076570987701E-002;8.244068012572825E-004;1.990230055525899E-003;
2.421000000000000E+009;1.533632576465607E-001;-7.779438048601151E-002;1.058734604157507E-003;1.890911022201181E-003;
2.421166666666667E+009;1.525576412677765E-001;-7.909355312585831E-002;1.076568965800107E-003;1.743003726005554E-003;
2.421333333333334E+009;1.519871503114700E-001;-8.078999817371368E-002;1.089355326257646E-003;1.886932295747101E-003;
2.421500000000000E+009;1.510439217090607E-001;-8.231715112924576E-002;1.157355261966586E-003;1.879664836451411E-003;
2.421666666666667E+009;1.505019515752792E-001;-8.404331654310226E-002;1.195685006678104E-003;1.714624813757837E-003;
2.421833333333334E+009;1.501761376857758E-001;-8.580607920885086E-002;1.091611920855939E-003;1.826980151236057E-003;
2.422000000000000E+009;1.497067958116531E-001;-8.720763772726059E-002;1.141669577918947E-003;1.657084561884403E-003;
2.422166666666667E+009;1.495586335659027E-001;-8.921223878860474E-002;1.147172413766384E-003;1.865657046437264E-003;
2.422333333333334E+009;1.494733989238739E-001;-9.078636765480042E-002;1.101965899579227E-003;1.496367156505585E-003;
2.422500000000000E+009;1.492348462343216E-001;-9.253598004579544E-002;1.135274302214384E-003;1.624947413802147E-003;
2.422666666666667E+009;1.490239948034287E-001;-9.421797096729279E-002;1.318646827712655E-003;1.544183469377458E-003;
2.422833333333334E+009;1.492494940757752E-001;-9.602590650320053E-002;1.233483664691448E-003;1.632560975849628E-003;
2.423000000000000E+009;1.494315415620804E-001;-9.769620746374130E-002;1.383759314194322E-003;1.494318130426109E-003;
2.423166666666667E+009;1.496758908033371E-001;-9.924704581499100E-002;1.423437264747918E-003;1.454297103919089E-003;
2.423333333333334E+009;1.500383913516998E-001;-1.007155552506447E-001;1.447340939193964E-003;1.551333582028747E-003;
2.423500000000000E+009;1.502499431371689E-001;-1.022949814796448E-001;1.473483047448099E-003;1.344491960480809E-003;
2.423666666666667E+009;1.504523903131485E-001;-1.040215343236923E-001;1.583001110702753E-003;1.500968472100794E-003;
2.423833333333334E+009;1.510896086692810E-001;-1.053624600172043E-001;1.490433467552066E-003;1.344648655503988E-003;
2.424000000000000E+009;1.513344049453735E-001;-1.064948067069054E-001;1.618791371583939E-003;1.304193283431232E-003;
2.424166666666667E+009;1.518797129392624E-001;-1.079107001423836E-001;1.607141108252108E-003;1.343997311778367E-003;
2.424333333333334E+009;1.523552387952805E-001;-1.091206595301628E-001;1.744853216223419E-003;1.266786479391158E-003;
2.424500000000000E+009;1.528459191322327E-001;-1.102602854371071E-001;1.714177080430090E-003;1.352716353721917E-003;
2.424666666666667E+009;1.535017937421799E-001;-1.112031564116478E-001;1.893094740808010E-003;1.321848831139505E-003;
2.424833333333334E+009;1.537263691425324E-001;-1.121535673737526E-001;1.920793205499649E-003;1.321963849477470E-003;
2.425000000000000E+009;1.543249487876892E-001;-1.131085231900215E-001;1.961704576388001E-003;1.239003962837160E-003;
2.425166666666667E+009;1.546280086040497E-001;-1.139342784881592E-001;1.970460405573249E-003;1.188183901831508E-003;
2.425333333333334E+009;1.552082747220993E-001;-1.146732568740845E-001;2.004463458433747E-003;1.082280301488936E-003;
2.425500000000000E+009;1.556928604841232E-001;-1.154336705803871E-001;2.199944341555238E-003;9.412639774382114E-004;
2.425666666666667E+009;1.558611840009689E-001;-1.157458201050758E-001;2.317445818334818E-003;9.211092256009579E-004;
2.425833333333334E+009;1.561561822891235E-001;-1.163799017667770E-001;2.238661516457796E-003;7.382573676295579E-004;
2.426000000000000E+009;1.563055068254471E-001;-1.168470457196236E-001;2.151949796825647E-003;7.164213457144797E-004;
2.426166666666667E+009;1.566939353942871E-001;-1.172540038824081E-001;2.320115920156241E-003;6.287466967478395E-004;
2.426333333333334E+009;1.565968394279480E-001;-1.175782606005669E-001;2.381410915404558E-003;5.707388045266271E-004;
2.426500000000000E+009;1.567471623420715E-001;-1.177434474229813E-001;2.141286153346300E-003;4.845461517106742E-004;
2.426666666666667E+009;1.567091792821884E-001;-1.177822053432465E-001;2.328757429495454E-003;4.522602830547839E-004;
2.426833333333334E+009;1.564949005842209E-001;-1.180642619729042E-001;2.206878969445825E-003;2.685612125787884E-004;
2.427000000000000E+009;1.561665087938309E-001;-1.181947067379952E-001;2.292686374858022E-003;1.867829705588520E-004;
2.427166666666667E+009;1.559419184923172E-001;-1.181007325649262E-001;2.280925167724490E-003;6.451131048379466E-005;
2.427333333333334E+009;1.553630232810974E-001;-1.183784753084183E-001;2.264030510559678E-003;7.539942453149706E-005;
2.427500000000000E+009;1.549054831266403E-001;-1.185416877269745E-001;2.187575446441770E-003;6.166187085909769E-005;
2.427666666666667E+009;1.542270481586456E-001;-1.185993105173111E-001;2.197692170739174E-003;1.829195070968126E-007;
2.427833333333334E+009;1.532539874315262E-001;-1.187601834535599E-001;2.278917934745550E-003;-2.582072338555008E-004;
