# Hz S RI R 
2400000000.0000000000 0.173060446977615411956463731258 0.049561303108930587768554687500 0.001147729111835360960719443213 0.003707327647134662108180380713 0 0 0 0 
2400166666.6666665077 0.173699393868446405608807481258 0.049243018031120300292968750000 0.001095917192287743091583251953 0.003672054037451744079589843750 0 0 0 0 
2400333333.3333334923 0.174186915159225491622763115629 0.048346910625696182250976562500 0.001246007974259554906132363428 0.003672540187835692925694131006 0 0 0 0 
2400500000.0000000000 0.174355402588844299316406250000 0.047802675515413277362863908593 0.001200038008391856930376362378 0.003432446625083684921264648438 0 0 0 0 
2400666666.6666665077 0.174768686294555691818075615629 0.047015063464641571044921875000 0.001319707254879177050349570166 0.003412667661905289129969931494 0 0 0 0 
2400833333.3333334923 0.175037428736686706542968750000 0.046648271381855010986328125000 0.001114088343456387953517294775 0.003237501950934528870823525537 0 0 0 0 
2401000000.0000000000 0.175166651606559808929119981258 0.045983489602804177021067033593 0.000921445025596767663955688477 0.003234016476199030876159667969 0 0 0 0 
2401166666.6666665077 0.175252318382263211349325615629 0.045252285897731781005859375000 0.001050943508744240023969340747 0.003145071445032954216003417969 0 0 0 0 
2401333333.3333334923 0.175041228532791109939736884371 0.044533621519804000854492187500 0.001039568334817885918858193506 0.003290530294179915948155068506 0 0 0 0 
2401500000.0000000000 0.175415500998497009277343750000 0.043927274644374847412109375000 0.000868641713168472051620483398 0.003327419748529791831970214844 0 0 0 0 
2401666666.6666665077 0.175194725394248990157919365629 0.043283961713314063335378278907 0.001007277751341461918474506909 0.003288401290774344964268349756 0 0 0 0 
2401833333.3333334923 0.175059765577316311935263115629 0.042324066162109381938893903907 0.000983262201771140098571777344 0.003429321572184563116786337744 0 0 0 0 
2402000000.0000000000 0.174732759594917297363281250000 0.041547570377588272094726562500 0.001032526954077183983446430737 0.003336561145260930061340332031 0 0 0 0 
2402166666.6666665077 0.174784839153289794921875000000 0.040540196001529686664621721093 0.001077900175005197958705283057 0.003517082426697016196009970557 0 0 0 0 
2402333333.3333334923 0.174502804875373812576455634371 0.039707023650407791137695312500 0.001370172947645186944248818506 0.003538663731887937025782919775 0 0 0 0 
2402500000.0000000000 0.174691528081893893142861884371 0.038621645420789718627929687500 0.001265508239157498099683452075 0.003570669330656528906581259619 0 0 0 0 
2402666666.6666665077 0.174104690551757812500000000000 0.037559848278760910034179687500 0.001205514767207205078722309644 0.003657792462036014036891318213 0 0 0 0 
2402833333.3333334923 0.173882782459259005447549384371 0.036266271024942398071289062500 0.001432792050763965086696005713 0.003767349291592835946324013818 0 0 0 0 
2403000000.0000000000 0.173606321215629605392294365629 0.035025175660848617553710937500 0.001550456508994102911708212744 0.003750866977497934861424111475 0 0 0 0 
2403166666.6666665077 0.173333585262298611739950615629 0.033513482660055160522460937500 0.001659198664128779931309365381 0.003646568162366747856140136719 0 0 0 0 
2403333333.3333334923 0.173135548830032404143963731258 0.032083004713058471679687500000 0.001718793530017137961146689307 0.003738431492820382118225097656 0 0 0 0 
2403500000.0000000000 0.172417059540748596191406250000 0.030525363981723788869837576954 0.001858212868683039925218891675 0.003736046375706791877746582031 0 0 0 0 
2403666666.6666665077 0.172218397259712191482705634371 0.028838684782385829580286795704 0.002221882808953524069545126807 0.003773105563595890998840332031 0 0 0 0 
2403833333.3333334923 0.171858996152877807617187500000 0.027178963646292689931849295704 0.002238105749711393876316689600 0.003856147639453411102294921875 0 0 0 0 
2404000000.0000000000 0.171448662877082796951455634371 0.025443272665143009531041329296 0.002509159734472631974461220850 0.003901451360434294180629111182 0 0 0 0 
2404166666.6666665077 0.171110510826110812088174384371 0.023491250351071361196497733204 0.002811281476169825033900595557 0.003943665418773890408987714551 0 0 0 0 
2404333333.3333334923 0.170824408531188992599325615629 0.021808791905641559255579764454 0.002836315426975489096400595557 0.003724475624039769172668457031 0 0 0 0 
2404500000.0000000000 0.170457705855369595626669365629 0.019631810486316680908203125000 0.003148793010041118101832724463 0.003738987492397427992579794775 0 0 0 0 
2404666666.6666665077 0.170296788215637207031250000000 0.017682462930679321289062500000 0.003234365722164512114283896338 0.003793878247961401939392089844 0 0 0 0 
2404833333.3333334923 0.170054584741592407226562500000 0.015599145554006099700927734375 0.003513053059577941894531250000 0.003619018709287046952488564600 0 0 0 0 
2405000000.0000000000 0.169888541102409390548544365629 0.013510696589946750295618826954 0.003633343381807208061218261719 0.003605738282203673882725381006 0 0 0 0 
2405166666.6666665077 0.169953390955924987792968750000 0.011636586859822269784947579296 0.003948744386434555053710937500 0.003541402285918592972996377100 0 0 0 0 
2405333333.3333334923 0.169875562191009493728799384371 0.009429132565855979919433593750 0.004018376115709543228149414062 0.003556501585990190939662314307 0 0 0 0 
2405500000.0000000000 0.170037940144538907150106865629 0.007458411157131195068359375000 0.004255176987498998641967773438 0.003256346797570586204528808594 0 0 0 0 
2405666666.6666665077 0.170231655240058898925781250000 0.005388847086578608426565839551 0.004422702826559543609619140625 0.003224658546969294981715536963 0 0 0 0 
2405833333.3333334923 0.170228004455566406250000000000 0.003374720923602581024169921875 0.004604700021445751190185546875 0.002915102988481522040126181494 0 0 0 0 
2406000000.0000000000 0.170715838670730590820312500000 0.001231648726388812065124511719 0.004775024950504302978515625000 0.002804181305691599845886230469 0 0 0 0 
2406166666.6666665077 0.170811697840690612792968750000 -0.000648735323920845985412597656 0.005116292275488376617431640625 0.002607923932373524145839072119 0 0 0 0 
2406333333.3333334923 0.171552494168281610686932481258 -0.002823654096573590798618935693 0.005153298843652009963989257812 0.002193849533796309991123818506 0 0 0 0 
2406500000.0000000000 0.171797558665275601486044365629 -0.004907239694148302078247070312 0.005433734972029924392700195312 0.002115426585078239007237099756 0 0 0 0 
2406666666.6666665077 0.172283455729484613616619981258 -0.006753702182322741422171308301 0.005506048910319805145263671875 0.001857848954387008926988911206 0 0 0 0 
2406833333.3333334923 0.172962993383407592773437500000 -0.008790601976215839385986328125 0.005634747911244630813598632812 0.001553133595734835104701376807 0 0 0 0 
2407000000.0000000000 0.173485517501831110198651231258 -0.010642752982676029205322265625 0.005531967151910066604614257812 0.001238459371961653015734028394 0 0 0 0 
2407166666.6666665077 0.174354121088981600662393134371 -0.012449880130589010066022304102 0.005811421200633049011230468750 0.000923612387850880622863769531 0 0 0 0 
2407333333.3333334923 0.175030753016471890548544365629 -0.014260408468544479715367501171 0.006000081077218055725097656250 0.000685259699821472167968750000 0 0 0 0 
2407500000.0000000000 0.175791889429092407226562500000 -0.016001632437109950674036795704 0.006031819153577089309692382812 0.000441737647633999586105346680 0 0 0 0 
2407666666.6666665077 0.176634475588798495193643134371 -0.017566777765750888479212576954 0.006149489432573319348807050488 0.000016928741388255730271339417 0 0 0 0 
2407833333.3333334923 0.177214741706848089020098768742 -0.019288394600152969360351562500 0.006037352606654167175292968750 -0.000184065633220598101615905762 0 0 0 0 
2408000000.0000000000 0.178006157279014587402343750000 -0.020805107429623600351353829296 0.006142518483102321624755859375 -0.000437369220890104824870509015 0 0 0 0 
2408166666.6666665077 0.178727194666862487792968750000 -0.022136570885777469980260079296 0.005994352512061595916748046875 -0.001023751683533191897748637622 0 0 0 0 
2408333333.3333334923 0.179522037506103487869424384371 -0.023562453687191009521484375000 0.005969735328108072280883789062 -0.001175615005195141055463481372 0 0 0 0 
2408500000.0000000000 0.180076926946639986892861884371 -0.024976629763841629028320312500 0.005709790624678134918212890625 -0.001662450027652085044263530200 0 0 0 0 
2408666666.6666665077 0.180746242403984097579794365629 -0.026213759556412700307825858204 0.005672714672982692718505859375 -0.001949504134245217063306498950 0 0 0 0 
2408833333.3333334923 0.181282013654708890060263115629 -0.027292247861623760568638985546 0.005635554902255535125732421875 -0.002205689437687397003173828125 0 0 0 0 
2409000000.0000000000 0.181642100214958190917968750000 -0.028233610093593600881556326954 0.005129016470164060592651367188 -0.002419550903141498999354697119 0 0 0 0 
2409166666.6666665077 0.182221785187721307952557481258 -0.029232688248157501220703125000 0.005127385724335908889770507812 -0.002703208010643721060511923682 0 0 0 0 
2409333333.3333334923 0.182758137583732604980468750000 -0.030118610709905620920201485546 0.004904462955892086029052734375 -0.002885062946006656126735068213 0 0 0 0 
2409500000.0000000000 0.182939738035201998611611884371 -0.030852247029542919504185860546 0.004577751271426677703857421875 -0.003083012532442808151245117188 0 0 0 0 
2409666666.6666665077 0.183239385485649108886718750000 -0.031329084187746047973632812500 0.004289153497666121396536542676 -0.003395629348233342170715332031 0 0 0 0 
2409833333.3333334923 0.183421760797500610351562500000 -0.031811587512493126606027971093 0.003914902918040752410888671875 -0.003456770209595561027526855469 0 0 0 0 
2410000000.0000000000 0.183814778923988286774005018742 -0.032293938100337982177734375000 0.003812971059232950210571289062 -0.003613391192629932923557900537 0 0 0 0 
2410166666.6666665077 0.183866918087005587478799384371 -0.032513815909624099731445312500 0.003656203625723720030543661963 -0.003626285353675485090968466650 0 0 0 0 
2410333333.3333334923 0.183697849512100191970986884371 -0.032943155616521842266042341407 0.003249394008889793915989541162 -0.003751310519874095916748046875 0 0 0 0 
2410500000.0000000000 0.183832272887229891678018134371 -0.033290341496467590332031250000 0.002951594069600104851963662256 -0.003781924722716211838963173975 0 0 0 0 
2410666666.6666665077 0.183720067143440302093182481258 -0.033722899854183197021484375000 0.002893446944653987884521484375 -0.003679031739011406898498535156 0 0 0 0 
2410833333.3333334923 0.183556750416755704025106865629 -0.033787183463573462749440778907 0.002734730951488018035888671875 -0.003815446514636278152465820312 0 0 0 0 
2411000000.0000000000 0.183152094483375604827557481258 -0.034155413508415222167968750000 0.002519387286156415939331054688 -0.003755100537091494040248251807 0 0 0 0 
2411166666.6666665077 0.183067157864570589920205634371 -0.034375697374343872070312500000 0.002344335895031691031215048682 -0.003756249556317925886866904150 0 0 0 0 
2411333333.3333334923 0.182545289397239712814169365629 -0.034793738275766372680664062500 0.002095688134431838989257812500 -0.003834884613752365112304687500 0 0 0 0 
2411500000.0000000000 0.182161465287208612640057481258 -0.035318098962306983257253278907 0.002021969296038150787353515625 -0.003767347196117043928859091650 0 0 0 0 
2411666666.6666665077 0.181582868099212701995526231258 -0.035698052495718002319335937500 0.001816600095480680899379111182 -0.003788422560319304899928427588 0 0 0 0 
2411833333.3333334923 0.180829614400863702972088731258 -0.035937536507844931865651716407 0.001548186526633799076080322266 -0.003629183629527688026428222656 0 0 0 0 
2412000000.0000000000 0.179948270320892306228799384371 -0.036364018917083740234375000000 0.001517422613687813065172504956 -0.003690839046612381935119628906 0 0 0 0 
2412166666.6666665077 0.178991824388504000564736884371 -0.037059493362903601909597028907 0.001200305414386094050166464697 -0.003559055970981717109680175781 0 0 0 0 
2412333333.3333334923 0.178193941712379511077557481258 -0.037428393959999077533762346093 0.001189649919979274056078266675 -0.003443805966526269912719726562 0 0 0 0 
2412500000.0000000000 0.176771581172943087478799384371 -0.037974257022142410278320312500 0.001199060352519154982325888525 -0.003409686032682656808140420068 0 0 0 0 
2412666666.6666665077 0.176036432385444613357705634371 -0.039032883942127227783203125000 0.001010849373415112929103232275 -0.003277120646089314980747841943 0 0 0 0 
2412833333.3333334923 0.174864336848258999923544365629 -0.039626963436603553081472028907 0.000823327107354998588562011719 -0.003234393894672393798828125000 0 0 0 0 
2413000000.0000000000 0.173531055450439508636151231258 -0.040236536413431167602539062500 0.000685311271809041500091552734 -0.003267002291977405981776572119 0 0 0 0 
2413166666.6666665077 0.172312870621681213378906250000 -0.041138760745525360107421875000 0.000658784876577556133270263672 -0.003097918583080172972438193213 0 0 0 0 
2413333333.3333334923 0.170780301094055203536825615629 -0.042095825076103210449218750000 0.000732562562916427850723266602 -0.003184805158525704903843545068 0 0 0 0 
2413500000.0000000000 0.169615045189857510665731865629 -0.043197054415941238403320312500 0.000664890045300126075744628906 -0.003007158869877458052394247900 0 0 0 0 
2413666666.6666665077 0.168308526277542086502236884371 -0.044286008924245827411692033593 0.000649707217235118150711059570 -0.003066424047574400901794433594 0 0 0 0 
2413833333.3333334923 0.166952088475227411468182481258 -0.045395962893962860107421875000 0.000619023281615227460861206055 -0.002696961164474486871006631006 0 0 0 0 
2414000000.0000000000 0.165572941303253201583700615629 -0.046672292053699493408203125000 0.000630315626040101051330566406 -0.002748543396592140197753906250 0 0 0 0 
2414166666.6666665077 0.164444535970687893966513115629 -0.048011492937803268432617187500 0.000495820073410868644714355469 -0.002660784404724835915806435693 0 0 0 0 
2414333333.3333334923 0.163160011172294588943643134371 -0.049369793385267257690429687500 0.000558944942895323038101196289 -0.002713106805458664894104003906 0 0 0 0 
2414500000.0000000000 0.162317261099815396407919365629 -0.050962310284376137470285783593 0.000533587357494980096817016602 -0.002705366350710391998291015625 0 0 0 0 
2414666666.6666665077 0.161036238074302701095419365629 -0.052278369665145867084543596093 0.000465064949821680784225463867 -0.002627895679324864907505654443 0 0 0 0 
2414833333.3333334923 0.159882009029388399978799384371 -0.054093081504106521606445312500 0.000543161062523722648620605469 -0.002713227411732078032252646338 0 0 0 0 
2415000000.0000000000 0.158753216266632107833700615629 -0.055680762976408011699636091407 0.000450543622719124013751429425 -0.002654188079759479002711630713 0 0 0 0 
2415166666.6666665077 0.157899662852287292480468750000 -0.057444144040346152568776716407 0.000577984261326491832733154297 -0.002635755809023975892307900537 0 0 0 0 
2415333333.3333334923 0.157172679901123102386151231258 -0.059267874807119369506835937500 0.000613596115726977586746215820 -0.002675773343071341948268271338 0 0 0 0 
2415500000.0000000000 0.156319916248321505447549384371 -0.061095342040061950683593750000 0.000506550772115588188171386719 -0.002681529615074396133422851562 0 0 0 0 
2415666666.6666665077 0.155491173267364501953125000000 -0.062874041497707366943359375000 0.000491571961902081966400146484 -0.002668859204277396202087402344 0 0 0 0 
2415833333.3333334923 0.155089542269706698318643134371 -0.064936935901641845703125000000 0.000369034241884946823120117188 -0.002693397458642721176147460938 0 0 0 0 
2416000000.0000000000 0.154303818941116305252236884371 -0.066863745450973510742187500000 0.000393389549572020823329371320 -0.002930974820628761811497353662 0 0 0 0 
2416166666.6666665077 0.154092147946357699295205634371 -0.068759515881538391113281250000 0.000349000503774732405513209210 -0.002812255639582871957066201318 0 0 0 0 
2416333333.3333334923 0.153517544269561795333700615629 -0.070765882730484008789062500000 0.000304247252643108422130030499 -0.002909290371462703184840536963 0 0 0 0 
2416500000.0000000000 0.153121426701545687576455634371 -0.072841934859752655029296875000 0.000364223349606618285179138184 -0.002811951097100973129272460938 0 0 0 0 
2416666666.6666665077 0.152828052639961187164630018742 -0.074563674628734588623046875000 0.000226647433009930009215754376 -0.003063901094719768004176474463 0 0 0 0 
2416833333.3333334923 0.152687489986419705489950615629 -0.076749317348003387451171875000 0.000141413867822848287507733755 -0.002943369094282389120814658057 0 0 0 0 
2417000000.0000000000 0.152411922812461908538494981258 -0.078653864562511444091796875000 0.000013813541954732500016689301 -0.003120575798675417900085449219 0 0 0 0 
2417166666.6666665077 0.152274549007415799239950615629 -0.080303572118282318115234375000 0.000128971587400883409097948618 -0.003121022135019301934483193506 0 0 0 0 
2417333333.3333334923 0.152272984385490389724893134371 -0.082092374563217163085937500000 0.000060950780607527121901512146 -0.003225203137844800949096679688 0 0 0 0 
2417500000.0000000000 0.152130797505378695388955634371 -0.083891026675701141357421875000 0.000086743792053312063217163086 -0.003277818672358990149257040869 0 0 0 0 
2417666666.6666665077 0.152354896068572998046875000000 -0.085366033017635345458984375000 0.000004613293185684597119688988 -0.003303334116935729980468750000 0 0 0 0 
2417833333.3333334923 0.152486667037010192871093750000 -0.086876340210437774658203125000 -0.000131506429170258289009648456 -0.003272113157436252074000693213 0 0 0 0 
2418000000.0000000000 0.152347326278686495681924384371 -0.088465183973312377929687500000 -0.000232900274568237391397199088 -0.003412310732528566880467080225 0 0 0 0 
2418166666.6666665077 0.152607038617134094238281250000 -0.089676879346370697021484375000 -0.000240441906498745110913953238 -0.003486924339085816903355263818 0 0 0 0 
2418333333.3333334923 0.152973160147666903396768134371 -0.090930543839931488037109375000 -0.000468740647193044424057006836 -0.003518677083775401115417480469 0 0 0 0 
2418500000.0000000000 0.153096914291381808181924384371 -0.092005141079425811767578125000 -0.000591351825278252363204956055 -0.003762852167710661888122558594 0 0 0 0 
2418666666.6666665077 0.153491079807281494140625000000 -0.093197144567966461181640625000 -0.000677760632243007421493530273 -0.003638310125097631974461220850 0 0 0 0 
2418833333.3333334923 0.153441667556762695312500000000 -0.094120018184185028076171875000 -0.000940646568778902292251586914 -0.003727497067302465005161904443 0 0 0 0 
2419000000.0000000000 0.153600335121154812911825615629 -0.094800278544425964355468750000 -0.001061896211467683098436665112 -0.003785040695220232009887695312 0 0 0 0 
2419166666.6666665077 0.153891235589981106857138115629 -0.095439016819000244140625000000 -0.001255061011761426925659179688 -0.003821635153144598007202148438 0 0 0 0 
2419333333.3333334923 0.154031395912170410156250000000 -0.095906369388103485107421875000 -0.001465067267417907931684184497 -0.003839086741209030151367187500 0 0 0 0 
2419500000.0000000000 0.154316797852516202071981865629 -0.096532471477985382080078125000 -0.001732228323817252895952534253 -0.003723992966115475134608603369 0 0 0 0 
2419666666.6666665077 0.154455199837684603592080634371 -0.096798717975616455078125000000 -0.001844444661401211998583149487 -0.003578840987756847901585244287 0 0 0 0 
2419833333.3333334923 0.154411643743514986892861884371 -0.097080744802951812744140625000 -0.002068896777927875952479697119 -0.003661494236439466910121298682 0 0 0 0 
