# Version 1.00
#
freq[Hz];re:Trc1_S11;im:Trc1_S11;re:Trc2_S21;im:Trc2_S21;
2.400000000000000E+009;1.678875386714935E-001;4.106670618057251E-002;2.368779387325048E-003;9.837693069130182E-004;
2.400166666666667E+009;1.684445291757584E-001;4.030239954590797E-002;2.370772184804082E-003;9.478929569013417E-004;
2.400333333333334E+009;1.690563261508942E-001;3.937994316220284E-002;2.431719098240137E-003;8.825217955745757E-004;
2.400500000000000E+009;1.694412380456924E-001;3.853944316506386E-002;2.455297159031034E-003;1.101433415897191E-003;
2.400666666666667E+009;1.698161661624908E-001;3.750132396817207E-002;2.467399463057518E-003;1.165596768260002E-003;
2.400833333333334E+009;1.702683418989182E-001;3.683543950319290E-002;2.465208526700735E-003;1.277419039979577E-003;
2.401000000000000E+009;1.704114377498627E-001;3.585009276866913E-002;2.647695830091834E-003;1.374462852254510E-003;
2.401166666666667E+009;1.706620007753372E-001;3.483129665255547E-002;2.750286832451820E-003;1.074486179277301E-003;
2.401333333333334E+009;1.707991808652878E-001;3.383479639887810E-002;2.957677701488137E-003;1.046226476319134E-003;
2.401500000000000E+009;1.711321771144867E-001;3.314219415187836E-002;3.059575799852610E-003;1.185393426567316E-003;
2.401666666666667E+009;1.712521612644196E-001;3.224711865186691E-002;3.110913094133139E-003;8.911981713026762E-004;
2.401833333333334E+009;1.712910681962967E-001;3.115694783627987E-002;3.273540409281850E-003;7.435066509060562E-004;
2.402000000000000E+009;1.713879853487015E-001;3.045638464391232E-002;3.338786074891686E-003;7.142254617065191E-004;
2.402166666666667E+009;1.713390797376633E-001;2.938066981732845E-002;3.395573236048222E-003;7.565024425275624E-004;
2.402333333333334E+009;1.712773740291596E-001;2.848050743341446E-002;3.535141935572028E-003;3.850474604405463E-004;
2.402500000000000E+009;1.718017011880875E-001;2.738829702138901E-002;3.616641275584698E-003;1.535022165626288E-004;
2.402666666666667E+009;1.714227795600891E-001;2.643226087093353E-002;3.693020204082131E-003;1.968866999959573E-004;
2.402833333333334E+009;1.713229864835739E-001;2.549498155713081E-002;3.681194968521595E-003;-3.991441553807817E-005;
2.403000000000000E+009;1.713230609893799E-001;2.437929622828960E-002;3.752865130081773E-003;-1.140570589086565E-006;
2.403166666666667E+009;1.713111102581024E-001;2.305395714938641E-002;3.502128645777702E-003;-3.812463837675750E-004;
2.403333333333334E+009;1.712322682142258E-001;2.212286554276943E-002;3.373821498826146E-003;-4.487665428314358E-004;
2.403500000000000E+009;1.709230691194534E-001;2.083816751837730E-002;3.650726052001119E-003;-4.930891445837915E-004;
2.403666666666667E+009;1.709589362144470E-001;1.969624496996403E-002;3.491049399599433E-003;-6.580409826710820E-004;
2.403833333333334E+009;1.708848029375076E-001;1.840084046125412E-002;3.567791776731610E-003;-6.555468426086009E-004;
2.404000000000000E+009;1.707626879215241E-001;1.718368381261826E-002;3.539762925356627E-003;-6.868928321637213E-004;
2.404166666666667E+009;1.706325709819794E-001;1.592779718339443E-002;3.486786270514131E-003;-7.506962283514440E-004;
2.404333333333334E+009;1.704753190279007E-001;1.460824254900217E-002;3.595651593059301E-003;-7.283251616172493E-004;
2.404500000000000E+009;1.703525185585022E-001;1.304970309138298E-002;3.537556156516075E-003;-9.257717756554484E-004;
2.404666666666667E+009;1.703858673572540E-001;1.174805872142315E-002;3.569061867892742E-003;-1.234151422977448E-003;
2.404833333333334E+009;1.702949106693268E-001;1.046928577125073E-002;3.670019097626209E-003;-1.086126547306776E-003;
2.405000000000000E+009;1.701797544956207E-001;8.810508064925671E-003;3.619429189711809E-003;-1.261577242985368E-003;
2.405166666666667E+009;1.700675785541534E-001;7.385672535747290E-003;3.568971296772361E-003;-1.539692166261375E-003;
2.405333333333334E+009;1.700744628906250E-001;5.808567628264427E-003;3.691474674269557E-003;-1.614633598364890E-003;
2.405500000000000E+009;1.701923608779907E-001;4.339878913015127E-003;3.716582432389259E-003;-1.697457977570593E-003;
2.405666666666667E+009;1.702483296394348E-001;2.879830775782466E-003;3.695948515087366E-003;-2.118513220921159E-003;
2.405833333333334E+009;1.700287908315659E-001;1.435696496628225E-003;3.646186785772443E-003;-2.080938778817654E-003;
2.406000000000000E+009;1.701109856367111E-001;-5.108664045110345E-004;3.597197122871876E-003;-2.161164535209537E-003;
2.406166666666667E+009;1.696994006633759E-001;-1.667274627834559E-003;3.470021765679121E-003;-2.630869857966900E-003;
2.406333333333334E+009;1.699492931365967E-001;-3.282897872850299E-003;3.442797111347318E-003;-2.598220715299249E-003;
2.406500000000000E+009;1.697113811969757E-001;-4.869795870035887E-003;3.340533003211021E-003;-2.877856371924281E-003;
2.406666666666667E+009;1.694260388612747E-001;-6.286447867751122E-003;3.266792045906186E-003;-2.821043366566300E-003;
2.406833333333334E+009;1.693685799837112E-001;-7.950101979076862E-003;3.050436964258552E-003;-3.058868926018477E-003;
2.407000000000000E+009;1.691456437110901E-001;-9.394946508109570E-003;3.002672689035535E-003;-3.250756533816457E-003;
2.407166666666667E+009;1.691772639751434E-001;-1.067096181213856E-002;2.943801227957010E-003;-3.398000495508313E-003;
2.407333333333334E+009;1.689201593399048E-001;-1.232620608061552E-002;2.696367446333170E-003;-3.513540141284466E-003;
2.407500000000000E+009;1.687134951353073E-001;-1.335551869124174E-002;2.536896849051118E-003;-3.737910883501172E-003;
2.407666666666667E+009;1.686008423566818E-001;-1.462011411786079E-002;2.483031013980508E-003;-3.895473433658481E-003;
2.407833333333334E+009;1.683092564344406E-001;-1.581557281315327E-002;2.132149413228035E-003;-3.851853078231216E-003;
2.408000000000000E+009;1.682227253913879E-001;-1.680986769497395E-002;1.935267937369645E-003;-4.066663328558207E-003;
2.408166666666667E+009;1.680923998355866E-001;-1.772245392203331E-002;1.917774672619999E-003;-4.172755405306816E-003;
2.408333333333334E+009;1.682150959968567E-001;-1.871723122894764E-002;1.493837917223573E-003;-4.195454996079207E-003;
2.408500000000000E+009;1.680299937725067E-001;-1.985705457627773E-002;1.337099354714155E-003;-4.156162496656179E-003;
2.408666666666667E+009;1.680681258440018E-001;-2.061325497925282E-002;1.132426201365888E-003;-4.085510037839413E-003;
2.408833333333334E+009;1.680389493703842E-001;-2.139223925769329E-002;8.149478817358613E-004;-4.115909803658724E-003;
2.409000000000000E+009;1.683665812015533E-001;-2.231760881841183E-002;5.285289371386170E-004;-3.969383426010609E-003;
2.409166666666667E+009;1.684561818838120E-001;-2.326347492635250E-002;4.673129878938198E-004;-4.033010918647051E-003;
2.409333333333334E+009;1.687272936105728E-001;-2.412617951631546E-002;3.708096337504685E-004;-3.927007317543030E-003;
2.409500000000000E+009;1.686810404062271E-001;-2.511083148419857E-002;2.622540923766792E-004;-3.947403747588396E-003;
2.409666666666667E+009;1.687828004360199E-001;-2.592778205871582E-002;9.768916061148047E-005;-3.798301564529538E-003;
2.409833333333334E+009;1.688422411680222E-001;-2.665490657091141E-002;4.327315400587395E-005;-3.542285878211260E-003;
2.410000000000000E+009;1.691539138555527E-001;-2.773790061473846E-002;-1.004522200673819E-004;-3.450281452387571E-003;
2.410166666666667E+009;1.691199839115143E-001;-2.861792407929897E-002;-1.025640885927714E-004;-3.405229654163122E-003;
2.410333333333334E+009;1.689281165599823E-001;-2.967385016381741E-002;-1.290051441174001E-004;-3.411836223676801E-003;
2.410500000000000E+009;1.690433919429779E-001;-3.048133105039597E-002;-4.095443000551313E-004;-3.431626595556736E-003;
2.410666666666667E+009;1.688163280487061E-001;-3.147501498460770E-002;-3.662376839201897E-004;-3.339656163007021E-003;
2.410833333333334E+009;1.689364314079285E-001;-3.224362432956696E-002;-3.017646668013185E-004;-3.368397708982229E-003;
2.411000000000000E+009;1.686712056398392E-001;-3.329335153102875E-002;-3.802083374466747E-004;-3.255967749282718E-003;
2.411166666666667E+009;1.683289855718613E-001;-3.420931473374367E-002;-5.884288111701608E-004;-3.341672010719776E-003;
2.411333333333334E+009;1.681615114212036E-001;-3.503140807151794E-002;-5.658220616169274E-004;-3.287006635218859E-003;
2.411500000000000E+009;1.679426729679108E-001;-3.595663979649544E-002;-6.638400373049080E-004;-3.351675113663077E-003;
2.411666666666667E+009;1.678064167499542E-001;-3.697062283754349E-002;-6.615333841182292E-004;-3.180631902068853E-003;
2.411833333333334E+009;1.676603704690933E-001;-3.782952576875687E-002;-7.951224106363952E-004;-3.328751539811492E-003;
2.412000000000000E+009;1.673375070095062E-001;-3.870034590363503E-002;-8.540065027773380E-004;-3.288894658908248E-003;
2.412166666666667E+009;1.669787615537643E-001;-3.959462046623230E-002;-9.399775881320238E-004;-3.153545549139381E-003;
2.412333333333334E+009;1.669553518295288E-001;-4.055218398571014E-002;-1.048879348672926E-003;-3.131640143692493E-003;
2.412500000000000E+009;1.665497422218323E-001;-4.151188582181931E-002;-1.140271313488483E-003;-3.190664341673255E-003;
2.412666666666667E+009;1.661377400159836E-001;-4.269129410386086E-002;-1.294810092076659E-003;-3.145614638924599E-003;
2.412833333333334E+009;1.656674444675446E-001;-4.376962035894394E-002;-1.383310183882713E-003;-2.978525357320905E-003;
2.413000000000000E+009;1.654383242130280E-001;-4.458151385188103E-002;-1.521676545962691E-003;-3.046171274036169E-003;
2.413166666666667E+009;1.648848056793213E-001;-4.545547068119049E-002;-1.667084754444659E-003;-2.711984794586897E-003;
2.413333333333334E+009;1.643263101577759E-001;-4.668949916958809E-002;-1.610350795090199E-003;-2.627245616167784E-003;
2.413500000000000E+009;1.638471633195877E-001;-4.765328764915466E-002;-1.568003906868398E-003;-2.668749541044235E-003;
2.413666666666667E+009;1.635448932647705E-001;-4.880577325820923E-002;-1.560664037242532E-003;-2.492446918040514E-003;
2.413833333333334E+009;1.631382107734680E-001;-4.954588413238525E-002;-1.523068873211741E-003;-2.591473516076803E-003;
2.414000000000000E+009;1.623841673135757E-001;-5.063315480947495E-002;-1.582791795954108E-003;-2.622316591441631E-003;
2.414166666666667E+009;1.622378826141357E-001;-5.155144259333611E-002;-1.640203758142889E-003;-2.439890988171101E-003;
2.414333333333334E+009;1.619739979505539E-001;-5.265744030475617E-002;-1.755920937284827E-003;-2.471866784617305E-003;
2.414500000000000E+009;1.616632044315338E-001;-5.347111821174622E-002;-1.782567822374404E-003;-2.551068784669042E-003;
2.414666666666667E+009;1.613444387912750E-001;-5.432982742786408E-002;-1.805889653041959E-003;-2.352880081161857E-003;
2.414833333333334E+009;1.611453890800476E-001;-5.543034523725510E-002;-1.948040095157921E-003;-2.306236652657390E-003;
2.415000000000000E+009;1.609408110380173E-001;-5.641591921448708E-002;-2.071910770609975E-003;-2.391564892604947E-003;
2.415166666666667E+009;1.605215817689896E-001;-5.755043029785156E-002;-1.969517208635807E-003;-2.136139897629619E-003;
2.415333333333334E+009;1.606247276067734E-001;-5.866667628288269E-002;-2.341082785278559E-003;-2.196952700614929E-003;
2.415500000000000E+009;1.604093015193939E-001;-5.974643304944038E-002;-2.192926825955510E-003;-2.047262620180845E-003;
2.415666666666667E+009;1.602006703615189E-001;-6.089659780263901E-002;-2.300284570083022E-003;-2.086954191327095E-003;
2.415833333333334E+009;1.600910425186157E-001;-6.199069693684578E-002;-2.425498096272349E-003;-1.902769436128438E-003;
2.416000000000000E+009;1.598279178142548E-001;-6.328230351209641E-002;-2.402716316282749E-003;-1.845986465923488E-003;
2.416166666666667E+009;1.599594354629517E-001;-6.448584794998169E-002;-2.522486960515380E-003;-1.762195606715977E-003;
2.416333333333334E+009;1.596462428569794E-001;-6.550726294517517E-002;-2.499095629900694E-003;-1.555714989081025E-003;
2.416500000000000E+009;1.593631356954575E-001;-6.679449975490570E-002;-2.654460724443197E-003;-1.480994396843016E-003;
2.416666666666667E+009;1.590562462806702E-001;-6.799378246068955E-002;-2.649795729666948E-003;-1.373836188577116E-003;
2.416833333333334E+009;1.588754802942276E-001;-6.924004107713699E-002;-2.390786074101925E-003;-1.251957612112165E-003;
2.417000000000000E+009;1.584184169769287E-001;-7.040582597255707E-002;-2.419177908450365E-003;-1.223750528879464E-003;
2.417166666666667E+009;1.580704450607300E-001;-7.133230566978455E-002;-2.421752549707890E-003;-1.091352780349553E-003;
2.417333333333334E+009;1.576525419950485E-001;-7.220433652400971E-002;-2.466244157403708E-003;-8.796718902885914E-004;
2.417500000000000E+009;1.573562026023865E-001;-7.335692644119263E-002;-2.268858486786485E-003;-9.763342677615583E-004;
2.417666666666667E+009;1.572261750698090E-001;-7.420460134744644E-002;-2.250084420666099E-003;-9.312314214184880E-004;
2.417833333333334E+009;1.568975597620010E-001;-7.502900809049606E-002;-2.154598711058497E-003;-9.854534873738885E-004;
2.418000000000000E+009;1.565026491880417E-001;-7.593760639429092E-002;-2.193765481933951E-003;-9.412575163878501E-004;
2.418166666666667E+009;1.562210321426392E-001;-7.674532383680344E-002;-2.200470771640539E-003;-8.288818644359708E-004;
2.418333333333334E+009;1.561160981655121E-001;-7.763265818357468E-002;-2.173095243051648E-003;-8.270564139820635E-004;
2.418500000000000E+009;1.556515544652939E-001;-7.837787270545960E-002;-2.044742461293936E-003;-7.634203648194671E-004;
2.418666666666667E+009;1.555251479148865E-001;-7.918445020914078E-002;-2.160604111850262E-003;-8.914261707104743E-004;
2.418833333333334E+009;1.549446135759354E-001;-8.003067970275879E-002;-2.079425379633904E-003;-9.501001331955195E-004;
2.419000000000000E+009;1.546100676059723E-001;-8.059135824441910E-002;-2.017957391217351E-003;-8.664280176162720E-004;
2.419166666666667E+009;1.543597429990768E-001;-8.125407993793488E-002;-1.974146114662290E-003;-8.134369272738695E-004;
2.419333333333334E+009;1.538461744785309E-001;-8.180200308561325E-002;-2.045123837888241E-003;-1.027742866426706E-003;
2.419500000000000E+009;1.536077111959457E-001;-8.262584358453751E-002;-2.156679285690188E-003;-9.246183326467872E-004;
2.419666666666667E+009;1.532513499259949E-001;-8.327428996562958E-002;-2.242212882265449E-003;-9.602396166883409E-004;
2.419833333333334E+009;1.527927666902542E-001;-8.379777520895004E-002;-2.183489035815001E-003;-1.023847260512412E-003;
2.420000000000000E+009;1.525463014841080E-001;-8.442004770040512E-002;-2.256137551739812E-003;-1.131561119109392E-003;
2.420166666666667E+009;1.522674560546875E-001;-8.483394235372543E-002;-2.483732765540481E-003;-1.107870251871646E-003;
2.420333333333334E+009;1.517525017261505E-001;-8.560828864574432E-002;-2.520774723961949E-003;-1.087016891688108E-003;
2.420500000000000E+009;1.514498740434647E-001;-8.600329607725143E-002;-2.598737599328160E-003;-1.155536272563040E-003;
2.420666666666667E+009;1.509217917919159E-001;-8.635012805461884E-002;-2.737991278991103E-003;-1.079585286788642E-003;
2.420833333333334E+009;1.505695283412933E-001;-8.724263310432434E-002;-2.936478704214096E-003;-8.929608738981187E-004;
2.421000000000000E+009;1.501022279262543E-001;-8.781000971794128E-002;-3.089410020038486E-003;-8.162878220900893E-004;
2.421166666666667E+009;1.497273296117783E-001;-8.857101947069168E-002;-3.261528443545103E-003;-6.317404331639409E-004;
2.421333333333334E+009;1.493074893951416E-001;-8.908490836620331E-002;-3.308760235086083E-003;-4.173591150902212E-004;
2.421500000000000E+009;1.487468630075455E-001;-8.981901407241821E-002;-3.239732002839446E-003;-2.400889788987115E-004;
2.421666666666667E+009;1.482150107622147E-001;-9.057457745075226E-002;-3.294327063485980E-003;-6.795115041313693E-005;
2.421833333333334E+009;1.477343440055847E-001;-9.125335514545441E-002;-3.134808503091335E-003;-5.611749293166213E-005;
2.422000000000000E+009;1.470640152692795E-001;-9.197397530078888E-002;-3.058825153857470E-003;1.485942921135575E-004;
2.422166666666667E+009;1.465273648500443E-001;-9.285648912191391E-002;-3.096324857324362E-003;2.104239538311958E-004;
2.422333333333334E+009;1.459458321332932E-001;-9.331739693880081E-002;-2.970692003145814E-003;2.536905813030899E-004;
2.422500000000000E+009;1.452860236167908E-001;-9.419473260641098E-002;-2.956721233204007E-003;3.056512796320021E-004;
2.422666666666667E+009;1.446321457624435E-001;-9.504760801792145E-002;-2.811298472806811E-003;2.432841865811497E-004;
2.422833333333334E+009;1.441558599472046E-001;-9.596429020166397E-002;-2.963959006592631E-003;3.572085406631231E-004;
2.423000000000000E+009;1.433776915073395E-001;-9.676940739154816E-002;-2.873966470360756E-003;3.144723596051335E-004;
2.423166666666667E+009;1.428357213735580E-001;-9.782080352306366E-002;-2.997607924044132E-003;3.704018308781087E-004;
2.423333333333334E+009;1.423933953046799E-001;-9.859418123960495E-002;-3.029695712029934E-003;3.042425087187439E-004;
2.423500000000000E+009;1.415238380432129E-001;-9.970352798700333E-002;-3.318354953080416E-003;3.611776046454907E-004;
2.423666666666667E+009;1.406373083591461E-001;-1.006916165351868E-001;-3.370996797457337E-003;5.044410354457796E-004;
2.423833333333334E+009;1.402570158243179E-001;-1.015952602028847E-001;-3.342367941513658E-003;6.448290660046041E-004;
2.424000000000000E+009;1.395781636238098E-001;-1.025372669100761E-001;-3.446392714977264E-003;7.263286388479173E-004;
2.424166666666667E+009;1.389060169458389E-001;-1.035613492131233E-001;-3.328124526888132E-003;9.442692389711738E-004;
2.424333333333334E+009;1.383063346147537E-001;-1.044161990284920E-001;-3.469563089311123E-003;1.015230198390782E-003;
2.424500000000000E+009;1.377223581075668E-001;-1.055603995919228E-001;-3.491143463179469E-003;1.347598736174405E-003;
2.424666666666667E+009;1.372533142566681E-001;-1.061790436506271E-001;-3.396770451217890E-003;1.370093901641667E-003;
2.424833333333334E+009;1.365493834018707E-001;-1.073116585612297E-001;-3.493778407573700E-003;1.670159283094108E-003;
2.425000000000000E+009;1.359796822071075E-001;-1.083227768540382E-001;-3.183160442858934E-003;1.662988797761500E-003;
2.425166666666667E+009;1.352646350860596E-001;-1.092597991228104E-001;-3.081094473600388E-003;1.942216302268207E-003;
2.425333333333334E+009;1.348433941602707E-001;-1.102568879723549E-001;-3.365168580785394E-003;2.060574013739824E-003;
2.425500000000000E+009;1.344153136014938E-001;-1.114522218704224E-001;-3.174078883603215E-003;2.171056345105171E-003;
2.425666666666667E+009;1.337219327688217E-001;-1.121271923184395E-001;-3.063855459913611E-003;2.289949683472514E-003;
2.425833333333334E+009;1.333623826503754E-001;-1.132903173565865E-001;-2.877860097214580E-003;2.458006143569946E-003;
2.426000000000000E+009;1.329230517148972E-001;-1.142704337835312E-001;-2.960735931992531E-003;2.500510076060891E-003;
2.426166666666667E+009;1.325875073671341E-001;-1.153599470853806E-001;-2.809955971315503E-003;2.676241332665086E-003;
2.426333333333334E+009;1.319950073957443E-001;-1.161734238266945E-001;-2.546628238633275E-003;2.842337358742952E-003;
2.426500000000000E+009;1.316677033901215E-001;-1.169604584574699E-001;-2.455433132126927E-003;2.820437541231513E-003;
2.426666666666667E+009;1.312505453824997E-001;-1.177661344408989E-001;-2.434108406305313E-003;2.950298134237528E-003;
2.426833333333334E+009;1.308875232934952E-001;-1.185591816902161E-001;-2.316424157470465E-003;3.157990518957377E-003;
2.427000000000000E+009;1.304346472024918E-001;-1.193667054176331E-001;-2.113962545990944E-003;3.276352304965258E-003;
2.427166666666667E+009;1.300668567419052E-001;-1.200514212250710E-001;-2.093840856105089E-003;3.303045406937599E-003;
2.427333333333334E+009;1.297244280576706E-001;-1.208181902766228E-001;-2.008547075092793E-003;3.246456617489457E-003;
2.427500000000000E+009;1.295073181390762E-001;-1.214522570371628E-001;-1.690559904091060E-003;3.176109632477164E-003;
2.427666666666667E+009;1.291044652462006E-001;-1.222291365265846E-001;-1.625847304239869E-003;3.414635779336095E-003;
