# Hz S RI R 
2400000000.0000000000 0.156237795948982211013955634371 0.110888540744781494140625000000 0.001682066242210566997528076172 0.005647270008921623229980468750 0 0 0 0 
2400166666.6666665077 0.155619725584983797928018134371 0.108645997941494001914897182814 0.002004704903811215920689248193 0.005573332775384187698364257812 0 0 0 0 
2400333333.3333334923 0.155396893620491000076455634371 0.106306821107864393760600307814 0.002302339533343911170959472656 0.005383482202887535095214843750 0 0 0 0 
2400500000.0000000000 0.154843881726265009124432481258 0.103697292506694793701171875000 0.002438112394884229140040732275 0.005347130354493856430053710938 0 0 0 0 
2400666666.6666665077 0.154692679643631009200888115629 0.101252831518650096565004048443 0.002815335988998413085937500000 0.005019932519644498825073242188 0 0 0 0 
2400833333.3333334923 0.154398173093795804122763115629 0.098281420767307281494140625000 0.003147850511595606803894042969 0.004811197984963656339163495801 0 0 0 0 
2401000000.0000000000 0.154313445091247586349325615629 0.095517277717590332031250000000 0.003240241901949048042297363281 0.004398011602461338043212890625 0 0 0 0 
2401166666.6666665077 0.154051959514617892166299384371 0.092695541679859161376953125000 0.003306736238300799889805459131 0.004332756623625755310058593750 0 0 0 0 
2401333333.3333334923 0.154200732707977294921875000000 0.089728742837905883789062500000 0.003493599593639374212977743994 0.004042335785925388336181640625 0 0 0 0 
2401500000.0000000000 0.154284432530403109451455634371 0.086631074547767639160156250000 0.003576404415071011023280478369 0.003780886065214871926548623193 0 0 0 0 
2401666666.6666665077 0.154353573918342590332031250000 0.083848416805267333984375000000 0.003668700344860554175135947119 0.003630148712545632882359170068 0 0 0 0 
2401833333.3333334923 0.154751867055892888824786268742 0.080884151160717010498046875000 0.003918507136404514312744140625 0.003551902715116738839390420068 0 0 0 0 
2402000000.0000000000 0.155525580048561096191406250000 0.077773742377758026123046875000 0.003918144851922988891601562500 0.003381166141480207009556435693 0 0 0 0 
2402166666.6666665077 0.156099796295165987869424384371 0.075227513909339904785156250000 0.004148800857365131378173828125 0.003097641281783581213710165869 0 0 0 0 
2402333333.3333334923 0.156908437609672601897869981258 0.072251588106155395507812500000 0.004113561008125543594360351562 0.003145951312035322189331054688 0 0 0 0 
2402500000.0000000000 0.157683283090591402908486884371 0.069338425993919372558593750000 0.004180515184998512268066406250 0.003129793796688317818882607568 0 0 0 0 
2402666666.6666665077 0.158954441547393798828125000000 0.066822171211242675781250000000 0.004243236500769853591918945312 0.002804899355396627946140908350 0 0 0 0 
2402833333.3333334923 0.160279288887977600097656250000 0.063966423273086547851562500000 0.004439253825694322586059570312 0.002565406961366533799412392725 0 0 0 0 
2403000000.0000000000 0.161544442176818903167401231258 0.061226721853017807006835937500 0.004718733020126819610595703125 0.002435428323224186897277832031 0 0 0 0 
2403166666.6666665077 0.163163840770721407791299384371 0.059029825031757361675222028907 0.004762568045407533645629882812 0.002338711172342299981358193506 0 0 0 0 
2403333333.3333334923 0.164723500609397888183593750000 0.056582733988761901855468750000 0.004756231326609849929809570312 0.002072306815534830093383789062 0 0 0 0 
2403500000.0000000000 0.166258633136749295333700615629 0.054258342832326889038085937500 0.004657076206058263778686523438 0.001908545382320881106733012622 0 0 0 0 
2403666666.6666665077 0.168116196990013094803018134371 0.051919888705015182495117187500 0.004864482209086418151855468750 0.001489458256401122050044394385 0 0 0 0 
2403833333.3333334923 0.169866427779197692871093750000 0.050024304538965232158620466407 0.004931034985929728421683027051 0.001360213500447571060777973706 0 0 0 0 
2404000000.0000000000 0.171393677592277499099893134371 0.047987744212150566791574846093 0.004799564369022846221923828125 0.000713389425072818994522094727 0 0 0 0 
2404166666.6666665077 0.173558652400970486739950615629 0.046136751770973212505300153907 0.004869760945439338684082031250 0.000751678366214036941528320312 0 0 0 0 
2404333333.3333334923 0.175216481089592007736044365629 0.044466674327850341796875000000 0.004841081332415342330932617188 0.000446504447609186226695460187 0 0 0 0 
2404500000.0000000000 0.176909565925598089020098768742 0.043094299733638763427734375000 0.004687818698585033416748046875 0.000256772094871848821640014648 0 0 0 0 
2404666666.6666665077 0.178940355777740506271200615629 0.041603192687034606933593750000 0.004672812763601542386526777051 -0.000005880915068701141598173695 0 0 0 0 
2404833333.3333334923 0.180686011910438509842080634371 0.040243539959192282939870466407 0.004440831486135721206665039062 -0.000179153765202499898985186166 0 0 0 0 
2405000000.0000000000 0.182364463806152288238848768742 0.039649948477745063091237653907 0.004395325202494859695434570312 -0.000331730727339163422584533691 0 0 0 0 
2405166666.6666665077 0.184082731604576110839843750000 0.038828425109386437152902971093 0.004356221761554479598999023438 -0.000543914793524891138076782227 0 0 0 0 
2405333333.3333334923 0.185533061623573303222656250000 0.038063637912273406982421875000 0.004358928650617600354666425488 -0.000741386611480265855789184570 0 0 0 0 
2405500000.0000000000 0.187380447983741788009481865629 0.037500232458114617084543596093 0.003994965460151433944702148438 -0.000786805641837418079376220703 0 0 0 0 
2405666666.6666665077 0.188691765069961603362713731258 0.037178084254264831542968750000 0.003896685317158699035644531250 -0.001054519554600120024440146338 0 0 0 0 
2405833333.3333334923 0.190315812826156588455361884371 0.036940779536962509155273437500 0.003832055022940040068385458838 -0.001044313772581517913221049731 0 0 0 0 
2406000000.0000000000 0.191433727741241510589276231258 0.036750331521034240722656250000 0.003652994986623526053187704932 -0.001208171714097260995152138818 0 0 0 0 
2406166666.6666665077 0.192744970321655301193075615629 0.036660388112068183208425153907 0.003510626032948493957519531250 -0.001210907124914228916168212891 0 0 0 0 
2406333333.3333334923 0.193963512778282193282919365629 0.036859832704067230224609375000 0.003258160781115293936488486182 -0.001455505262129008986829448169 0 0 0 0 
2406500000.0000000000 0.194913268089294405838174384371 0.037000030279159552837331403907 0.003242286155000329017639160156 -0.001512106042355298995971679688 0 0 0 0 
2406666666.6666665077 0.195759594440460205078125000000 0.037195071578025817871093750000 0.003079688875004649162292480469 -0.001368863508105278015136718750 0 0 0 0 
2406833333.3333334923 0.196598365902900695800781250000 0.037510149180889129638671875000 0.003006818704307078881504677881 -0.001482343999668956019757914966 0 0 0 0 
2407000000.0000000000 0.197070568799972506424111884371 0.037923928350210189819335937500 0.002856364706531167030334472656 -0.001488344976678491072413779150 0 0 0 0 
2407166666.6666665077 0.197492986917495699783486884371 0.037931390106678009033203125000 0.002760673174634575843811035156 -0.001468556118197738907457661206 0 0 0 0 
2407333333.3333334923 0.197719171643257113357705634371 0.038250088691711432720143903907 0.002542085014283657073974609375 -0.001520730555057526068446493994 0 0 0 0 
2407500000.0000000000 0.197663769125938387771768134371 0.038755595684051506732981096093 0.002425596117973328070399618994 -0.001442442298866807980778359521 0 0 0 0 
2407666666.6666665077 0.197964385151863098144531250000 0.038947734981775276874582658593 0.002431433415040373802185058594 -0.001336094457656145095825195312 0 0 0 0 
2407833333.3333334923 0.197587609291076687911825615629 0.039261139929294593120534528907 0.002490918617695569992065429688 -0.001241415739059448025347065503 0 0 0 0 
2408000000.0000000000 0.197622522711753900725994981258 0.039496429264545440673828125000 0.002299193060025573210475302588 -0.001212832168675958893419575269 0 0 0 0 
2408166666.6666665077 0.197226345539092989822549384371 0.039470102638006210327148437500 0.002308977069333196120021201025 -0.001160625484772026972529745947 0 0 0 0 
2408333333.3333334923 0.196749851107597406585369981258 0.039385076612234122539479841407 0.002248121658340096907374716650 -0.001188345951959490992902446216 0 0 0 0 
2408500000.0000000000 0.196050658822059603592080634371 0.039296489208936691284179687500 0.002184351440519094900843954932 -0.001015575602650641961338662256 0 0 0 0 
2408666666.6666665077 0.195380955934524508377236884371 0.039136447012424468994140625000 0.002261858200654387907740927588 -0.001027352293021976947784423828 0 0 0 0 
2408833333.3333334923 0.194764405488967895507812500000 0.038781311362981803203542341407 0.002304984256625175909755087744 -0.001070562750101089911219931494 0 0 0 0 
2409000000.0000000000 0.193704187870025607010049384371 0.038311731070280082012136091407 0.002394805429503322081324911963 -0.001062169671058655001996684497 0 0 0 0 
2409166666.6666665077 0.192733764648437500000000000000 0.037612035870552062988281250000 0.002401151461526751951930380713 -0.001033005188219249031664204175 0 0 0 0 
2409333333.3333334923 0.191771075129508999923544365629 0.037023987621068947528879533593 0.002399458317086101011988974463 -0.001138097606599330902099609375 0 0 0 0 
2409500000.0000000000 0.190505385398864801604901231258 0.035994194447994232177734375000 0.002487061312422155900242470850 -0.000986497849225997924804687500 0 0 0 0 
2409666666.6666665077 0.189265027642250088790731865629 0.034980349242687232280690778907 0.002643925603479146957397460938 -0.001017173985019325993181538159 0 0 0 0 
2409833333.3333334923 0.188136145472526605804119981258 0.033720348030328750610351562500 0.002677012700587511062622070312 -0.001100842026062309958814311450 0 0 0 0 
2410000000.0000000000 0.187052309513092013260049384371 0.032465517520904541015625000000 0.002803420880809425873997353662 -0.001299137016758322932599711841 0 0 0 0 
2410166666.6666665077 0.185849159955978393554687500000 0.030622022226452830923060233204 0.002874981611967086791992187500 -0.001232388545759022019029926831 0 0 0 0 
2410333333.3333334923 0.184590488672256497482138115629 0.029227670282125469553013985546 0.002997859148308635191676474463 -0.001424885937012732028961181641 0 0 0 0 
2410500000.0000000000 0.183405086398124694824218750000 0.027376780286431309091588204296 0.002978861797600985007045126807 -0.001490199123509228012682270581 0 0 0 0 
2410666666.6666665077 0.182303681969642611404580634371 0.025170687586069110525111014454 0.002998092211782931847813271631 -0.001611422165296972014783549731 0 0 0 0 
2410833333.3333334923 0.181322589516639709472656250000 0.023156527429819110525111014454 0.003039744449779390855076455225 -0.001627991907298564910888671875 0 0 0 0 
2411000000.0000000000 0.180402174592018099685830634371 0.021207865327596660959263985546 0.002936697099357842965366982568 -0.001645463868044316985486674731 0 0 0 0 
2411166666.6666665077 0.179393529891967801193075615629 0.018880320712924000131627266796 0.003142647445201874212977743994 -0.001785104977898299910901713794 0 0 0 0 
2411333333.3333334923 0.178901702165603609939736884371 0.016305593773722648620605468750 0.002956523559987545013427734375 -0.001941683818586171107051230322 0 0 0 0 
2411500000.0000000000 0.178035914897918701171875000000 0.014048365876078610856025896680 0.002971707377582788901088095557 -0.002018968807533382935764931787 0 0 0 0 
2411666666.6666665077 0.177806451916694613357705634371 0.011506846174597740173339843750 0.002948827343061565919163369287 -0.002280589425936340852024697412 0 0 0 0 
2411833333.3333334923 0.177167579531669588943643134371 0.009129628539085388183593750000 0.003063868964090942902805947412 -0.002273209393024445013758993994 0 0 0 0 
2412000000.0000000000 0.177109599113464410979901231258 0.006359229795634747418875409863 0.002943943021818995909449911963 -0.002246686257421969933750771631 0 0 0 0 
2412166666.6666665077 0.177017226815223693847656250000 0.003921331837773323059082031250 0.003058096859604119820835732568 -0.002514533465728164152858115088 0 0 0 0 
2412333333.3333334923 0.177102774381637600997763115629 0.001303850440308452086207724463 0.003085875650867819786071777344 -0.002522280672565103010890341650 0 0 0 0 
2412500000.0000000000 0.177286565303802490234375000000 -0.001286323531530797915217734229 0.003107268363237380981445312500 -0.002665236126631497903111123193 0 0 0 0 
2412666666.6666665077 0.177851870656013488769531250000 -0.004016149789094924926757812500 0.002998900832608342170715332031 -0.002938605146482586860656738281 0 0 0 0 
2412833333.3333334923 0.178488552570342989822549384371 -0.006661810912191867828369140625 0.003118518041446805000305175781 -0.002883695997297763824462890625 0 0 0 0 
2413000000.0000000000 0.179100856184959411621093750000 -0.009242608211934566497802734375 0.002902852138504385948181152344 -0.003165071830153464837315224756 0 0 0 0 
2413166666.6666665077 0.179836124181747408767861884371 -0.011719859205186370504359061329 0.003007783088833094076869345557 -0.003466239664703607992884970557 0 0 0 0 
2413333333.3333334923 0.180825397372245788574218750000 -0.014256078749895099294642264454 0.002918895566835999922511435400 -0.003557998221367598013636923682 0 0 0 0 
2413500000.0000000000 0.181715756654739407638388115629 -0.016852745786309238779088204296 0.002957523101940751075744628906 -0.003773845266550778908970498193 0 0 0 0 
2413666666.6666665077 0.183035850524902288238848768742 -0.019153079017996791494349295704 0.002791853388771415190455771338 -0.003985290415585041046142578125 0 0 0 0 
2413833333.3333334923 0.184033855795860290527343750000 -0.021565124392509460449218750000 0.002714066999033093886134482275 -0.004420234356075525283813476562 0 0 0 0 
2414000000.0000000000 0.185133889317512512207031250000 -0.023841656744480129587193673046 0.002637960482388734817504882812 -0.004573130048811435699462890625 0 0 0 0 
2414166666.6666665077 0.186548963189125088790731865629 -0.025821048766374591482142264454 0.002351644448935985998866415869 -0.004745915066450834274291992188 0 0 0 0 
2414333333.3333334923 0.187754958868026705642861884371 -0.027994461357593539846400076954 0.002232786500826478004455566406 -0.004793403670191764831542968750 0 0 0 0 
2414500000.0000000000 0.189282253384590204436932481258 -0.029707655310630798339843750000 0.001935519743710756085039448315 -0.004973688628524541854858398438 0 0 0 0 
2414666666.6666665077 0.190615877509117098709268134371 -0.031473133713006973266601562500 0.001696574734523891968968056787 -0.005092648323625326156616210938 0 0 0 0 
2414833333.3333334923 0.192065298557281494140625000000 -0.033084239810705191875417341407 0.001275343121960758946062397534 -0.005392093211412429809570312500 0 0 0 0 
2415000000.0000000000 0.193341508507728604415731865629 -0.034413978457450866699218750000 0.001202177605591713948490761865 -0.005580506753176450729370117188 0 0 0 0 
2415166666.6666665077 0.194838836789131192306356865629 -0.035866234451532356952707658593 0.000981970457360148429870605469 -0.005610392894595860567574785449 0 0 0 0 
2415333333.3333334923 0.196240350604057312011718750000 -0.036988757550716400146484375000 0.000564943591598421335220336914 -0.005865577608346939086914062500 0 0 0 0 
2415500000.0000000000 0.197655886411666897872763115629 -0.037865560501813888549804687500 0.000282920431345701217651367188 -0.005775672849267721176147460938 0 0 0 0 
2415666666.6666665077 0.198871612548828097244424384371 -0.038847051560878746723215471093 -0.000038035235775168991904666288 -0.005806923378258944425100995801 0 0 0 0 
2415833333.3333334923 0.200053989887237604339276231258 -0.039508730173110961914062500000 -0.000421284261392429525226038800 -0.005966409575194120407104492188 0 0 0 0 
2416000000.0000000000 0.201110556721687289138955634371 -0.040229681879281997680664062500 -0.000626337889116257429122924805 -0.005960316862910985946655273438 0 0 0 0 
2416166666.6666665077 0.202099442481994601150674384371 -0.040949866175651550292968750000 -0.000962342834100127220153808594 -0.005964209325611591339111328125 0 0 0 0 
2416333333.3333334923 0.203011065721511813064736884371 -0.041246902197599411010742187500 -0.001346114091575145938275981372 -0.005880551878362894058227539062 0 0 0 0 
2416500000.0000000000 0.203691229224204989334268134371 -0.041572492569684982299804687500 -0.001746538328006864027736044775 -0.005718231666833162307739257812 0 0 0 0 
2416666666.6666665077 0.204368308186531094650106865629 -0.041879851371049880981445312500 -0.001947554294019937948939658057 -0.005637390539050102233886718750 0 0 0 0 
2416833333.3333334923 0.204847395420074490646200615629 -0.041947986930608749389648437500 -0.002242532093077898025512695312 -0.005503953900188207626342773438 0 0 0 0 
2417000000.0000000000 0.205174863338470486739950615629 -0.041927885264158248901367187500 -0.002458277624100447134730673682 -0.005257301498204469680786132812 0 0 0 0 
2417166666.6666665077 0.205328404903411892989950615629 -0.041777614504098892211914062500 -0.002608173526823521094081259619 -0.005145855713635683059692382812 0 0 0 0 
2417333333.3333334923 0.205160647630691500564736884371 -0.041484955698251717304270158593 -0.002793121850118041038513183594 -0.005075692199170588579659746387 0 0 0 0 
2417500000.0000000000 0.205170854926109286209268134371 -0.041353933513164520263671875000 -0.003082851180806756019592285156 -0.004884768743067979812622070312 0 0 0 0 
2417666666.6666665077 0.204890102148056002517861884371 -0.041082505136728286743164062500 -0.003280588891357183890101767432 -0.004745035432279109954833984375 0 0 0 0 
2417833333.3333334923 0.204629480838775607010049384371 -0.040672894567251212383229841407 -0.003317147493362427191493368994 -0.004532476887106894579415605762 0 0 0 0 
2418000000.0000000000 0.204171434044838007171307481258 -0.040144737809896469116210937500 -0.003599209012463688850402832031 -0.004293490666896104812622070312 0 0 0 0 
2418166666.6666665077 0.203527182340622003753338731258 -0.040014594793319702148437500000 -0.003801649669185280799865722656 -0.004112184513360261917114257812 0 0 0 0 
2418333333.3333334923 0.202817171812057495117187500000 -0.039608359336853027343750000000 -0.003861157223582268194911337744 -0.003928206861019135388846112988 0 0 0 0 
2418500000.0000000000 0.201914340257644708831463731258 -0.039323944598436362529714216407 -0.003893963526934384866001748193 -0.003727018600329757170436240088 0 0 0 0 
2418666666.6666665077 0.201149001717567388336505018742 -0.039089616388082497333567033593 -0.004081999883055686950683593750 -0.003612941130995749993565224756 0 0 0 0 
2418833333.3333334923 0.199923694133758489410723768742 -0.038939923048019409179687500000 -0.004164559766650199890136718750 -0.003427642630413175062892294775 0 0 0 0 
2419000000.0000000000 0.198624640703201293945312500000 -0.038891449570655822753906250000 -0.004129496403038501739501953125 -0.003237585304304956956150673975 0 0 0 0 
2419166666.6666665077 0.197582170367240905761718750000 -0.038861375302076339721679687500 -0.004192072432488203048706054688 -0.002975907409563661055323935400 0 0 0 0 
2419333333.3333334923 0.196081429719924899002236884371 -0.039323229342699050903320312500 -0.004352374933660030364990234375 -0.002812912920489906831028603662 0 0 0 0 
2419500000.0000000000 0.194610312581062289138955634371 -0.039489064365625381469726562500 -0.004394526127725839614868164062 -0.002575409132987260818481445312 0 0 0 0 
2419666666.6666665077 0.192947000265121487716513115629 -0.039988100528717041015625000000 -0.004512305371463298797607421875 -0.002420557895675301985499716650 0 0 0 0 
2419833333.3333334923 0.191184505820274408538494981258 -0.040507122874259948730468750000 -0.004536932334303855895996093750 -0.002197753405198454856872558594 0 0 0 0 
