# Hz S RI R 
2400000000.0000000000 0.169187322258949307540731865629 0.040100406855344772338867187500 -0.001196127966977656104444194263 -0.003018926596269011931178427588 0 0 0 0 
2400166666.6666665077 0.170155286788940401931924384371 0.039465997368097312236745466407 -0.001341447466984390995622944409 -0.003016952192410827116725302588 0 0 0 0 
2400333333.3333334923 0.170484349131584195236044365629 0.038596656173467643047292341407 -0.001402445952408015944837260669 -0.002808499149978160858154296875 0 0 0 0 
2400500000.0000000000 0.171019017696380587478799384371 0.037879571318626396869699846093 -0.001740411273203789970995258862 -0.002765059238299727006199502100 0 0 0 0 
2400666666.6666665077 0.171460658311843899825888115629 0.036996152251958847045898437500 -0.001811605878174304962158203125 -0.002584126079455018043518066406 0 0 0 0 
2400833333.3333334923 0.171827584505081204513388115629 0.036366973072290420532226562500 -0.001808945788070559935328818213 -0.002513157436624168915989541162 0 0 0 0 
2401000000.0000000000 0.172258600592613192459268134371 0.035528518259525299072265625000 -0.001883507240563631057739257812 -0.002215208020061254935023642432 0 0 0 0 
2401166666.6666665077 0.172451719641685513595419365629 0.034878645092248916625976562500 -0.002165367826819419860839843750 -0.002126416424289346174952841650 0 0 0 0 
2401333333.3333334923 0.172594353556632995605468750000 0.033946260809898383403737653907 -0.001924382755532860972760844653 -0.002092310925945640043971396338 0 0 0 0 
2401500000.0000000000 0.172798529267311096191406250000 0.033300150185823440551757812500 -0.001950107398442924022674560547 -0.001854187692515552043914794922 0 0 0 0 
2401666666.6666665077 0.172724679112434387207031250000 0.032680351287126541137695312500 -0.002001227112486958937404013525 -0.001671959529630840041516948169 0 0 0 0 
2401833333.3333334923 0.172759354114532498458700615629 0.031846839934587478637695312500 -0.002079080091789364814758300781 -0.001585432561114429993870400537 0 0 0 0 
2402000000.0000000000 0.172683551907539395431356865629 0.030974250286817550659179687500 -0.001966897863894701004028320312 -0.001680423039942980029462504810 0 0 0 0 
2402166666.6666665077 0.172906860709190396407919365629 0.030109539628028869628906250000 -0.001897391979582607962964702075 -0.001401909161359071948407817310 0 0 0 0 
2402333333.3333334923 0.172605276107788113693075615629 0.029571060091257098806361014454 -0.001863555167801677963854145581 -0.001381334615871310017229389722 0 0 0 0 
2402500000.0000000000 0.172808676958084106445312500000 0.028779966756701469421386718750 -0.001811430440284311988233256763 -0.001438823994249106104012514429 0 0 0 0 
2402666666.6666665077 0.172378346323967007736044365629 0.027830446138978000986119454296 -0.001836816780269145965576171875 -0.001311301602981985049006796729 0 0 0 0 
2402833333.3333334923 0.172370761632919311523437500000 0.026870079338550571096400076954 -0.001892503001727164008496928638 -0.001338512287475168921827006763 0 0 0 0 
2403000000.0000000000 0.172224655747413607498330634371 0.026016285642981529235839843750 -0.001841048127971589998957968604 -0.001532661961391567967058491284 0 0 0 0 
2403166666.6666665077 0.171859472990036010742187500000 0.024904878810048099863072579296 -0.001865776604972779967664409106 -0.001316674984991550011875771631 0 0 0 0 
2403333333.3333334923 0.171736672520637512207031250000 0.023735845461487770080566406250 -0.002003906061872839927673339844 -0.001350721577182411930681538159 0 0 0 0 
2403500000.0000000000 0.171400353312492398361044365629 0.022709820419549938547154610546 -0.001914151245728134892107319409 -0.001363877905532717921613383716 0 0 0 0 
2403666666.6666665077 0.171136915683746310135049384371 0.021456433460116389883021170704 -0.002037420868873596191406250000 -0.001310530467890202999114990234 0 0 0 0 
2403833333.3333334923 0.170857369899749811370526231258 0.020288113504648208618164062500 -0.002027128357440232796909951318 -0.001263743499293922944309853662 0 0 0 0 
2404000000.0000000000 0.170853286981582613845986884371 0.018817717209458351135253906250 -0.002287052571773529052734375000 -0.001105439965613185925724648584 0 0 0 0 
2404166666.6666665077 0.170413687825202886383380018742 0.017599614337086681020716483204 -0.002146389335393906073329306494 -0.001247650943696499087690043872 0 0 0 0 
2404333333.3333334923 0.170185565948486300369424384371 0.016298456117510799062708670704 -0.002161708660423756079432822119 -0.000851111719384789466857910156 0 0 0 0 
2404500000.0000000000 0.169843524694442804534588731258 0.014764958061277869832972342579 -0.002267154864966868920567177881 -0.000908671761862933635711669922 0 0 0 0 
2404666666.6666665077 0.169841438531875610351562500000 0.013294369913637639826764491602 -0.002063695108518003983738564600 -0.000999632524326443672180175781 0 0 0 0 
2404833333.3333334923 0.169636890292167691329794365629 0.011856001801788810384730155079 -0.002213428029790521101710654150 -0.000827561132609844207763671875 0 0 0 0 
2405000000.0000000000 0.169433027505874606033486884371 0.010199538432061670475969883398 -0.002223987132310866875889443506 -0.000726242607925087213516235352 0 0 0 0 
2405166666.6666665077 0.169347167015075711349325615629 0.008695714175701141357421875000 -0.002184755168855189843418740381 -0.000749974977225065231323242188 0 0 0 0 
2405333333.3333334923 0.169331252574920709808026231258 0.006782186683267354965209960938 -0.002133201807737350897548056494 -0.000744941818993538618087768555 0 0 0 0 
2405500000.0000000000 0.169359102845192011077557481258 0.005408336874097585678100585938 -0.002263529459014534950256347656 -0.000590486684814095497131347656 0 0 0 0 
2405666666.6666665077 0.169055700302123995681924384371 0.003581539960578083992004394531 -0.002264376496896148161647177588 -0.000657092779874801635742187500 0 0 0 0 
2405833333.3333334923 0.168863147497177096267861884371 0.001938783796504139900207519531 -0.002361597493290901184082031250 -0.000578855280764400959014892578 0 0 0 0 
2406000000.0000000000 0.168902516365051297286825615629 0.000136307455250062102645319806 -0.002434306312352418899536132812 -0.000657563679851591587066650391 0 0 0 0 
2406166666.6666665077 0.168717324733734103103799384371 -0.001599015668034553961512900244 -0.002422656863927841186523437500 -0.000599441875237971544265747070 0 0 0 0 
2406333333.3333334923 0.168744921684265108963174384371 -0.003286834806203842163085937500 -0.002288210438564420180079794775 -0.000437475886428728699684143066 0 0 0 0 
2406500000.0000000000 0.168478548526763888260049384371 -0.004999369848519563674926757812 -0.002403117017820477919337607275 -0.000411253364291042089462280273 0 0 0 0 
2406666666.6666665077 0.168183982372283907791299384371 -0.006599971558898687362670898438 -0.002531245816498994827270507812 -0.000322765205055475180775242938 0 0 0 0 
2406833333.3333334923 0.168252289295196505447549384371 -0.008531243540346622467041015625 -0.002455152571201324896571493994 -0.000177738605998456505223950797 0 0 0 0 
2407000000.0000000000 0.168223589658737210372763115629 -0.010041057132184510666816912305 -0.002489493694156407876255654443 -0.000211406586458906504228869028 0 0 0 0 
2407166666.6666665077 0.168077841401100186446981865629 -0.011488573625683779280692853320 -0.002527730539441109137294150244 -0.000043289506720611832361628873 0 0 0 0 
2407333333.3333334923 0.167924061417579706390057481258 -0.012980357743799689901331717579 -0.002400322584435344176051474463 -0.000099858618341386318206787109 0 0 0 0 
2407500000.0000000000 0.167878910899162292480468750000 -0.014425302855670450383196445898 -0.002638128120452166037318564307 0.000151048603584058609887799673 0 0 0 0 
2407666666.6666665077 0.167734652757644708831463731258 -0.015585226006805900228480155079 -0.002492011524736880822422646631 -0.000001074464876182900995599408 0 0 0 0 
2407833333.3333334923 0.167679443955421503265057481258 -0.016962490975856781005859375000 -0.002678599441424012184143066406 0.000151980188093148199006757193 0 0 0 0 
2408000000.0000000000 0.167694449424743707854901231258 -0.018287668004631999624232108204 -0.002467592479661107063293457031 0.000220600602915510508135119028 0 0 0 0 
2408166666.6666665077 0.167811155319213894943075615629 -0.019123287871479991567591483204 -0.002463862765580416159388876807 0.000395298033254221081733703613 0 0 0 0 
2408333333.3333334923 0.168020710349083002288494981258 -0.020395964384078979492187500000 -0.002572000026702880859375000000 0.000224232819164171787813463754 0 0 0 0 
2408500000.0000000000 0.168110519647598294357138115629 -0.021284747868776321411132812500 -0.002598606515675783157348632812 0.000424227968323975801467895508 0 0 0 0 
2408666666.6666665077 0.168359696865081787109375000000 -0.022324156016111370431920235546 -0.002584223635494709014892578125 0.000600595958530902862548828125 0 0 0 0 
2408833333.3333334923 0.168498009443283108810263115629 -0.023169325664639469491978829296 -0.002676438540220261053798056494 0.000609415234066545963287353516 0 0 0 0 
2409000000.0000000000 0.168634891510009793380575615629 -0.023976851254701610910435860546 -0.002520259935408831076381064307 0.000773690349888056516647338867 0 0 0 0 
2409166666.6666665077 0.168884202837944003006143134371 -0.024897404015064239501953125000 -0.002571679884567856788635253906 0.000879261293448507785797119141 0 0 0 0 
2409333333.3333334923 0.169211119413375910003338731258 -0.025764441117644309997558593750 -0.002601719927042723135707236182 0.000814592582173645496368408203 0 0 0 0 
2409500000.0000000000 0.169467940926551791092080634371 -0.026771659031510349618931954296 -0.002486702520400286154506064307 0.000959689903538674116134643555 0 0 0 0 
2409666666.6666665077 0.169643998146057101150674384371 -0.027433125302195549011230468750 -0.002534983446821569962742470850 0.001117322244681417942047119141 0 0 0 0 
2409833333.3333334923 0.169794052839279202560263115629 -0.028382195159792900085449218750 -0.002479755319654941992518759619 0.001186689478345215103746723706 0 0 0 0 
2410000000.0000000000 0.170175015926361111739950615629 -0.029099145904183391225794608204 -0.002310465089976788000819540869 0.001305473735556005997898720850 0 0 0 0 
2410166666.6666665077 0.170269161462783813476562500000 -0.029859974980354309082031250000 -0.002449842868372797966003417969 0.001282426295801996967912983472 0 0 0 0 
2410333333.3333334923 0.170518919825553894042968750000 -0.030663996934890750539759451954 -0.002426865743473172187805175781 0.001362538547255099036573100513 0 0 0 0 
2410500000.0000000000 0.170559197664260892013388115629 -0.031656522303819663310964216407 -0.002359184436500072912928915869 0.001474362332373857931849814307 0 0 0 0 
2410666666.6666665077 0.170492768287658691406250000000 -0.032504312694072723388671875000 -0.002336322097107768058776855469 0.001635896274819969914079975659 0 0 0 0 
2410833333.3333334923 0.170621454715728787521200615629 -0.033039934933185577392578125000 -0.002458830131217836899998330225 0.001678451430052519061444926685 0 0 0 0 
2411000000.0000000000 0.170264109969139099121093750000 -0.033852148801088333129882812500 -0.002225643722340465025660849463 0.001793779782019556002375937354 0 0 0 0 
2411166666.6666665077 0.170264109969139099121093750000 -0.034591618925333023071289062500 -0.002265991643071175055262900244 0.001961912726983428001403808594 0 0 0 0 
2411333333.3333334923 0.170285120606422396560830634371 -0.035401389002799987792968750000 -0.002216915134340525107142783057 0.001979589927941561178920126807 0 0 0 0 
2411500000.0000000000 0.169878870248794611175213731258 -0.036070849746465682983398437500 -0.002074988791719079017639160156 0.002211119979619979858398437500 0 0 0 0 
2411666666.6666665077 0.169818282127380398849325615629 -0.036889981478452682495117187500 -0.002166573656722902817967080225 0.002303228713572024865391396631 0 0 0 0 
2411833333.3333334923 0.169413581490516690353231865629 -0.037549503147602081298828125000 -0.001934322412125766060472797925 0.002326783956959844069239951025 0 0 0 0 
2412000000.0000000000 0.169382721185684204101562500000 -0.038491744548082351684570312500 -0.001814339542761445045471191406 0.002439087955281137986424111475 0 0 0 0 
2412166666.6666665077 0.168938502669334411621093750000 -0.039189171046018600463867187500 -0.001650572172366083101985312354 0.002475625136867165999171591650 0 0 0 0 
2412333333.3333334923 0.168753787875175503829794365629 -0.040020026266574859619140625000 -0.001468416303396224975585937500 0.002547732088714838027954101562 0 0 0 0 
2412500000.0000000000 0.168071955442428588867187500000 -0.040847409516572952270507812500 -0.001271076616831124045728373950 0.002604199340566993193385458838 0 0 0 0 
2412666666.6666665077 0.167871743440628107268963731258 -0.041755259037017822265625000000 -0.001224408741109072945238422925 0.002544073155149817900416708838 0 0 0 0 
2412833333.3333334923 0.167282998561859103103799384371 -0.042785909026861190795898437500 -0.001104047056287527084350585938 0.002380775520578027205226279150 0 0 0 0 
2413000000.0000000000 0.166642591357231112381143134371 -0.043486107140779502178151716407 -0.001013954984955490069148398291 0.002391458023339509963989257812 0 0 0 0 
2413166666.6666665077 0.166090756654739407638388115629 -0.044374730437994003295898437500 -0.001037204172462224960327148438 0.002276048297062516212463378906 0 0 0 0 
2413333333.3333334923 0.165512770414352389236611884371 -0.045269984751939766620676408593 -0.001001860131509602069854736328 0.002276037819683551788330078125 0 0 0 0 
2413500000.0000000000 0.164947330951690701583700615629 -0.046300437301397316669504533593 -0.000812566780950874090194702148 0.002288657706230878829956054688 0 0 0 0 
2413666666.6666665077 0.164500698447227505782919365629 -0.047291927039623260498046875000 -0.001008967636153101921081542969 0.002436035079881548881530761719 0 0 0 0 
2413833333.3333334923 0.163726270198821993728799384371 -0.048181783407926559448242187500 -0.000975454924628138542175292969 0.002280169632285832925083779443 0 0 0 0 
2414000000.0000000000 0.162971019744873102386151231258 -0.049106430262327187274973283593 -0.000982499797828495502471923828 0.002154315123334527015686035156 0 0 0 0 
2414166666.6666665077 0.162647306919097900390625000000 -0.050131350755691528320312500000 -0.000908821064513176679611206055 0.002261102199554442925694131006 0 0 0 0 
2414333333.3333334923 0.161958083510398892501669365629 -0.051187109202146530151367187500 -0.001394425635226071097730327075 0.002123386599123477935791015625 0 0 0 0 
2414500000.0000000000 0.161646485328674288650674384371 -0.052050538361072540283203125000 -0.001223277766257524924037314307 0.002301360480487347082850790869 0 0 0 0 
2414666666.6666665077 0.161306947469711303710937500000 -0.053073935210704803466796875000 -0.000815256324131041765213012695 0.002617042744532227949855185400 0 0 0 0 
2414833333.3333334923 0.160802274942398099044638115629 -0.053962528705596916889231096093 -0.001009706407785416083094931494 0.002849651500582695007324218750 0 0 0 0 
2415000000.0000000000 0.160554260015487698654013115629 -0.055091492831707000732421875000 -0.000869080831762403249740600586 0.002667906461283565001246786963 0 0 0 0 
2415166666.6666665077 0.160052314400672912597656250000 -0.056329842656850821758229841407 -0.000693394453264772891998291016 0.002869397634640336036682128906 0 0 0 0 
2415333333.3333334923 0.159921392798423794845419365629 -0.057584702968597412109375000000 -0.000817632302641868591308593750 0.003120615147054194970371865381 0 0 0 0 
2415500000.0000000000 0.159594401717186001876669365629 -0.058795001357793807983398437500 -0.000587333925068378448486328125 0.003126580500975251197814941406 0 0 0 0 
2415666666.6666665077 0.159340396523475702483807481258 -0.059976071119308471679687500000 -0.000515786930918693542480468750 0.003266240004450083212611533057 0 0 0 0 
2415833333.3333334923 0.159141719341278103927450615629 -0.061429407447576522827148437500 -0.000354685704223811626434326172 0.003475207136943935914280556787 0 0 0 0 
2416000000.0000000000 0.158853694796562194824218750000 -0.062760524451732635498046875000 -0.000101252604508772505961279597 0.003417830914258956909179687500 0 0 0 0 
2416166666.6666665077 0.158747479319572504241619981258 -0.064048208296298980712890625000 0.000061506412748713046312332153 0.003473163116723299026489257812 0 0 0 0 
2416333333.3333334923 0.158395349979400607010049384371 -0.065327547490596771240234375000 0.000292528682621195912361145020 0.003502098843455315069911337744 0 0 0 0 
2416500000.0000000000 0.158115684986114501953125000000 -0.066798664629459381103515625000 0.000417222967371344620555323468 0.003496136749163269996643066406 0 0 0 0 
2416666666.6666665077 0.157708808779716491699218750000 -0.068109564483165740966796875000 0.000552504498045891523361206055 0.003239893587306141853332519531 0 0 0 0 
2416833333.3333334923 0.157582566142082186599893134371 -0.069581009447574615478515625000 0.000916701683308929204940795898 0.003209206275641918182373046875 0 0 0 0 
2417000000.0000000000 0.157082289457321194747763115629 -0.070709943771362304687500000000 0.000969970773439854383468627930 0.003083736635744572119471884619 0 0 0 0 
2417166666.6666665077 0.156771332025528009612713731258 -0.071874767541885375976562500000 0.001227049506269394917729043115 0.003259772667661308808567666162 0 0 0 0 
2417333333.3333334923 0.156587883830070495605468750000 -0.073004081845283508300781250000 0.001172495889477431990979838794 0.003019697032868862152099609375 0 0 0 0 
2417500000.0000000000 0.156161665916442898849325615629 -0.074451334774494171142578125000 0.001170488656498491980909038013 0.002880993997678161101100302588 0 0 0 0 
2417666666.6666665077 0.156059667468071011642294365629 -0.075198613107204437255859375000 0.001296635833568871021270751953 0.002790278522297739982604980469 0 0 0 0 
2417833333.3333334923 0.155737042427062988281250000000 -0.076185904443264007568359375000 0.001284108730033040046691894531 0.002639516722410916848423623193 0 0 0 0 
2418000000.0000000000 0.155450940132141113281250000000 -0.077388383448123931884765625000 0.001489366404712199947954487378 0.002735920017585157914402627100 0 0 0 0 
2418166666.6666665077 0.155262827873230008224325615629 -0.078029237687587738037109375000 0.001477095298469067053553915869 0.002631688490509986877441406250 0 0 0 0 
2418333333.3333334923 0.155418694019317599197549384371 -0.078982785344123840332031250000 0.001483933301642536900163960034 0.002697212621569633917567587744 0 0 0 0 
2418500000.0000000000 0.155153274536132812500000000000 -0.079839669167995452880859375000 0.001596651040017605044721293872 0.002769655548036098913905478369 0 0 0 0 
2418666666.6666665077 0.154957294464111300369424384371 -0.080695375800132751464843750000 0.001707947812974452972412109375 0.002583457855507731004002236475 0 0 0 0 
2418833333.3333334923 0.154735177755355807205361884371 -0.081654556095600128173828125000 0.001631225342862308025360107422 0.002668338362127542929408408057 0 0 0 0 
2419000000.0000000000 0.154584452509880093673544365629 -0.082231685519218444824218750000 0.001886775367893279032466269385 0.002678515622392296791076660156 0 0 0 0 
2419166666.6666665077 0.154368862509727505782919365629 -0.083033092319965362548828125000 0.002069805283099412918090820312 0.002656488912180066108703613281 0 0 0 0 
2419333333.3333334923 0.154036939144134493728799384371 -0.083618663251399993896484375000 0.002209612634032965140101767432 0.002519202884286642074584960938 0 0 0 0 
2419500000.0000000000 0.153876379132270812988281250000 -0.084405697882175445556640625000 0.002340051578357816176173544775 0.002521817572414875030517578125 0 0 0 0 
2419666666.6666665077 0.153852686285972595214843750000 -0.085182331502437591552734375000 0.002624083310365676879882812500 0.002363177482038735909702920068 0 0 0 0 
2419833333.3333334923 0.153531119227409390548544365629 -0.085500955581665039062500000000 0.002775504020974040031433105469 0.002217733999714254899265908350 0 0 0 0 
