# Version 1.00
#
freq[Hz];re:Trc1_S11;im:Trc1_S11;re:Trc2_S21;im:Trc2_S21;
2.400000000000000E+009;1.560522317886353E-001;6.002209708094597E-002;-4.404762759804726E-003;1.859459589468315E-004;
2.400166666666667E+009;1.561015993356705E-001;5.818648263812065E-002;-4.351624753326178E-003;4.602530680131167E-004;
2.400333333333334E+009;1.560920327901840E-001;5.606667324900627E-002;-4.530164413154125E-003;5.100806592963636E-004;
2.400500000000000E+009;1.562663763761520E-001;5.410494655370712E-002;-4.317241720855236E-003;6.775137153454125E-004;
2.400666666666667E+009;1.564346402883530E-001;5.207305401563644E-002;-4.351498559117317E-003;8.677615551277995E-004;
2.400833333333334E+009;1.569113135337830E-001;5.024332925677300E-002;-4.184713121503592E-003;9.773880010470748E-004;
2.401000000000000E+009;1.572071909904480E-001;4.791846871376038E-002;-4.278325475752354E-003;1.188665162771940E-003;
2.401166666666667E+009;1.577790528535843E-001;4.570423439145088E-002;-4.279651213437319E-003;1.439080806449056E-003;
2.401333333333334E+009;1.580837965011597E-001;4.386318475008011E-002;-4.032147116959095E-003;1.551897032186389E-003;
2.401500000000000E+009;1.588021814823151E-001;4.182641208171845E-002;-4.033079836517572E-003;1.769518712535501E-003;
2.401666666666667E+009;1.594556421041489E-001;3.995400667190552E-002;-3.790633520111442E-003;1.956416759639978E-003;
2.401833333333334E+009;1.600904613733292E-001;3.794283419847488E-002;-3.694333136081696E-003;2.086261287331581E-003;
2.402000000000000E+009;1.606771051883698E-001;3.616899251937866E-002;-3.720394568517804E-003;2.283604349941015E-003;
2.402166666666667E+009;1.614065766334534E-001;3.410933911800385E-002;-3.606462385505438E-003;2.324123866856098E-003;
2.402333333333334E+009;1.620487719774246E-001;3.245732933282852E-002;-3.349519567564130E-003;2.439096104353666E-003;
2.402500000000000E+009;1.633395850658417E-001;3.085297159850597E-002;-3.230196656659246E-003;2.546480158343911E-003;
2.402666666666667E+009;1.637759357690811E-001;2.934724651277065E-002;-3.258559852838516E-003;2.666164422407746E-003;
2.402833333333334E+009;1.649979948997498E-001;2.789718843996525E-002;-2.887476701289415E-003;2.833190141245723E-003;
2.403000000000000E+009;1.657907068729401E-001;2.648558281362057E-002;-2.729583298787475E-003;2.942496677860618E-003;
2.403166666666667E+009;1.669049859046936E-001;2.508869022130966E-002;-2.526615513488650E-003;2.978549338877201E-003;
2.403333333333334E+009;1.677917838096619E-001;2.380911447107792E-002;-2.411993220448494E-003;2.880892017856240E-003;
2.403500000000000E+009;1.688677966594696E-001;2.273489534854889E-002;-2.152500208467245E-003;3.001790726557374E-003;
2.403666666666667E+009;1.698535531759262E-001;2.179889753460884E-002;-2.128609456121922E-003;3.096821252256632E-003;
2.403833333333334E+009;1.710023581981659E-001;2.061222121119499E-002;-2.050450304523110E-003;3.187104826793075E-003;
2.404000000000000E+009;1.718858778476715E-001;1.977056078612804E-002;-1.620923867449164E-003;3.162830136716366E-003;
2.404166666666667E+009;1.727565675973892E-001;1.876696199178696E-002;-1.614194363355637E-003;3.204444423317909E-003;
2.404333333333334E+009;1.735639125108719E-001;1.820142567157745E-002;-1.377178123220801E-003;3.165870206430554E-003;
2.404500000000000E+009;1.743859797716141E-001;1.727107539772987E-002;-1.123053487390280E-003;3.260559635236859E-003;
2.404666666666667E+009;1.751606166362763E-001;1.674993522465229E-002;-9.961047908291221E-004;2.950418740510941E-003;
2.404833333333334E+009;1.760415583848953E-001;1.614584401249886E-002;-9.052221430465579E-004;3.043196629732847E-003;
2.405000000000000E+009;1.767021268606186E-001;1.563336327672005E-002;-7.951810257509351E-004;2.954134251922369E-003;
2.405166666666667E+009;1.774007827043533E-001;1.528982352465391E-002;-5.933806532993913E-004;3.043686272576451E-003;
2.405333333333334E+009;1.780282258987427E-001;1.480325218290091E-002;-4.918522317893803E-004;2.790541853755713E-003;
2.405500000000000E+009;1.785653382539749E-001;1.459105033427477E-002;-4.129770677536726E-004;3.030675929039717E-003;
2.405666666666667E+009;1.788554489612579E-001;1.414335612207651E-002;-4.374811833258718E-004;2.789408667013049E-003;
2.405833333333334E+009;1.791004985570908E-001;1.399823557585478E-002;-8.674170385347679E-005;2.873583696782589E-003;
2.406000000000000E+009;1.794776469469070E-001;1.369478739798069E-002;-2.181042218580842E-004;2.651643473654985E-003;
2.406166666666667E+009;1.796546131372452E-001;1.366471778601408E-002;2.301013046235312E-005;2.664524829015136E-003;
2.406333333333334E+009;1.799406856298447E-001;1.321620494127274E-002;4.068539055879228E-005;2.521439921110869E-003;
2.406500000000000E+009;1.797911524772644E-001;1.275227218866348E-002;1.983450929401442E-004;2.620126819238067E-003;
2.406666666666667E+009;1.797817796468735E-001;1.257233694195747E-002;2.202995674451813E-004;2.367600798606873E-003;
2.406833333333334E+009;1.796663701534271E-001;1.224858593195677E-002;2.764212258625776E-004;2.539920387789607E-003;
2.407000000000000E+009;1.796120107173920E-001;1.189559977501631E-002;4.482125223148614E-004;2.448261016979814E-003;
2.407166666666667E+009;1.794345825910568E-001;1.147594209760428E-002;4.784567572642118E-004;2.268147887662053E-003;
2.407333333333334E+009;1.788534969091415E-001;1.096365321427584E-002;5.864475388079882E-004;2.169003710150719E-003;
2.407500000000000E+009;1.786723583936691E-001;1.047077402472496E-002;5.745577509514988E-004;2.235913882032037E-003;
2.407666666666667E+009;1.781002283096314E-001;9.954396635293961E-003;4.344947519712150E-004;2.002215012907982E-003;
2.407833333333334E+009;1.775018870830536E-001;8.980819955468178E-003;7.127388380467892E-004;2.117971656844020E-003;
2.408000000000000E+009;1.770342737436295E-001;8.289460092782974E-003;5.620817537419498E-004;1.993494573980570E-003;
2.408166666666667E+009;1.764052659273148E-001;7.514796685427427E-003;7.109153084456921E-004;1.993743469938636E-003;
2.408333333333334E+009;1.759214401245117E-001;6.562715396285057E-003;8.122331928461790E-004;1.846534316428006E-003;
2.408500000000000E+009;1.751191467046738E-001;5.471042357385159E-003;7.100926595740020E-004;1.820756122469902E-003;
2.408666666666667E+009;1.745799332857132E-001;4.340589977800846E-003;9.229097049683332E-004;1.686016563326120E-003;
2.408833333333334E+009;1.736707389354706E-001;3.066457575187087E-003;8.901974651962519E-004;1.712793367914856E-003;
2.409000000000000E+009;1.729989051818848E-001;1.762602943927050E-003;9.395278175361455E-004;1.702632172964513E-003;
2.409166666666667E+009;1.724710315465927E-001;3.861690638586879E-004;9.117305162362754E-004;1.620277762413025E-003;
2.409333333333334E+009;1.718260049819946E-001;-1.032758504152298E-003;1.076947199180722E-003;1.484599662944675E-003;
2.409500000000000E+009;1.710137575864792E-001;-2.704257844015956E-003;1.021326985210180E-003;1.322951167821884E-003;
2.409666666666667E+009;1.704378575086594E-001;-4.278332460671663E-003;9.612981812097132E-004;1.473876996897161E-003;
2.409833333333334E+009;1.698047667741776E-001;-5.960209295153618E-003;1.034795073792338E-003;1.153698656708002E-003;
2.410000000000000E+009;1.692452877759934E-001;-7.457767613232136E-003;1.092202262952924E-003;1.240375451743603E-003;
2.410166666666667E+009;1.687002778053284E-001;-9.446811862289906E-003;1.137310289777815E-003;1.043958356603980E-003;
2.410333333333334E+009;1.684092283248901E-001;-1.121473591774702E-002;1.210909802466631E-003;1.062647323124111E-003;
2.410500000000000E+009;1.680506765842438E-001;-1.298904325813055E-002;1.063929637894034E-003;8.601400768384337E-004;
2.410666666666667E+009;1.676979362964630E-001;-1.509644463658333E-002;1.239469158463180E-003;7.932747830636799E-004;
2.410833333333334E+009;1.674942970275879E-001;-1.683713309466839E-002;1.135765691287816E-003;7.142783142626286E-004;
2.411000000000000E+009;1.674628406763077E-001;-1.882491260766983E-002;1.066526281647384E-003;6.839573034085333E-004;
2.411166666666667E+009;1.671050786972046E-001;-2.091891877353191E-002;1.295135938562453E-003;5.361482617445290E-004;
2.411333333333334E+009;1.672328412532806E-001;-2.271657250821590E-002;9.508424554951489E-004;4.828264645766467E-004;
2.411500000000000E+009;1.672216355800629E-001;-2.491640485823154E-002;1.121015753597021E-003;2.547064505051822E-004;
2.411666666666667E+009;1.674456894397736E-001;-2.695245109498501E-002;1.156722777523100E-003;1.363598858006299E-004;
2.411833333333334E+009;1.677798628807068E-001;-2.866885997354984E-002;1.047031837515533E-003;1.747222559060901E-004;
2.412000000000000E+009;1.680146157741547E-001;-3.067249059677124E-002;1.052967039868236E-003;5.453997073345818E-005;
2.412166666666667E+009;1.682798564434052E-001;-3.245026618242264E-002;9.069424122571945E-004;-5.805491673527286E-005;
2.412333333333334E+009;1.689985394477844E-001;-3.447340801358223E-002;8.159137796610594E-004;-1.231177011504769E-004;
2.412500000000000E+009;1.693712770938873E-001;-3.600811213254929E-002;7.271198555827141E-004;-1.309872895944864E-004;
2.412666666666667E+009;1.698696911334992E-001;-3.804535791277885E-002;7.232013158500195E-004;-2.328072587260976E-004;
2.412833333333334E+009;1.703752726316452E-001;-3.979665040969849E-002;5.841013626195490E-004;-4.388406232465059E-004;
2.413000000000000E+009;1.711232662200928E-001;-4.131900891661644E-002;4.732803208753467E-004;-4.427995881997049E-004;
2.413166666666667E+009;1.716325432062149E-001;-4.293375462293625E-002;3.302397381048650E-004;-4.974466864950955E-004;
2.413333333333334E+009;1.723412126302719E-001;-4.447999596595764E-002;3.087167278863490E-004;-5.837873904965818E-004;
2.413500000000000E+009;1.729177683591843E-001;-4.593722149729729E-002;7.624583668075502E-005;-4.543407121673226E-004;
2.413666666666667E+009;1.735878735780716E-001;-4.727407172322273E-002;-1.628679456189275E-005;-4.648814210668206E-004;
2.413833333333334E+009;1.741863340139389E-001;-4.852898791432381E-002;-2.620005689095706E-004;-4.524216055870056E-004;
2.414000000000000E+009;1.746423244476318E-001;-4.973225668072701E-002;-2.693643327802420E-004;-5.997264524921775E-004;
2.414166666666667E+009;1.754286885261536E-001;-5.089556053280830E-002;-3.518188023008406E-004;-5.928571335971355E-004;
2.414333333333334E+009;1.759680062532425E-001;-5.185146629810333E-002;-5.518220132216811E-004;-3.894177498295903E-004;
2.414500000000000E+009;1.767139583826065E-001;-5.274600908160210E-002;-7.264160085469484E-004;-4.503704549279064E-004;
2.414666666666667E+009;1.770832538604736E-001;-5.350474640727043E-002;-7.195245125330985E-004;-2.706567756831646E-004;
2.414833333333334E+009;1.773435473442078E-001;-5.414881557226181E-002;-9.060417651198804E-004;-2.206559584010392E-004;
2.415000000000000E+009;1.779252737760544E-001;-5.492531135678291E-002;-1.148160547018051E-003;-2.059023681795225E-004;
2.415166666666667E+009;1.781793534755707E-001;-5.556942895054817E-002;-1.096016145311296E-003;8.483621058985591E-005;
2.415333333333334E+009;1.785811483860016E-001;-5.614124238491058E-002;-1.243719016201794E-003;2.294351579621434E-004;
2.415500000000000E+009;1.786787807941437E-001;-5.642256513237953E-002;-1.297267852351070E-003;3.052736283279955E-004;
2.415666666666667E+009;1.788403093814850E-001;-5.676503852009773E-002;-1.409156131558120E-003;4.431605048011988E-004;
2.415833333333334E+009;1.789497733116150E-001;-5.719824507832527E-002;-1.379807712510228E-003;5.211899406276643E-004;
2.416000000000000E+009;1.786728501319885E-001;-5.743658542633057E-002;-1.566773047670722E-003;8.530319319106638E-004;
2.416166666666667E+009;1.787494868040085E-001;-5.767703428864479E-002;-1.329252729192376E-003;9.148125536739826E-004;
2.416333333333334E+009;1.784863770008087E-001;-5.783899128437042E-002;-1.346902921795845E-003;9.490113588981330E-004;
2.416500000000000E+009;1.781706213951111E-001;-5.810087174177170E-002;-1.422670902684331E-003;1.172222197055817E-003;
2.416666666666667E+009;1.775823235511780E-001;-5.818431079387665E-002;-1.452139462344348E-003;1.284358557313681E-003;
2.416833333333334E+009;1.772320121526718E-001;-5.854918435215950E-002;-1.228408538736403E-003;1.478657708503306E-003;
2.417000000000000E+009;1.763402819633484E-001;-5.871797353029251E-002;-1.165466615930200E-003;1.729815732687712E-003;
2.417166666666667E+009;1.757952272891998E-001;-5.883907154202461E-002;-1.137213548645377E-003;1.835034112446010E-003;
2.417333333333334E+009;1.751171648502350E-001;-5.891891941428185E-002;-1.111374585889280E-003;1.918615074828267E-003;
2.417500000000000E+009;1.741396188735962E-001;-5.935690924525261E-002;-1.021333388052881E-003;1.996647799387574E-003;
2.417666666666667E+009;1.734154224395752E-001;-5.943682417273521E-002;-8.890518220141530E-004;2.032681833952665E-003;
2.417833333333334E+009;1.723117679357529E-001;-5.995160713791847E-002;-7.372808759100735E-004;2.342036226764321E-003;
2.418000000000000E+009;1.711857914924622E-001;-6.040097028017044E-002;-6.305368733592331E-004;2.394608221948147E-003;
2.418166666666667E+009;1.700042337179184E-001;-6.066714227199554E-002;-6.739456439390779E-004;2.448539249598980E-003;
2.418333333333334E+009;1.692583858966827E-001;-6.134710833430290E-002;-5.346575635485351E-004;2.261456102132797E-003;
2.418500000000000E+009;1.678317040205002E-001;-6.194324046373367E-002;-3.974331193603575E-004;2.478616312146187E-003;
2.418666666666667E+009;1.667234152555466E-001;-6.268034875392914E-002;-1.210056143463589E-004;2.494721673429012E-003;
2.418833333333334E+009;1.653162539005280E-001;-6.326728314161301E-002;4.665484811994247E-005;2.663070801645517E-003;
2.419000000000000E+009;1.640132218599320E-001;-6.403390318155289E-002;1.047929181368090E-004;2.864447887986898E-003;
2.419166666666667E+009;1.628802120685577E-001;-6.508813798427582E-002;3.186721005477011E-004;2.726092236116529E-003;
2.419333333333334E+009;1.615481823682785E-001;-6.567688286304474E-002;3.782367857638747E-004;2.912854542955756E-003;
2.419500000000000E+009;1.603516489267349E-001;-6.705606728792191E-002;4.996864590793848E-004;2.665356034412980E-003;
2.419666666666667E+009;1.592273414134979E-001;-6.826563924551010E-002;6.744506536051631E-004;2.836965024471283E-003;
2.419833333333334E+009;1.578384190797806E-001;-6.920191645622253E-002;6.787020247429609E-004;2.673153998330236E-003;
2.420000000000000E+009;1.569753885269165E-001;-7.045533508062363E-002;8.624835754744709E-004;2.720335964113474E-003;
2.420166666666667E+009;1.559305638074875E-001;-7.193785905838013E-002;1.067000790499151E-003;2.748472848907113E-003;
2.420333333333334E+009;1.549001187086105E-001;-7.334519177675247E-002;9.915699483826757E-004;2.784607000648975E-003;
2.420500000000000E+009;1.541482806205750E-001;-7.459204643964768E-002;1.341481111012399E-003;2.658823272213340E-003;
2.420666666666667E+009;1.530237346887589E-001;-7.612471282482147E-002;1.410994445905089E-003;2.662046113982797E-003;
2.420833333333334E+009;1.524364352226257E-001;-7.778304070234299E-002;1.550028217025101E-003;2.683512400835753E-003;
2.421000000000000E+009;1.515477448701859E-001;-7.943665236234665E-002;1.626171171665192E-003;2.546289935708046E-003;
2.421166666666667E+009;1.510975658893585E-001;-8.109767735004425E-002;1.825294923037291E-003;2.440336858853698E-003;
2.421333333333334E+009;1.506071984767914E-001;-8.265214413404465E-002;1.857909141108394E-003;2.329768612980843E-003;
2.421500000000000E+009;1.500752270221710E-001;-8.424639701843262E-002;2.103665145114064E-003;2.271218923851848E-003;
2.421666666666667E+009;1.497229635715485E-001;-8.612725883722305E-002;2.114889211952686E-003;2.365013584494591E-003;
2.421833333333334E+009;1.496024578809738E-001;-8.765994757413864E-002;2.094762166962028E-003;2.188168466091156E-003;
2.422000000000000E+009;1.493510454893112E-001;-8.935051411390305E-002;2.349765971302986E-003;1.934173982590437E-003;
2.422166666666667E+009;1.491259783506393E-001;-9.127745777368546E-002;2.304134424775839E-003;1.957114785909653E-003;
2.422333333333334E+009;1.493294537067413E-001;-9.298241138458252E-002;2.554068807512522E-003;1.819753670133650E-003;
2.422500000000000E+009;1.492365151643753E-001;-9.439210593700409E-002;2.556769642978907E-003;1.848666230216622E-003;
2.422666666666667E+009;1.494164168834686E-001;-9.624826908111572E-002;2.695858012884855E-003;1.646108808927238E-003;
2.422833333333334E+009;1.498470753431320E-001;-9.806445240974426E-002;2.695950213819742E-003;1.598570379428566E-003;
2.423000000000000E+009;1.500382870435715E-001;-9.934839606285095E-002;2.678391756489873E-003;1.586023368872702E-003;
2.423166666666667E+009;1.504425555467606E-001;-1.009638905525208E-001;2.688024658709765E-003;1.363194314762950E-003;
2.423333333333334E+009;1.509829461574554E-001;-1.021615937352181E-001;2.717179711908102E-003;1.389459357596934E-003;
2.423500000000000E+009;1.514145731925964E-001;-1.036729514598846E-001;2.984476042911410E-003;1.237860065884888E-003;
2.423666666666667E+009;1.516361981630325E-001;-1.050939038395882E-001;2.902524312958121E-003;1.007665996439755E-003;
2.423833333333334E+009;1.524121612310410E-001;-1.064014062285423E-001;2.964337822049856E-003;9.920313023030758E-004;
2.424000000000000E+009;1.527737379074097E-001;-1.073665246367455E-001;3.015398746356368E-003;7.699356065131724E-004;
2.424166666666667E+009;1.531638503074646E-001;-1.085569933056831E-001;2.906709676608443E-003;7.455094601027668E-004;
2.424333333333334E+009;1.538698226213455E-001;-1.095036342740059E-001;2.979395911097527E-003;4.665027081500739E-004;
2.424500000000000E+009;1.544441282749176E-001;-1.105931848287582E-001;3.151291748508811E-003;3.629267157521099E-004;
2.424666666666667E+009;1.550769060850143E-001;-1.112217232584953E-001;2.976817311719060E-003;3.027907223440707E-004;
2.424833333333334E+009;1.552318334579468E-001;-1.120897978544235E-001;2.975281327962875E-003;1.413118152413517E-004;
2.425000000000000E+009;1.558227539062500E-001;-1.128577739000320E-001;3.158182837069035E-003;1.467758647777373E-005;
2.425166666666667E+009;1.561203449964523E-001;-1.135260090231895E-001;3.123119473457336E-003;8.835042535793036E-005;
2.425333333333334E+009;1.565331369638443E-001;-1.140537336468697E-001;3.136301646009088E-003;-2.445279969833791E-004;
2.425500000000000E+009;1.568762958049774E-001;-1.145474314689636E-001;3.193850861862302E-003;-1.905898388940841E-004;
2.425666666666667E+009;1.569498181343079E-001;-1.149973049759865E-001;3.156452905386686E-003;-2.648716035764664E-004;
2.425833333333334E+009;1.571526527404785E-001;-1.153838708996773E-001;3.063579788431525E-003;-3.881403827108443E-004;
2.426000000000000E+009;1.571413725614548E-001;-1.157075762748718E-001;3.097469685599208E-003;-6.161064957268536E-004;
2.426166666666667E+009;1.572922170162201E-001;-1.159161105751991E-001;3.048709593713284E-003;-7.326391641981900E-004;
2.426333333333334E+009;1.571779251098633E-001;-1.162203326821327E-001;2.997447736561298E-003;-8.561415597796440E-004;
2.426500000000000E+009;1.570795029401779E-001;-1.162264645099640E-001;2.905944827944040E-003;-9.094463894143701E-004;
2.426666666666667E+009;1.568253636360169E-001;-1.163072362542152E-001;2.928355243057013E-003;-1.106720184907317E-003;
2.426833333333334E+009;1.564916521310806E-001;-1.164695769548416E-001;2.896017162129283E-003;-1.122280955314636E-003;
2.427000000000000E+009;1.559572815895081E-001;-1.166820675134659E-001;2.769071375951171E-003;-1.174867968074977E-003;
2.427166666666667E+009;1.554421782493591E-001;-1.166379898786545E-001;2.778265625238419E-003;-1.338999019935727E-003;
2.427333333333334E+009;1.546756625175476E-001;-1.167833209037781E-001;2.771495142951608E-003;-1.245280844159424E-003;
2.427500000000000E+009;1.540335416793823E-001;-1.169046312570572E-001;2.730644773691893E-003;-1.438790815882385E-003;
2.427666666666667E+009;1.530972868204117E-001;-1.171452403068543E-001;2.589950105175376E-003;-1.607591751962900E-003;
2.427833333333334E+009;1.520367562770844E-001;-1.171892657876015E-001;2.486930228769779E-003;-1.702505513094366E-003;
