# Version 1.00
#
freq[Hz];re:Trc1_S11;im:Trc1_S11;re:Trc2_S21;im:Trc2_S21;
2.400000000000000E+009;1.547036468982697E-001;6.120396032929421E-002;-9.580851765349507E-004;3.690038574859500E-003;
2.400166666666667E+009;1.546490490436554E-001;5.921608209609985E-002;-7.348417420871556E-004;3.754112869501114E-003;
2.400333333333334E+009;1.545973718166351E-001;5.702407285571098E-002;-6.481075542978942E-004;3.800883656367660E-003;
2.400500000000000E+009;1.547891944646835E-001;5.471092462539673E-002;-7.537184283137322E-004;3.730091266334057E-003;
2.400666666666667E+009;1.547355949878693E-001;5.244884639978409E-002;-4.185137804597616E-004;3.857043106108904E-003;
2.400833333333334E+009;1.550962626934052E-001;5.042652413249016E-002;-6.854465464130044E-004;3.144970629364252E-003;
2.401000000000000E+009;1.554502695798874E-001;4.820799082517624E-002;-4.883918445557356E-004;4.059225786477327E-003;
2.401166666666667E+009;1.559067666530609E-001;4.578313976526260E-002;-4.089037829544395E-004;3.857955336570740E-003;
2.401333333333334E+009;1.562357544898987E-001;4.348158091306686E-002;-1.979038206627592E-004;3.848927328363061E-003;
2.401500000000000E+009;1.568448394536972E-001;4.149076715111733E-002;3.406800387892872E-004;3.825243795290589E-003;
2.401666666666667E+009;1.575368046760559E-001;3.924774378538132E-002;-7.954216562211514E-005;3.801078302785754E-003;
2.401833333333334E+009;1.580699980258942E-001;3.723059594631195E-002;5.254428833723068E-005;3.610071493312717E-003;
2.402000000000000E+009;1.587500870227814E-001;3.527132421731949E-002;-3.521032340358943E-004;4.172320943325758E-003;
2.402166666666667E+009;1.595715135335922E-001;3.320222720503807E-002;5.068532773293555E-004;3.744451329112053E-003;
2.402333333333334E+009;1.603327542543411E-001;3.120111860334873E-002;5.890286411158741E-004;4.123175516724587E-003;
2.402500000000000E+009;1.615438014268875E-001;2.970832213759422E-002;8.915219223126769E-004;3.872521221637726E-003;
2.402666666666667E+009;1.624662131071091E-001;2.790375798940659E-002;6.906377966515720E-004;4.155088681727648E-003;
2.402833333333334E+009;1.635022014379501E-001;2.642803080379963E-002;7.218846003524959E-004;4.260610323399305E-003;
2.403000000000000E+009;1.645462512969971E-001;2.495132014155388E-002;7.830683025531471E-004;4.469019826501608E-003;
2.403166666666667E+009;1.656875461339951E-001;2.361758239567280E-002;7.011345587670803E-004;4.276626277714968E-003;
2.403333333333334E+009;1.668252497911453E-001;2.218612842261791E-002;5.195935955271125E-004;4.171481821686029E-003;
2.403500000000000E+009;1.678952127695084E-001;2.095959521830082E-002;7.131081656552851E-004;4.054570104926825E-003;
2.403666666666667E+009;1.690375059843063E-001;1.982014812529087E-002;5.128554184921086E-004;4.175812471657991E-003;
2.403833333333334E+009;1.704102307558060E-001;1.891082711517811E-002;1.245830091647804E-003;4.248266108334065E-003;
2.404000000000000E+009;1.714338958263397E-001;1.800402067601681E-002;1.275412854738534E-003;4.531258717179298E-003;
2.404166666666667E+009;1.725139170885086E-001;1.703857257962227E-002;1.352557679638267E-003;4.396457225084305E-003;
2.404333333333334E+009;1.736349910497665E-001;1.643366925418377E-002;1.654043328016996E-003;4.491755738854408E-003;
2.404500000000000E+009;1.743950992822647E-001;1.582219079136848E-002;1.678327214904130E-003;4.518263507634401E-003;
2.404666666666667E+009;1.756512522697449E-001;1.523126289248467E-002;2.085391664877534E-003;4.441071301698685E-003;
2.404833333333334E+009;1.765824705362320E-001;1.465898100286722E-002;2.063884167000651E-003;4.443713463842869E-003;
2.405000000000000E+009;1.773864328861237E-001;1.416740845888853E-002;2.413711044937372E-003;4.557726904749870E-003;
2.405166666666667E+009;1.782331913709641E-001;1.395527925342321E-002;2.610542345792055E-003;4.609443712979555E-003;
2.405333333333334E+009;1.789243519306183E-001;1.361650787293911E-002;2.789549529552460E-003;4.505458287894726E-003;
2.405500000000000E+009;1.797578781843185E-001;1.333727873861790E-002;3.041773336008191E-003;4.331336356699467E-003;
2.405666666666667E+009;1.802322268486023E-001;1.348518766462803E-002;3.106503980234265E-003;4.446291830390692E-003;
2.405833333333334E+009;1.805312037467957E-001;1.324941497296095E-002;3.409481840208173E-003;4.204727709293366E-003;
2.406000000000000E+009;1.809631437063217E-001;1.295050233602524E-002;3.690336365252733E-003;3.930194769054651E-003;
2.406166666666667E+009;1.811680048704147E-001;1.301513612270355E-002;3.949270118027926E-003;3.911721520125866E-003;
2.406333333333334E+009;1.815594583749771E-001;1.276554539799690E-002;3.979451488703489E-003;3.846404841169715E-003;
2.406500000000000E+009;1.816355437040329E-001;1.263811346143484E-002;4.391704685986042E-003;3.646570025011897E-003;
2.406666666666667E+009;1.814066469669342E-001;1.264748163521290E-002;4.352033138275147E-003;3.538261633366346E-003;
2.406833333333334E+009;1.814175844192505E-001;1.244868058711290E-002;4.624612629413605E-003;3.257608972489834E-003;
2.407000000000000E+009;1.812150180339813E-001;1.212436798959971E-002;4.711600486189127E-003;3.166357055306435E-003;
2.407166666666667E+009;1.810284852981567E-001;1.191320456564426E-002;4.907647147774696E-003;2.861223649233580E-003;
2.407333333333334E+009;1.804404705762863E-001;1.140049286186695E-002;5.044053774327040E-003;2.744976663962007E-003;
2.407500000000000E+009;1.800118684768677E-001;1.111470162868500E-002;5.100346636027098E-003;2.411579946056008E-003;
2.407666666666667E+009;1.795450598001480E-001;1.074431370943785E-002;5.207950249314308E-003;2.222787588834763E-003;
2.407833333333334E+009;1.788347512483597E-001;9.846738539636135E-003;5.364400800317526E-003;2.015762496739626E-003;
2.408000000000000E+009;1.781789213418961E-001;9.184596128761768E-003;5.329575389623642E-003;1.775755663402379E-003;
2.408166666666667E+009;1.774499416351318E-001;8.605819195508957E-003;5.204497836530209E-003;1.495159696787596E-003;
2.408333333333334E+009;1.768461763858795E-001;7.719319779425860E-003;5.455620586872101E-003;1.371766207739711E-003;
2.408500000000000E+009;1.759582757949829E-001;6.793981418013573E-003;5.475685000419617E-003;1.086926087737083E-003;
2.408666666666667E+009;1.751068532466888E-001;5.700273439288139E-003;5.418783985078335E-003;1.019570161588490E-003;
2.408833333333334E+009;1.740993112325668E-001;4.546794574707747E-003;5.368760321289301E-003;7.515936158597469E-004;
2.409000000000000E+009;1.732257753610611E-001;3.280273871496320E-003;5.352998618036509E-003;5.554350209422410E-004;
2.409166666666667E+009;1.725506931543350E-001;1.931528327986598E-003;5.579088348895311E-003;3.386993193998933E-004;
2.409333333333334E+009;1.715839058160782E-001;4.490274877753109E-004;5.428868811577559E-003;2.702167148527224E-005;
2.409500000000000E+009;1.708611398935318E-001;-1.279338146559894E-003;5.503616295754910E-003;6.552993727382273E-005;
2.409666666666667E+009;1.699695140123367E-001;-2.849329030141234E-003;5.354373715817928E-003;-1.382843129249523E-005;
2.409833333333334E+009;1.690051704645157E-001;-4.297551233321428E-003;5.383311305195093E-003;-3.575191949494183E-004;
2.410000000000000E+009;1.685243546962738E-001;-6.390152964740992E-003;5.235370248556137E-003;-4.341126768849790E-004;
2.410166666666667E+009;1.678946763277054E-001;-8.064119145274162E-003;5.301282741129398E-003;-7.197192171588540E-004;
2.410333333333334E+009;1.672805398702622E-001;-1.002569589763880E-002;5.235821940004826E-003;-8.418011129833758E-004;
2.410500000000000E+009;1.668138206005096E-001;-1.199805922806263E-002;5.041874479502440E-003;-8.378794882446528E-004;
2.410666666666667E+009;1.662744730710983E-001;-1.407676655799151E-002;5.011593922972679E-003;-1.292247441597283E-003;
2.410833333333334E+009;1.662065833806992E-001;-1.626611500978470E-002;5.041409749537706E-003;-1.233818358741701E-003;
2.411000000000000E+009;1.658777743577957E-001;-1.832458004355431E-002;4.829926881939173E-003;-1.341940020211041E-003;
2.411166666666667E+009;1.656506806612015E-001;-2.033626288175583E-002;4.744278267025948E-003;-1.515249838121235E-003;
2.411333333333334E+009;1.655683368444443E-001;-2.251114323735237E-002;4.792232532054186E-003;-1.649347948841751E-003;
2.411500000000000E+009;1.655842214822769E-001;-2.482046186923981E-002;4.572366829961538E-003;-1.773190568201244E-003;
2.411666666666667E+009;1.657965332269669E-001;-2.688740007579327E-002;4.644664470106363E-003;-1.761747291311622E-003;
2.411833333333334E+009;1.658183187246323E-001;-2.865130640566349E-002;4.462444223463535E-003;-2.020971151068807E-003;
2.412000000000000E+009;1.661582738161087E-001;-3.088243119418621E-002;4.374438431113958E-003;-2.156112343072891E-003;
2.412166666666667E+009;1.665850430727005E-001;-3.283343836665154E-002;4.338862374424934E-003;-2.183023607358336E-003;
2.412333333333334E+009;1.672418862581253E-001;-3.506322577595711E-002;4.149541258811951E-003;-2.274971920996904E-003;
2.412500000000000E+009;1.676265597343445E-001;-3.690464794635773E-002;4.224239848554134E-003;-2.247719326987863E-003;
2.412666666666667E+009;1.681572645902634E-001;-3.887248039245606E-002;4.029844421893358E-003;-2.442390425130725E-003;
2.412833333333334E+009;1.688624471426010E-001;-4.068275168538094E-002;4.112961702048779E-003;-2.593761077150703E-003;
2.413000000000000E+009;1.695497930049896E-001;-4.236014932394028E-002;4.039020277559757E-003;-2.743650693446398E-003;
2.413166666666667E+009;1.703903377056122E-001;-4.409426823258400E-002;3.995397128164768E-003;-2.715476322919130E-003;
2.413333333333334E+009;1.708760708570480E-001;-4.561647772789002E-002;3.698897315189242E-003;-2.846604445949197E-003;
2.413500000000000E+009;1.717381477355957E-001;-4.721718654036522E-002;3.839639713987708E-003;-3.063423326238990E-003;
2.413666666666667E+009;1.727352291345596E-001;-4.870222881436348E-002;3.557921387255192E-003;-3.194426186382771E-003;
2.413833333333334E+009;1.733298748731613E-001;-4.983374476432800E-002;3.603069577366114E-003;-3.190156770870090E-003;
2.414000000000000E+009;1.739140301942825E-001;-5.125422030687332E-002;3.464171430096030E-003;-3.261261386796832E-003;
2.414166666666667E+009;1.748130321502686E-001;-5.232935771346092E-002;3.616115543991327E-003;-3.411883022636175E-003;
2.414333333333334E+009;1.755319088697434E-001;-5.319910496473312E-002;3.366130637004972E-003;-3.567902604117990E-003;
2.414500000000000E+009;1.763742864131928E-001;-5.408770963549614E-002;3.256053198128939E-003;-3.770921844989061E-003;
2.414666666666667E+009;1.770180612802506E-001;-5.487929284572601E-002;3.054903587326407E-003;-3.797222394496203E-003;
2.414833333333334E+009;1.775918155908585E-001;-5.581505224108696E-002;3.012057393789291E-003;-3.899924922734499E-003;
2.415000000000000E+009;1.780904680490494E-001;-5.627506226301193E-002;2.885152352973819E-003;-4.035471007227898E-003;
2.415166666666667E+009;1.785642206668854E-001;-5.678121000528336E-002;2.828229684382677E-003;-4.208396654576063E-003;
2.415333333333334E+009;1.790922433137894E-001;-5.727265030145645E-002;2.703434787690640E-003;-4.303015768527985E-003;
2.415500000000000E+009;1.794434338808060E-001;-5.757505074143410E-002;2.502060262486339E-003;-4.372789058834314E-003;
2.415666666666667E+009;1.795797944068909E-001;-5.783212184906006E-002;2.436057431623340E-003;-4.445440601557493E-003;
2.415833333333334E+009;1.797837615013123E-001;-5.807468667626381E-002;2.203877549618483E-003;-4.652552306652069E-003;
2.416000000000000E+009;1.797154396772385E-001;-5.832393094897270E-002;2.140228636562824E-003;-4.636617377400398E-003;
2.416166666666667E+009;1.798654645681381E-001;-5.831216648221016E-002;1.838963711634278E-003;-4.909171257168055E-003;
2.416333333333334E+009;1.795175969600678E-001;-5.845334008336067E-002;1.691262703388929E-003;-4.820103291422129E-003;
2.416500000000000E+009;1.794259995222092E-001;-5.861761793494225E-002;1.484830165281892E-003;-5.019047297537327E-003;
2.416666666666667E+009;1.789686530828476E-001;-5.862085521221161E-002;1.242328318767250E-003;-4.960131365805864E-003;
2.416833333333334E+009;1.786547005176544E-001;-5.869849771261215E-002;1.094264327548444E-003;-5.069488193839788E-003;
2.417000000000000E+009;1.777670979499817E-001;-5.872390419244766E-002;8.836362976580858E-004;-5.176372360438108E-003;
2.417166666666667E+009;1.772349327802658E-001;-5.867099761962891E-002;7.849792018532753E-004;-5.096205975860357E-003;
2.417333333333334E+009;1.764514446258545E-001;-5.878403410315514E-002;5.443870322778821E-004;-5.015322472900152E-003;
2.417500000000000E+009;1.754889041185379E-001;-5.916166678071022E-002;3.856472321785986E-004;-5.158321000635624E-003;
2.417666666666667E+009;1.746916025876999E-001;-5.901430919766426E-002;1.726298360154033E-004;-5.142358597368002E-003;
2.417833333333334E+009;1.735997796058655E-001;-5.925556644797325E-002;-1.156698635895737E-004;-5.065941717475653E-003;
2.418000000000000E+009;1.722716689109802E-001;-5.964464694261551E-002;-3.031787346117199E-004;-5.116457119584084E-003;
2.418166666666667E+009;1.711218208074570E-001;-5.976480245590210E-002;-3.783890279009938E-004;-4.951083566993475E-003;
2.418333333333334E+009;1.701322793960571E-001;-6.039945036172867E-002;-6.060414016246796E-004;-4.886586219072342E-003;
2.418500000000000E+009;1.687353998422623E-001;-6.084785610437393E-002;-6.857331609353423E-004;-4.859786946326494E-003;
2.418666666666667E+009;1.674869209527969E-001;-6.143694743514061E-002;-8.380443905480206E-004;-4.626352339982987E-003;
2.418833333333334E+009;1.659044623374939E-001;-6.206925585865974E-002;-1.127432915382087E-003;-4.678374156355858E-003;
2.419000000000000E+009;1.644775569438934E-001;-6.277570128440857E-002;-1.283713849261403E-003;-4.602822940796614E-003;
2.419166666666667E+009;1.631089150905609E-001;-6.359264999628067E-002;-1.424808171577752E-003;-4.553218837827444E-003;
2.419333333333334E+009;1.615560799837112E-001;-6.434775143861771E-002;-1.643290626816452E-003;-4.337808582931757E-003;
2.419500000000000E+009;1.602810919284821E-001;-6.554817408323288E-002;-1.682599773630500E-003;-4.359061829745770E-003;
2.419666666666667E+009;1.590303033590317E-001;-6.665517389774323E-002;-1.814070274122059E-003;-4.387092310935259E-003;
2.419833333333334E+009;1.576753407716751E-001;-6.777144223451614E-002;-1.967568881809712E-003;-4.134025890380144E-003;
2.420000000000000E+009;1.565082967281342E-001;-6.907260417938232E-002;-1.970283454284072E-003;-4.011600743979216E-003;
2.420166666666667E+009;1.552577912807465E-001;-7.035259902477264E-002;-2.135859802365303E-003;-4.041045904159546E-003;
2.420333333333334E+009;1.540317982435226E-001;-7.204714417457581E-002;-2.253846498206258E-003;-3.885867539793253E-003;
2.420500000000000E+009;1.531743854284287E-001;-7.337655872106552E-002;-2.325602807104588E-003;-3.767798654735088E-003;
2.420666666666667E+009;1.521915942430496E-001;-7.477337121963501E-002;-2.567455405369401E-003;-3.738740691915155E-003;
2.420833333333334E+009;1.512082666158676E-001;-7.652347534894943E-002;-2.454739995300770E-003;-3.549386514350772E-003;
2.421000000000000E+009;1.502838879823685E-001;-7.830937206745148E-002;-2.498179674148560E-003;-3.423270536586642E-003;
2.421166666666667E+009;1.497628986835480E-001;-8.002343028783798E-002;-2.664257306605578E-003;-3.324832068756223E-003;
2.421333333333334E+009;1.491716653108597E-001;-8.188055455684662E-002;-2.770973602309823E-003;-3.195026423782110E-003;
2.421500000000000E+009;1.485680341720581E-001;-8.352927118539810E-002;-2.794491592794657E-003;-3.129202639684081E-003;
2.421666666666667E+009;1.483292281627655E-001;-8.528500050306320E-002;-2.854950260370970E-003;-3.041500458493829E-003;
2.421833333333334E+009;1.481306850910187E-001;-8.729004114866257E-002;-3.077322617173195E-003;-2.778522437438369E-003;
2.422000000000000E+009;1.477843523025513E-001;-8.918283134698868E-002;-3.064958145841956E-003;-2.706001047044992E-003;
2.422166666666667E+009;1.476698964834213E-001;-9.107964485883713E-002;-3.132371697574854E-003;-2.750014187768102E-003;
2.422333333333334E+009;1.477008312940598E-001;-9.276410192251205E-002;-3.136955900117755E-003;-2.332540461793542E-003;
2.422500000000000E+009;1.478898674249649E-001;-9.446050226688385E-002;-3.135537263005972E-003;-2.427028492093086E-003;
2.422666666666667E+009;1.480325758457184E-001;-9.639994800090790E-002;-3.329046769067645E-003;-2.368108136579394E-003;
2.422833333333334E+009;1.483670175075531E-001;-9.830316901206970E-002;-3.412136109545827E-003;-2.177762798964977E-003;
2.423000000000000E+009;1.486886739730835E-001;-9.991207718849182E-002;-3.463679924607277E-003;-2.145631238818169E-003;
2.423166666666667E+009;1.491598486900330E-001;-1.015665829181671E-001;-3.520450787618756E-003;-1.971561927348375E-003;
2.423333333333334E+009;1.497129052877426E-001;-1.029638200998306E-001;-3.517858684062958E-003;-1.961562549695373E-003;
2.423500000000000E+009;1.502149254083633E-001;-1.045540347695351E-001;-3.599155461415649E-003;-1.941093942150474E-003;
2.423666666666667E+009;1.506589800119400E-001;-1.061514541506767E-001;-3.618106245994568E-003;-1.675843261182308E-003;
2.423833333333334E+009;1.515323817729950E-001;-1.074941679835320E-001;-3.739951876923442E-003;-1.452185213565826E-003;
2.424000000000000E+009;1.518954038619995E-001;-1.086669042706490E-001;-3.651330247521401E-003;-1.296550617553294E-003;
2.424166666666667E+009;1.525422781705856E-001;-1.097922995686531E-001;-3.713623387739062E-003;-1.232855254784226E-003;
2.424333333333334E+009;1.531627625226975E-001;-1.108309924602509E-001;-3.707499708980322E-003;-8.962513529695571E-004;
2.424500000000000E+009;1.541034877300263E-001;-1.119189262390137E-001;-3.724993672221899E-003;-8.750661509111524E-004;
2.424666666666667E+009;1.547347158193588E-001;-1.126677989959717E-001;-3.992990124970675E-003;-4.980840021744371E-004;
2.424833333333334E+009;1.551708430051804E-001;-1.135751456022263E-001;-3.872033208608627E-003;-4.067809786647558E-004;
2.425000000000000E+009;1.558314561843872E-001;-1.142352670431137E-001;-3.663360606878996E-003;-2.771077270153910E-004;
2.425166666666667E+009;1.562473624944687E-001;-1.149068772792816E-001;-3.696776460856199E-003;-4.874368096352555E-005;
2.425333333333334E+009;1.566510796546936E-001;-1.153481155633926E-001;-3.707740455865860E-003;1.025068777380511E-004;
2.425500000000000E+009;1.571870297193527E-001;-1.159407049417496E-001;-3.640111768618226E-003;2.703097416087985E-004;
2.425666666666667E+009;1.572871953248978E-001;-1.162827163934708E-001;-3.584214020520449E-003;4.818506713490933E-004;
2.425833333333334E+009;1.577642112970352E-001;-1.165454164147377E-001;-3.478954546153545E-003;5.829113651998341E-004;
2.426000000000000E+009;1.578709185123444E-001;-1.168768629431725E-001;-3.377212211489677E-003;7.544889231212437E-004;
2.426166666666667E+009;1.581895649433136E-001;-1.170859858393669E-001;-3.275723196566105E-003;7.758122519589961E-004;
2.426333333333334E+009;1.579799205064774E-001;-1.172044500708580E-001;-3.184707602486014E-003;1.043855212628841E-003;
2.426500000000000E+009;1.580162048339844E-001;-1.172133982181549E-001;-2.967138076201081E-003;1.119822147302330E-003;
2.426666666666667E+009;1.579287052154541E-001;-1.171283945441246E-001;-3.002740675583482E-003;1.302750781178474E-003;
2.426833333333334E+009;1.574780195951462E-001;-1.170657500624657E-001;-2.825699513778091E-003;1.183631713502109E-003;
2.427000000000000E+009;1.570171713829041E-001;-1.171860694885254E-001;-2.598627703264356E-003;1.254287431947887E-003;
2.427166666666667E+009;1.564911007881165E-001;-1.171079203486443E-001;-2.514826133847237E-003;1.472719712182879E-003;
2.427333333333334E+009;1.557930856943131E-001;-1.171034574508667E-001;-2.547285286709666E-003;1.483836211264134E-003;
2.427500000000000E+009;1.551890224218369E-001;-1.170479357242584E-001;-2.270957455039024E-003;1.407805131748319E-003;
2.427666666666667E+009;1.543463021516800E-001;-1.171648055315018E-001;-2.092784270644188E-003;1.534441486001015E-003;
