# Version 1.00
#
freq[Hz];re:Trc1_S11;im:Trc1_S11;re:Trc2_S21;im:Trc2_S21;
2.400000000000000E+009;1.544302403926849E-001;6.131351366639137E-002;-1.106178271584213E-003;3.677645931020379E-003;
2.400166666666667E+009;1.546149104833603E-001;5.929737165570259E-002;-9.427584591321647E-004;3.819837002083659E-003;
2.400333333333334E+009;1.544606387615204E-001;5.710170045495033E-002;-9.078432340174913E-004;3.672972088679671E-003;
2.400500000000000E+009;1.546788513660431E-001;5.489827692508698E-002;-8.949300390668213E-004;3.758707782253623E-003;
2.400666666666667E+009;1.547953039407730E-001;5.262395739555359E-002;-8.491107146255672E-004;3.761667059734464E-003;
2.400833333333334E+009;1.549512445926666E-001;5.045692995190620E-002;-5.699719185940921E-004;3.887301543727517E-003;
2.401000000000000E+009;1.554634571075440E-001;4.818115383386612E-002;-5.875984206795692E-004;3.707121126353741E-003;
2.401166666666667E+009;1.558358818292618E-001;4.616756364703178E-002;-4.647624446079135E-004;3.740462474524975E-003;
2.401333333333334E+009;1.561044156551361E-001;4.376865550875664E-002;-4.035044112242758E-004;3.852620255202055E-003;
2.401500000000000E+009;1.568664312362671E-001;4.151359573006630E-002;-4.314580874051899E-004;3.806563327088952E-003;
2.401666666666667E+009;1.574643999338150E-001;3.958621248602867E-002;-2.215932618128136E-004;3.954769577831030E-003;
2.401833333333334E+009;1.581619232892990E-001;3.725165873765945E-002;-9.470906661590561E-005;3.946462180465460E-003;
2.402000000000000E+009;1.586901247501373E-001;3.525204956531525E-002;-1.399679604219273E-004;3.883768804371357E-003;
2.402166666666667E+009;1.596084535121918E-001;3.336049243807793E-002;8.499786054017022E-005;3.835918148979545E-003;
2.402333333333334E+009;1.605093479156494E-001;3.145394101738930E-002;1.349718240817310E-005;3.950851503759623E-003;
2.402500000000000E+009;1.617199778556824E-001;2.979741804301739E-002;-8.601131412433460E-005;4.011969547718763E-003;
2.402666666666667E+009;1.624695211648941E-001;2.817945368587971E-002;6.912759999977425E-005;4.075746051967144E-003;
2.402833333333334E+009;1.636214852333069E-001;2.647860720753670E-002;2.874896745197475E-004;4.065798595547676E-003;
2.403000000000000E+009;1.645308434963226E-001;2.507254667580128E-002;2.904498542193323E-004;4.029678646475077E-003;
2.403166666666667E+009;1.658316999673843E-001;2.360844425857067E-002;3.178541373927146E-004;4.125160165131092E-003;
2.403333333333334E+009;1.668252497911453E-001;2.229978144168854E-002;6.752781337127090E-004;4.289687145501375E-003;
2.403500000000000E+009;1.679724752902985E-001;2.117633819580078E-002;6.707010325044394E-004;4.449262749403715E-003;
2.403666666666667E+009;1.692056655883789E-001;2.000713720917702E-002;7.807262009009719E-004;4.252815619111061E-003;
2.403833333333334E+009;1.704236567020416E-001;1.894827000796795E-002;9.950111852958798E-004;4.580741748213768E-003;
2.404000000000000E+009;1.715264022350311E-001;1.806597597897053E-002;9.074805420823395E-004;4.503207281231880E-003;
2.404166666666667E+009;1.726332008838654E-001;1.722135581076145E-002;1.350370701402426E-003;4.600652027875185E-003;
2.404333333333334E+009;1.737128496170044E-001;1.653309725224972E-002;1.365192467346788E-003;4.586333408951759E-003;
2.404500000000000E+009;1.747177392244339E-001;1.567794010043144E-002;1.486335881054401E-003;4.670037887990475E-003;
2.404666666666667E+009;1.756587028503418E-001;1.523321866989136E-002;1.809096313081682E-003;4.529058933258057E-003;
2.404833333333334E+009;1.766562163829804E-001;1.485835947096348E-002;1.907935831695795E-003;4.688567016273737E-003;
2.405000000000000E+009;1.775535792112351E-001;1.445473916828632E-002;2.166389720514417E-003;4.826654214411974E-003;
2.405166666666667E+009;1.783267408609390E-001;1.404117699712515E-002;2.487500896677375E-003;4.692852497100830E-003;
2.405333333333334E+009;1.791486442089081E-001;1.358793675899506E-002;2.715756418183446E-003;4.806607961654663E-003;
2.405500000000000E+009;1.798882186412811E-001;1.359114702790976E-002;2.858365420252085E-003;4.431674722582102E-003;
2.405666666666667E+009;1.802743971347809E-001;1.334188226610422E-002;3.020719625055790E-003;4.570037592202425E-003;
2.405833333333334E+009;1.807131618261337E-001;1.321598701179028E-002;3.305109450593591E-003;4.628389142453671E-003;
2.406000000000000E+009;1.812837421894074E-001;1.299713272601366E-002;3.576653078198433E-003;4.334781318902969E-003;
2.406166666666667E+009;1.814017444849014E-001;1.304790936410427E-002;3.733473131433129E-003;4.386032000184059E-003;
2.406333333333334E+009;1.817023009061813E-001;1.278930064290762E-002;4.064105916768313E-003;4.120287951081991E-003;
2.406500000000000E+009;1.816762387752533E-001;1.271587330847979E-002;4.273208789527416E-003;3.953924868255854E-003;
2.406666666666667E+009;1.816329807043076E-001;1.258323714137077E-002;4.486296791583300E-003;3.711180062964559E-003;
2.406833333333334E+009;1.815719902515411E-001;1.211176253855228E-002;4.522637929767370E-003;3.508218331262469E-003;
2.407000000000000E+009;1.813739836215973E-001;1.202180422842503E-002;4.787140060216188E-003;3.424858674407005E-003;
2.407166666666667E+009;1.811646521091461E-001;1.194051187485457E-002;4.859750624746084E-003;3.100618021562696E-003;
2.407333333333334E+009;1.806261390447617E-001;1.149706076830626E-002;5.078393965959549E-003;2.870174823328853E-003;
2.407500000000000E+009;1.801723092794418E-001;1.107045914977789E-002;5.120172165334225E-003;2.689852844923735E-003;
2.407666666666667E+009;1.796515285968781E-001;1.061865873634815E-002;5.216812249273062E-003;2.400568686425686E-003;
2.407833333333334E+009;1.788974106311798E-001;9.962866082787514E-003;5.323561839759350E-003;2.211565850302577E-003;
2.408000000000000E+009;1.783531606197357E-001;9.266770444810391E-003;5.258340388536453E-003;2.060557715594769E-003;
2.408166666666667E+009;1.775516867637634E-001;8.676596917212009E-003;5.479644984006882E-003;1.884284662082791E-003;
2.408333333333334E+009;1.769461184740067E-001;7.739102933555841E-003;5.401227623224258E-003;1.642729970626533E-003;
2.408500000000000E+009;1.760278344154358E-001;6.663637235760689E-003;5.504894535988569E-003;1.411588862538338E-003;
2.408666666666667E+009;1.751877516508102E-001;5.744313821196556E-003;5.565055646002293E-003;1.387356780469418E-003;
2.408833333333334E+009;1.742770224809647E-001;4.505684133619070E-003;5.416736472398043E-003;1.166869304142892E-003;
2.409000000000000E+009;1.732665747404099E-001;3.218358149752021E-003;5.471562035381794E-003;7.457173196598887E-004;
2.409166666666667E+009;1.725308746099472E-001;1.871186657808721E-003;5.440733395516872E-003;6.580999470315874E-004;
2.409333333333334E+009;1.717277616262436E-001;3.771181218326092E-004;5.583432968705893E-003;5.241240723989904E-004;
2.409500000000000E+009;1.708621978759766E-001;-1.333426218479872E-003;5.519187543541193E-003;3.434904210735112E-004;
2.409666666666667E+009;1.699625849723816E-001;-2.850096672773361E-003;5.544917192310095E-003;-4.997346422896953E-006;
2.409833333333334E+009;1.693343222141266E-001;-4.441724624484778E-003;5.383493378758431E-003;6.211858271853998E-005;
2.410000000000000E+009;1.685106754302979E-001;-6.301646586507559E-003;5.372166633605957E-003;-1.558629155624658E-004;
2.410166666666667E+009;1.679515540599823E-001;-8.112754672765732E-003;5.303126294165850E-003;-3.735806094482541E-004;
2.410333333333334E+009;1.674137711524963E-001;-1.009262911975384E-002;5.223309155553579E-003;-5.688053788617253E-004;
2.410500000000000E+009;1.669856756925583E-001;-1.211181096732616E-002;5.268211942166090E-003;-6.015651160851121E-004;
2.410666666666667E+009;1.664654016494751E-001;-1.421830151230097E-002;5.180078558623791E-003;-8.728054817765951E-004;
2.410833333333334E+009;1.660147458314896E-001;-1.613115333020687E-002;5.025184713304043E-003;-9.380034171044827E-004;
2.411000000000000E+009;1.659564077854157E-001;-1.829525455832481E-002;5.030903965234757E-003;-1.181015162728727E-003;
2.411166666666667E+009;1.656900048255920E-001;-2.062303572893143E-002;4.950161091983318E-003;-1.277502276934683E-003;
2.411333333333334E+009;1.657550632953644E-001;-2.258603833615780E-002;4.877545870840550E-003;-1.356110442429781E-003;
2.411500000000000E+009;1.654084175825119E-001;-2.475385926663876E-002;4.759957082569599E-003;-1.577305723913014E-003;
2.411666666666667E+009;1.658138930797577E-001;-2.690195851027966E-002;4.766968078911305E-003;-1.821848796680570E-003;
2.411833333333334E+009;1.659433990716934E-001;-2.896238304674625E-002;4.664051346480846E-003;-1.890980056487024E-003;
2.412000000000000E+009;1.662354320287705E-001;-3.107237070798874E-002;4.513626452535391E-003;-1.773519674316049E-003;
2.412166666666667E+009;1.666625738143921E-001;-3.313358128070831E-002;4.533886443823576E-003;-1.960290828719735E-003;
2.412333333333334E+009;1.673255264759064E-001;-3.497779741883278E-002;4.393858369439840E-003;-2.266634721308947E-003;
2.412500000000000E+009;1.676490753889084E-001;-3.699917718768120E-002;4.353623371571302E-003;-2.398877404630184E-003;
2.412666666666667E+009;1.684001386165619E-001;-3.895976766943932E-002;4.325902089476585E-003;-2.370362635701895E-003;
2.412833333333334E+009;1.689293533563614E-001;-4.079330340027809E-002;4.219999071210623E-003;-2.506991382688284E-003;
2.413000000000000E+009;1.695180684328079E-001;-4.265207424759865E-002;4.213879816234112E-003;-2.576159546151757E-003;
2.413166666666667E+009;1.701347529888153E-001;-4.405925422906876E-002;4.008876159787178E-003;-2.652624156326056E-003;
2.413333333333334E+009;1.708521693944931E-001;-4.570605605840683E-002;4.096284974366427E-003;-2.899846760556102E-003;
2.413500000000000E+009;1.718217134475708E-001;-4.718201979994774E-002;4.058977589011192E-003;-2.873616991564632E-003;
2.413666666666667E+009;1.725556403398514E-001;-4.868441075086594E-002;3.954463638365269E-003;-3.035514848306775E-003;
2.413833333333334E+009;1.733252853155136E-001;-5.002359300851822E-002;3.782665356993675E-003;-3.271004883572459E-003;
2.414000000000000E+009;1.739819645881653E-001;-5.117913335561752E-002;3.717865794897080E-003;-3.307189326733351E-003;
2.414166666666667E+009;1.748041212558746E-001;-5.225869268178940E-002;3.684387775138021E-003;-3.302025143057108E-003;
2.414333333333334E+009;1.755039244890213E-001;-5.341873317956924E-002;3.669997211545706E-003;-3.493488999083638E-003;
2.414500000000000E+009;1.763108521699905E-001;-5.434900149703026E-002;3.540375735610724E-003;-3.646124852821231E-003;
2.414666666666667E+009;1.769896149635315E-001;-5.496119335293770E-002;3.240014426410198E-003;-3.885318292304874E-003;
2.414833333333334E+009;1.774784326553345E-001;-5.583522096276283E-002;3.285130485892296E-003;-3.977965097874403E-003;
2.415000000000000E+009;1.780451238155365E-001;-5.630883947014809E-002;3.095633815973997E-003;-4.058879334479570E-003;
2.415166666666667E+009;1.785462051630020E-001;-5.686508119106293E-002;3.159488784149289E-003;-4.168448038399220E-003;
2.415333333333334E+009;1.790523976087570E-001;-5.748981237411499E-002;2.756132278591394E-003;-4.278435837477446E-003;
2.415500000000000E+009;1.793087124824524E-001;-5.762412771582604E-002;2.717208117246628E-003;-4.424598533660173E-003;
2.415666666666667E+009;1.794668734073639E-001;-5.794415622949600E-002;2.620426937937737E-003;-4.537019878625870E-003;
2.415833333333334E+009;1.797224283218384E-001;-5.802241340279579E-002;2.467095386236906E-003;-4.642297513782978E-003;
2.416000000000000E+009;1.795752197504044E-001;-5.815000459551811E-002;2.398505574092269E-003;-4.708689637482166E-003;
2.416166666666667E+009;1.798150241374970E-001;-5.844017118215561E-002;2.118848962709308E-003;-4.837490618228912E-003;
2.416333333333334E+009;1.796040534973145E-001;-5.843139812350273E-002;1.747173373587430E-003;-5.003486294299364E-003;
2.416500000000000E+009;1.792448908090591E-001;-5.856709927320480E-002;1.725272508338094E-003;-4.972831346094608E-003;
2.416666666666667E+009;1.789801120758057E-001;-5.853216350078583E-002;1.345079392194748E-003;-5.063639022409916E-003;
2.416833333333334E+009;1.785976439714432E-001;-5.872707068920136E-002;1.356502878479660E-003;-5.003857892006636E-003;
2.417000000000000E+009;1.777742356061935E-001;-5.884506925940514E-002;1.132160075940192E-003;-5.165465641766787E-003;
2.417166666666667E+009;1.772087663412094E-001;-5.880546942353249E-002;1.021031639538705E-003;-5.047512706369162E-003;
2.417333333333334E+009;1.764139086008072E-001;-5.874029546976090E-002;6.638119230046868E-004;-5.190528463572264E-003;
2.417500000000000E+009;1.755091398954392E-001;-5.916695669293404E-002;4.947995766997337E-004;-5.155374296009541E-003;
2.417666666666667E+009;1.746531277894974E-001;-5.905453860759735E-002;2.737805480137467E-004;-5.150623153895140E-003;
2.417833333333334E+009;1.734713762998581E-001;-5.935177206993103E-002;4.846308002015576E-005;-5.150916054844856E-003;
2.418000000000000E+009;1.724157631397247E-001;-5.967756733298302E-002;-1.651276397751644E-004;-5.078978836536408E-003;
2.418166666666667E+009;1.711741089820862E-001;-5.981213971972466E-002;-2.950301568489522E-004;-5.130740813910961E-003;
2.418333333333334E+009;1.701575815677643E-001;-6.030366942286491E-002;-4.433640278875828E-004;-5.086251534521580E-003;
2.418500000000000E+009;1.686788052320480E-001;-6.080324202775955E-002;-6.878276471979916E-004;-4.807125311344862E-003;
2.418666666666667E+009;1.674865931272507E-001;-6.141203641891480E-002;-6.916373386047781E-004;-4.884431138634682E-003;
2.418833333333334E+009;1.658365428447723E-001;-6.209078058600426E-002;-9.949913946911693E-004;-4.757664632052183E-003;
2.419000000000000E+009;1.643809378147125E-001;-6.269741058349609E-002;-9.911610977724195E-004;-4.906033631414175E-003;
2.419166666666667E+009;1.630656123161316E-001;-6.350563466548920E-002;-1.109351520426571E-003;-4.815569147467613E-003;
2.419333333333334E+009;1.615228950977325E-001;-6.423473358154297E-002;-1.260879682376981E-003;-4.587333183735609E-003;
2.419500000000000E+009;1.603946685791016E-001;-6.549780815839768E-002;-1.531503046862781E-003;-4.569731187075377E-003;
2.419666666666667E+009;1.590555906295776E-001;-6.672187894582748E-002;-1.671123085543513E-003;-4.378810059279203E-003;
2.419833333333334E+009;1.576227545738220E-001;-6.767774373292923E-002;-1.814576215110719E-003;-4.356892779469490E-003;
2.420000000000000E+009;1.563190072774887E-001;-6.907944381237030E-002;-1.852797111496329E-003;-4.289295058697462E-003;
2.420166666666667E+009;1.552095115184784E-001;-7.042296975851059E-002;-2.041595289483666E-003;-4.159014672040939E-003;
2.420333333333334E+009;1.540976762771606E-001;-7.194418460130692E-002;-2.156434813514352E-003;-3.997683059424162E-003;
2.420500000000000E+009;1.531632393598557E-001;-7.311729341745377E-002;-2.170236082747579E-003;-3.922854550182819E-003;
2.420666666666667E+009;1.521183103322983E-001;-7.475030422210693E-002;-2.290020231157541E-003;-3.819647012278438E-003;
2.420833333333334E+009;1.512453109025955E-001;-7.648444175720215E-002;-2.485413802787662E-003;-3.746391506865621E-003;
2.421000000000000E+009;1.503164023160934E-001;-7.818409055471420E-002;-2.600339939817786E-003;-3.622315125539899E-003;
2.421166666666667E+009;1.497673541307449E-001;-7.994808256626129E-002;-2.468038350343704E-003;-3.504893975332379E-003;
2.421333333333334E+009;1.492196619510651E-001;-8.191510289907455E-002;-2.587530761957169E-003;-3.538532648235560E-003;
2.421500000000000E+009;1.485525667667389E-001;-8.346664160490036E-002;-2.668227301910520E-003;-3.270897315815091E-003;
2.421666666666667E+009;1.482668220996857E-001;-8.533544838428497E-002;-2.799823181703687E-003;-3.016994800418615E-003;
2.421833333333334E+009;1.480141878128052E-001;-8.722753822803497E-002;-2.865178976207972E-003;-2.990048611536622E-003;
2.422000000000000E+009;1.477543413639069E-001;-8.914937824010849E-002;-3.044500248506665E-003;-2.885682275518775E-003;
2.422166666666667E+009;1.476385891437531E-001;-9.108968079090118E-002;-2.980923512950540E-003;-2.872016280889511E-003;
2.422333333333334E+009;1.478240787982941E-001;-9.281203150749207E-002;-3.024474484845996E-003;-2.701910445466638E-003;
2.422500000000000E+009;1.478625535964966E-001;-9.445455670356751E-002;-3.090260783210397E-003;-2.760570030659437E-003;
2.422666666666667E+009;1.479873657226563E-001;-9.658121317625046E-002;-3.137379884719849E-003;-2.622812520712614E-003;
2.422833333333334E+009;1.482864320278168E-001;-9.815289080142975E-002;-3.359730122610927E-003;-2.526726573705673E-003;
2.423000000000000E+009;1.486891806125641E-001;-9.984142333269119E-002;-3.347747493535280E-003;-2.301607979461551E-003;
2.423166666666667E+009;1.491820067167282E-001;-1.015147194266319E-001;-3.499642480164766E-003;-2.162624383345246E-003;
2.423333333333334E+009;1.498475521802902E-001;-1.029251441359520E-001;-3.438984276726842E-003;-2.093248069286346E-003;
2.423500000000000E+009;1.502611041069031E-001;-1.047114953398705E-001;-3.444497240707278E-003;-1.962971873581410E-003;
2.423666666666667E+009;1.506748497486115E-001;-1.061082184314728E-001;-3.545162733644247E-003;-1.760480459779501E-003;
2.423833333333334E+009;1.513952463865280E-001;-1.074146926403046E-001;-3.655677428469062E-003;-1.624620053917170E-003;
2.424000000000000E+009;1.519369482994080E-001;-1.084692403674126E-001;-3.658898174762726E-003;-1.447034999728203E-003;
2.424166666666667E+009;1.526205092668533E-001;-1.097261011600494E-001;-3.757335944101214E-003;-1.296681584790349E-003;
2.424333333333334E+009;1.534007787704468E-001;-1.107579171657562E-001;-3.872459288686514E-003;-1.210008282214403E-003;
2.424500000000000E+009;1.538962274789810E-001;-1.119145229458809E-001;-3.855539485812187E-003;-9.919211734086275E-004;
2.424666666666667E+009;1.547087877988815E-001;-1.125146076083183E-001;-3.883157391101122E-003;-9.398115216754377E-004;
2.424833333333334E+009;1.551586240530014E-001;-1.135252937674522E-001;-3.828811226412654E-003;-6.108366651460528E-004;
2.425000000000000E+009;1.559143215417862E-001;-1.143370345234871E-001;-3.914670553058386E-003;-3.877606941387057E-004;
2.425166666666667E+009;1.562579572200775E-001;-1.148701384663582E-001;-3.816843265667558E-003;-2.200870367232710E-004;
2.425333333333334E+009;1.567858904600143E-001;-1.153637766838074E-001;-3.709883894771338E-003;8.154687748174183E-006;
2.425500000000000E+009;1.572301536798477E-001;-1.158704608678818E-001;-3.734050551429391E-003;1.329104852629826E-004;
2.425666666666667E+009;1.574964076280594E-001;-1.162686571478844E-001;-3.644750919193029E-003;3.058513102587313E-004;
2.425833333333334E+009;1.578276604413986E-001;-1.164842918515205E-001;-3.604123834520578E-003;2.814610197674483E-004;
2.426000000000000E+009;1.579600274562836E-001;-1.167500764131546E-001;-3.274959046393633E-003;5.447591538541019E-004;
2.426166666666667E+009;1.581068783998489E-001;-1.169892027974129E-001;-3.374742111191154E-003;7.707797340117395E-004;
2.426333333333334E+009;1.581107825040817E-001;-1.171350330114365E-001;-3.331424202769995E-003;7.099055801518261E-004;
2.426500000000000E+009;1.580642014741898E-001;-1.170739755034447E-001;-3.220974234864116E-003;9.047359344549477E-004;
2.426666666666667E+009;1.579745113849640E-001;-1.170935779809952E-001;-3.050848841667175E-003;9.475091355852783E-004;
2.426833333333334E+009;1.575285494327545E-001;-1.171830892562866E-001;-2.822510199621320E-003;1.144567271694541E-003;
2.427000000000000E+009;1.572190970182419E-001;-1.172442808747292E-001;-2.766512334346771E-003;1.089673838578165E-003;
2.427166666666667E+009;1.565880328416824E-001;-1.169936284422875E-001;-2.573786070570350E-003;1.158770755864680E-003;
2.427333333333334E+009;1.559751927852631E-001;-1.169612184166908E-001;-2.490040380507708E-003;1.148468581959605E-003;
2.427500000000000E+009;1.552055776119232E-001;-1.170395016670227E-001;-2.307650633156300E-003;1.160729443654418E-003;
2.427666666666667E+009;1.542843133211136E-001;-1.170542091131210E-001;-2.328632865101099E-003;1.511322334408760E-003;
