# Version 1.00
#
freq[Hz];re:Trc1_S11;im:Trc1_S11;re:Trc2_S21;im:Trc2_S21;
2.400000000000000E+009;1.547183692455292E-001;6.128920242190361E-002;-9.563148487359285E-004;3.638317110016942E-003;
2.400166666666667E+009;1.546998620033264E-001;5.927465111017227E-002;-9.287112625315785E-004;3.625302342697978E-003;
2.400333333333334E+009;1.545498371124268E-001;5.700516328215599E-002;-7.877614116296172E-004;3.704904112964869E-003;
2.400500000000000E+009;1.547182202339172E-001;5.492632836103439E-002;-6.333807250484824E-004;3.732415381819010E-003;
2.400666666666667E+009;1.549459099769592E-001;5.270645767450333E-002;-5.521741695702076E-004;3.799685277044773E-003;
2.400833333333334E+009;1.550536006689072E-001;5.043579638004303E-002;-5.347346886992455E-004;3.634893801063299E-003;
2.401000000000000E+009;1.553334295749664E-001;4.826906323432922E-002;-3.854170499835163E-004;3.661511465907097E-003;
2.401166666666667E+009;1.558316946029663E-001;4.598469287157059E-002;-3.432479570619762E-004;3.760618157684803E-003;
2.401333333333334E+009;1.562677025794983E-001;4.370299726724625E-002;-4.215331282466650E-004;3.677113447338343E-003;
2.401500000000000E+009;1.567554771900177E-001;4.152658209204674E-002;-1.833164278650656E-004;3.628897015005350E-003;
2.401666666666667E+009;1.575340330600739E-001;3.956689313054085E-002;-2.078246616292745E-004;3.714863909408450E-003;
2.401833333333334E+009;1.580914556980133E-001;3.729923814535141E-002;-1.141132088378072E-004;3.713196143507958E-003;
2.402000000000000E+009;1.587797403335571E-001;3.552829101681709E-002;-4.881505446974188E-005;3.901754273101687E-003;
2.402166666666667E+009;1.595792621374130E-001;3.319632261991501E-002;-5.574021997745149E-006;3.872930770739913E-003;
2.402333333333334E+009;1.604394316673279E-001;3.147007524967194E-002;2.662696933839470E-004;3.937706816941500E-003;
2.402500000000000E+009;1.615106314420700E-001;2.982410788536072E-002;3.172530559822917E-004;3.851410932838917E-003;
2.402666666666667E+009;1.625785678625107E-001;2.815550193190575E-002;2.455740177538246E-004;3.973492886871100E-003;
2.402833333333334E+009;1.634929478168488E-001;2.642563171684742E-002;3.825780004262924E-004;3.944335505366325E-003;
2.403000000000000E+009;1.645096242427826E-001;2.486829832196236E-002;4.224913427606225E-004;4.152721259742975E-003;
2.403166666666667E+009;1.657431870698929E-001;2.350140549242497E-002;5.508327740244567E-004;3.931838087737560E-003;
2.403333333333334E+009;1.669076383113861E-001;2.231524325907230E-002;5.520812119357288E-004;4.289707634598017E-003;
2.403500000000000E+009;1.679263263940811E-001;2.112167701125145E-002;6.948668160475791E-004;4.223474301397800E-003;
2.403666666666667E+009;1.691440790891647E-001;1.986443810164928E-002;7.949681603349745E-004;4.326388705521822E-003;
2.403833333333334E+009;1.703444719314575E-001;1.893550716340542E-002;1.083281706087291E-003;4.295825026929379E-003;
2.404000000000000E+009;1.714879870414734E-001;1.790867373347282E-002;1.099886605516076E-003;4.434596281498671E-003;
2.404166666666667E+009;1.725463718175888E-001;1.713898591697216E-002;1.348932855762541E-003;4.543761722743511E-003;
2.404333333333334E+009;1.736852824687958E-001;1.647013053297997E-002;1.465433626435697E-003;4.409682471305132E-003;
2.404500000000000E+009;1.745029389858246E-001;1.577159017324448E-002;1.589111983776093E-003;4.449717700481415E-003;
2.404666666666667E+009;1.757061928510666E-001;1.525586377829313E-002;2.025391906499863E-003;4.609030671417713E-003;
2.404833333333334E+009;1.766616851091385E-001;1.466586068272591E-002;1.988097093999386E-003;4.584236536175013E-003;
2.405000000000000E+009;1.773767173290253E-001;1.422107126563788E-002;2.316125202924013E-003;4.620968364179134E-003;
2.405166666666667E+009;1.782542318105698E-001;1.404924225062132E-002;2.595604164525867E-003;4.510027356445789E-003;
2.405333333333334E+009;1.789591759443283E-001;1.357682235538960E-002;2.843291964381933E-003;4.415944218635559E-003;
2.405500000000000E+009;1.796304136514664E-001;1.346949860453606E-002;2.800689311698079E-003;4.391557071357966E-003;
2.405666666666667E+009;1.801175475120544E-001;1.321963779628277E-002;3.311013104394078E-003;4.311191383749247E-003;
2.405833333333334E+009;1.804990768432617E-001;1.327021792531014E-002;3.448243485763669E-003;4.301386419683695E-003;
2.406000000000000E+009;1.810773313045502E-001;1.307109929621220E-002;3.611420746892691E-003;4.044587723910809E-003;
2.406166666666667E+009;1.811127960681915E-001;1.299966033548117E-002;3.822452388703823E-003;3.920814488083124E-003;
2.406333333333334E+009;1.815337091684341E-001;1.289259921759367E-002;3.984414506703615E-003;3.787939669564366E-003;
2.406500000000000E+009;1.815811693668366E-001;1.262914203107357E-002;4.271176643669605E-003;3.646713681519032E-003;
2.406666666666667E+009;1.814411282539368E-001;1.263147499412298E-002;4.401555284857750E-003;3.513942705467343E-003;
2.406833333333334E+009;1.812813431024551E-001;1.252109557390213E-002;4.304376896470785E-003;3.423343878239393E-003;
2.407000000000000E+009;1.811628937721252E-001;1.207396201789379E-002;4.642451647669077E-003;3.287744475528598E-003;
2.407166666666667E+009;1.809942722320557E-001;1.203502807766199E-002;4.740117583423853E-003;3.036645706743002E-003;
2.407333333333334E+009;1.804531216621399E-001;1.141013111919165E-002;4.873181227594614E-003;2.812846098095179E-003;
2.407500000000000E+009;1.800748109817505E-001;1.123154349625111E-002;5.160963628441095E-003;2.638913691043854E-003;
2.407666666666667E+009;1.795961260795593E-001;1.079553551971912E-002;5.139007233083248E-003;2.420614240691066E-003;
2.407833333333334E+009;1.787658482789993E-001;1.001477427780628E-002;5.175508558750153E-003;2.203250769525766E-003;
2.408000000000000E+009;1.781560927629471E-001;9.349397383630276E-003;5.218652077019215E-003;1.880483468994498E-003;
2.408166666666667E+009;1.774673461914063E-001;8.709519170224667E-003;5.205379333347082E-003;1.796269905753434E-003;
2.408333333333334E+009;1.767763048410416E-001;8.015166968107224E-003;5.406998097896576E-003;1.518464763648808E-003;
2.408500000000000E+009;1.758872419595718E-001;6.880666129291058E-003;5.399103742092848E-003;1.449102535843849E-003;
2.408666666666667E+009;1.751051098108292E-001;5.819698795676231E-003;5.377161782234907E-003;1.155641046352685E-003;
2.408833333333334E+009;1.741817146539688E-001;4.618678241968155E-003;5.377001594752073E-003;9.800206171348691E-004;
2.409000000000000E+009;1.732782274484634E-001;3.350565209984779E-003;5.361012183129787E-003;7.402196060866118E-004;
2.409166666666667E+009;1.726123690605164E-001;2.035064622759819E-003;5.386212375015020E-003;5.525127053260803E-004;
2.409333333333334E+009;1.716679632663727E-001;4.108994617126882E-004;5.506599321961403E-003;2.799344365485013E-004;
2.409500000000000E+009;1.708565950393677E-001;-1.150789088569582E-003;5.313181784003973E-003;2.344503009226173E-004;
2.409666666666667E+009;1.699321269989014E-001;-2.723329467698932E-003;5.334490444511175E-003;3.224223473807797E-005;
2.409833333333334E+009;1.691809892654419E-001;-4.426708444952965E-003;5.432622507214546E-003;-3.217727062292397E-004;
2.410000000000000E+009;1.685319840908051E-001;-6.318497937172651E-003;5.270861089229584E-003;-4.741495940834284E-004;
2.410166666666667E+009;1.680397391319275E-001;-8.069312199950218E-003;5.236661061644554E-003;-5.491298506967723E-004;
2.410333333333334E+009;1.674141436815262E-001;-1.018200255930424E-002;5.030080676078796E-003;-7.057964103296399E-004;
2.410500000000000E+009;1.668093353509903E-001;-1.189132593572140E-002;5.048596765846014E-003;-8.925870060920715E-004;
2.410666666666667E+009;1.663971394300461E-001;-1.408041547983885E-002;4.943064879626036E-003;-9.306768770329654E-004;
2.410833333333334E+009;1.662699729204178E-001;-1.615718938410282E-002;4.802285693585873E-003;-1.241465331986547E-003;
2.411000000000000E+009;1.658902466297150E-001;-1.824547722935677E-002;4.875328857451677E-003;-1.266016392037273E-003;
2.411166666666667E+009;1.655739098787308E-001;-2.024030312895775E-002;4.846031311899424E-003;-1.463351538404822E-003;
2.411333333333334E+009;1.655721962451935E-001;-2.240641601383686E-002;4.671539645642042E-003;-1.429193769581616E-003;
2.411500000000000E+009;1.656845957040787E-001;-2.468694373965263E-002;4.620783030986786E-003;-1.603295444510877E-003;
2.411666666666667E+009;1.656405180692673E-001;-2.685373462736607E-002;4.518735222518444E-003;-1.737557118758559E-003;
2.411833333333334E+009;1.659507155418396E-001;-2.876154519617558E-002;4.386750049889088E-003;-1.991107827052474E-003;
2.412000000000000E+009;1.661860346794128E-001;-3.095982410013676E-002;4.369871225208044E-003;-1.945204567164183E-003;
2.412166666666667E+009;1.664785146713257E-001;-3.294663503766060E-002;4.224723204970360E-003;-2.132653957232833E-003;
2.412333333333334E+009;1.671476513147354E-001;-3.492881730198860E-002;4.236745182424784E-003;-2.194287022575736E-003;
2.412500000000000E+009;1.676375120878220E-001;-3.678041696548462E-002;4.098311066627502E-003;-2.385080093517900E-003;
2.412666666666667E+009;1.683229804039002E-001;-3.877322375774384E-002;4.085240419954062E-003;-2.358750673010945E-003;
2.412833333333334E+009;1.688427329063416E-001;-4.062811657786369E-002;4.017461556941271E-003;-2.522062044590712E-003;
2.413000000000000E+009;1.696746051311493E-001;-4.226515069603920E-002;3.778651589527726E-003;-2.599588362500072E-003;
2.413166666666667E+009;1.701412051916122E-001;-4.391741007566452E-002;3.775244345888495E-003;-2.734429668635130E-003;
2.413333333333334E+009;1.708092987537384E-001;-4.565653949975967E-002;3.811891656368971E-003;-2.844521310180426E-003;
2.413500000000000E+009;1.717365086078644E-001;-4.712586104869843E-002;3.797043580561876E-003;-2.814586041495204E-003;
2.413666666666667E+009;1.728025227785111E-001;-4.850737378001213E-002;3.736555110663176E-003;-2.999015850946307E-003;
2.413833333333334E+009;1.732201874256134E-001;-4.993145167827606E-002;3.578674979507923E-003;-3.161807078868151E-003;
2.414000000000000E+009;1.739138066768646E-001;-5.112566798925400E-002;3.584581194445491E-003;-3.213912481442094E-003;
2.414166666666667E+009;1.747978180646896E-001;-5.228017270565033E-002;3.471424803137779E-003;-3.218280151486397E-003;
2.414333333333334E+009;1.755149215459824E-001;-5.323971807956696E-002;3.498194273561239E-003;-3.493402851745486E-003;
2.414500000000000E+009;1.763179749250412E-001;-5.419379472732544E-002;3.199031343683600E-003;-3.562571946531534E-003;
2.414666666666667E+009;1.769848912954330E-001;-5.499788001179695E-002;3.265842562541366E-003;-3.762137610465288E-003;
2.414833333333334E+009;1.776162534952164E-001;-5.569583177566528E-002;3.074666485190392E-003;-3.925767261534929E-003;
2.415000000000000E+009;1.779146939516068E-001;-5.630446970462799E-002;2.960958750918508E-003;-4.106236621737480E-003;
2.415166666666667E+009;1.785771548748016E-001;-5.684434622526169E-002;2.902560401707888E-003;-4.213404376059771E-003;
2.415333333333334E+009;1.789789795875549E-001;-5.753684788942337E-002;2.750973450019956E-003;-4.372321069240570E-003;
2.415500000000000E+009;1.792763769626617E-001;-5.765411257743835E-002;2.539590699598193E-003;-4.352699033915997E-003;
2.415666666666667E+009;1.795337647199631E-001;-5.783474817872047E-002;2.500190399587154E-003;-4.378950223326683E-003;
2.415833333333334E+009;1.797185242176056E-001;-5.821154266595841E-002;2.265309914946556E-003;-4.538231994956732E-003;
2.416000000000000E+009;1.797280013561249E-001;-5.821117013692856E-002;2.063373569399118E-003;-4.687048029154539E-003;
2.416166666666667E+009;1.797414124011993E-001;-5.847897008061409E-002;1.942881266586483E-003;-4.790175706148148E-003;
2.416333333333334E+009;1.796557754278183E-001;-5.854927375912666E-002;1.708260271698237E-003;-4.786534700542688E-003;
2.416500000000000E+009;1.793450266122818E-001;-5.852844566106796E-002;1.597643829882145E-003;-4.871048964560032E-003;
2.416666666666667E+009;1.789260059595108E-001;-5.845377966761589E-002;1.300292555242777E-003;-4.987769760191441E-003;
2.416833333333334E+009;1.786756515502930E-001;-5.882447212934494E-002;1.198970014229417E-003;-4.942328203469515E-003;
2.417000000000000E+009;1.778792291879654E-001;-5.874540656805039E-002;1.101940171793103E-003;-5.206897854804993E-003;
2.417166666666667E+009;1.771234273910523E-001;-5.872648209333420E-002;7.715194369666278E-004;-5.055127665400505E-003;
2.417333333333334E+009;1.765924841165543E-001;-5.874153971672058E-002;6.609723204746842E-004;-5.116622429341078E-003;
2.417500000000000E+009;1.755780428647995E-001;-5.907646566629410E-002;3.186493413522840E-004;-5.177211947739124E-003;
2.417666666666667E+009;1.746668517589569E-001;-5.915840342640877E-002;1.150441748904996E-004;-5.032418761402369E-003;
2.417833333333334E+009;1.735145598649979E-001;-5.928754433989525E-002;-1.552945614093915E-004;-5.004026461392641E-003;
2.418000000000000E+009;1.723637431859970E-001;-5.968960747122765E-002;-1.026888494379818E-004;-5.057396367192268E-003;
2.418166666666667E+009;1.711519509553909E-001;-5.982374772429466E-002;-2.921729173976928E-004;-4.917491227388382E-003;
2.418333333333334E+009;1.701903790235519E-001;-6.034817919135094E-002;-6.305996212176979E-004;-4.765212070196867E-003;
2.418500000000000E+009;1.687607616186142E-001;-6.082962453365326E-002;-6.853292579762638E-004;-4.774535074830055E-003;
2.418666666666667E+009;1.674541532993317E-001;-6.139602512121201E-002;-8.966793539002538E-004;-4.790681414306164E-003;
2.418833333333334E+009;1.658862978219986E-001;-6.215381249785423E-002;-9.384275181218982E-004;-4.720085300505161E-003;
2.419000000000000E+009;1.644229739904404E-001;-6.284921616315842E-002;-1.388578210026026E-003;-4.712468478828669E-003;
2.419166666666667E+009;1.630414873361588E-001;-6.366264075040817E-002;-1.329202787019312E-003;-4.383216612040997E-003;
2.419333333333334E+009;1.617032587528229E-001;-6.435910612344742E-002;-1.394151942804456E-003;-4.505729302763939E-003;
2.419500000000000E+009;1.603213846683502E-001;-6.556390970945358E-002;-1.675942679867148E-003;-4.311796277761459E-003;
2.419666666666667E+009;1.591285914182663E-001;-6.668654084205627E-002;-1.816552365198731E-003;-4.211978986859322E-003;
2.419833333333334E+009;1.576820760965347E-001;-6.781674921512604E-002;-1.912036677822471E-003;-4.068040288984776E-003;
2.420000000000000E+009;1.563804745674133E-001;-6.911262124776840E-002;-1.980680041015148E-003;-4.107503220438957E-003;
2.420166666666667E+009;1.551980823278427E-001;-7.057256251573563E-002;-1.993602840229869E-003;-3.948101308196783E-003;
2.420333333333334E+009;1.541380733251572E-001;-7.201644778251648E-002;-2.109069610014558E-003;-3.902329597622156E-003;
2.420500000000000E+009;1.530807465314865E-001;-7.331911474466324E-002;-2.236479427665472E-003;-3.675639862194657E-003;
2.420666666666667E+009;1.519748866558075E-001;-7.480797171592712E-002;-2.440366894006729E-003;-3.689528675749898E-003;
2.420833333333334E+009;1.511509865522385E-001;-7.647811621427536E-002;-2.573937876150012E-003;-3.546213265508413E-003;
2.421000000000000E+009;1.501706987619400E-001;-7.830374687910080E-002;-2.600630512461066E-003;-3.469845280051231E-003;
2.421166666666667E+009;1.497258841991425E-001;-7.993485778570175E-002;-2.632565097883344E-003;-3.391110105440021E-003;
2.421333333333334E+009;1.492793262004852E-001;-8.195785433053970E-002;-2.818132517859340E-003;-3.216803073883057E-003;
2.421500000000000E+009;1.485603600740433E-001;-8.352938294410706E-002;-2.803545445203781E-003;-3.078285139054060E-003;
2.421666666666667E+009;1.482724547386169E-001;-8.535646647214890E-002;-2.824176568537951E-003;-2.991512883454561E-003;
2.421833333333334E+009;1.478804945945740E-001;-8.721884340047836E-002;-2.861980348825455E-003;-2.851214259862900E-003;
2.422000000000000E+009;1.477559059858322E-001;-8.938310295343399E-002;-2.915742108598352E-003;-2.780803013592959E-003;
2.422166666666667E+009;1.476001292467117E-001;-9.117622673511505E-002;-3.095515770837665E-003;-2.718887990340591E-003;
2.422333333333334E+009;1.476271152496338E-001;-9.271828830242157E-002;-3.105866955593228E-003;-2.608794253319502E-003;
2.422500000000000E+009;1.477363407611847E-001;-9.438516199588776E-002;-3.125274088233709E-003;-2.475137356668711E-003;
2.422666666666667E+009;1.479303389787674E-001;-9.645882993936539E-002;-3.157051745802164E-003;-2.370317932218313E-003;
2.422833333333334E+009;1.483565568923950E-001;-9.823761135339737E-002;-3.254394279792905E-003;-2.194593427702785E-003;
2.423000000000000E+009;1.486380547285080E-001;-9.999746829271317E-002;-3.347350284457207E-003;-2.089718822389841E-003;
2.423166666666667E+009;1.489983052015305E-001;-1.016197949647903E-001;-3.369971876963973E-003;-1.912343315780163E-003;
2.423333333333334E+009;1.496589928865433E-001;-1.029533743858337E-001;-3.403998911380768E-003;-1.951524754986167E-003;
2.423500000000000E+009;1.501647084951401E-001;-1.046920344233513E-001;-3.629746381193399E-003;-1.691345591098070E-003;
2.423666666666667E+009;1.504780054092407E-001;-1.060312762856484E-001;-3.640959970653057E-003;-1.681409310549498E-003;
2.423833333333334E+009;1.513544470071793E-001;-1.074046865105629E-001;-3.556365147233009E-003;-1.671538222581148E-003;
2.424000000000000E+009;1.518767029047012E-001;-1.085636392235756E-001;-3.538895631209016E-003;-1.417247345671058E-003;
2.424166666666667E+009;1.525378674268723E-001;-1.097834780812264E-001;-3.783845342695713E-003;-1.199956750497222E-003;
2.424333333333334E+009;1.533755660057068E-001;-1.107644662261009E-001;-3.613628912717104E-003;-1.023296033963561E-003;
2.424500000000000E+009;1.540245413780212E-001;-1.118165701627731E-001;-3.814344760030508E-003;-8.199334843084216E-004;
2.424666666666667E+009;1.547761112451553E-001;-1.125392019748688E-001;-3.814710769802332E-003;-6.235319306142628E-004;
2.424833333333334E+009;1.551238596439362E-001;-1.134201958775520E-001;-3.720458131283522E-003;-5.391653394326568E-004;
2.425000000000000E+009;1.558100432157517E-001;-1.143158227205277E-001;-3.938259556889534E-003;-3.531163674779236E-004;
2.425166666666667E+009;1.562194228172302E-001;-1.147647053003311E-001;-3.681556321680546E-003;-2.163807221222669E-004;
2.425333333333334E+009;1.568206846714020E-001;-1.153161451220512E-001;-3.702785586938262E-003;1.770033122738823E-005;
2.425500000000000E+009;1.572175770998001E-001;-1.158789396286011E-001;-3.514415817335248E-003;2.133599919034168E-004;
2.425666666666667E+009;1.573847979307175E-001;-1.162232607603073E-001;-3.420695196837187E-003;3.292993351351470E-004;
2.425833333333334E+009;1.576880961656570E-001;-1.164951100945473E-001;-3.486091969534755E-003;4.703044542111456E-004;
2.426000000000000E+009;1.579046249389648E-001;-1.168781518936157E-001;-3.461945569142699E-003;5.426526768133044E-004;
2.426166666666667E+009;1.581107527017593E-001;-1.169840022921562E-001;-3.185310633853078E-003;8.034576894715428E-004;
2.426333333333334E+009;1.580175161361694E-001;-1.171875670552254E-001;-3.235053736716509E-003;1.024261116981506E-003;
2.426500000000000E+009;1.580052673816681E-001;-1.171988695859909E-001;-3.062777221202850E-003;9.512481628917158E-004;
2.426666666666667E+009;1.578657925128937E-001;-1.170871704816818E-001;-2.851170487701893E-003;1.133464043959975E-003;
2.426833333333334E+009;1.575026810169220E-001;-1.170763224363327E-001;-2.754087094217539E-003;1.226802472956479E-003;
2.427000000000000E+009;1.570115685462952E-001;-1.172389313578606E-001;-2.565657487139106E-003;1.323426375165582E-003;
2.427166666666667E+009;1.565374732017517E-001;-1.170249730348587E-001;-2.448173938319087E-003;1.408296171575785E-003;
2.427333333333334E+009;1.558032184839249E-001;-1.170355305075645E-001;-2.305631292983890E-003;1.253450289368630E-003;
2.427500000000000E+009;1.551659852266312E-001;-1.169799491763115E-001;-2.141729462891817E-003;1.539514167234302E-003;
2.427666666666667E+009;1.542798131704330E-001;-1.170485094189644E-001;-1.910548890009522E-003;1.353116589598358E-003;
