# Version 1.00
#
freq[Hz];re:Trc1_S11;im:Trc1_S11;re:Trc2_S21;im:Trc2_S21;
2.400000000000000E+009;1.556974053382874E-001;1.066177114844322E-001;-5.171124823391438E-003;3.972451202571392E-003;
2.400166666666667E+009;1.556363403797150E-001;1.041917875409126E-001;-5.323257762938738E-003;3.963305614888668E-003;
2.400333333333334E+009;1.556498557329178E-001;1.017103642225266E-001;-5.281489342451096E-003;4.349891096353531E-003;
2.400500000000000E+009;1.555992364883423E-001;9.889055788516998E-002;-5.285524763166904E-003;4.732001107186079E-003;
2.400666666666667E+009;1.557664424180985E-001;9.649936854839325E-002;-5.327745340764523E-003;4.857085179537535E-003;
2.400833333333334E+009;1.556182801723480E-001;9.358406811952591E-002;-5.271678790450096E-003;5.213548429310322E-003;
2.401000000000000E+009;1.558725088834763E-001;9.063763171434403E-002;-5.132453981786966E-003;5.430616904050112E-003;
2.401166666666667E+009;1.559309661388397E-001;8.791892230510712E-002;-5.156580358743668E-003;5.893161520361900E-003;
2.401333333333334E+009;1.563074439764023E-001;8.502630889415741E-002;-4.996454808861017E-003;6.001933012157679E-003;
2.401500000000000E+009;1.567193865776062E-001;8.204040676355362E-002;-4.766651894897223E-003;6.464598700404167E-003;
2.401666666666667E+009;1.569624096155167E-001;7.897435873746872E-002;-4.580107051879168E-003;6.660756189376116E-003;
2.401833333333334E+009;1.574746519327164E-001;7.630974799394608E-002;-4.323802422732115E-003;6.976216100156307E-003;
2.402000000000000E+009;1.584319770336151E-001;7.331350445747376E-002;-4.230773542076349E-003;7.198013365268707E-003;
2.402166666666667E+009;1.590988785028458E-001;7.083018124103546E-002;-3.810144029557705E-003;7.428606972098351E-003;
2.402333333333334E+009;1.600695848464966E-001;6.795416772365570E-002;-3.478795289993286E-003;7.624409627169371E-003;
2.402500000000000E+009;1.611863225698471E-001;6.544066220521927E-002;-3.319038311019540E-003;7.942819036543369E-003;
2.402666666666667E+009;1.622923314571381E-001;6.304416805505753E-002;-2.832718426361680E-003;8.077032864093781E-003;
2.402833333333334E+009;1.636421233415604E-001;6.052085384726524E-002;-2.609839197248220E-003;8.120995946228504E-003;
2.403000000000000E+009;1.649373471736908E-001;5.798728391528130E-002;-2.085313433781266E-003;8.372657001018524E-003;
2.403166666666667E+009;1.666565239429474E-001;5.580945685505867E-002;-1.824927050620318E-003;8.552144281566143E-003;
2.403333333333334E+009;1.680001318454742E-001;5.363207682967186E-002;-1.398021122440696E-003;8.642009459435940E-003;
2.403500000000000E+009;1.696058958768845E-001;5.142879858613014E-002;-9.353680652566254E-004;8.680383674800396E-003;
2.403666666666667E+009;1.713551729917526E-001;4.973844811320305E-002;-4.876550228800625E-004;8.868563920259476E-003;
2.403833333333334E+009;1.729612499475479E-001;4.777469858527184E-002;-2.360711077926680E-004;8.719477802515030E-003;
2.404000000000000E+009;1.743486374616623E-001;4.609689861536026E-002;2.123078156728298E-004;8.679607883095741E-003;
2.404166666666667E+009;1.761391758918762E-001;4.443266615271568E-002;7.846929947845638E-004;8.660351857542992E-003;
2.404333333333334E+009;1.775850802659988E-001;4.295165464282036E-002;1.069457037374377E-003;8.374243043363094E-003;
2.404500000000000E+009;1.791584640741348E-001;4.150393232703209E-002;1.466352259740233E-003;8.314806967973709E-003;
2.404666666666667E+009;1.807943731546402E-001;4.060965403914452E-002;1.725805457681418E-003;8.297340013086796E-003;
2.404833333333334E+009;1.824990063905716E-001;3.952609747648239E-002;2.005246700718999E-003;8.141683414578438E-003;
2.405000000000000E+009;1.836865842342377E-001;3.880079463124275E-002;2.620929852128029E-003;7.704580202698708E-003;
2.405166666666667E+009;1.851986199617386E-001;3.821622207760811E-002;2.732101827859879E-003;7.598441559821367E-003;
2.405333333333334E+009;1.864067465066910E-001;3.779400512576103E-002;2.912312978878617E-003;7.380872033536434E-003;
2.405500000000000E+009;1.877019554376602E-001;3.713616728782654E-002;3.136238781735301E-003;7.300571072846651E-003;
2.405666666666667E+009;1.890736669301987E-001;3.697340935468674E-002;3.305122489109635E-003;6.945269647985697E-003;
2.405833333333334E+009;1.902450174093247E-001;3.667434304952622E-002;3.486252389848232E-003;6.634854245930910E-003;
2.406000000000000E+009;1.912372410297394E-001;3.663115575909615E-002;3.561542602255940E-003;6.543517112731934E-003;
2.406166666666667E+009;1.920813620090485E-001;3.655542060732842E-002;3.722265595570207E-003;6.236617919057608E-003;
2.406333333333334E+009;1.931806355714798E-001;3.659355267882347E-002;4.145649727433920E-003;6.044821813702583E-003;
2.406500000000000E+009;1.936657577753067E-001;3.662065789103508E-002;4.029580857604742E-003;5.794430617243052E-003;
2.406666666666667E+009;1.943046748638153E-001;3.672918677330017E-002;4.165104590356350E-003;5.767759867012501E-003;
2.406833333333334E+009;1.948459148406982E-001;3.690815716981888E-002;4.221310373395681E-003;5.432704463601112E-003;
2.407000000000000E+009;1.950397789478302E-001;3.717545047402382E-002;4.343052394688129E-003;5.329846870154142E-003;
2.407166666666667E+009;1.954834014177322E-001;3.702040016651154E-002;4.534841515123844E-003;5.032775457948446E-003;
2.407333333333334E+009;1.952850818634033E-001;3.733485937118530E-002;4.730936139822006E-003;4.958393517881632E-003;
2.407500000000000E+009;1.952915191650391E-001;3.750516474246979E-002;4.750708118081093E-003;4.816751927137375E-003;
2.407666666666667E+009;1.952711045742035E-001;3.743896633386612E-002;4.731731023639441E-003;4.506211727857590E-003;
2.407833333333334E+009;1.948620826005936E-001;3.743901103734970E-002;4.797729663550854E-003;4.165833350270987E-003;
2.408000000000000E+009;1.947635710239410E-001;3.730733320116997E-002;4.719252232462168E-003;4.045091569423676E-003;
2.408166666666667E+009;1.941999197006226E-001;3.714178875088692E-002;4.705520812422037E-003;3.981236834079027E-003;
2.408333333333334E+009;1.936483979225159E-001;3.666108101606369E-002;4.788670223206282E-003;3.745108144357801E-003;
2.408500000000000E+009;1.929415166378021E-001;3.647172078490257E-002;4.679572302848101E-003;3.605385543778539E-003;
2.408666666666667E+009;1.923148334026337E-001;3.589872643351555E-002;4.692497197538614E-003;3.377775661647320E-003;
2.408833333333334E+009;1.916684657335281E-001;3.524427115917206E-002;4.904434550553560E-003;3.169627161696553E-003;
2.409000000000000E+009;1.907398551702499E-001;3.439334034919739E-002;4.757440183311701E-003;3.203714499250054E-003;
2.409166666666667E+009;1.897931396961212E-001;3.347193449735642E-002;4.599505569785833E-003;3.047851379960775E-003;
2.409333333333334E+009;1.889439523220062E-001;3.248829767107964E-002;4.619119688868523E-003;2.905511064454913E-003;
2.409500000000000E+009;1.877717673778534E-001;3.123299591243267E-002;4.587354138493538E-003;2.784960204735398E-003;
2.409666666666667E+009;1.868062466382980E-001;2.967927791178227E-002;4.486581310629845E-003;2.723172307014465E-003;
2.409833333333334E+009;1.856911629438400E-001;2.826806902885437E-002;4.541044123470783E-003;2.579139545559883E-003;
2.410000000000000E+009;1.849284321069717E-001;2.664514817297459E-002;4.437214694917202E-003;2.730228006839752E-003;
2.410166666666667E+009;1.839277744293213E-001;2.477235719561577E-002;4.444065038114786E-003;2.677001059055328E-003;
2.410333333333334E+009;1.828769296407700E-001;2.323919907212257E-002;4.485721234232187E-003;2.483631484210491E-003;
2.410500000000000E+009;1.818869858980179E-001;2.115502581000328E-002;4.579134751111269E-003;2.613895805552602E-003;
2.410666666666667E+009;1.810957044363022E-001;1.862265728414059E-002;4.546825774013996E-003;2.458300907164812E-003;
2.410833333333334E+009;1.803199499845505E-001;1.668761856853962E-002;4.591756034642458E-003;2.401651348918676E-003;
2.411000000000000E+009;1.796234399080277E-001;1.441954076290131E-002;4.655564669519663E-003;2.450430765748024E-003;
2.411166666666667E+009;1.790074557065964E-001;1.233787741512060E-002;4.792680963873863E-003;2.284592250362039E-003;
2.411333333333334E+009;1.783959120512009E-001;9.758364409208298E-003;4.643763415515423E-003;2.434556372463703E-003;
2.411500000000000E+009;1.779506057500839E-001;7.456697523593903E-003;4.794631153345108E-003;2.278668573126197E-003;
2.411666666666667E+009;1.778466105461121E-001;5.185657180845738E-003;4.830303601920605E-003;2.179165370762348E-003;
2.411833333333334E+009;1.776202321052551E-001;2.884542569518089E-003;4.757937043905258E-003;2.037137746810913E-003;
2.412000000000000E+009;1.778185218572617E-001;5.435985440271907E-005;4.767904058098793E-003;1.874053035862744E-003;
2.412166666666667E+009;1.778083145618439E-001;-2.296724123880267E-003;4.842580296099186E-003;1.967504620552063E-003;
2.412333333333334E+009;1.780055016279221E-001;-4.749555606395006E-003;4.984337370842695E-003;1.910585211589932E-003;
2.412500000000000E+009;1.786324083805084E-001;-7.118930574506521E-003;4.994395654648542E-003;1.858331379480660E-003;
2.412666666666667E+009;1.791259944438934E-001;-9.528851136565208E-003;5.189824383705854E-003;1.864237245172262E-003;
2.412833333333334E+009;1.799397915601730E-001;-1.201988942921162E-002;5.151256918907166E-003;1.666550640948117E-003;
2.413000000000000E+009;1.804975569248200E-001;-1.431758515536785E-002;5.145483184605837E-003;1.679514651186764E-003;
2.413166666666667E+009;1.814764738082886E-001;-1.672340556979179E-002;5.289347842335701E-003;1.730142044834793E-003;
2.413333333333334E+009;1.823937296867371E-001;-1.901308819651604E-002;5.468290764838457E-003;1.569009036757052E-003;
2.413500000000000E+009;1.834580898284912E-001;-2.125353552401066E-002;5.417297594249249E-003;1.470575924031436E-003;
2.413666666666667E+009;1.845114976167679E-001;-2.334593236446381E-002;5.643371026962996E-003;1.328484504483640E-003;
2.413833333333334E+009;1.856302618980408E-001;-2.537245489656925E-002;5.857421550899744E-003;9.971495019271970E-004;
2.414000000000000E+009;1.867435574531555E-001;-2.741495706140995E-002;5.829279311001301E-003;1.133324112743139E-003;
2.414166666666667E+009;1.880579441785812E-001;-2.910520322620869E-002;5.800985731184483E-003;1.018810668028891E-003;
2.414333333333334E+009;1.890920698642731E-001;-3.123138844966888E-002;6.102690007537603E-003;6.643064552918077E-004;
2.414500000000000E+009;1.905128806829453E-001;-3.263127803802490E-002;6.102675106376410E-003;6.398555706255138E-004;
2.414666666666667E+009;1.916444152593613E-001;-3.421135619282723E-002;6.025417242199183E-003;3.116348234470934E-004;
2.414833333333334E+009;1.928361654281616E-001;-3.549023345112801E-002;6.067743990570307E-003;1.221289421664551E-004;
2.415000000000000E+009;1.939097493886948E-001;-3.671326115727425E-002;6.260359659790993E-003;-3.678104621940292E-005;
2.415166666666667E+009;1.953151077032089E-001;-3.790037706494331E-002;6.309101358056068E-003;-1.900582283269614E-004;
2.415333333333334E+009;1.964019238948822E-001;-3.881448507308960E-002;6.329017691314220E-003;-2.781188231892884E-004;
2.415500000000000E+009;1.975562423467636E-001;-3.946433216333389E-002;6.307182833552361E-003;-3.706918505486101E-004;
2.415666666666667E+009;1.985663175582886E-001;-4.037587344646454E-002;6.222690921276808E-003;-6.040927255526185E-004;
2.415833333333334E+009;1.993290334939957E-001;-4.097020998597145E-002;6.262884475290775E-003;-7.428436074405909E-004;
2.416000000000000E+009;2.000903934240341E-001;-4.151354730129242E-002;6.535946391522884E-003;-9.556594304740429E-004;
2.416166666666667E+009;2.007896900177002E-001;-4.201151058077812E-002;6.593312602490187E-003;-1.126790884882212E-003;
2.416333333333334E+009;2.014966160058975E-001;-4.231623187661171E-002;6.534642074257135E-003;-1.354446052573621E-003;
2.416500000000000E+009;2.019588351249695E-001;-4.249886795878410E-002;6.701147649437189E-003;-1.796044991351664E-003;
2.416666666666667E+009;2.022591978311539E-001;-4.273281618952751E-002;6.451094523072243E-003;-1.760109444148839E-003;
2.416833333333334E+009;2.023908793926239E-001;-4.274396225810051E-002;6.708223372697830E-003;-2.230962272733450E-003;
2.417000000000000E+009;2.025426626205444E-001;-4.284628108143807E-002;6.734745576977730E-003;-2.371075795963407E-003;
2.417166666666667E+009;2.023168653249741E-001;-4.269955307245255E-002;6.584464572370052E-003;-2.670786809176207E-003;
2.417333333333334E+009;2.020790278911591E-001;-4.251272231340408E-002;6.416010670363903E-003;-2.969013294205070E-003;
2.417500000000000E+009;2.018127143383026E-001;-4.240133985877037E-002;6.304297130554915E-003;-3.221243619918823E-003;
2.417666666666667E+009;2.012962847948074E-001;-4.217476397752762E-002;6.354568526148796E-003;-3.483651671558619E-003;
2.417833333333334E+009;2.008198499679565E-001;-4.187666252255440E-002;6.191868335008621E-003;-3.716417122632265E-003;
2.418000000000000E+009;2.001889199018478E-001;-4.166568815708160E-002;6.208169274032116E-003;-3.938443027436733E-003;
2.418166666666667E+009;1.993646621704102E-001;-4.154333099722862E-002;6.000890862196684E-003;-4.167443141341209E-003;
2.418333333333334E+009;1.985208392143250E-001;-4.142071306705475E-002;5.724791437387466E-003;-4.452695138752461E-003;
2.418500000000000E+009;1.974363774061203E-001;-4.137885570526123E-002;5.573027767241001E-003;-4.558526445180178E-003;
2.418666666666667E+009;1.965756863355637E-001;-4.130775853991509E-002;5.441151559352875E-003;-4.835097584873438E-003;
2.418833333333334E+009;1.953516900539398E-001;-4.150217026472092E-002;5.305313039571047E-003;-4.917517770081759E-003;
2.419000000000000E+009;1.940254569053650E-001;-4.176000505685806E-002;5.111101549118757E-003;-5.121944472193718E-003;
2.419166666666667E+009;1.928094178438187E-001;-4.200161993503571E-002;4.921337589621544E-003;-5.362082738429308E-003;
2.419333333333334E+009;1.914653629064560E-001;-4.246056824922562E-002;4.783400334417820E-003;-5.516811273992062E-003;
2.419500000000000E+009;1.899577081203461E-001;-4.300668463110924E-002;4.574720747768879E-003;-5.635316483676434E-003;
2.419666666666667E+009;1.884654462337494E-001;-4.370366036891937E-002;4.269196651875973E-003;-5.757960025221109E-003;
2.419833333333334E+009;1.868478804826737E-001;-4.449818283319473E-002;4.084340296685696E-003;-5.950538441538811E-003;
2.420000000000000E+009;1.853110194206238E-001;-4.542084783315659E-002;4.048805218189955E-003;-5.848184693604708E-003;
2.420166666666667E+009;1.836027950048447E-001;-4.633510485291481E-002;3.641734598204494E-003;-6.144508719444275E-003;
2.420333333333334E+009;1.819331049919128E-001;-4.746031388640404E-002;3.424623981118202E-003;-6.216876208782196E-003;
2.420500000000000E+009;1.802622973918915E-001;-4.886047542095184E-002;3.223718609660864E-003;-6.315907463431358E-003;
2.420666666666667E+009;1.787583678960800E-001;-5.007414892315865E-002;3.081191796809435E-003;-6.412986200302839E-003;
2.420833333333334E+009;1.771310716867447E-001;-5.155899375677109E-002;2.770431106910110E-003;-6.441331934183836E-003;
2.421000000000000E+009;1.756407916545868E-001;-5.316416546702385E-002;2.409279346466065E-003;-6.327709183096886E-003;
2.421166666666667E+009;1.741522699594498E-001;-5.491772666573525E-002;2.295666374266148E-003;-6.594626698642969E-003;
2.421333333333334E+009;1.725317090749741E-001;-5.644709616899490E-002;2.222953597083688E-003;-6.491722073405981E-003;
2.421500000000000E+009;1.711226999759674E-001;-5.842103064060211E-002;1.958142966032028E-003;-6.599091924726963E-003;
2.421666666666667E+009;1.700676232576370E-001;-6.023460254073143E-002;1.732559176161885E-003;-6.664265412837267E-003;
2.421833333333334E+009;1.688714921474457E-001;-6.223125010728836E-002;1.491979695856571E-003;-6.713579874485731E-003;
2.422000000000000E+009;1.676561832427979E-001;-6.411729753017426E-002;1.226574531756342E-003;-6.604884751141071E-003;
2.422166666666667E+009;1.669228523969650E-001;-6.627983599901199E-002;1.021400908939540E-003;-6.666615605354309E-003;
2.422333333333334E+009;1.658719331026077E-001;-6.829749792814255E-002;7.771569071337581E-004;-6.660518236458302E-003;
2.422500000000000E+009;1.651460528373718E-001;-7.033723592758179E-002;5.459446110762656E-004;-6.517502944916487E-003;
2.422666666666667E+009;1.644761115312576E-001;-7.223858684301376E-002;2.897994709201157E-004;-6.391694303601980E-003;
2.422833333333334E+009;1.639501601457596E-001;-7.437156885862351E-002;-8.844151307130233E-005;-6.421084050089121E-003;
2.423000000000000E+009;1.634822785854340E-001;-7.652623206377029E-002;-4.537266067927703E-005;-6.424497812986374E-003;
2.423166666666667E+009;1.631617397069931E-001;-7.848487794399262E-002;-3.396335232537240E-004;-6.382409483194351E-003;
2.423333333333334E+009;1.629453748464584E-001;-8.047981560230255E-002;-6.030602380633354E-004;-6.127295549958944E-003;
2.423500000000000E+009;1.628293395042419E-001;-8.236139267683029E-002;-8.977427496574819E-004;-6.197982467710972E-003;
2.423666666666667E+009;1.628004163503647E-001;-8.434703946113586E-002;-1.157846883870661E-003;-6.101385224610567E-003;
2.423833333333334E+009;1.628703773021698E-001;-8.623055368661881E-002;-1.229452900588512E-003;-5.881193093955517E-003;
2.424000000000000E+009;1.629814952611923E-001;-8.799336105585098E-002;-1.334251370280981E-003;-5.606120917946100E-003;
2.424166666666667E+009;1.630864143371582E-001;-8.950286358594894E-002;-1.416189013980329E-003;-5.245994310826063E-003;
2.424333333333334E+009;1.633903086185455E-001;-9.110438823699951E-002;-1.570866210386157E-003;-5.230779759585857E-003;
2.424500000000000E+009;1.636972725391388E-001;-9.279195964336395E-002;-1.661588670685887E-003;-5.132036749273539E-003;
2.424666666666667E+009;1.639495044946671E-001;-9.420134127140045E-002;-1.855945680290461E-003;-4.930615890771151E-003;
2.424833333333334E+009;1.645527482032776E-001;-9.553578495979309E-002;-1.700990018434823E-003;-4.920878447592259E-003;
2.425000000000000E+009;1.649328321218491E-001;-9.679821133613586E-002;-1.931737409904599E-003;-4.791772458702326E-003;
2.425166666666667E+009;1.651853322982788E-001;-9.771065413951874E-002;-1.941853086464107E-003;-4.519499838352203E-003;
2.425333333333334E+009;1.655258536338806E-001;-9.869223833084106E-002;-1.815209980122745E-003;-4.333748482167721E-003;
2.425500000000000E+009;1.660576909780502E-001;-9.975422918796539E-002;-1.935337320901454E-003;-4.264250397682190E-003;
2.425666666666667E+009;1.664793938398361E-001;-1.002741381525993E-001;-1.894291257485747E-003;-4.268209449946880E-003;
2.425833333333334E+009;1.667773574590683E-001;-1.011747270822525E-001;-1.988466363400221E-003;-4.150312393903732E-003;
2.426000000000000E+009;1.672610640525818E-001;-1.014548465609551E-001;-1.908922102302313E-003;-4.114517942070961E-003;
2.426166666666667E+009;1.676518470048904E-001;-1.021425724029541E-001;-1.938873785547912E-003;-4.043927416205406E-003;
2.426333333333334E+009;1.678874194622040E-001;-1.026140078902245E-001;-1.832888927310705E-003;-4.048405680805445E-003;
2.426500000000000E+009;1.681629717350006E-001;-1.028191670775414E-001;-2.031479263678193E-003;-3.972880542278290E-003;
2.426666666666667E+009;1.683712601661682E-001;-1.031060144305229E-001;-1.874652458354831E-003;-4.022037610411644E-003;
2.426833333333334E+009;1.687091290950775E-001;-1.033311784267426E-001;-1.770978793501854E-003;-3.950163256376982E-003;
2.427000000000000E+009;1.686934083700180E-001;-1.035837829113007E-001;-1.941145746968687E-003;-4.044692032039166E-003;
2.427166666666667E+009;1.687517911195755E-001;-1.037044674158096E-001;-1.922409282997251E-003;-4.102813079953194E-003;
2.427333333333334E+009;1.685920059680939E-001;-1.039570122957230E-001;-1.962913200259209E-003;-4.074819851666689E-003;
2.427500000000000E+009;1.683214753866196E-001;-1.040647551417351E-001;-2.209866419434547E-003;-4.144783597439528E-003;
2.427666666666667E+009;1.680072247982025E-001;-1.041073575615883E-001;-2.294846344739199E-003;-4.025625064969063E-003;
2.427833333333334E+009;1.675937771797180E-001;-1.042198613286018E-001;-2.395875984802842E-003;-4.119806922972202E-003;
