# Version 1.00
#
freq[Hz];re:Trc1_S11;im:Trc1_S11;re:Trc2_S21;im:Trc2_S21;
2.400000000000000E+009;1.559757888317108E-001;1.071569994091988E-001;-5.350250750780106E-003;3.652039216831327E-003;
2.400166666666667E+009;1.556194871664047E-001;1.046568527817726E-001;-5.360478069633246E-003;3.968119155615568E-003;
2.400333333333334E+009;1.559657156467438E-001;1.023371890187264E-001;-5.417314823716879E-003;4.189195577055216E-003;
2.400500000000000E+009;1.557442247867584E-001;9.953537583351135E-002;-5.523275583982468E-003;4.452612251043320E-003;
2.400666666666667E+009;1.558985412120819E-001;9.698557853698731E-002;-5.352977197617292E-003;4.671791568398476E-003;
2.400833333333334E+009;1.559836119413376E-001;9.396844357252121E-002;-5.437972489744425E-003;5.019802600145340E-003;
2.401000000000000E+009;1.561356037855148E-001;9.096477925777435E-002;-5.204586312174797E-003;5.271125119179487E-003;
2.401166666666667E+009;1.561300903558731E-001;8.826539665460587E-002;-5.188493523746729E-003;5.589855369180441E-003;
2.401333333333334E+009;1.564819216728210E-001;8.547398447990418E-002;-5.053403321653605E-003;5.906241480261087E-003;
2.401500000000000E+009;1.568652540445328E-001;8.241091668605804E-002;-4.857631865888834E-003;6.410464644432068E-003;
2.401666666666667E+009;1.572073549032211E-001;7.947888970375061E-002;-4.757952410727739E-003;6.439946591854096E-003;
2.401833333333334E+009;1.578368693590164E-001;7.670807838439941E-002;-4.278400912880898E-003;6.885911338031292E-003;
2.402000000000000E+009;1.583496332168579E-001;7.388511300086975E-002;-4.283027257770300E-003;6.905444432049990E-003;
2.402166666666667E+009;1.592608690261841E-001;7.133819162845612E-002;-3.912419080734253E-003;7.298718672245741E-003;
2.402333333333334E+009;1.602068245410919E-001;6.844465434551239E-002;-3.615529276430607E-003;7.522283587604761E-003;
2.402500000000000E+009;1.614020317792893E-001;6.577481329441071E-002;-3.367107827216387E-003;7.811367977410555E-003;
2.402666666666667E+009;1.624200344085693E-001;6.347529590129852E-002;-3.107563825324178E-003;7.857674732804298E-003;
2.402833333333334E+009;1.638023108243942E-001;6.102066487073898E-002;-2.664137864485383E-003;8.147323504090309E-003;
2.403000000000000E+009;1.652109622955322E-001;5.852296203374863E-002;-2.413388108834624E-003;8.358052931725979E-003;
2.403166666666667E+009;1.668444722890854E-001;5.631463974714279E-002;-1.897482667118311E-003;8.271461352705956E-003;
2.403333333333334E+009;1.682548671960831E-001;5.393294617533684E-002;-1.507465960457921E-003;8.523531258106232E-003;
2.403500000000000E+009;1.700325012207031E-001;5.188387632369995E-002;-1.063390285708010E-003;8.503139019012451E-003;
2.403666666666667E+009;1.718160510063171E-001;4.985072091221809E-002;-7.838742458261550E-004;8.785161189734936E-003;
2.403833333333334E+009;1.733659058809280E-001;4.806406423449516E-002;-3.757571103051305E-004;8.561345748603344E-003;
2.404000000000000E+009;1.747654527425766E-001;4.620119556784630E-002;1.033491134876385E-004;8.734439499676228E-003;
2.404166666666667E+009;1.766336709260941E-001;4.481802508234978E-002;5.725902155973017E-004;8.530841208994389E-003;
2.404333333333334E+009;1.779902428388596E-001;4.315302520990372E-002;9.366173762828112E-004;8.485826663672924E-003;
2.404500000000000E+009;1.796051114797592E-001;4.171415418386459E-002;1.302189310081303E-003;8.455201983451843E-003;
2.404666666666667E+009;1.811990290880203E-001;4.085329920053482E-002;1.679565873928368E-003;8.034295402467251E-003;
2.404833333333334E+009;1.827596575021744E-001;3.962853550910950E-002;1.992478035390377E-003;7.958248257637024E-003;
2.405000000000000E+009;1.842208802700043E-001;3.911753371357918E-002;2.315175952389836E-003;7.797664962708950E-003;
2.405166666666667E+009;1.855391263961792E-001;3.844665735960007E-002;2.528751734644175E-003;7.668670732527971E-003;
2.405333333333334E+009;1.868519484996796E-001;3.780023753643036E-002;2.699052449315786E-003;7.361131254583597E-003;
2.405500000000000E+009;1.883058547973633E-001;3.740606829524040E-002;2.866218565031886E-003;7.221616804599762E-003;
2.405666666666667E+009;1.894889473915100E-001;3.698573261499405E-002;3.140026004984975E-003;7.102715782821178E-003;
2.405833333333334E+009;1.906916797161102E-001;3.684985637664795E-002;3.248144406825304E-003;6.904103327542543E-003;
2.406000000000000E+009;1.916298121213913E-001;3.666407614946365E-002;3.457280108705163E-003;6.682026199996471E-003;
2.406166666666667E+009;1.926094740629196E-001;3.658445924520493E-002;3.673262195661664E-003;6.429011933505535E-003;
2.406333333333334E+009;1.934961676597595E-001;3.657949715852737E-002;3.928960300981998E-003;6.281298119574785E-003;
2.406500000000000E+009;1.941060721874237E-001;3.678060695528984E-002;3.932957071810961E-003;5.984607152640820E-003;
2.406666666666667E+009;1.947983950376511E-001;3.676201403141022E-002;4.102779086679220E-003;5.791059229522944E-003;
2.406833333333334E+009;1.951964348554611E-001;3.677681460976601E-002;4.300681408494711E-003;5.423052702099085E-003;
2.407000000000000E+009;1.954416334629059E-001;3.725846856832504E-002;4.408072214573622E-003;5.341097246855497E-003;
2.407166666666667E+009;1.958164125680924E-001;3.698127716779709E-002;4.405699670314789E-003;5.180359818041325E-003;
2.407333333333334E+009;1.957123428583145E-001;3.733239695429802E-002;4.532643128186464E-003;5.050193984061480E-003;
2.407500000000000E+009;1.956253498792648E-001;3.746829181909561E-002;4.576350562274456E-003;4.755965434014797E-003;
2.407666666666667E+009;1.956165879964829E-001;3.737994283437729E-002;4.697129596024752E-003;4.508109763264656E-003;
2.407833333333334E+009;1.951404064893723E-001;3.738494589924812E-002;4.681202583014965E-003;4.338555969297886E-003;
2.408000000000000E+009;1.951725035905838E-001;3.735240921378136E-002;4.746605642139912E-003;4.243846051394939E-003;
2.408166666666667E+009;1.944592297077179E-001;3.706072643399239E-002;4.783599637448788E-003;4.046957474201918E-003;
2.408333333333334E+009;1.940460056066513E-001;3.663892671465874E-002;4.718474112451077E-003;3.924421966075897E-003;
2.408500000000000E+009;1.934278607368469E-001;3.633711114525795E-002;4.667336586862803E-003;3.708187723532319E-003;
2.408666666666667E+009;1.927751451730728E-001;3.587554767727852E-002;4.822787363082171E-003;3.480842569842935E-003;
2.408833333333334E+009;1.919774562120438E-001;3.508923947811127E-002;4.757609218358994E-003;3.323412965983152E-003;
2.409000000000000E+009;1.911094784736633E-001;3.432214260101318E-002;4.675632808357477E-003;3.299571573734283E-003;
2.409166666666667E+009;1.900650262832642E-001;3.329863771796227E-002;4.718417301774025E-003;3.078898414969444E-003;
2.409333333333334E+009;1.892262995243073E-001;3.237831592559815E-002;4.603305365890265E-003;3.095068270340562E-003;
2.409500000000000E+009;1.881493180990219E-001;3.107200562953949E-002;4.559667315334082E-003;2.795301843434572E-003;
2.409666666666667E+009;1.871215254068375E-001;2.975129149854183E-002;4.549763631075621E-003;2.928272588178515E-003;
2.409833333333334E+009;1.860662847757340E-001;2.812266722321510E-002;4.467647988349199E-003;2.814976032823324E-003;
2.410000000000000E+009;1.851550489664078E-001;2.648536860942841E-002;4.496611189097166E-003;2.838598564267159E-003;
2.410166666666667E+009;1.842038482427597E-001;2.473633177578449E-002;4.400958307087421E-003;2.817468252032995E-003;
2.410333333333334E+009;1.832099109888077E-001;2.294331043958664E-002;4.566576797515154E-003;2.730493200942874E-003;
2.410500000000000E+009;1.821843534708023E-001;2.086210809648037E-002;4.458187613636255E-003;2.653292613103986E-003;
2.410666666666667E+009;1.812651753425598E-001;1.866516284644604E-002;4.635089077055454E-003;2.671273425221443E-003;
2.410833333333334E+009;1.806821227073669E-001;1.660565659403801E-002;4.647288005799055E-003;2.564650028944016E-003;
2.411000000000000E+009;1.797499358654022E-001;1.428445056080818E-002;4.691557958722115E-003;2.567434916272759E-003;
2.411166666666667E+009;1.791082173585892E-001;1.203162316232920E-002;4.686804022639990E-003;2.544414252042770E-003;
2.411333333333334E+009;1.787155121564865E-001;9.485177695751190E-003;4.828385077416897E-003;2.485633362084627E-003;
2.411500000000000E+009;1.782515496015549E-001;7.110001984983683E-003;4.992027301341295E-003;2.374803647398949E-003;
2.411666666666667E+009;1.780568212270737E-001;4.783179610967636E-003;4.834400489926338E-003;2.309065777808428E-003;
2.411833333333334E+009;1.777384430170059E-001;2.529122168198228E-003;4.944889340549707E-003;2.248957287520170E-003;
2.412000000000000E+009;1.779590100049973E-001;-3.149492840748280E-004;5.033847410231829E-003;2.302902285009623E-003;
2.412166666666667E+009;1.779856681823731E-001;-2.421805635094643E-003;5.048223771154881E-003;2.115819137543440E-003;
2.412333333333334E+009;1.782547086477280E-001;-4.965661093592644E-003;5.163396708667278E-003;2.121033612638712E-003;
2.412500000000000E+009;1.787743568420410E-001;-7.255357224494219E-003;5.233491305261850E-003;2.025568624958396E-003;
2.412666666666667E+009;1.792694926261902E-001;-1.003204938024283E-002;5.453895777463913E-003;1.889718812890351E-003;
2.412833333333334E+009;1.799923032522202E-001;-1.241205167025328E-002;5.444297101348639E-003;1.904235687106848E-003;
2.413000000000000E+009;1.808817982673645E-001;-1.462500542402268E-002;5.475468002259731E-003;1.794986193999648E-003;
2.413166666666667E+009;1.815657615661621E-001;-1.694517955183983E-002;5.442614201456308E-003;1.758610946126282E-003;
2.413333333333334E+009;1.825863867998123E-001;-1.924375072121620E-002;5.697863176465035E-003;1.462793443351984E-003;
2.413500000000000E+009;1.834021806716919E-001;-2.136105298995972E-002;5.700010806322098E-003;1.436184742487967E-003;
2.413666666666667E+009;1.847012639045715E-001;-2.373257651925087E-002;5.761907435953617E-003;1.449646078981459E-003;
2.413833333333334E+009;1.857869774103165E-001;-2.576849050819874E-002;5.888379178941250E-003;1.244878396391869E-003;
2.414000000000000E+009;1.869019269943237E-001;-2.762061171233654E-002;5.933662410825491E-003;1.179460668936372E-003;
2.414166666666667E+009;1.883074790239334E-001;-2.952347323298454E-002;6.237016990780830E-003;7.911035208962858E-004;
2.414333333333334E+009;1.893526911735535E-001;-3.145075216889381E-002;6.235952489078045E-003;6.902297027409077E-004;
2.414500000000000E+009;1.907313317060471E-001;-3.287083655595779E-002;6.323171313852072E-003;5.347597762010992E-004;
2.414666666666667E+009;1.917326897382736E-001;-3.427645936608315E-002;6.357320118695498E-003;3.529629902914167E-004;
2.414833333333334E+009;1.930037736892700E-001;-3.578404709696770E-002;6.348775699734688E-003;1.939945796038956E-004;
2.415000000000000E+009;1.941744238138199E-001;-3.694130852818489E-002;6.424876861274242E-003;-2.636560566315893E-005;
2.415166666666667E+009;1.951813995838165E-001;-3.820317611098290E-002;6.499740295112133E-003;-2.291938726557419E-004;
2.415333333333334E+009;1.964901089668274E-001;-3.905413299798966E-002;6.441398989409208E-003;-3.407015174161643E-004;
2.415500000000000E+009;1.976639479398727E-001;-3.989672288298607E-002;6.434447132050991E-003;-5.243021878413856E-004;
2.415666666666667E+009;1.985846310853958E-001;-4.072232171893120E-002;6.474374793469906E-003;-7.994379848241806E-004;
2.415833333333334E+009;1.993753165006638E-001;-4.125565662980080E-002;6.509504746645689E-003;-9.269516449421644E-004;
2.416000000000000E+009;2.001107484102249E-001;-4.197901859879494E-002;6.676002871245146E-003;-1.243212842382491E-003;
2.416166666666667E+009;2.007867246866226E-001;-4.238596558570862E-002;6.481943652033806E-003;-1.389423152431846E-003;
2.416333333333334E+009;2.014555186033249E-001;-4.256466403603554E-002;6.685231812298298E-003;-1.467807218432427E-003;
2.416500000000000E+009;2.019853293895721E-001;-4.288111254572868E-002;6.660779472440481E-003;-1.903086784295738E-003;
2.416666666666667E+009;2.022253423929215E-001;-4.308903217315674E-002;6.692289840430021E-003;-2.093810588121414E-003;
2.416833333333334E+009;2.022730410099030E-001;-4.311525449156761E-002;6.635469384491444E-003;-2.411827212199569E-003;
2.417000000000000E+009;2.025214731693268E-001;-4.316497594118118E-002;6.651644129306078E-003;-2.549114637076855E-003;
2.417166666666667E+009;2.021230161190033E-001;-4.299753531813622E-002;6.551340688019991E-003;-2.999609801918268E-003;
2.417333333333334E+009;2.020230293273926E-001;-4.277020320296288E-002;6.495160982012749E-003;-3.136560088023543E-003;
2.417500000000000E+009;2.016152441501617E-001;-4.277827590703964E-002;6.489154882729054E-003;-3.463333239778876E-003;
2.417666666666667E+009;2.011374831199646E-001;-4.249800369143486E-002;6.220517680048943E-003;-3.509846283122897E-003;
2.417833333333334E+009;2.006898522377014E-001;-4.233855381608009E-002;6.274177692830563E-003;-3.805709537118673E-003;
2.418000000000000E+009;2.000309675931931E-001;-4.193389415740967E-002;5.990774836391211E-003;-4.087079782038927E-003;
2.418166666666667E+009;1.991698890924454E-001;-4.180504381656647E-002;5.966325290501118E-003;-4.301943816244602E-003;
2.418333333333334E+009;1.983278095722199E-001;-4.163543507456780E-002;5.794161930680275E-003;-4.446909297257662E-003;
2.418500000000000E+009;1.973557174205780E-001;-4.177642986178398E-002;5.435862578451634E-003;-4.757964517921209E-003;
2.418666666666667E+009;1.963641792535782E-001;-4.157800972461700E-002;5.231527611613274E-003;-4.806549288332462E-003;
2.418833333333334E+009;1.951562762260437E-001;-4.183063656091690E-002;5.282077938318253E-003;-5.062287673354149E-003;
2.419000000000000E+009;1.938793361186981E-001;-4.191076755523682E-002;5.114941857755184E-003;-5.190042778849602E-003;
2.419166666666667E+009;1.926520317792893E-001;-4.216150566935539E-002;4.862910602241755E-003;-5.434260237962008E-003;
2.419333333333334E+009;1.911946982145309E-001;-4.262818023562431E-002;4.657092038542032E-003;-5.586413200944662E-003;
2.419500000000000E+009;1.898019015789032E-001;-4.307703301310539E-002;4.525091964751482E-003;-5.944654811173677E-003;
2.419666666666667E+009;1.880434006452560E-001;-4.400677233934403E-002;4.332185257226229E-003;-5.869556684046984E-003;
2.419833333333334E+009;1.865137368440628E-001;-4.470571503043175E-002;4.035771824419498E-003;-6.092389114201069E-003;
2.420000000000000E+009;1.848708391189575E-001;-4.559664055705071E-002;3.848952474072576E-003;-6.179749500006437E-003;
2.420166666666667E+009;1.832815855741501E-001;-4.658731445670128E-002;3.666555741801858E-003;-6.053428631275892E-003;
2.420333333333334E+009;1.816729605197907E-001;-4.767603427171707E-002;3.238431178033352E-003;-6.227303761988878E-003;
2.420500000000000E+009;1.799753904342651E-001;-4.919389635324478E-002;3.116156440228224E-003;-6.292876321822405E-003;
2.420666666666667E+009;1.784704178571701E-001;-5.024421587586403E-002;2.968930639326572E-003;-6.451989058405161E-003;
2.420833333333334E+009;1.767619848251343E-001;-5.176313593983650E-002;2.634852891787887E-003;-6.515545770525932E-003;
2.421000000000000E+009;1.753266006708145E-001;-5.321418493986130E-002;2.507806057110429E-003;-6.579233333468437E-003;
2.421166666666667E+009;1.738969236612320E-001;-5.502732470631599E-002;2.250675344839692E-003;-6.542995106428862E-003;
2.421333333333334E+009;1.721970140933991E-001;-5.645537003874779E-002;2.098862547427416E-003;-6.658513564616442E-003;
2.421500000000000E+009;1.709485799074173E-001;-5.859582871198654E-002;1.797559903934598E-003;-6.671036127954722E-003;
2.421666666666667E+009;1.697162538766861E-001;-6.028683111071587E-002;1.534667564556003E-003;-6.668964400887489E-003;
2.421833333333334E+009;1.685569137334824E-001;-6.223822757601738E-002;1.348676276393235E-003;-6.690949667245150E-003;
2.422000000000000E+009;1.675318330526352E-001;-6.421340256929398E-002;1.094372244551778E-003;-6.725904531776905E-003;
2.422166666666667E+009;1.666246205568314E-001;-6.642686575651169E-002;1.064527314156294E-003;-6.603410467505455E-003;
2.422333333333334E+009;1.655016541481018E-001;-6.826660782098770E-002;6.877332343719900E-004;-6.643257103860378E-003;
2.422500000000000E+009;1.648109257221222E-001;-7.019166648387909E-002;4.415972216520459E-004;-6.687885150313377E-003;
2.422666666666667E+009;1.640340387821198E-001;-7.228939235210419E-002;5.108734694658779E-005;-6.564376875758171E-003;
2.422833333333334E+009;1.635881066322327E-001;-7.424978911876679E-002;-9.086829231819138E-005;-6.541069131344557E-003;
2.423000000000000E+009;1.631554067134857E-001;-7.639807462692261E-002;-3.280690289102495E-004;-6.600738503038883E-003;
2.423166666666667E+009;1.629214733839035E-001;-7.843816280364990E-002;-4.410389228723943E-004;-6.339511834084988E-003;
2.423333333333334E+009;1.626208275556564E-001;-8.045781403779984E-002;-6.887631607241929E-004;-6.199008319526911E-003;
2.423500000000000E+009;1.625172495841980E-001;-8.226770162582398E-002;-1.175435027107596E-003;-6.026545073837042E-003;
2.423666666666667E+009;1.626274287700653E-001;-8.428134024143219E-002;-1.146996160969138E-003;-5.964149255305529E-003;
2.423833333333334E+009;1.624486595392227E-001;-8.594918251037598E-002;-1.356468419544399E-003;-5.780425388365984E-003;
2.424000000000000E+009;1.627924144268036E-001;-8.777748793363571E-002;-1.429722760803998E-003;-5.559743847697973E-003;
2.424166666666667E+009;1.627133786678314E-001;-8.936308324337006E-002;-1.473097945563495E-003;-5.328162573277950E-003;
2.424333333333334E+009;1.630985885858536E-001;-9.092950820922852E-002;-1.682815607637167E-003;-5.204504821449518E-003;
2.424500000000000E+009;1.634324342012405E-001;-9.265491366386414E-002;-1.757434802129865E-003;-5.243818741291761E-003;
2.424666666666667E+009;1.637541204690933E-001;-9.402713179588318E-002;-1.968797063454986E-003;-4.912201780825853E-003;
2.424833333333334E+009;1.643481999635696E-001;-9.533531963825226E-002;-1.951514859683812E-003;-4.864024929702282E-003;
2.425000000000000E+009;1.646964848041534E-001;-9.656217694282532E-002;-2.058463636785746E-003;-4.639106336981058E-003;
2.425166666666667E+009;1.650255620479584E-001;-9.761550277471542E-002;-1.902352436445653E-003;-4.542501643300057E-003;
2.425333333333334E+009;1.653532832860947E-001;-9.839708358049393E-002;-2.053256845101714E-003;-4.411606118083000E-003;
2.425500000000000E+009;1.659327298402786E-001;-9.950053691864014E-002;-2.044510561972857E-003;-4.293731413781643E-003;
2.425666666666667E+009;1.662396341562271E-001;-1.001319140195847E-001;-1.901510637253523E-003;-4.357169847935438E-003;
2.425833333333334E+009;1.667652428150177E-001;-1.009371504187584E-001;-2.036317018792033E-003;-4.104972351342440E-003;
2.426000000000000E+009;1.671188920736313E-001;-1.014021858572960E-001;-1.945353229530156E-003;-4.011861979961395E-003;
2.426166666666667E+009;1.675990074872971E-001;-1.019053384661675E-001;-1.778846606612206E-003;-4.002200439572334E-003;
2.426333333333334E+009;1.677019745111466E-001;-1.024372801184654E-001;-1.908853300847113E-003;-3.905858378857374E-003;
2.426500000000000E+009;1.679885983467102E-001;-1.024957671761513E-001;-1.921164919622243E-003;-4.035909660160542E-003;
2.426666666666667E+009;1.682999730110169E-001;-1.030230149626732E-001;-1.803197781555355E-003;-4.116310738027096E-003;
2.426833333333334E+009;1.685815900564194E-001;-1.032972112298012E-001;-2.013157354667783E-003;-4.043250810354948E-003;
2.427000000000000E+009;1.686355769634247E-001;-1.034391000866890E-001;-1.878845971077681E-003;-4.130647983402014E-003;
2.427166666666667E+009;1.685465574264526E-001;-1.034131795167923E-001;-1.957763219252229E-003;-4.053208045661449E-003;
2.427333333333334E+009;1.684217602014542E-001;-1.037392467260361E-001;-2.239170484244824E-003;-3.988981712609530E-003;
2.427500000000000E+009;1.682532280683518E-001;-1.038249954581261E-001;-2.165620680898428E-003;-4.093546885997057E-003;
2.427666666666667E+009;1.679957509040833E-001;-1.039018109440804E-001;-2.361918333917856E-003;-4.107431508600712E-003;
2.427833333333334E+009;1.675799340009689E-001;-1.039734929800034E-001;-2.384627005085349E-003;-4.090267233550549E-003;
