# Version 1.00
#
freq[Hz];re:Trc1_S11;im:Trc1_S11;re:Trc2_S21;im:Trc2_S21;
2.400000000000000E+009;1.712914258241653E-001;4.021406173706055E-002;7.665539742447436E-004;-2.057053847238421E-003;
2.400166666666667E+009;1.718663871288300E-001;3.976172953844070E-002;7.990205776877701E-004;-2.284218790009618E-003;
2.400333333333334E+009;1.723302006721497E-001;3.907483443617821E-002;6.570676923729479E-004;-2.311148680746555E-003;
2.400500000000000E+009;1.729554086923599E-001;3.843677043914795E-002;5.691056139767170E-004;-2.507195109501481E-003;
2.400666666666667E+009;1.731889843940735E-001;3.767509758472443E-002;4.224975709803402E-004;-2.661055652424693E-003;
2.400833333333334E+009;1.736640781164169E-001;3.726575151085854E-002;2.623844775371254E-004;-2.934847492724657E-003;
2.401000000000000E+009;1.735188961029053E-001;3.654095530509949E-002;1.846695085987449E-004;-2.884390996769071E-003;
2.401166666666667E+009;1.738518327474594E-001;3.592364117503166E-002;1.181081897811964E-004;-3.153314813971520E-003;
2.401333333333334E+009;1.737774908542633E-001;3.538221865892410E-002;-2.523131843190640E-004;-3.168839029967785E-003;
2.401500000000000E+009;1.737852245569229E-001;3.480483591556549E-002;-9.870064968708903E-005;-3.226994769647718E-003;
2.401666666666667E+009;1.737163513898850E-001;3.412985056638718E-002;-6.407412001863122E-004;-3.236321033909917E-003;
2.401833333333334E+009;1.733924597501755E-001;3.322599083185196E-002;-6.149798282422125E-004;-3.410672070458531E-003;
2.402000000000000E+009;1.730801761150360E-001;3.255144134163857E-002;-8.234758861362934E-004;-3.261776408180594E-003;
2.402166666666667E+009;1.730447560548782E-001;3.171020373702049E-002;-1.128123374655843E-003;-3.278846153989434E-003;
2.402333333333334E+009;1.727992445230484E-001;3.099719248712063E-002;-1.281877397559583E-003;-3.182856598868966E-003;
2.402500000000000E+009;1.727385669946671E-001;3.012964501976967E-002;-1.325726509094238E-003;-3.120914101600647E-003;
2.402666666666667E+009;1.721667349338532E-001;2.909009903669357E-002;-1.711092540062964E-003;-3.288974752649665E-003;
2.402833333333334E+009;1.719584017992020E-001;2.824330516159535E-002;-1.711618271656334E-003;-3.068119054660201E-003;
2.403000000000000E+009;1.715522259473801E-001;2.705832011997700E-002;-1.742359250783920E-003;-2.750105923041701E-003;
2.403166666666667E+009;1.712861061096191E-001;2.578944526612759E-002;-1.941456925123930E-003;-2.837351290509105E-003;
2.403333333333334E+009;1.707164198160172E-001;2.487013302743435E-002;-2.139911521226168E-003;-2.701830584555864E-003;
2.403500000000000E+009;1.704399436712265E-001;2.344421483576298E-002;-2.157596172764897E-003;-2.703899750486016E-003;
2.403666666666667E+009;1.700604856014252E-001;2.205776423215866E-002;-2.285695634782314E-003;-2.652481198310852E-003;
2.403833333333334E+009;1.698003709316254E-001;2.069507166743279E-002;-2.552416175603867E-003;-2.604914829134941E-003;
2.404000000000000E+009;1.694080680608749E-001;1.919963024556637E-002;-2.501635579392314E-003;-2.497264184057713E-003;
2.404166666666667E+009;1.690453290939331E-001;1.772337220609188E-002;-2.726098988205195E-003;-2.367105800658464E-003;
2.404333333333334E+009;1.687740236520767E-001;1.614033803343773E-002;-2.736071590334177E-003;-2.154695801436901E-003;
2.404500000000000E+009;1.684379875659943E-001;1.432936172932386E-002;-3.039908828213811E-003;-2.103231148794293E-003;
2.404666666666667E+009;1.682883054018021E-001;1.284454762935638E-002;-3.026791382580996E-003;-1.842639176174998E-003;
2.404833333333334E+009;1.681845784187317E-001;1.108624320477247E-002;-3.003165125846863E-003;-1.673537655733526E-003;
2.405000000000000E+009;1.679577976465225E-001;9.425338357686997E-003;-3.150313626974821E-003;-1.569318352267146E-003;
2.405166666666667E+009;1.678667813539505E-001;7.674830034375191E-003;-3.197723999619484E-003;-1.252866582944989E-003;
2.405333333333334E+009;1.678895801305771E-001;5.540431942790747E-003;-3.108046948909760E-003;-9.476870764046907E-004;
2.405500000000000E+009;1.677585989236832E-001;3.996241837739945E-003;-3.037967719137669E-003;-1.031368272379041E-003;
2.405666666666667E+009;1.677073240280151E-001;2.052106196060777E-003;-3.005685051903129E-003;-7.069996208883822E-004;
2.405833333333334E+009;1.676711440086365E-001;1.918856869451702E-004;-2.944768639281392E-003;-7.861605263315141E-004;
2.406000000000000E+009;1.676922440528870E-001;-1.800920697860420E-003;-2.918677171692252E-003;-6.884327740408480E-004;
2.406166666666667E+009;1.674791723489761E-001;-3.492445219308138E-003;-2.772753825411201E-003;-6.447898922488093E-004;
2.406333333333334E+009;1.677570492029190E-001;-5.397554952651262E-003;-2.792068524286151E-003;-5.878831143490970E-004;
2.406500000000000E+009;1.677223592996597E-001;-7.174607366323471E-003;-2.800744492560625E-003;-5.861717509105802E-004;
2.406666666666667E+009;1.676187366247177E-001;-8.845320902764797E-003;-2.701873891055584E-003;-5.389277357608080E-004;
2.406833333333334E+009;1.676483303308487E-001;-1.060977764427662E-002;-2.651354065164924E-003;-4.670951748266816E-004;
2.407000000000000E+009;1.677607446908951E-001;-1.230490487068892E-002;-2.626816742122173E-003;-5.997601547278464E-004;
2.407166666666667E+009;1.678780764341354E-001;-1.376104354858398E-002;-2.646450651809573E-003;-4.161267424933612E-004;
2.407333333333334E+009;1.678486764431000E-001;-1.530423201620579E-002;-2.698499709367752E-003;-3.968719975091517E-004;
2.407500000000000E+009;1.678947061300278E-001;-1.662945002317429E-002;-2.781340852379799E-003;-4.219437832944095E-004;
2.407666666666667E+009;1.680478006601334E-001;-1.779973320662975E-002;-2.726353239268065E-003;-5.158820422366262E-004;
2.407833333333334E+009;1.680566072463989E-001;-1.907376386225224E-002;-2.867878414690495E-003;-4.208031168673188E-004;
2.408000000000000E+009;1.682441830635071E-001;-2.026028744876385E-002;-2.851361641660333E-003;-3.829685738310218E-004;
2.408166666666667E+009;1.683909296989441E-001;-2.099696546792984E-002;-2.879035891965032E-003;-3.061596071347594E-004;
2.408333333333334E+009;1.688705682754517E-001;-2.191588096320629E-002;-3.137039253488183E-003;-1.479411439504474E-004;
2.408500000000000E+009;1.690273433923721E-001;-2.291374467313290E-002;-3.167196875438094E-003;-3.426824114285410E-004;
2.408666666666667E+009;1.693148463964462E-001;-2.370281890034676E-002;-3.083952004089952E-003;-8.445502317044884E-005;
2.408833333333334E+009;1.695319265127182E-001;-2.441618777811527E-002;-3.250948386266828E-003;3.565054066712037E-005;
2.409000000000000E+009;1.697860509157181E-001;-2.508534677326679E-002;-3.286945633590221E-003;1.703207817627117E-004;
2.409166666666667E+009;1.703400909900665E-001;-2.589619345963001E-002;-3.306862898170948E-003;3.741506952792406E-004;
2.409333333333334E+009;1.708561182022095E-001;-2.656172029674053E-002;-3.408808959648013E-003;4.697392869275063E-004;
2.409500000000000E+009;1.709771156311035E-001;-2.734632790088654E-002;-3.405475756153464E-003;5.658165900968015E-004;
2.409666666666667E+009;1.713331490755081E-001;-2.794881351292133E-002;-3.371848259121180E-003;6.984841311350465E-004;
2.409833333333334E+009;1.715293973684311E-001;-2.854122035205364E-002;-3.379735862836242E-003;1.006806269288063E-003;
2.410000000000000E+009;1.718210279941559E-001;-2.930500172078610E-002;-3.490091999992728E-003;9.328319574706256E-004;
2.410166666666667E+009;1.718678921461105E-001;-3.001505509018898E-002;-3.345599398016930E-003;1.277901232242584E-003;
2.410333333333334E+009;1.719266176223755E-001;-3.061196394264698E-002;-3.376662265509367E-003;1.326757366769016E-003;
2.410500000000000E+009;1.720861345529556E-001;-3.132911399006844E-002;-3.266782732680440E-003;1.452897209674120E-003;
2.410666666666667E+009;1.718899905681610E-001;-3.222434222698212E-002;-3.127087140455842E-003;1.449501723982394E-003;
2.410833333333334E+009;1.719536930322647E-001;-3.254112973809242E-002;-3.105648327618837E-003;1.846681465394795E-003;
2.411000000000000E+009;1.717334389686585E-001;-3.314427286386490E-002;-3.045381978154182E-003;1.839220407418907E-003;
2.411166666666667E+009;1.713204681873322E-001;-3.377867862582207E-002;-2.870384138077498E-003;2.046949928626418E-003;
2.411333333333334E+009;1.710065901279450E-001;-3.455560654401779E-002;-2.874034224078059E-003;2.194714266806841E-003;
2.411500000000000E+009;1.706602424383164E-001;-3.510230407118797E-002;-2.673950279131532E-003;2.362767700105906E-003;
2.411666666666667E+009;1.704292893409729E-001;-3.590398654341698E-002;-2.628426533192396E-003;2.339758910238743E-003;
2.411833333333334E+009;1.700750142335892E-001;-3.639338910579681E-002;-2.374101197347045E-003;2.365802880376577E-003;
2.412000000000000E+009;1.696854084730148E-001;-3.713737428188324E-002;-2.208240795880556E-003;2.641607541590929E-003;
2.412166666666667E+009;1.691941320896149E-001;-3.804825246334076E-002;-2.079010242596269E-003;2.702207770198584E-003;
2.412333333333334E+009;1.686668395996094E-001;-3.855965286493301E-002;-1.983131747692823E-003;2.699596574530006E-003;
2.412500000000000E+009;1.679584532976151E-001;-3.945792466402054E-002;-1.730952877551317E-003;2.640789607539773E-003;
2.412666666666667E+009;1.673585176467896E-001;-4.052312672138214E-002;-1.724466914311051E-003;2.667177701368928E-003;
2.412833333333334E+009;1.668728739023209E-001;-4.139168560504913E-002;-1.705680624581873E-003;2.640232909470797E-003;
2.413000000000000E+009;1.661283075809479E-001;-4.226763918995857E-002;-1.503069535829127E-003;2.599891740828753E-003;
2.413166666666667E+009;1.655310392379761E-001;-4.333949834108353E-002;-1.484213396906853E-003;2.724873134866357E-003;
2.413333333333334E+009;1.647343933582306E-001;-4.428710415959358E-002;-1.341672963462770E-003;2.394288312643766E-003;
2.413500000000000E+009;1.640335917472839E-001;-4.532199352979660E-002;-1.122427172958851E-003;2.576763974502683E-003;
2.413666666666667E+009;1.635463088750839E-001;-4.646911099553108E-002;-9.885070612654090E-004;2.523627132177353E-003;
2.413833333333334E+009;1.627313345670700E-001;-4.753222316503525E-002;-1.025854377076030E-003;2.576309721916914E-003;
2.414000000000000E+009;1.620500087738037E-001;-4.858127236366272E-002;-9.284918778575957E-004;2.481743227690458E-003;
2.414166666666667E+009;1.613272726535797E-001;-4.978408291935921E-002;-8.254616404883564E-004;2.427261555567384E-003;
2.414333333333334E+009;1.607476472854614E-001;-5.074964091181755E-002;-8.204864570870996E-004;2.363652922213078E-003;
2.414500000000000E+009;1.604066938161850E-001;-5.201022326946259E-002;-7.865859661251307E-004;2.439414383843541E-003;
2.414666666666667E+009;1.598854511976242E-001;-5.314798653125763E-002;-6.716707139275968E-004;2.467847196385264E-003;
2.414833333333334E+009;1.593923270702362E-001;-5.449781194329262E-002;-5.752905854023993E-004;2.380193676799536E-003;
2.415000000000000E+009;1.589128524065018E-001;-5.573947727680206E-002;-6.809498299844563E-004;2.335690660402179E-003;
2.415166666666667E+009;1.585832536220551E-001;-5.715435370802879E-002;-5.398254143074155E-004;2.291576238349080E-003;
2.415333333333334E+009;1.583899408578873E-001;-5.840333178639412E-002;-5.557370022870600E-004;2.317026024684310E-003;
2.415500000000000E+009;1.582390218973160E-001;-5.978662520647049E-002;-5.455159698612988E-004;2.251544501632452E-003;
2.415666666666667E+009;1.578643918037415E-001;-6.116061285138130E-002;-3.537767042871565E-004;2.294882200658321E-003;
2.415833333333334E+009;1.577324569225311E-001;-6.260909885168076E-002;-2.597786951810122E-004;2.163803204894066E-003;
2.416000000000000E+009;1.575661301612854E-001;-6.403797119855881E-002;-3.493671538308263E-004;2.133312169462442E-003;
2.416166666666667E+009;1.575563549995422E-001;-6.548207998275757E-002;-3.854857932310551E-004;2.187073463574052E-003;
2.416333333333334E+009;1.572842299938202E-001;-6.695865094661713E-002;-3.508369263727218E-004;2.156443195417523E-003;
2.416500000000000E+009;1.570190042257309E-001;-6.846269220113754E-002;-3.258741053286940E-004;2.049318049103022E-003;
2.416666666666667E+009;1.569428890943527E-001;-6.978414952754974E-002;-4.481931973714382E-004;2.035806421190500E-003;
2.416833333333334E+009;1.568467468023300E-001;-7.136785238981247E-002;-4.568255390040577E-004;2.106128260493279E-003;
2.417000000000000E+009;1.564506590366364E-001;-7.267916202545166E-002;-4.336605488788337E-004;2.143557416275144E-003;
2.417166666666667E+009;1.563923954963684E-001;-7.383468002080917E-002;-6.009462522342801E-004;2.144805621355772E-003;
2.417333333333334E+009;1.561452895402908E-001;-7.502461224794388E-002;-5.932495696470141E-004;2.188164507970214E-003;
2.417500000000000E+009;1.560679078102112E-001;-7.620064914226532E-002;-6.064560147933662E-004;2.364458516240120E-003;
2.417666666666667E+009;1.560188233852387E-001;-7.725367695093155E-002;-5.245220963843167E-004;2.292423974722624E-003;
2.417833333333334E+009;1.559957265853882E-001;-7.808626443147659E-002;-5.294334259815514E-004;2.333041047677398E-003;
2.418000000000000E+009;1.558197289705277E-001;-7.915767282247543E-002;-4.194438515696675E-004;2.555341459810734E-003;
2.418166666666667E+009;1.557723581790924E-001;-7.994518429040909E-002;-4.184660792816430E-004;2.640640363097191E-003;
2.418333333333334E+009;1.559285372495651E-001;-8.084830641746521E-002;-2.113710797857493E-004;2.648840425536037E-003;
2.418500000000000E+009;1.558021008968353E-001;-8.160229027271271E-002;-3.652709128800780E-004;2.699326025322080E-003;
2.418666666666667E+009;1.557559520006180E-001;-8.240363746881485E-002;-2.191472012782469E-004;2.703319769352675E-003;
2.418833333333334E+009;1.555724143981934E-001;-8.313936740159988E-002;-5.611173764918931E-005;2.912034047767520E-003;
2.419000000000000E+009;1.554213762283325E-001;-8.368097990751267E-002;3.866697443299927E-005;2.978697419166565E-003;
2.419166666666667E+009;1.554771065711975E-001;-8.430778980255127E-002;9.576939919497818E-005;2.960549201816320E-003;
2.419333333333334E+009;1.551141738891602E-001;-8.468205481767654E-002;2.491823688615114E-004;2.981026191264391E-003;
2.419500000000000E+009;1.550045311450958E-001;-8.544056862592697E-002;2.543781592976302E-004;2.996396739035845E-003;
2.419666666666667E+009;1.548829078674316E-001;-8.585523813962936E-002;5.293792346492410E-004;3.039778210222721E-003;
2.419833333333334E+009;1.543790549039841E-001;-8.600669354200363E-002;4.727268824353814E-004;3.126553492620587E-003;
2.420000000000000E+009;1.544569581747055E-001;-8.655970543622971E-002;5.929736071266234E-004;3.150503849610686E-003;
2.420166666666667E+009;1.540660113096237E-001;-8.693740516901016E-002;6.415793322958052E-004;3.153124824166298E-003;
2.420333333333334E+009;1.538500338792801E-001;-8.725051581859589E-002;7.983915857039392E-004;3.250328823924065E-003;
2.420500000000000E+009;1.535999029874802E-001;-8.744433522224426E-002;1.003348967060447E-003;3.247994696721435E-003;
2.420666666666667E+009;1.532268673181534E-001;-8.764544874429703E-002;1.122628571465612E-003;3.140931716188788E-003;
2.420833333333334E+009;1.528877317905426E-001;-8.818665146827698E-002;1.066639088094235E-003;3.235712880268693E-003;
2.421000000000000E+009;1.526185870170593E-001;-8.858609199523926E-002;1.231227535754442E-003;3.180101746693254E-003;
2.421166666666667E+009;1.521782577037811E-001;-8.899767696857452E-002;1.416375278495252E-003;3.301093587651849E-003;
2.421333333333334E+009;1.517069339752197E-001;-8.930388092994690E-002;1.634354703128338E-003;3.219775157049298E-003;
2.421500000000000E+009;1.509508788585663E-001;-8.966678380966187E-002;1.908380188979209E-003;3.161178203299642E-003;
2.421666666666667E+009;1.504654437303543E-001;-9.018345922231674E-002;1.887666643597186E-003;3.230074420571327E-003;
2.421833333333334E+009;1.497860401868820E-001;-9.077400714159012E-002;1.991465920582414E-003;3.200464881956577E-003;
2.422000000000000E+009;1.490134745836258E-001;-9.131888300180435E-002;2.341769170016050E-003;3.217199351638556E-003;
2.422166666666667E+009;1.484336256980896E-001;-9.204699099063873E-002;2.569687552750111E-003;3.087873104959726E-003;
2.422333333333334E+009;1.477017253637314E-001;-9.238936007022858E-002;2.696772338822484E-003;3.009730717167258E-003;
2.422500000000000E+009;1.465708166360855E-001;-9.282655268907547E-002;2.893372671678662E-003;2.850399352610111E-003;
2.422666666666667E+009;1.458253264427185E-001;-9.373703598976135E-002;3.068554680794478E-003;2.655018819496036E-003;
2.422833333333334E+009;1.451473832130432E-001;-9.438306093215942E-002;3.128182608634234E-003;2.421084558591247E-003;
2.423000000000000E+009;1.441734582185745E-001;-9.521510452032089E-002;3.322668606415391E-003;2.306659473106265E-003;
2.423166666666667E+009;1.434259712696075E-001;-9.602275490760803E-002;3.620817326009274E-003;2.068633213639259E-003;
2.423333333333334E+009;1.426784843206406E-001;-9.679731726646423E-002;3.588330931961536E-003;1.879720948636532E-003;
2.423500000000000E+009;1.418069452047348E-001;-9.775526076555252E-002;3.549745772033930E-003;1.659343019127846E-003;
2.423666666666667E+009;1.407354027032852E-001;-9.866942465305328E-002;3.688628785312176E-003;1.481967279687524E-003;
2.423833333333334E+009;1.399804204702377E-001;-9.980448335409164E-002;3.701378824189305E-003;1.081221038475633E-003;
2.424000000000000E+009;1.389451622962952E-001;-1.005506962537766E-001;3.360170638188720E-003;9.775018552318215E-004;
2.424166666666667E+009;1.381169557571411E-001;-1.017386093735695E-001;3.630074206739664E-003;7.398972520604730E-004;
2.424333333333334E+009;1.372862458229065E-001;-1.026749685406685E-001;3.424166003242135E-003;4.907604306936264E-004;
2.424500000000000E+009;1.365654319524765E-001;-1.038311943411827E-001;3.217858029529452E-003;3.080543538089842E-004;
2.424666666666667E+009;1.356826275587082E-001;-1.046701669692993E-001;3.201107960194349E-003;1.371982652926818E-004;
2.424833333333334E+009;1.347976773977280E-001;-1.060035005211830E-001;3.145802766084671E-003;1.840105833252892E-004;
2.425000000000000E+009;1.342498958110809E-001;-1.072825714945793E-001;3.164769150316715E-003;9.742470138007775E-005;
2.425166666666667E+009;1.333054006099701E-001;-1.083115264773369E-001;3.031600965186954E-003;7.423320494126529E-005;
2.425333333333334E+009;1.328663676977158E-001;-1.094861924648285E-001;2.758544171229005E-003;-5.840974336024374E-005;
2.425500000000000E+009;1.322185993194580E-001;-1.107910051941872E-001;2.744765952229500E-003;-1.145884016295895E-004;
2.425666666666667E+009;1.315687298774719E-001;-1.119591817259789E-001;2.762560732662678E-003;-1.403768983436748E-004;
2.425833333333334E+009;1.311181485652924E-001;-1.131309568881989E-001;2.638020087033510E-003;-2.119822893291712E-004;
2.426000000000000E+009;1.306151300668716E-001;-1.144972220063210E-001;2.576719736680389E-003;-7.755459228064865E-005;
2.426166666666667E+009;1.304101198911667E-001;-1.157122328877449E-001;2.505329670384526E-003;-2.709688851609826E-004;
2.426333333333334E+009;1.297336667776108E-001;-1.169230863451958E-001;2.399414312094450E-003;-4.889167030341923E-004;
2.426500000000000E+009;1.294761598110199E-001;-1.179717108607292E-001;2.424630569294095E-003;-2.967379405163229E-004;
2.426666666666667E+009;1.291870027780533E-001;-1.189856082201004E-001;2.309681149199605E-003;-3.096905129496008E-004;
2.426833333333334E+009;1.287802308797836E-001;-1.200969293713570E-001;2.280814805999398E-003;-3.884608740918338E-004;
2.427000000000000E+009;1.283844262361527E-001;-1.212495937943459E-001;2.235200256109238E-003;-4.617962113115937E-004;
2.427166666666667E+009;1.282969862222672E-001;-1.220358014106751E-001;2.245121635496616E-003;-2.726926759351045E-004;
2.427333333333334E+009;1.279119998216629E-001;-1.229857876896858E-001;2.138952026143670E-003;-4.310158838052303E-004;
2.427500000000000E+009;1.279356032609940E-001;-1.239363774657250E-001;2.121930941939354E-003;-3.019949363078922E-004;
2.427666666666667E+009;1.277219504117966E-001;-1.247098967432976E-001;2.070363610982895E-003;-3.485745110083371E-004;
