# Version 1.00
#
freq[Hz];re:Trc1_S11;im:Trc1_S11;re:Trc2_S21;im:Trc2_S21;
2.400000000000000E+009;1.679254025220871E-001;4.108231514692307E-002;-1.578507130034268E-003;-3.616398898884654E-003;
2.400166666666667E+009;1.683614999055862E-001;4.019609093666077E-002;-1.706751412712038E-003;-3.470740979537368E-003;
2.400333333333334E+009;1.690174788236618E-001;3.926830738782883E-002;-1.819048542529345E-003;-3.510229522362351E-003;
2.400500000000000E+009;1.695958226919174E-001;3.839164972305298E-002;-2.026597270742059E-003;-3.480840940028429E-003;
2.400666666666667E+009;1.699215322732925E-001;3.755923360586166E-002;-2.200534800067544E-003;-3.358192043378949E-003;
2.400833333333334E+009;1.702237427234650E-001;3.674834221601486E-002;-2.189877908676863E-003;-3.233144991099834E-003;
2.401000000000000E+009;1.706393957138062E-001;3.595466539263725E-002;-2.418758580461144E-003;-3.115558531135321E-003;
2.401166666666667E+009;1.707630902528763E-001;3.497434780001640E-002;-2.477994654327631E-003;-3.093952545896173E-003;
2.401333333333334E+009;1.710948646068573E-001;3.398950025439262E-002;-2.696308773010969E-003;-2.862051362171769E-003;
2.401500000000000E+009;1.712771952152252E-001;3.314567357301712E-002;-2.782500581815839E-003;-2.878675702959299E-003;
2.401666666666667E+009;1.712382137775421E-001;3.226700797677040E-002;-2.935839118435979E-003;-2.786462195217609E-003;
2.401833333333334E+009;1.715336889028549E-001;3.145281970500946E-002;-3.024501027539372E-003;-2.677621785551310E-003;
2.402000000000000E+009;1.713824123144150E-001;3.043719939887524E-002;-3.105060663074255E-003;-2.495550084859133E-003;
2.402166666666667E+009;1.715773642063141E-001;2.951468154788017E-002;-3.021804150193930E-003;-2.235868945717812E-003;
2.402333333333334E+009;1.715428531169891E-001;2.841283380985260E-002;-3.270274493843317E-003;-1.989140873774886E-003;
2.402500000000000E+009;1.716606467962265E-001;2.774280495941639E-002;-3.303567646071315E-003;-1.963025424629450E-003;
2.402666666666667E+009;1.716432422399521E-001;2.646913751959801E-002;-3.342100884765387E-003;-1.720369094982743E-003;
2.402833333333334E+009;1.715079396963120E-001;2.569693513214588E-002;-3.260138444602490E-003;-1.514984178356826E-003;
2.403000000000000E+009;1.714337021112442E-001;2.460921369493008E-002;-3.319509327411652E-003;-1.300453906878829E-003;
2.403166666666667E+009;1.712943613529205E-001;2.336455881595612E-002;-3.279221011325717E-003;-1.283117686398327E-003;
2.403333333333334E+009;1.712923496961594E-001;2.234083414077759E-002;-3.142509842291474E-003;-9.910680819302797E-004;
2.403500000000000E+009;1.712007671594620E-001;2.108547464013100E-002;-3.111165948212147E-003;-8.262580377049744E-004;
2.403666666666667E+009;1.710902005434036E-001;1.973162777721882E-002;-3.165906295180321E-003;-6.560626206919551E-004;
2.403833333333334E+009;1.710307747125626E-001;1.860584504902363E-002;-3.072521649301052E-003;-6.010982324369252E-004;
2.404000000000000E+009;1.708934903144836E-001;1.740666665136814E-002;-3.176643513143063E-003;-4.902195069007576E-004;
2.404166666666667E+009;1.707493811845779E-001;1.595221273601055E-002;-3.065309254452586E-003;-4.839694884140045E-004;
2.404333333333334E+009;1.707248091697693E-001;1.486910600215197E-002;-3.066933946684003E-003;-3.645416582003236E-004;
2.404500000000000E+009;1.703210771083832E-001;1.347832661122084E-002;-3.094794927164912E-003;-1.886677273432724E-005;
2.404666666666667E+009;1.703824549913406E-001;1.190400030463934E-002;-2.734872978180647E-003;-1.257378244190477E-005;
2.404833333333334E+009;1.701938658952713E-001;1.061070710420609E-002;-2.796480664983392E-003;-2.356340155529324E-005;
2.405000000000000E+009;1.703009456396103E-001;9.160144254565239E-003;-2.633693628013134E-003;1.172584961750545E-004;
2.405166666666667E+009;1.702699810266495E-001;7.569253444671631E-003;-2.619026927277446E-003;9.864837193163112E-005;
2.405333333333334E+009;1.703858226537705E-001;5.900099407881498E-003;-2.443925244733691E-003;2.345812681596726E-004;
2.405500000000000E+009;1.701724678277969E-001;4.512202460318804E-003;-2.295607933774591E-003;1.687927724560723E-004;
2.405666666666667E+009;1.701309978961945E-001;2.850229386240244E-003;-2.189710037782788E-003;2.476607041899115E-004;
2.405833333333334E+009;1.699734628200531E-001;1.372734899632633E-003;-2.282095374539495E-003;2.606272173579782E-004;
2.406000000000000E+009;1.700513660907745E-001;-4.309009236749262E-004;-2.136951312422752E-003;1.939936046255752E-004;
2.406166666666667E+009;1.698845475912094E-001;-1.811910420656204E-003;-1.941951923072338E-003;2.253122656838968E-004;
2.406333333333334E+009;1.698948293924332E-001;-3.459490602836013E-003;-1.791589776985347E-003;3.062272735405713E-004;
2.406500000000000E+009;1.697047203779221E-001;-5.114534404128790E-003;-1.916376990266144E-003;1.906895922729746E-004;
2.406666666666667E+009;1.693667173385620E-001;-6.407193839550018E-003;-1.770465867593885E-003;1.496589393354952E-004;
2.406833333333334E+009;1.693988442420960E-001;-8.045529946684837E-003;-1.596959773451090E-003;2.752667933236808E-004;
2.407000000000000E+009;1.693045794963837E-001;-9.524624794721603E-003;-1.496922341175377E-003;1.241129066329449E-004;
2.407166666666667E+009;1.692270636558533E-001;-1.085488870739937E-002;-1.528915483504534E-003;-1.405608200002462E-004;
2.407333333333334E+009;1.689447760581970E-001;-1.251180097460747E-002;-1.480014878325164E-003;-9.769864846020937E-005;
2.407500000000000E+009;1.687339395284653E-001;-1.355923712253571E-002;-1.556009287014604E-003;-2.636885910760611E-004;
2.407666666666667E+009;1.686413586139679E-001;-1.471453439444304E-002;-1.646574703045189E-003;-4.092794260941446E-004;
2.407833333333334E+009;1.683564484119415E-001;-1.591506600379944E-002;-1.508175162598491E-003;-4.681758000515401E-004;
2.408000000000000E+009;1.682329028844833E-001;-1.718386821448803E-002;-1.599989947862923E-003;-6.194453453645110E-004;
2.408166666666667E+009;1.682066321372986E-001;-1.784169301390648E-002;-1.716974074952304E-003;-6.371105555444956E-004;
2.408333333333334E+009;1.683732867240906E-001;-1.901601813733578E-002;-1.841162680648267E-003;-8.158351993188262E-004;
2.408500000000000E+009;1.682668328285217E-001;-1.996975019574165E-002;-2.189084654673934E-003;-8.622697787359357E-004;
2.408666666666667E+009;1.682744026184082E-001;-2.078234404325485E-002;-2.401915146037936E-003;-9.305285057052970E-004;
2.408833333333334E+009;1.683039516210556E-001;-2.184548042714596E-002;-2.523290459066629E-003;-1.083991257473826E-003;
2.409000000000000E+009;1.683585494756699E-001;-2.266275510191917E-002;-2.770345192402601E-003;-7.842578343115747E-004;
2.409166666666667E+009;1.685818731784821E-001;-2.356613241136074E-002;-2.822092967107892E-003;-8.333527366630733E-004;
2.409333333333334E+009;1.687758117914200E-001;-2.442682161927223E-002;-2.997917821630836E-003;-6.592792924493551E-004;
2.409500000000000E+009;1.687758117914200E-001;-2.538010850548744E-002;-3.270760877057910E-003;-5.425977869890630E-004;
2.409666666666667E+009;1.689260154962540E-001;-2.629241533577442E-002;-3.466200083494186E-003;-4.072145093232393E-004;
2.409833333333334E+009;1.688790470361710E-001;-2.705187350511551E-002;-3.701136447489262E-003;-3.248810535296798E-004;
2.410000000000000E+009;1.690940111875534E-001;-2.797504141926765E-002;-3.848113119602203E-003;-8.851891470840201E-005;
2.410166666666667E+009;1.690090149641037E-001;-2.897991053760052E-002;-3.772594965994358E-003;3.283461046521552E-005;
2.410333333333334E+009;1.690912395715714E-001;-2.989878505468369E-002;-3.900718642398715E-003;3.022724413312972E-004;
2.410500000000000E+009;1.690210849046707E-001;-3.066071309149265E-002;-3.932138439267874E-003;5.512846983037889E-004;
2.410666666666667E+009;1.689426600933075E-001;-3.177082911133766E-002;-4.071286413818598E-003;6.538147572427988E-004;
2.410833333333334E+009;1.688207834959030E-001;-3.225819393992424E-002;-4.019322805106640E-003;1.050654798746109E-003;
2.411000000000000E+009;1.687521487474442E-001;-3.325279802083969E-002;-4.147800616919994E-003;1.182109117507935E-003;
2.411166666666667E+009;1.684612333774567E-001;-3.413079306483269E-002;-4.187201149761677E-003;1.461609732359648E-003;
2.411333333333334E+009;1.682490706443787E-001;-3.488684073090553E-002;-4.193411674350500E-003;1.602135947905481E-003;
2.411500000000000E+009;1.679665148258209E-001;-3.610021248459816E-002;-4.009361844509840E-003;1.822754507884383E-003;
2.411666666666667E+009;1.679450571537018E-001;-3.681858256459236E-002;-3.988271113485098E-003;2.195318695157766E-003;
2.411833333333334E+009;1.675189435482025E-001;-3.766169771552086E-002;-3.846610430628061E-003;2.422790043056011E-003;
2.412000000000000E+009;1.675287783145905E-001;-3.861983865499497E-002;-3.820083802565932E-003;2.538494300097227E-003;
2.412166666666667E+009;1.669941246509552E-001;-3.953374177217484E-002;-3.788579953834415E-003;2.847486408427358E-003;
2.412333333333334E+009;1.669585853815079E-001;-4.042482748627663E-002;-3.560751909390092E-003;2.884513232856989E-003;
2.412500000000000E+009;1.665644496679306E-001;-4.132165387272835E-002;-3.420180175453425E-003;3.022373188287020E-003;
2.412666666666667E+009;1.662455499172211E-001;-4.243090748786926E-002;-3.291408531367779E-003;3.341307863593102E-003;
2.412833333333334E+009;1.659278571605682E-001;-4.337722435593605E-002;-3.187495982274413E-003;3.605461679399014E-003;
2.413000000000000E+009;1.653356999158859E-001;-4.423668980598450E-002;-3.038327442482114E-003;3.734893631190062E-003;
2.413166666666667E+009;1.648929864168167E-001;-4.524649307131767E-002;-2.821820555254817E-003;3.835662966594100E-003;
2.413333333333334E+009;1.645927131175995E-001;-4.632494971156120E-002;-2.666282933205366E-003;4.108422901481390E-003;
2.413500000000000E+009;1.641353070735931E-001;-4.744657501578331E-002;-2.423892728984356E-003;4.213822074234486E-003;
2.413666666666667E+009;1.636781096458435E-001;-4.847044125199318E-002;-2.194241853430867E-003;4.312884062528610E-003;
2.413833333333334E+009;1.632582992315292E-001;-4.932977631688118E-002;-1.920742797665298E-003;4.543271381407976E-003;
2.414000000000000E+009;1.626962274312973E-001;-5.042317882180214E-002;-1.633429434150457E-003;4.570547025650740E-003;
2.414166666666667E+009;1.623532027006149E-001;-5.140067636966705E-002;-1.369860023260117E-003;4.597081802785397E-003;
2.414333333333334E+009;1.619312465190888E-001;-5.239297822117806E-002;-1.025588484480977E-003;4.564755596220493E-003;
2.414500000000000E+009;1.617298126220703E-001;-5.317603796720505E-002;-7.699262932874262E-004;4.601507447659969E-003;
2.414666666666667E+009;1.615095287561417E-001;-5.424332618713379E-002;-6.023982423357666E-004;4.578094463795424E-003;
2.414833333333334E+009;1.611750423908234E-001;-5.548025667667389E-002;-2.542708825785667E-004;4.450302105396986E-003;
2.415000000000000E+009;1.607411056756973E-001;-5.634403228759766E-002;-2.596608537714928E-004;4.426174797117710E-003;
2.415166666666667E+009;1.606497764587402E-001;-5.748094618320465E-002;7.091134466463700E-005;4.265350289642811E-003;
2.415333333333334E+009;1.606919467449188E-001;-5.864367634057999E-002;2.849642769433558E-004;4.313321318477392E-003;
2.415500000000000E+009;1.604723185300827E-001;-5.968938767910004E-002;4.320683656260371E-004;4.156135953962803E-003;
2.415666666666667E+009;1.601727157831192E-001;-6.082218885421753E-002;5.340551724657416E-004;4.003526177257299E-003;
2.415833333333334E+009;1.600298136472702E-001;-6.209435313940048E-002;7.344809127971530E-004;3.915227949619293E-003;
2.416000000000000E+009;1.597154289484024E-001;-6.333633512258530E-002;7.299061398953199E-004;3.615058492869139E-003;
2.416166666666667E+009;1.596723943948746E-001;-6.441301107406616E-002;8.893266785889864E-004;3.626751014962792E-003;
2.416333333333334E+009;1.594803184270859E-001;-6.575861573219299E-002;8.920850232243538E-004;3.492419607937336E-003;
2.416500000000000E+009;1.591207385063171E-001;-6.679806113243103E-002;1.066401600837708E-003;3.344601485878229E-003;
2.416666666666667E+009;1.589091569185257E-001;-6.802995502948761E-002;1.257280586287379E-003;3.233765717595816E-003;
2.416833333333334E+009;1.586990654468536E-001;-6.941492110490799E-002;1.237557735294104E-003;3.320435062050819E-003;
2.417000000000000E+009;1.581635922193527E-001;-7.046791166067123E-002;1.197512960061431E-003;3.098540008068085E-003;
2.417166666666667E+009;1.579039990901947E-001;-7.141406834125519E-002;1.085942261852324E-003;3.031098749488592E-003;
2.417333333333334E+009;1.576972156763077E-001;-7.241078466176987E-002;1.231670845299959E-003;3.009239677339792E-003;
2.417500000000000E+009;1.572949141263962E-001;-7.358145713806152E-002;1.436605467461050E-003;3.003214253112674E-003;
2.417666666666667E+009;1.570828706026077E-001;-7.443016022443771E-002;1.418799511156976E-003;2.937239827588201E-003;
2.417833333333334E+009;1.567524820566177E-001;-7.530230283737183E-002;1.531430403701961E-003;2.862123772501946E-003;
2.418000000000000E+009;1.565050184726715E-001;-7.624539732933044E-002;1.456873607821763E-003;2.701250603422523E-003;
2.418166666666667E+009;1.561685502529144E-001;-7.691483944654465E-002;1.756152603775263E-003;2.691192552447319E-003;
2.418333333333334E+009;1.561122834682465E-001;-7.791867107152939E-002;1.739330007694662E-003;2.513339975848794E-003;
2.418500000000000E+009;1.555986702442169E-001;-7.856484502553940E-002;1.682580099441111E-003;2.481390954926610E-003;
2.418666666666667E+009;1.554889976978302E-001;-7.933297008275986E-002;1.661065267398953E-003;2.179119968786836E-003;
2.418833333333334E+009;1.550028175115585E-001;-8.025843650102615E-002;1.865580328740180E-003;2.208351157605648E-003;
2.419000000000000E+009;1.546996831893921E-001;-8.080683648586273E-002;1.984812784940004E-003;2.126270439475775E-003;
2.419166666666667E+009;1.544543653726578E-001;-8.144111931324005E-002;1.754190772771835E-003;1.999318599700928E-003;
2.419333333333334E+009;1.538747400045395E-001;-8.210238069295883E-002;1.549429376609623E-003;1.884830533526838E-003;
2.419500000000000E+009;1.534950882196426E-001;-8.285861462354660E-002;1.660048379562795E-003;1.807955210097134E-003;
2.419666666666667E+009;1.532804965972900E-001;-8.339311927556992E-002;1.595276524312794E-003;1.711096148937941E-003;
2.419833333333334E+009;1.528983265161514E-001;-8.374739438295364E-002;1.450837356969714E-003;1.748076989315450E-003;
2.420000000000000E+009;1.524510085582733E-001;-8.447838574647903E-002;1.313133398070931E-003;1.852115266956389E-003;
2.420166666666667E+009;1.521075963973999E-001;-8.511243015527725E-002;1.420183107256889E-003;1.873200293630362E-003;
2.420333333333334E+009;1.518652439117432E-001;-8.577778190374374E-002;1.344159012660384E-003;1.874286797828972E-003;
2.420500000000000E+009;1.514943987131119E-001;-8.611786365509033E-002;1.331970561295748E-003;1.809206092730165E-003;
2.420666666666667E+009;1.511226594448090E-001;-8.669478446245194E-002;1.389900688081980E-003;2.004810376092792E-003;
2.420833333333334E+009;1.507475376129150E-001;-8.725021034479141E-002;1.358677400276065E-003;2.001828048378229E-003;
2.421000000000000E+009;1.502528339624405E-001;-8.791532367467880E-002;1.320641138590872E-003;2.238142304122448E-003;
2.421166666666667E+009;1.498422175645828E-001;-8.851008117198944E-002;1.489180605858564E-003;2.281478606164455E-003;
2.421333333333334E+009;1.494867950677872E-001;-8.922863006591797E-002;1.484438311308622E-003;2.446129219606519E-003;
2.421500000000000E+009;1.489295810461044E-001;-8.986032009124756E-002;1.713546342216432E-003;2.229256322607398E-003;
2.421666666666667E+009;1.484543085098267E-001;-9.063388407230377E-002;1.855211798101664E-003;2.352659823372960E-003;
2.421833333333334E+009;1.477606147527695E-001;-9.150260686874390E-002;2.106961794197559E-003;2.534737577661872E-003;
2.422000000000000E+009;1.471443325281143E-001;-9.196001291275024E-002;2.297137631103396E-003;2.486281096935272E-003;
2.422166666666667E+009;1.466018855571747E-001;-9.289260953664780E-002;2.529476536437869E-003;2.439644187688828E-003;
2.422333333333334E+009;1.460673511028290E-001;-9.354466944932938E-002;2.702625934034586E-003;2.226798329502344E-003;
2.422500000000000E+009;1.452909708023071E-001;-9.412664175033569E-002;2.896635327488184E-003;2.186247380450368E-003;
2.422666666666667E+009;1.447200179100037E-001;-9.493743628263474E-002;2.897155936807394E-003;2.061847830191255E-003;
2.422833333333334E+009;1.442534476518631E-001;-9.584216028451920E-002;3.091637743636966E-003;1.826091436669231E-003;
2.423000000000000E+009;1.436461955308914E-001;-9.677523374557495E-002;3.105368698015809E-003;1.669506425969303E-003;
2.423166666666667E+009;1.430661827325821E-001;-9.774839878082275E-002;3.235293785110116E-003;1.498679281212390E-003;
2.423333333333334E+009;1.424057930707932E-001;-9.835505485534668E-002;3.235612763091922E-003;1.244208542630076E-003;
2.423500000000000E+009;1.416621506214142E-001;-9.937688708305359E-002;3.295991802588105E-003;1.143843168392777E-003;
2.423666666666667E+009;1.409243494272232E-001;-1.006161049008369E-001;3.247047308832407E-003;1.004332210868597E-003;
2.423833333333334E+009;1.404426395893097E-001;-1.015233546495438E-001;3.341673174872994E-003;8.540609269402921E-004;
2.424000000000000E+009;1.395782232284546E-001;-1.022520214319229E-001;3.241421887651086E-003;8.108834736049175E-004;
2.424166666666667E+009;1.388729512691498E-001;-1.032669171690941E-001;3.185785375535488E-003;6.218949565663934E-004;
2.424333333333334E+009;1.383097320795059E-001;-1.042851135134697E-001;3.088826313614845E-003;6.746728904545307E-004;
2.424500000000000E+009;1.377492696046829E-001;-1.053323447704315E-001;2.982642501592636E-003;3.537609882187098E-004;
2.424666666666667E+009;1.372217237949371E-001;-1.060627922415733E-001;3.002756973728538E-003;5.093913059681654E-004;
2.424833333333334E+009;1.365049779415131E-001;-1.071134731173515E-001;2.984004328027368E-003;5.307231913320720E-004;
2.425000000000000E+009;1.360233277082443E-001;-1.082007139921188E-001;2.906122012063861E-003;4.516086482908577E-004;
2.425166666666667E+009;1.353575736284256E-001;-1.092547178268433E-001;3.088027937337756E-003;3.925250493921340E-004;
2.425333333333334E+009;1.349013149738312E-001;-1.100821867585182E-001;3.037760499864817E-003;1.228648907272145E-004;
2.425500000000000E+009;1.344215422868729E-001;-1.111660823225975E-001;3.023450030013919E-003;1.831673289416358E-004;
2.425666666666667E+009;1.338188797235489E-001;-1.122155860066414E-001;3.209125483408570E-003;1.102124442695640E-004;
2.425833333333334E+009;1.333502829074860E-001;-1.131100282073021E-001;3.169517498463392E-003;-1.113725083996542E-004;
2.426000000000000E+009;1.328737735748291E-001;-1.141634732484818E-001;2.982306061312556E-003;-5.117569889989682E-005;
2.426166666666667E+009;1.326051652431488E-001;-1.151580139994621E-001;3.178102429956198E-003;-2.768390404526144E-004;
2.426333333333334E+009;1.320451050996780E-001;-1.160925924777985E-001;3.137839259579778E-003;-3.382302820682526E-004;
2.426500000000000E+009;1.316552013158798E-001;-1.169030144810677E-001;3.090009558945894E-003;-2.837088832166046E-004;
2.426666666666667E+009;1.313308626413345E-001;-1.177129521965981E-001;3.009146777912974E-003;-4.612476332113147E-004;
2.426833333333334E+009;1.308566033840179E-001;-1.185713112354279E-001;3.051904961466789E-003;-7.593918708153069E-004;
2.427000000000000E+009;1.304038465023041E-001;-1.195985451340675E-001;2.867656061425805E-003;-7.087730336934328E-004;
2.427166666666667E+009;1.300515532493591E-001;-1.201540529727936E-001;2.792423823848367E-003;-9.427615441381931E-004;
2.427333333333334E+009;1.295815259218216E-001;-1.208967939019203E-001;2.825496252626181E-003;-1.030894811265171E-003;
2.427500000000000E+009;1.294950842857361E-001;-1.215900927782059E-001;2.887473441660404E-003;-9.740788373164833E-004;
2.427666666666667E+009;1.290788054466248E-001;-1.223750114440918E-001;2.793986815959215E-003;-1.016912516206503E-003;
