# Hz S RI R 50
2400000000.0000000000 0.157122492790222195724325615629 0.060747284442186362529714216407 -0.004040023311972618103027343750 0.000729839433915913105010986328 0 0 0 0 
2400166666.6666665077 0.157186940312385586837606865629 0.059137545526027679443359375000 -0.003940945025533437728881835938 0.000957733194809406995773315430 0 0 0 0 
2400333333.3333334923 0.157040819525718688964843750000 0.057182941585779190063476562500 -0.003944674506783485412597656250 0.000947336549870669841766357422 0 0 0 0 
2400500000.0000000000 0.157377660274505587478799384371 0.055179484188556671142578125000 -0.003798924619331955909729003906 0.001121795736253261999842978369 0 0 0 0 
2400666666.6666665077 0.157615289092063903808593750000 0.053053304553031921386718750000 -0.003862828016281127929687500000 0.001216900651343167044995952075 0 0 0 0 
2400833333.3333334923 0.157829716801643399337606865629 0.051285199820995330810546875000 -0.003721347544342279000523232568 0.001302544376812875054003071362 0 0 0 0 
2401000000.0000000000 0.157986760139465304275674384371 0.049108840525150299072265625000 -0.003758624428883194923400878906 0.001514833071269094944000244141 0 0 0 0 
2401166666.6666665077 0.158418372273445101638955634371 0.047076411545276641845703125000 -0.003693118924275041060206747900 0.001468790462240576960920024341 0 0 0 0 
2401333333.3333334923 0.158664494752883911132812500000 0.044968992471694953227956403907 -0.003586475038900970978977822412 0.001556047471240163066266704028 0 0 0 0 
2401500000.0000000000 0.159170910716056795974893134371 0.042989596724510192871093750000 -0.003638282651081680817845009912 0.001722334069199860095977783203 0 0 0 0 
2401666666.6666665077 0.159598425030708312988281250000 0.040918670594692230224609375000 -0.003438013140112162070033408057 0.001860272837802767970441508716 0 0 0 0 
2401833333.3333334923 0.160466030240058898925781250000 0.038959898054599761962890625000 -0.003293951973319054083583212744 0.001682037720456718964817666162 0 0 0 0 
2402000000.0000000000 0.160747513175010708907919365629 0.037009440362453460693359375000 -0.003186392830684781074523925781 0.002009266987442969842198037256 0 0 0 0 
2402166666.6666665077 0.161478668451309204101562500000 0.035103455185890197753906250000 -0.003133864142000675201416015625 0.001984722446650267081019736182 0 0 0 0 
2402333333.3333334923 0.161969333887100191970986884371 0.033483535051345832134206403907 -0.003122004680335522131678915869 0.002023844514042139053344726562 0 0 0 0 
2402500000.0000000000 0.163104444742202786544638115629 0.031801652163267142559011091407 -0.002858214545994997024536132812 0.001986710121855140166041708838 0 0 0 0 
2402666666.6666665077 0.163756191730499295333700615629 0.030170563608407970773717110546 -0.003004381433129311041591025244 0.002225578296929597854614257812 0 0 0 0 
2402833333.3333334923 0.164574995636940002441406250000 0.028580907732248309743861014454 -0.002705059479922056198120117188 0.002209825674071907997131347656 0 0 0 0 
2403000000.0000000000 0.165433451533317593673544365629 0.027069134637713428842564766796 -0.002766212681308389143702841650 0.002296118298545480208155966650 0 0 0 0 
2403166666.6666665077 0.166336640715599087814169365629 0.025648428127169609069824218750 -0.002670119982212781906127929688 0.002182697877287865118739462744 0 0 0 0 
2403333333.3333334923 0.167299360036850003341513115629 0.024294052273035049438476562500 -0.002467695157974957986118935693 0.002340636216104031042811728369 0 0 0 0 
2403500000.0000000000 0.168185442686080904861611884371 0.023213265463709831237792968750 -0.002416672185063362121582031250 0.002186277648434042930603027344 0 0 0 0 
2403666666.6666665077 0.168980836868286105056924384371 0.021823192015290260314941406250 -0.002347027882933617071864462744 0.002315459074452518983128213037 0 0 0 0 
2403833333.3333334923 0.170026496052742004394531250000 0.020650729537010189401646798046 -0.002301120432093739943263388525 0.002213015453889966011047363281 0 0 0 0 
2404000000.0000000000 0.170970410108566311935263115629 0.019742159172892570495605468750 -0.002332682255655527114868164062 0.002390741836279631094691611182 0 0 0 0 
2404166666.6666665077 0.171864077448844909667968750000 0.018884481862187389028528983204 -0.002272843616083263917210244287 0.002346865599974989891052246094 0 0 0 0 
2404333333.3333334923 0.172782137989997891525106865629 0.017874110490083690988560860546 -0.002153775421902536912205361475 0.002349948510527611212489462744 0 0 0 0 
2404500000.0000000000 0.173547327518463107010049384371 0.016925230622291568410853201954 -0.002270693657919764952418661963 0.002423129510134458975550986182 0 0 0 0 
2404666666.6666665077 0.174672171473503112792968750000 0.016408763825893398630162423046 -0.002044345252215861840489052881 0.002565833507105708122253417969 0 0 0 0 
2404833333.3333334923 0.175226137042045593261718750000 0.015681641176342960702916329296 -0.001993158366531134085414267432 0.002443954814225434823277138818 0 0 0 0 
2405000000.0000000000 0.176059007644653292556924384371 0.015123107470571999985664568555 -0.001940068905241786999943398584 0.002465219469740986824035644531 0 0 0 0 
2405166666.6666665077 0.176822170615196200271768134371 0.014635565690696239471435546875 -0.001700972788967191956163715894 0.002660873811691999001743935693 0 0 0 0 
2405333333.3333334923 0.177397623658180209060830634371 0.013991288840770719700823399023 -0.001811277936212718920466757666 0.002525362884625792937037802588 0 0 0 0 
2405500000.0000000000 0.177929252386093111892861884371 0.013728025369346140080462070898 -0.001778669422492384910583496094 0.002657036995515226884129189600 0 0 0 0 
2405666666.6666665077 0.178520187735557611663494981258 0.013383215293288229161272617773 -0.001701780362054706053492880713 0.002456330228596926169154501807 0 0 0 0 
2405833333.3333334923 0.178848639130592401702557481258 0.013096038252115249633789062500 -0.001567498431541026072261191260 0.002651280956342815919163369287 0 0 0 0 
2406000000.0000000000 0.179117634892463711837606865629 0.012583102099597450601597969921 -0.001664694515056907913805317456 0.002541866386309266090393066406 0 0 0 0 
2406166666.6666665077 0.179377958178520202636718750000 0.012373984791338440286656563671 -0.001503330771811306910273886572 0.002538232365623116926905966650 0 0 0 0 
2406333333.3333334923 0.179759025573730496505575615629 0.012036288157105449331263358204 -0.001331410021521151065826416016 0.002510385820642114119288779150 0 0 0 0 
2406500000.0000000000 0.179879561066627502441406250000 0.011683091521263120823870274023 -0.001434142934158443970921181787 0.002555069979280232949497841943 0 0 0 0 
2406666666.6666665077 0.179662615060806302169638115629 0.011377383954823020589808280079 -0.001207107678055763027788471753 0.002661149017512797875645302881 0 0 0 0 
2406833333.3333334923 0.179753169417381286621093750000 0.011046613566577439743965349805 -0.001037738518789411024806357275 0.002506604883819818930384970557 0 0 0 0 
2407000000.0000000000 0.179796576499938992599325615629 0.010663689114153390366523943555 -0.001151983626186847903608012622 0.002865172456949948830845498193 0 0 0 0 
2407166666.6666665077 0.179607331752777099609375000000 0.010276612825691699981689453125 -0.001285732025280595042585063403 0.002666536718606948852539062500 0 0 0 0 
2407333333.3333334923 0.179368361830711392501669365629 0.009740569628775119781494140625 -0.000899202015716582536697387695 0.002511063590645790100097656250 0 0 0 0 
2407500000.0000000000 0.178993210196495111663494981258 0.009317972697317600250244140625 -0.001086093485355376980425190503 0.002603290136903523965122841943 0 0 0 0 
2407666666.6666665077 0.178664579987525912185830634371 0.008846268057823181152343750000 -0.000965400948189198970794677734 0.002523204078897833824157714844 0 0 0 0 
2407833333.3333334923 0.178079113364219693282919365629 0.008115789853036403656005859375 -0.000827188778202980756759643555 0.002477809553965926170349121094 0 0 0 0 
2408000000.0000000000 0.177689269185066195388955634371 0.007228916510939598083496093750 -0.000806881522294133901596069336 0.002592061646282672882080078125 0 0 0 0 
2408166666.6666665077 0.177081346511840792556924384371 0.006645311135798692703247070312 -0.000759431335609406232833862305 0.002584146568551660017726279150 0 0 0 0 
2408333333.3333334923 0.176906898617744501311932481258 0.005698911845684052381033612988 -0.000847942486871033906936645508 0.002491606166586279869079589844 0 0 0 0 
2408500000.0000000000 0.176144078373908996582031250000 0.004675600212067365646362304688 -0.000800031120888888835906982422 0.002479183720424770875218056787 0 0 0 0 
2408666666.6666665077 0.175542771816253689864950615629 0.003790720831602811813354492188 -0.000620368868112564086914062500 0.002576780039817094802856445312 0 0 0 0 
2408833333.3333334923 0.174707323312759399414062500000 0.002574793295934795899632119287 -0.000523014052305370569229125977 0.002636943012475966973545693506 0 0 0 0 
2409000000.0000000000 0.174156859517097500900106865629 0.001422343309968709945678710938 -0.000579928164370357990264892578 0.002403664868324995040893554688 0 0 0 0 
2409166666.6666665077 0.173508375883102389236611884371 0.000267495750449597781330662860 -0.000646306783892214298248291016 0.002486438490450381798985146631 0 0 0 0 
2409333333.3333334923 0.172962903976440401931924384371 -0.001135120750404893918278359521 -0.000565084745176136493682861328 0.002511260565370320840122841943 0 0 0 0 
2409500000.0000000000 0.172179073095321710784588731258 -0.002689384389668703079223632812 -0.000495070242322981357574462891 0.002390315057709813117980957031 0 0 0 0 
2409666666.6666665077 0.171545609831809997558593750000 -0.004195381887257099151611328125 -0.000627313216682523488998413086 0.002364775398746132850646972656 0 0 0 0 
2409833333.3333334923 0.170780599117279108245526231258 -0.005624784156680107116699218750 -0.000517614942509680986404418945 0.002538200467824935913085937500 0 0 0 0 
2410000000.0000000000 0.170587375760078402420205634371 -0.007198615930974484357351972363 -0.000443252705736085826724451886 0.002424787962809205055236816406 0 0 0 0 
2410166666.6666665077 0.169883579015731811523437500000 -0.008986445143818855285644531250 -0.000538270047400146722793579102 0.002510028192773460908177041162 0 0 0 0 
2410333333.3333334923 0.169343188405036898513955634371 -0.010816986672580240422258945898 -0.000380279001547023708194178448 0.002520903013646603064296103369 0 0 0 0 
2410500000.0000000000 0.169021740555763189117755018742 -0.012611860409379010636299334180 -0.000527071941178292036056518555 0.002535532694309949874877929688 0 0 0 0 
2410666666.6666665077 0.168603375554084805587606865629 -0.014479808509349819528599923046 -0.000587443180847913026809692383 0.002578204497694969177246093750 0 0 0 0 
2410833333.3333334923 0.168432086706161499023437500000 -0.016324449330568310129185860546 -0.000291179661871865391731262207 0.002413967857137321992161416162 0 0 0 0 
2411000000.0000000000 0.168123707175254794021768134371 -0.018238821998238560068150704296 -0.000380779674742370789677220477 0.002465325174853206114528036963 0 0 0 0 
2411166666.6666665077 0.168009728193283108810263115629 -0.020213851705193519592285156250 -0.000348622997989878112643641339 0.002579115564003587202784872900 0 0 0 0 
2411333333.3333334923 0.167852789163589505294638115629 -0.022053843364119529724121093750 -0.000334733718773350119590759277 0.002677572891116141839268349756 0 0 0 0 
2411500000.0000000000 0.167710483074188204666299384371 -0.024101797491312030446986014454 -0.000278874533250927925109863281 0.002556271851062775091883993994 0 0 0 0 
2411666666.6666665077 0.167954891920089693924111884371 -0.025858905166387561452845389454 -0.000285382178844883983761387958 0.002794737694784998893737792969 0 0 0 0 
2411833333.3333334923 0.168098166584968594650106865629 -0.027684191241860389709472656250 -0.000305400084471330100863856183 0.002815646119415760040283203125 0 0 0 0 
2412000000.0000000000 0.168179228901863098144531250000 -0.029821325093507770193079764454 -0.000285459333099424784809666766 0.002818329958245158195495605469 0 0 0 0 
2412166666.6666665077 0.168400064110755892654580634371 -0.031768444925546653057057966407 -0.000155197441927157288223820819 0.002989529632031918005702353369 0 0 0 0 
2412333333.3333334923 0.169026657938957186599893134371 -0.033568110316991812969167341407 -0.000046310320612974471669604642 0.002970764180645347075221396338 0 0 0 0 
2412500000.0000000000 0.169275209307670593261718750000 -0.035346932709217071533203125000 -0.000011025030289602000266313553 0.002795605920255184173583984375 0 0 0 0 
2412666666.6666665077 0.169649243354797391036825615629 -0.037160336971282958984375000000 0.000141487354994751513004302979 0.003010357031598687171936035156 0 0 0 0 
2412833333.3333334923 0.170212298631668090820312500000 -0.039004720747470862651784528907 0.000166580881341360509395599365 0.003084701951593161062953329932 0 0 0 0 
2413000000.0000000000 0.170831710100174005706463731258 -0.040495093911886222148854841407 0.000317472819006070494651794434 0.003090474987402557893040322412 0 0 0 0 
2413166666.6666665077 0.171089738607406588455361884371 -0.042238619178533547138254533593 0.000312861986458301489979344501 0.003170708892866969108581542969 0 0 0 0 
2413333333.3333334923 0.171776160597801208496093750000 -0.043670438230037689208984375000 0.000405510858399793505668640137 0.003119641449302434921264648438 0 0 0 0 
2413500000.0000000000 0.172318413853645296951455634371 -0.045200917869806289672851562500 0.000394352566218003576428013934 0.003152914345264434814453125000 0 0 0 0 
2413666666.6666665077 0.172919228672981289962606865629 -0.046762146055698401714284528907 0.000774636166170239448547363281 0.003140011569485067887547158350 0 0 0 0 
2413833333.3333334923 0.173462808132171603103799384371 -0.048093732446432106708567033593 0.000917099940124899148941040039 0.003169813659042119979858398438 0 0 0 0 
2414000000.0000000000 0.174101367592811612228231865629 -0.049387730658054351806640625000 0.000946797663345932960510253906 0.003268891014158726172206259619 0 0 0 0 
2414166666.6666665077 0.174827024340629605392294365629 -0.050438728183507919311523437500 0.000990965403616428375244140625 0.003118965541943908171412802588 0 0 0 0 
2414333333.3333334923 0.175214141607284601409588731258 -0.051720496267080307006835937500 0.001155849546194076971766806494 0.003144169459119439125061035156 0 0 0 0 
2414500000.0000000000 0.176026389002799987792968750000 -0.052532371133565902709960937500 0.001251483685337007045745849609 0.003101439448073505921604775537 0 0 0 0 
2414666666.6666665077 0.176188364624977111816406250000 -0.053539939224720001220703125000 0.001323469216004014015197753906 0.003146692877635360197779990088 0 0 0 0 
2414833333.3333334923 0.176833868026733398437500000000 -0.054414544254541397094726562500 0.001420002430677413940429687500 0.003156181192025541825535439600 0 0 0 0 
2415000000.0000000000 0.177180171012878390213174384371 -0.055186193436384201049804687500 0.001606973004527390003204345703 0.003036254318431020216700888525 0 0 0 0 
2415166666.6666665077 0.177517056465148898025674384371 -0.055785488337278373027761091407 0.001599997049197555021998740088 0.003004738362506031990051269531 0 0 0 0 
2415333333.3333334923 0.177735671401023892501669365629 -0.056362461298704147338867187500 0.001919247210025786919834756006 0.002807247918099164962768554688 0 0 0 0 
2415500000.0000000000 0.178063139319419888595419365629 -0.056890770792961120605468750000 0.001863360055722296021105122144 0.003013081615790725188014365088 0 0 0 0 
2415666666.6666665077 0.178238511085510309417401231258 -0.057271972298622131347656250000 0.002106122206896543936488486182 0.002774626249447464942932128906 0 0 0 0 
2415833333.3333334923 0.178384467959403991699218750000 -0.057762667536735541606862653907 0.002040229970589280128479003906 0.002812205348163843154907226562 0 0 0 0 
2416000000.0000000000 0.178307697176933288574218750000 -0.058197334408760070800781250000 0.002223056508228182792663574219 0.002762740710750222206115722656 0 0 0 0 
2416166666.6666665077 0.178272649645805386642294365629 -0.058516275137662887573242187500 0.002308961236849426789524697412 0.002527037402614951133728027344 0 0 0 0 
2416333333.3333334923 0.178007215261459406097088731258 -0.058751031756401062011718750000 0.002435538219287991957423544775 0.002453199354931712150573730469 0 0 0 0 
2416500000.0000000000 0.177839174866676302810830634371 -0.059019573032855987548828125000 0.002265226095914841131923056494 0.002369648776948451995849609375 0 0 0 0 
2416666666.6666665077 0.177524864673614501953125000000 -0.059138786047697067260742187500 0.002372252522036432786228798975 0.002408818341791629791259765625 0 0 0 0 
2416833333.3333334923 0.177253261208534212967080634371 -0.059590864926576607440988908593 0.002475142013281583786010742188 0.002321958076208829879760742188 0 0 0 0 
2417000000.0000000000 0.176504731178283691406250000000 -0.059802547097206122661550153907 0.002578540705144404931309365381 0.002047816524282097816467285156 0 0 0 0 
2417166666.6666665077 0.175894334912300109863281250000 -0.059765193611383438110351562500 0.002523411996662617163417197119 0.001952811377122998020769428784 0 0 0 0 
2417333333.3333334923 0.175338432192802401443643134371 -0.059983052313327789306640625000 0.002736628288403152985813759912 0.002142563695088028907775878906 0 0 0 0 
2417500000.0000000000 0.174371302127838107010049384371 -0.060650538653135299682617187500 0.002690320601686834855320595850 0.001975278137251735167262411963 0 0 0 0 
2417666666.6666665077 0.173776000738143893142861884371 -0.060622110962867736816406250000 0.002811959013342856927158974756 0.001814468530938029072405170972 0 0 0 0 
2417833333.3333334923 0.172930419445037786285723768742 -0.061011180281639099121093750000 0.002795446431264280839207314600 0.001743626780807971954345703125 0 0 0 0 
2418000000.0000000000 0.171710819005966186523437500000 -0.061474837362766272808034528907 0.002880891319364308877232216943 0.001747685135342180945752788013 0 0 0 0 
2418166666.6666665077 0.170785740017890902420205634371 -0.061717219650745391845703125000 0.002849839860573410987854003906 0.001545143430121243000030517578 0 0 0 0 
2418333333.3333334923 0.169954493641853304763955634371 -0.062283266335725777362863908593 0.002777890302240848974940634619 0.001530501758679748015162802588 0 0 0 0 
2418500000.0000000000 0.168634414672851590255575615629 -0.062826097011566162109375000000 0.002948981244117021994349814307 0.001420761109329760074615478516 0 0 0 0 
2418666666.6666665077 0.167557418346405001541299384371 -0.063379943370819091796875000000 0.002978073200210928916931152344 0.001406061812303960106493305737 0 0 0 0 
2418833333.3333334923 0.166180863976478604415731865629 -0.064093515276908874511718750000 0.002985499799251555962803506006 0.001385231269523500962498330225 0 0 0 0 
2419000000.0000000000 0.164978906512260409256143134371 -0.064823441207408905029296875000 0.002948328386992216110229492188 0.001294937916100024960161518628 0 0 0 0 
2419166666.6666665077 0.163919135928153991699218750000 -0.065708182752132415771484375000 0.002971747191622852845432900537 0.001187533955089747905731201172 0 0 0 0 
2419333333.3333334923 0.162443444132804898361044365629 -0.066324934363365173339843750000 0.002951521892100573019740439307 0.001119311084039509079576801831 0 0 0 0 
2419500000.0000000000 0.161429509520530700683593750000 -0.067462466657161712646484375000 0.002980798715725541114807128906 0.001157625345513225035426474463 0 0 0 0 
2419666666.6666665077 0.160359382629394503494424384371 -0.068453855812549591064453125000 0.003012435743585228919982910156 0.000935774354729801416397094727 0 0 0 0 
2419833333.3333334923 0.159035280346870394607705634371 -0.069439060986042022705078125000 0.003164269728586078123805380713 0.000961894402280449867248535156 0 0 0 0 
