# Hz S RI R 
2400000000.0000000000 0.172863334417343111892861884371 0.048374425619840621948242187500 0.001046385033987462954280234229 0.003328350605443120002746582031 0 0 0 0 
2400166666.6666665077 0.173561513423919705489950615629 0.048121273517608642578125000000 0.001023856922984123013140034253 0.003116442356258631186244345557 0 0 0 0 
2400333333.3333334923 0.174093514680862399002236884371 0.047263830900192260742187500000 0.000984843820333480834960937500 0.003123536240309476852416992188 0 0 0 0 
2400500000.0000000000 0.174795806407928494552450615629 0.046659309417009346698801408593 0.000998688279651105403900146484 0.003032174892723559899571084131 0 0 0 0 
2400666666.6666665077 0.174871295690536499023437500000 0.045876134186983108520507812500 0.000747312675230205059051513672 0.002947580767795443968531943213 0 0 0 0 
2400833333.3333334923 0.175410553812980707366619981258 0.045544207096099846576731096093 0.000796761130914092063903808594 0.002941668033599853949305868994 0 0 0 0 
2401000000.0000000000 0.175652176141738891601562500000 0.044795263558626181865651716407 0.000729333027265965938568115234 0.003138162894174457030055380713 0 0 0 0 
2401166666.6666665077 0.175585955381393404861611884371 0.044042121618986129760742187500 0.000652372138574719429016113281 0.003175691934302448792698525537 0 0 0 0 
2401333333.3333334923 0.175851702690124511718750000000 0.043706629425287246704101562500 0.000599005725234746932983398438 0.003251158399507402940037392725 0 0 0 0 
2401500000.0000000000 0.176297619938850402832031250000 0.043189290910959236835520158593 0.000650772533845156431198120117 0.003220754675567150115966796875 0 0 0 0 
2401666666.6666665077 0.176182687282562311370526231258 0.042545095086097717285156250000 0.000694644870236515998840332031 0.003175651188939809799194335938 0 0 0 0 
2401833333.3333334923 0.176259160041809109786825615629 0.041764236986637122417409528907 0.000782352231908589601516723633 0.003599380142986774010899209131 0 0 0 0 
2402000000.0000000000 0.176064789295196505447549384371 0.041049931198358542705495466407 0.000833017344120889902114868164 0.003640262875705956979038857568 0 0 0 0 
2402166666.6666665077 0.176088839769363403320312500000 0.040297139436006552959401716407 0.000997928902506828308105468750 0.003510347567498683929443359375 0 0 0 0 
2402333333.3333334923 0.175876110792160006424111884371 0.039258871227502822875976562500 0.000938865588977932929992675781 0.003862479934468864960911416162 0 0 0 0 
2402500000.0000000000 0.175731956958770807464276231258 0.038481846451759338378906250000 0.001101240166462958075879741138 0.003827854990959167914149618994 0 0 0 0 
2402666666.6666665077 0.175562411546707208831463731258 0.037590254098176963115651716407 0.001409456715919076962711953271 0.004016956314444541931152343750 0 0 0 0 
2402833333.3333334923 0.175148427486419705489950615629 0.036429423838853842998464216407 0.001412375248037279085872031104 0.003993242513388395309448242188 0 0 0 0 
2403000000.0000000000 0.174780443310737609863281250000 0.035349518060684197162668596093 0.001708402647636831023572612231 0.003938591107726097106933593750 0 0 0 0 
2403166666.6666665077 0.174582064151763888260049384371 0.034114293754100799560546875000 0.001753655960783361954929970850 0.003979328554123640060424804688 0 0 0 0 
2403333333.3333334923 0.174347802996635409256143134371 0.032654963433742523193359375000 0.001900143688544631004333496094 0.004083875101059675216674804688 0 0 0 0 
2403500000.0000000000 0.173844188451766995529013115629 0.031235121190547939645787423046 0.002040880732238293127772665869 0.004034097306430339813232421875 0 0 0 0 
2403666666.6666665077 0.173385620117187500000000000000 0.029500346630811691284179687500 0.002445341786369680924656533350 0.004045722540467978391165448926 0 0 0 0 
2403833333.3333334923 0.173056170344352694412393134371 0.028112199157476428640345389454 0.002581331180408596992492675781 0.003985979128628969192504882812 0 0 0 0 
2404000000.0000000000 0.172442093491554288009481865629 0.026482431218028068542480468750 0.002592945471405982971191406250 0.003905530553311109976527548682 0 0 0 0 
2404166666.6666665077 0.172114565968513488769531250000 0.024487154558300968515416329296 0.002862214343622326850891113281 0.004078450147062540054321289062 0 0 0 0 
2404333333.3333334923 0.171771034598350497146768134371 0.022768529132008549081822579296 0.003064476884901524023768759619 0.004004676826298236846923828125 0 0 0 0 
2404500000.0000000000 0.171323895454406710525674384371 0.020849069580435749399205391796 0.003283976577222346825840615381 0.004000423476099967956542968750 0 0 0 0 
2404666666.6666665077 0.171005964279174804687500000000 0.019084598869085308420201485546 0.003149933181703091101405478369 0.004083574749529361724853515625 0 0 0 0 
2404833333.3333334923 0.170672267675399808029013115629 0.017108077183365818368931954296 0.003447514260187745094299316406 0.003788364352658390998840332031 0 0 0 0 
2405000000.0000000000 0.170531630516052301604901231258 0.015009023249149320775042149023 0.003684502094984054999110556494 0.003634127555415033860447548975 0 0 0 0 
2405166666.6666665077 0.170284450054168701171875000000 0.013038653880357740574846836523 0.003920050337910652160644531250 0.003698033280670642852783203125 0 0 0 0 
2405333333.3333334923 0.170282766222953796386718750000 0.010760459117591379338274570898 0.004148428793996573361868573926 0.003501370782032608985900878906 0 0 0 0 
2405500000.0000000000 0.170294955372810391525106865629 0.008795268833637237548828125000 0.004307184368371964368338300488 0.003408389864489436149597167969 0 0 0 0 
2405666666.6666665077 0.170174032449722290039062500000 0.006851475685834884643554687500 0.004636286292225123319143964551 0.003266083542257546944859170068 0 0 0 0 
2405833333.3333334923 0.170268610119819613357705634371 0.004961824510246515274047851562 0.004655999597162008285522460938 0.003050836501643062071559286963 0 0 0 0 
2406000000.0000000000 0.170443534851074190994424384371 0.002722747856751083894016884912 0.004834042862057685852050781250 0.002853505779057741165161132812 0 0 0 0 
2406166666.6666665077 0.170624375343322809417401231258 0.000782330578658729791641235352 0.004894961137324571609497070312 0.002886987058445810837986611475 0 0 0 0 
2406333333.3333334923 0.171204745769500704666299384371 -0.001410838332958519892451620947 0.005273053888231515884399414062 0.002708052285015583038330078125 0 0 0 0 
2406500000.0000000000 0.171566322445869501311932481258 -0.003523856401443481011631631006 0.005289343185722827911376953125 0.002369850641116499900817871094 0 0 0 0 
2406666666.6666665077 0.171682193875312805175781250000 -0.005547530949115753173828125000 0.005486864130944013595581054688 0.001976425992324947877171181787 0 0 0 0 
2406833333.3333334923 0.172299981117248507400674384371 -0.007564374245703220367431640625 0.005601437762379646301269531250 0.001929667661897837898851704175 0 0 0 0 
2407000000.0000000000 0.172951146960258511642294365629 -0.009638643823564052581787109375 0.005725974217057228088378906250 0.001514836680144072012660361182 0 0 0 0 
2407166666.6666665077 0.173773467540740994552450615629 -0.011406910605728629720667655079 0.005809814669191837310791015625 0.001312338863499463038203574072 0 0 0 0 
2407333333.3333334923 0.174173012375831604003906250000 -0.013499455526471139735211757227 0.006070442963391541567330644824 0.001057157875038682980778359521 0 0 0 0 
2407500000.0000000000 0.174974054098129300216513115629 -0.015331741422414779663085937500 0.006072158459573984146118164062 0.000851888500619679689407348633 0 0 0 0 
2407666666.6666665077 0.175823822617530794998330634371 -0.016927350312471389770507812500 0.006073937285691499710083007812 0.000580898486077785491943359375 0 0 0 0 
2407833333.3333334923 0.176408797502517700195312500000 -0.018900383263826370239257812500 0.006254948209971190366263105176 0.000257639476330950910418909894 0 0 0 0 
2408000000.0000000000 0.177131548523902893066406250000 -0.020629823207855231548268903907 0.006129669025540351867675781250 -0.000062712795624975115060806274 0 0 0 0 
2408166666.6666665077 0.177945986390113802810830634371 -0.022019792348146438598632812500 0.006313328165560960769653320312 -0.000499301007948815822601318359 0 0 0 0 
2408333333.3333334923 0.178920745849609402755575615629 -0.023572180420160290109654610546 0.006245945580303668975830078125 -0.000718671886716037988662719727 0 0 0 0 
2408500000.0000000000 0.179382517933845492263955634371 -0.025146240368485450744628906250 0.006019001826643943786621093750 -0.001222625840455294089076376807 0 0 0 0 
2408666666.6666665077 0.180070459842681912521200615629 -0.026525970548391338693638985546 0.005867679603397846221923828125 -0.001659904606640338897705078125 0 0 0 0 
2408833333.3333334923 0.180623248219490106780682481258 -0.027693683281540870666503906250 0.005715739447623491287231445312 -0.001804076950065792040583945166 0 0 0 0 
2409000000.0000000000 0.180983275175094604492187500000 -0.028917800635099411010742187500 0.005522402003407478332519531250 -0.002158178482204676108119345557 0 0 0 0 
2409166666.6666665077 0.181671053171157809158486884371 -0.029895206913352009164830391796 0.005395134445279836654663085938 -0.002315721707418560981750488281 0 0 0 0 
2409333333.3333334923 0.182135388255119295974893134371 -0.031073290854692459106445312500 0.005229792557656764984130859375 -0.002493936801329255104064941406 0 0 0 0 
2409500000.0000000000 0.182460904121398898025674384371 -0.031790871173143386840820312500 0.005096420645713806152343750000 -0.002747093793004751205444335938 0 0 0 0 
2409666666.6666665077 0.182899683713912991622763115629 -0.032536655664443969726562500000 0.004829392768442630767822265625 -0.002785347402095795111415243994 0 0 0 0 
2409833333.3333334923 0.183173626661300686935263115629 -0.033153191208839423442800153907 0.004537277854979038238525390625 -0.003095375606790184974670410156 0 0 0 0 
2410000000.0000000000 0.183451667428016690353231865629 -0.033412478864192962646484375000 0.004434044007211923599243164062 -0.003042743774130940003636025537 0 0 0 0 
2410166666.6666665077 0.183731898665428189376669365629 -0.033998098224401467060129533593 0.004317492712289094924926757812 -0.003027446568012237982508993994 0 0 0 0 
2410333333.3333334923 0.183696359395980807205361884371 -0.034378807991743087768554687500 0.003967198543250560760498046875 -0.003314246656373143196105957031 0 0 0 0 
2410500000.0000000000 0.183981671929359408279580634371 -0.034734670072793960571289062500 0.003771261777728796005249023438 -0.003432738594710826873779296875 0 0 0 0 
2410666666.6666665077 0.183964148163795498946981865629 -0.035120278596878051757812500000 0.003745376132428646087646484375 -0.003408974735066295103785849463 0 0 0 0 
2410833333.3333334923 0.183799177408218411544638115629 -0.035124927759170532226562500000 0.003363999770954250855686806787 -0.003474738914519547982456826318 0 0 0 0 
2411000000.0000000000 0.183747649192810086349325615629 -0.035520967096090316772460937500 0.003452501725405455069300986182 -0.003522044280543922944309853662 0 0 0 0 
2411166666.6666665077 0.183597683906555203536825615629 -0.035908762365579612041432966407 0.003183090593665837807896279443 -0.003656604560092091994044638525 0 0 0 0 
2411333333.3333334923 0.183098286390304593185263115629 -0.036092288792133331298828125000 0.003044431563466786904575966943 -0.003626830177381635145900107275 0 0 0 0 
2411500000.0000000000 0.182627692818641690353231865629 -0.036545243114233016967773437500 0.002790561411529779000523232568 -0.003559052478522061867954873193 0 0 0 0 
2411666666.6666665077 0.182325705885887201507244981258 -0.036687321960926062847097028907 0.002673485083505510850193642725 -0.003695578780025244192836142432 0 0 0 0 
2411833333.3333334923 0.181685313582420404632244981258 -0.036974195390939712524414062500 0.002619559410959482192993164062 -0.003731900360435246987583779443 0 0 0 0 
2412000000.0000000000 0.181064635515213012695312500000 -0.037447091192007071758229841407 0.002275816164910792870762490381 -0.003783947089686989784240722656 0 0 0 0 
2412166666.6666665077 0.180183157324791010100994981258 -0.037846237421035766601562500000 0.002460596384480596022364951025 -0.003636053297668695016148232568 0 0 0 0 
2412333333.3333334923 0.179360017180442810058593750000 -0.038256771862506873393972028907 0.002087194705381989912745810400 -0.003819071920588612990138388525 0 0 0 0 
2412500000.0000000000 0.177999332547187805175781250000 -0.038799364119768142700195312500 0.001984980423003435134887695312 -0.003615744877606629891636513818 0 0 0 0 
2412666666.6666665077 0.177220225334167508224325615629 -0.039390053600072860717773437500 0.001906936755403876087786030347 -0.003766991663724184036254882812 0 0 0 0 
2412833333.3333334923 0.176173478364944513518963731258 -0.040116798132658011699636091407 0.001762096537277102904078818213 -0.003562789643183350996730185400 0 0 0 0 
2413000000.0000000000 0.174867033958435086349325615629 -0.040773540735244750976562500000 0.001772622694261372089385986328 -0.003585676662623881860020302881 0 0 0 0 
2413166666.6666665077 0.173559129238128689864950615629 -0.041529498994350433349609375000 0.001761320279911160902736044775 -0.003503859275951981978175497900 0 0 0 0 
2413333333.3333334923 0.172226995229721097091513115629 -0.042376346886157989501953125000 0.001563321100547909953473735278 -0.003492140211164950890782021631 0 0 0 0 
2413500000.0000000000 0.171021938323974609375000000000 -0.043270565569400787353515625000 0.001496428507380187945124960791 -0.003541347105056047005894326318 0 0 0 0 
2413666666.6666665077 0.169707626104354886154013115629 -0.044316254556179046630859375000 0.001464102300815284035326313550 -0.003464205190539360046386718750 0 0 0 0 
2413833333.3333334923 0.168419197201728793045205634371 -0.045350026339292533184011091407 0.001294484012760221958160400391 -0.003409933531656860871555947412 0 0 0 0 
2414000000.0000000000 0.166956633329391507247763115629 -0.046445861458778381347656250000 0.001225489890202879905700683594 -0.003377041546627879142761230469 0 0 0 0 
2414166666.6666665077 0.165460854768753107268963731258 -0.047570608556270599365234375000 0.001403246889822185039520263672 -0.003374248510226606889012002100 0 0 0 0 
2414333333.3333334923 0.164404466748237609863281250000 -0.048939559608697891235351562500 0.001215711585246026949641562354 -0.003303751116618514060974121094 0 0 0 0 
2414500000.0000000000 0.163234174251556396484375000000 -0.050343789160251617431640625000 0.001331437844783067920087504810 -0.003357862588018178939819335938 0 0 0 0 
2414666666.6666665077 0.161954239010810907561932481258 -0.051751513034105300903320312500 0.001272920868359505913378071362 -0.003259314224123955206630087744 0 0 0 0 
2414833333.3333334923 0.160663694143295288085937500000 -0.053370382636785507202148437500 0.001150068710558116002323769678 -0.003398308064788579940795898438 0 0 0 0 
2415000000.0000000000 0.159686401486396789550781250000 -0.054943758994340896606445312500 0.001336850691586733081220317310 -0.003480367362499237060546875000 0 0 0 0 
2415166666.6666665077 0.158597379922866793533486884371 -0.056564960628747940063476562500 0.001210841699503361961962055737 -0.003381934249773621992823935400 0 0 0 0 
2415333333.3333334923 0.157798603177070589920205634371 -0.058518134057521820068359375000 0.001283913035877048969268798828 -0.003513807198032737211940146338 0 0 0 0 
2415500000.0000000000 0.156734436750411987304687500000 -0.060201209038496017456054687500 0.001377698848955333016039204175 -0.003426923649385571913478232275 0 0 0 0 
2415666666.6666665077 0.155942574143409701248330634371 -0.062097884714603417133371721093 0.001278368057683110020281147534 -0.003492817748337984085083007812 0 0 0 0 
2415833333.3333334923 0.155153751373290987869424384371 -0.064061343669891357421875000000 0.001297372044064104990718222510 -0.003580362303182483153102255713 0 0 0 0 
2416000000.0000000000 0.154333114624023409744424384371 -0.065936900675296783447265625000 0.001151137519627809958217001807 -0.003608189057558774948120117188 0 0 0 0 
2416166666.6666665077 0.153781607747077886383380018742 -0.068008564412593841552734375000 0.001149992574937642054316855322 -0.003706604475155473189112997900 0 0 0 0 
2416333333.3333334923 0.153354942798614501953125000000 -0.069922588765621185302734375000 0.001165266847237945036647177588 -0.004009668715298175811767578125 0 0 0 0 
2416500000.0000000000 0.152796059846878107268963731258 -0.072040200233459472656250000000 0.000990508939139544963836669922 -0.004124701488763093948364257812 0 0 0 0 
2416666666.6666665077 0.152345269918441800216513115629 -0.073918431997299194335937500000 0.001088535878807306072832417065 -0.004226851277053356170654296875 0 0 0 0 
2416833333.3333334923 0.152124837040901211837606865629 -0.076096855103969573974609375000 0.000906510802451521158218383789 -0.004338684957474470138549804688 0 0 0 0 
2417000000.0000000000 0.151658222079277010818643134371 -0.077963709831237792968750000000 0.000710107386112213134765625000 -0.004470244515687227249145507812 0 0 0 0 
2417166666.6666665077 0.151476413011550903320312500000 -0.079740501940250396728515625000 0.000793695624452084302902221680 -0.004489820916205644607543945312 0 0 0 0 
2417333333.3333334923 0.151447966694831903655682481258 -0.081656046211719512939453125000 0.000733943947125226259231567383 -0.004856834653764963150024414062 0 0 0 0 
2417500000.0000000000 0.151301085948944091796875000000 -0.083627864718437194824218750000 0.000755174725782126188278198242 -0.004765156190842390060424804688 0 0 0 0 
2417666666.6666665077 0.151401668787002591232138115629 -0.085086353123188018798828125000 0.000373984483303502202033996582 -0.004975992720574141416067792676 0 0 0 0 
2417833333.3333334923 0.151318967342376708984375000000 -0.086643248796463012695312500000 0.000125665334053337601110181265 -0.005114141851663590344900800488 0 0 0 0 
2418000000.0000000000 0.151388540863990811446981865629 -0.088433869183063507080078125000 -0.000068459325120784342288970947 -0.005180547945201396942138671875 0 0 0 0 
2418166666.6666665077 0.151478216052055386642294365629 -0.089595153927803039550781250000 -0.000164884841069579097345629282 -0.005436851643025875091552734375 0 0 0 0 
2418333333.3333334923 0.151885777711868286132812500000 -0.090979389846324920654296875000 -0.000583479297347366809844970703 -0.005594259127974510192871093750 0 0 0 0 
2418500000.0000000000 0.151916518807411193847656250000 -0.092263363301753997802734375000 -0.000818368396721780300140380859 -0.005565527826547622680664062500 0 0 0 0 
2418666666.6666665077 0.152363270521163912674111884371 -0.093396835029125213623046875000 -0.001129133743233978965161967700 -0.005729769822210074338431073926 0 0 0 0 
2418833333.3333334923 0.152370169758796691894531250000 -0.094367794692516326904296875000 -0.001244353596121072986005473560 -0.005818568170070648193359375000 0 0 0 0 
2419000000.0000000000 0.152520328760147094726562500000 -0.095260590314865112304687500000 -0.001663137809373437924626015771 -0.005818866193294525146484375000 0 0 0 0 
2419166666.6666665077 0.152802705764770507812500000000 -0.096091404557228088378906250000 -0.001978643005713820891139365088 -0.005759487394243478775024414062 0 0 0 0 
2419333333.3333334923 0.152896627783775301834268134371 -0.096471272408962249755859375000 -0.002287687035277485847473144531 -0.005711277481168509397024823926 0 0 0 0 
2419500000.0000000000 0.153189912438392611404580634371 -0.097235530614852905273437500000 -0.002838892163708806037902832031 -0.005687733180820941925048828125 0 0 0 0 
2419666666.6666665077 0.153518959879875210861044365629 -0.097796931862831115722656250000 -0.002993492642417550086975097656 -0.005721727386116982373709394238 0 0 0 0 
2419833333.3333334923 0.153713360428810091873330634371 -0.097841098904609680175781250000 -0.003235446754842997030970908057 -0.005379868205636739730834960938 0 0 0 0 
