# Hz S RI R 
2400000000.0000000000 0.169025033712387112716513115629 0.045675676316022872924804687500 -0.004517717752605676651000976562 -0.000791367609053850173950195312 0 0 0 0 
2400166666.6666665077 0.170130327343940707107705634371 0.044832415878772742534597028907 -0.004706431645900011062622070312 -0.000445975078037008588940220966 0 0 0 0 
2400333333.3333334923 0.171003982424735995193643134371 0.043780025094747543334960937500 -0.004661729093641042709350585938 -0.000404003192670643275410252704 0 0 0 0 
2400500000.0000000000 0.171939149498939486404580634371 0.042644552886486053466796875000 -0.004821503069251775741577148438 -0.000032038595236372202634811401 0 0 0 0 
2400666666.6666665077 0.172875910997390802581463731258 0.041560649871826171875000000000 -0.004929612856358289718627929688 0.000083582133811432868242263794 0 0 0 0 
2400833333.3333334923 0.173610344529151888748330634371 0.040871538221836090087890625000 -0.004800017923116683959960937500 0.000301864434732124209403991699 0 0 0 0 
2401000000.0000000000 0.174543529748916598220986884371 0.040024701505899429321289062500 -0.004958073608577250566964433887 0.000566490984056144952774047852 0 0 0 0 
2401166666.6666665077 0.175392255187034606933593750000 0.039216529577970511699636091407 -0.004899660591036081314086914062 0.000746824196539819240570068359 0 0 0 0 
2401333333.3333334923 0.175985306501388605315838731258 0.038692981004714972759206403907 -0.004949037451297044754028320312 0.001112234778702259063720703125 0 0 0 0 
2401500000.0000000000 0.176737591624260004241619981258 0.038000363856554031372070312500 -0.004818237852305173873901367188 0.001371900783851742961286235278 0 0 0 0 
2401666666.6666665077 0.177275687456131009200888115629 0.037440299987792968750000000000 -0.004978768061846494674682617188 0.001580715761519968943354941260 0 0 0 0 
2401833333.3333334923 0.177981570363044711013955634371 0.036792162805795669555664062500 -0.004845846444368362426757812500 0.001774454605765640952466655200 0 0 0 0 
2402000000.0000000000 0.178405985236167907714843750000 0.036063574254512786865234375000 -0.004830447491258382797241210938 0.002151120686903595924377441406 0 0 0 0 
2402166666.6666665077 0.178723871707916287521200615629 0.035629924386739730834960937500 -0.004597363527864217758178710938 0.002451095497235655784606933594 0 0 0 0 
2402333333.3333334923 0.178983405232429504394531250000 0.035055652260780327533762346093 -0.004639857448637486371512128613 0.002554388483986258940455771338 0 0 0 0 
2402500000.0000000000 0.179381638765335110763388115629 0.034431647509336471557617187500 -0.004463279619812965393066406250 0.002913604723289608955383300781 0 0 0 0 
2402666666.6666665077 0.179574847221374511718750000000 0.033772204071283340454101562500 -0.004235570784658193588256835938 0.003120643785223364830017089844 0 0 0 0 
2402833333.3333334923 0.179663375020027188400106865629 0.033144637942314147949218750000 -0.003998178523033857345581054688 0.003404554212465881867649697412 0 0 0 0 
2403000000.0000000000 0.179762110114097595214843750000 0.032420936971902847290039062500 -0.003689578501507639884948730469 0.003638315945863724188563681494 0 0 0 0 
2403166666.6666665077 0.179900452494621304611044365629 0.031843747943639762187917341407 -0.003529174253344535827636718750 0.003740897867828607992884970557 0 0 0 0 
2403333333.3333334923 0.179761305451393099685830634371 0.030909009277820590627650076954 -0.003216311102733016014099121094 0.003837741678580642180201865088 0 0 0 0 
2403500000.0000000000 0.179521143436431912521200615629 0.029944309964776039123535156250 -0.002993517322465776963474892725 0.003763457061722875075099326025 0 0 0 0 
2403666666.6666665077 0.179256051778793307205361884371 0.029114808887243270874023437500 -0.002765599871054292158839560400 0.003882111515849829153773642432 0 0 0 0 
2403833333.3333334923 0.179095029830932589431924384371 0.028044627979397770273228829296 -0.002726985607296227975132607568 0.003915133886039257049560546875 0 0 0 0 
2404000000.0000000000 0.178771913051605196853799384371 0.027019876986742019653320312500 -0.002415452385321259932277060400 0.003871041350066661834716796875 0 0 0 0 
2404166666.6666665077 0.178290277719497708419638115629 0.025639293715357780456542968750 -0.002310927258804440932032919775 0.003808214794844388961791992188 0 0 0 0 
2404333333.3333334923 0.177817091345787103850994981258 0.024459822103381160390833670704 -0.002087376080453395843505859375 0.003951327409595251083374023438 0 0 0 0 
2404500000.0000000000 0.177394255995750399490518134371 0.023183660581707950937291329296 -0.001900241593830288107033754663 0.003880838863551617102382040869 0 0 0 0 
2404666666.6666665077 0.176960170269012506683026231258 0.021962268278002738952636718750 -0.001777183148078620000126504053 0.003855165559798479080200195312 0 0 0 0 
2404833333.3333334923 0.176548644900321988204794365629 0.020381625741720199584960937500 -0.001730825169943273067474365234 0.003843508660793304009678506006 0 0 0 0 
2405000000.0000000000 0.175874486565589904785156250000 0.018943658098578449594517891796 -0.001601042109541594982147216797 0.003747909097000956969020224463 0 0 0 0 
2405166666.6666665077 0.175471723079681396484375000000 0.017368342727422710763951485546 -0.001681727124378084919573139722 0.003787839319556951956508017432 0 0 0 0 
2405333333.3333334923 0.175175592303276089767294365629 0.015732325613498691213587576954 -0.001437660888768732981440878760 0.003770192153751850128173828125 0 0 0 0 
2405500000.0000000000 0.174595430493354797363281250000 0.014046672731637959916084490430 -0.001503311330452560944798134912 0.003643353236839174790623330225 0 0 0 0 
2405666666.6666665077 0.174239620566368103027343750000 0.012326925061643120157262032421 -0.001354664331302046992658305591 0.003748934948816895918605185400 0 0 0 0 
2405833333.3333334923 0.173817664384841891189736884371 0.010698799975216390437116054102 -0.001272608642466366074205708081 0.003844494232907890839817666162 0 0 0 0 
2406000000.0000000000 0.173612803220748901367187500000 0.008604285307228565216064453125 -0.001242561615072190978406596606 0.003839968470856546921970986475 0 0 0 0 
2406166666.6666665077 0.173117950558662386795205634371 0.006872854195535182952880859375 -0.001228888053447007916094135815 0.003757212311029434204101562500 0 0 0 0 
2406333333.3333334923 0.173184871673584012130575615629 0.004736068192869424819946289062 -0.001211869530379771969438862378 0.003965202718973159790039062500 0 0 0 0 
2406500000.0000000000 0.172911405563354492187500000000 0.002829340985044836997985839844 -0.001056524226441978974583291162 0.004004965070635080337524414062 0 0 0 0 
2406666666.6666665077 0.172644123435020502288494981258 0.000829873140901327133178710938 -0.001107412856072186990025185693 0.003988707438111305236816406250 0 0 0 0 
2406833333.3333334923 0.172778889536857604980468750000 -0.001407943316735327026964497144 -0.000841922126710414886474609375 0.004049562383443117141723632812 0 0 0 0 
2407000000.0000000000 0.172830343246459988693075615629 -0.003462110878899693922755576025 -0.000759827729780226945877075195 0.004091584589332342147827148438 0 0 0 0 
2407166666.6666665077 0.172996550798416109939736884371 -0.005473252385854721069335937500 -0.000763172458391636610031127930 0.004011706449091435346121503613 0 0 0 0 
2407333333.3333334923 0.173059970140457208831463731258 -0.007678401190787553787231445312 -0.000782320974394679069519042969 0.004252728540450335416311933301 0 0 0 0 
2407500000.0000000000 0.173215121030807495117187500000 -0.009712683968245983123779296875 -0.000604414031840860843658447266 0.004282846115529537200927734375 0 0 0 0 
2407666666.6666665077 0.173419296741485595703125000000 -0.011735694482922550546666329296 -0.000452218111604452078968602313 0.004467664286494255065917968750 0 0 0 0 
2407833333.3333334923 0.173592194914817810058593750000 -0.013957669027149680746058280079 -0.000419189309468492919772547589 0.004448690451681613922119140625 0 0 0 0 
2408000000.0000000000 0.173925787210464505294638115629 -0.016008716076612469064732735546 -0.000176113142515532699510297232 0.004482940770685672760009765625 0 0 0 0 
2408166666.6666665077 0.174295172095298794845419365629 -0.018020700663328170776367187500 -0.000035914945328840992670466764 0.004792691674083471298217773438 0 0 0 0 
2408333333.3333334923 0.174793958663940401931924384371 -0.019988881424069411540944685157 0.000105259838164784000672478947 0.004671053029596805572509765625 0 0 0 0 
2408500000.0000000000 0.175116658210754394531250000000 -0.021899729967117309570312500000 0.000276735721854493021965026855 0.004791982471942901611328125000 0 0 0 0 
2408666666.6666665077 0.175507754087448092361611884371 -0.023801477625966068613072579296 0.000486220640596002286106663837 0.004884553607553243637084960938 0 0 0 0 
2408833333.3333334923 0.175864681601524408538494981258 -0.025373686105012890207310860546 0.000714844907633960247039794922 0.004897425416857004165649414062 0 0 0 0 
2409000000.0000000000 0.176252126693725613693075615629 -0.027060274034738540649414062500 0.000838571810163557529449462891 0.004957073368132114410400390625 0 0 0 0 
2409166666.6666665077 0.176850482821464510818643134371 -0.028641689568758010864257812500 0.001108160475268959999084472656 0.004977147094905375566964433887 0 0 0 0 
2409333333.3333334923 0.177297264337539700607138115629 -0.030160209164023399353027343750 0.001382391201332211928126669775 0.004900837782770395278930664062 0 0 0 0 
2409500000.0000000000 0.177754506468772888183593750000 -0.031606256961822509765625000000 0.001610606792382895946502685547 0.004917986225336790084838867188 0 0 0 0 
2409666666.6666665077 0.178046509623527499099893134371 -0.032619770616292946552317033593 0.001751653500832617066026997144 0.004816357512027025222778320312 0 0 0 0 
2409833333.3333334923 0.178513452410697909256143134371 -0.033766724169254302978515625000 0.001900900388136506080627441406 0.004852734971791505813598632812 0 0 0 0 
2410000000.0000000000 0.179109290242195101638955634371 -0.034866686910390846942942033593 0.002055252203717827796936035156 0.004654308781027793884277343750 0 0 0 0 
2410166666.6666665077 0.179541513323783902267294365629 -0.035640317946672439575195312500 0.002292731776833533807041787256 0.004739849362522363662719726562 0 0 0 0 
2410333333.3333334923 0.179938137531280489822549384371 -0.036662817001342773437500000000 0.002574295271188021139857626807 0.004644340369850397109985351562 0 0 0 0 
2410500000.0000000000 0.180465564131736810882244981258 -0.037423957139253623271901716407 0.002850326243788003921508789062 0.004726559389382600784301757812 0 0 0 0 
2410666666.6666665077 0.180771991610527010818643134371 -0.038225200027227401733398437500 0.002946617314592003822326660156 0.004359328653663396835327148438 0 0 0 0 
2410833333.3333334923 0.181238830089569091796875000000 -0.038691937923431403423268903907 0.003156575374305247826817177881 0.004345464985817670822143554688 0 0 0 0 
2411000000.0000000000 0.181442826986312893966513115629 -0.039231907576322562480886091407 0.003454700578004122214076376807 0.004441946744918823242187500000 0 0 0 0 
2411166666.6666665077 0.181779146194458007812500000000 -0.039897188544273383403737653907 0.003706395160406827926635742188 0.004232857841998338699340820312 0 0 0 0 
2411333333.3333334923 0.181687027215957613845986884371 -0.040353115648031241680104841407 0.003973786719143390655517578125 0.004070198163390159606933593750 0 0 0 0 
2411500000.0000000000 0.181740418076515197753906250000 -0.040847666561603553081472028907 0.004161587450653314590454101562 0.003976474981755018234252929688 0 0 0 0 
2411666666.6666665077 0.181880965828895596603231865629 -0.041366357356309890747070312500 0.004373367410153151425833417676 0.003725193440914154052734375000 0 0 0 0 
2411833333.3333334923 0.181853041052818298339843750000 -0.041750967502593987201731096093 0.004654763732105494412893964551 0.003442250657826662063598632812 0 0 0 0 
2412000000.0000000000 0.181740358471870394607705634371 -0.042250044643878936767578125000 0.004904769826680421829223632812 0.003165613627061247825622558594 0 0 0 0 
2412166666.6666665077 0.181281626224517794510049384371 -0.042468741536140441894531250000 0.005014392547309398651123046875 0.003119239583611487908604287256 0 0 0 0 
2412333333.3333334923 0.181058585643768310546875000000 -0.042590044438838958740234375000 0.005293597467243671417236328125 0.002791654085740447044372558594 0 0 0 0 
2412500000.0000000000 0.180467039346695001800213731258 -0.043108575046062469482421875000 0.005412409082055091857910156250 0.002419007010757923126220703125 0 0 0 0 
2412666666.6666665077 0.180016905069351196289062500000 -0.043600440025329589843750000000 0.005409305915236473083496093750 0.002150164451450109915492392432 0 0 0 0 
2412833333.3333334923 0.179238632321357699295205634371 -0.043764989823102951049804687500 0.005488957744091749191284179688 0.001786010339856147982953715747 0 0 0 0 
2413000000.0000000000 0.178551837801933288574218750000 -0.044232878834009170532226562500 0.005611658561974763870239257812 0.001558374729938805103302001953 0 0 0 0 
2413166666.6666665077 0.177656069397926302810830634371 -0.044518563896417617797851562500 0.005675450898706912994384765625 0.001354977255687118010279990088 0 0 0 0 
2413333333.3333334923 0.176782310009002713302450615629 -0.045009717345237731933593750000 0.005520387087017297744750976562 0.000897544377949088811874389648 0 0 0 0 
2413500000.0000000000 0.175799399614334106445312500000 -0.045530274510383612895925153907 0.005490197334438562393188476562 0.000726525555364787578582763672 0 0 0 0 
2413666666.6666665077 0.174914613366126986404580634371 -0.046226937323808670043945312500 0.005555144976824522018432617188 0.000320957042276859283447265625 0 0 0 0 
2413833333.3333334923 0.173727616667747497558593750000 -0.046690449118614196777343750000 0.005408576223999261856079101562 0.000232152495300397303983411246 0 0 0 0 
2414000000.0000000000 0.172521844506263705154580634371 -0.047328032553195953369140625000 0.005355449393391609191894531250 -0.000133325665956363109037122183 0 0 0 0 
2414166666.6666665077 0.171443328261375399490518134371 -0.047956019639968872070312500000 0.005223424639552831649780273438 -0.000371273228665813803672790527 0 0 0 0 
2414333333.3333334923 0.170269876718521090408486884371 -0.048863675445318222045898437500 0.005231739953160285949707031250 -0.000626491731964051723480224609 0 0 0 0 
2414500000.0000000000 0.169340208172798212249432481258 -0.049632590264081961894948591407 0.005017433781176806363577558301 -0.000800129026174545288085937500 0 0 0 0 
2414666666.6666665077 0.167939513921737698654013115629 -0.050479069352149963378906250000 0.004889442585408687591552734375 -0.000948128174059092998504638672 0 0 0 0 
2414833333.3333334923 0.166747525334358187576455634371 -0.051694121211767196655273437500 0.004748152103275060653686523438 -0.001158172031864524104474711841 0 0 0 0 
2415000000.0000000000 0.165444582700729397872763115629 -0.052688743919134140014648437500 0.004576809238642454147338867188 -0.001183797256089746952056884766 0 0 0 0 
2415166666.6666665077 0.164258763194084195236044365629 -0.053958944976329803466796875000 0.004440184216946362581734941699 -0.001433466677553951957105327075 0 0 0 0 
2415333333.3333334923 0.163075104355812100509481865629 -0.055241998285055160522460937500 0.004414111375808715820312500000 -0.001707869581878185055376362378 0 0 0 0 
2415500000.0000000000 0.161986649036407498458700615629 -0.056570112705230712890625000000 0.004306405317038297653198242188 -0.001734622404910624027252197266 0 0 0 0 
2415666666.6666665077 0.160885408520698602874432481258 -0.057994537055492401123046875000 0.004079014528542757034301757812 -0.001778539619408548095105815356 0 0 0 0 
2415833333.3333334923 0.159824386239051791092080634371 -0.059620171785354607318918596093 0.004086351022124291333670331738 -0.001885107252746820016148232568 0 0 0 0 
2416000000.0000000000 0.158650621771812411209268134371 -0.061273582279682159423828125000 0.003995409701019526395315839551 -0.002021657302975655035731650244 0 0 0 0 
2416166666.6666665077 0.157916650176048306564169365629 -0.063041448593139648437500000000 0.003745836438611149787902832031 -0.002020771615207194848301552881 0 0 0 0 
2416333333.3333334923 0.156741783022880609710369981258 -0.064793884754180908203125000000 0.003498992882668972015380859375 -0.002184906043112277984619140625 0 0 0 0 
2416500000.0000000000 0.155909553170204190353231865629 -0.066496364772319793701171875000 0.003411675104871391816380166162 -0.002389079891145228905918740381 0 0 0 0 
2416666666.6666665077 0.154970303177833612640057481258 -0.068333856761455535888671875000 0.003248878056183456940891884912 -0.002489660168066620826721191406 0 0 0 0 
2416833333.3333334923 0.154223784804344205001669365629 -0.070561006665229797363281250000 0.003102029906585813002345419775 -0.002593729179352521896362304688 0 0 0 0 
2417000000.0000000000 0.153254285454750088790731865629 -0.072261348366737365722656250000 0.002747082617133855819702148438 -0.002570367418229579925537109375 0 0 0 0 
2417166666.6666665077 0.152571797370910589020098768742 -0.074120067059993743896484375000 0.002560633234679698944091796875 -0.002841108478605746789219521631 0 0 0 0 
2417333333.3333334923 0.152030527591705294510049384371 -0.075995028018951416015625000000 0.002542652888223528861999511719 -0.002758412156254053115844726562 0 0 0 0 
2417500000.0000000000 0.151507228612899808029013115629 -0.078149050474166870117187500000 0.002263095695525407791137695312 -0.002736745402216910882237099756 0 0 0 0 
2417666666.6666665077 0.151111453771591186523437500000 -0.079805344343185424804687500000 0.002100126584991813139674521338 -0.002667747437953948974609375000 0 0 0 0 
2417833333.3333334923 0.150610521435737609863281250000 -0.081642247736454010009765625000 0.001989913638681172890904091943 -0.002754638670012354850769042969 0 0 0 0 
2418000000.0000000000 0.150107979774475097656250000000 -0.083533778786659240722656250000 0.001976252999156713919398642432 -0.002599487779662013053894042969 0 0 0 0 
2418166666.6666665077 0.149945572018623407561932481258 -0.085107564926147460937500000000 0.001773217809386550946476601709 -0.002592619974166154861450195312 0 0 0 0 
2418333333.3333334923 0.149908080697059603592080634371 -0.086908116936683654785156250000 0.001603306271135807037353515625 -0.002548883669078350067138671875 0 0 0 0 
2418500000.0000000000 0.149583354592323303222656250000 -0.088547199964523315429687500000 0.001562098041176795959472656250 -0.002383396262302995161769247900 0 0 0 0 
2418666666.6666665077 0.149684950709343012054119981258 -0.090057544410228729248046875000 0.001438353443518280982971191406 -0.002188786398619412942173623193 0 0 0 0 
2418833333.3333334923 0.149395689368248013595419365629 -0.091599710285663604736328125000 0.001432004035450517914415669019 -0.002206603530794382095336914062 0 0 0 0 
2419000000.0000000000 0.149381935596466092208700615629 -0.092833429574966430664062500000 0.001497324090451001904131245190 -0.001929337624460458972333598560 0 0 0 0 
2419166666.6666665077 0.149575471878051813323651231258 -0.094243280589580535888671875000 0.001370616024360060908673930591 -0.001924585900269448974012065356 0 0 0 0 
2419333333.3333334923 0.149354502558708190917968750000 -0.095046073198318481445312500000 0.001478166203014553026912070166 -0.001847921754233539104461669922 0 0 0 0 
2419500000.0000000000 0.149727895855903597732705634371 -0.096297584474086761474609375000 0.001425536815077065987827920068 -0.001825656625442207076429057544 0 0 0 0 
2419666666.6666665077 0.149969428777694702148437500000 -0.097294166684150695800781250000 0.001649333280511199994328164209 -0.001833896152675152041791606372 0 0 0 0 
2419833333.3333334923 0.150016516447067288497763115629 -0.097791649401187896728515625000 0.001689384342171251990674663013 -0.001807638560421765067456889575 0 0 0 0 
