# Version 1.00
#
freq[Hz];re:Trc1_S11;im:Trc1_S11;re:Trc2_S21;im:Trc2_S21;
2.400000000000000E+009;1.563832461833954E-001;6.006453186273575E-002;2.468419028446078E-003;5.597206181846559E-004;
2.400166666666667E+009;1.564581245183945E-001;5.841938778758049E-002;2.430154243484139E-003;3.121148911304772E-004;
2.400333333333334E+009;1.565154343843460E-001;5.612647533416748E-002;2.551187528297305E-003;3.359073307365179E-004;
2.400500000000000E+009;1.566714793443680E-001;5.445297062397003E-002;2.552642254158855E-003;2.144557947758585E-004;
2.400666666666667E+009;1.568661928176880E-001;5.220305547118187E-002;2.542661502957344E-003;1.870865962700918E-004;
2.400833333333334E+009;1.572998017072678E-001;5.023455247282982E-002;2.657849341630936E-003;2.160412550438196E-004;
2.401000000000000E+009;1.575486809015274E-001;4.812027141451836E-002;2.538932487368584E-003;2.375963777012657E-005;
2.401166666666667E+009;1.579756736755371E-001;4.610093310475349E-002;2.504092874005437E-003;3.155081139993854E-005;
2.401333333333334E+009;1.583889871835709E-001;4.396001249551773E-002;2.618332859128714E-003;-8.382808300666511E-005;
2.401500000000000E+009;1.590011417865753E-001;4.202481731772423E-002;2.332079922780395E-003;-6.105109059717506E-005;
2.401666666666667E+009;1.594842672348023E-001;3.985854983329773E-002;2.351487055420876E-003;-1.555589842610061E-004;
2.401833333333334E+009;1.600017100572586E-001;3.799098730087280E-002;2.369300927966833E-003;-2.940674894489348E-004;
2.402000000000000E+009;1.605698168277741E-001;3.626019507646561E-002;2.417590003460646E-003;-9.470936493016779E-005;
2.402166666666667E+009;1.612793654203415E-001;3.432024642825127E-002;2.359367441385984E-003;-3.418335109017789E-004;
2.402333333333334E+009;1.619561910629273E-001;3.271778300404549E-002;2.394409617409110E-003;-2.728957624640316E-004;
2.402500000000000E+009;1.631127148866653E-001;3.105598874390125E-002;2.220822731032968E-003;-2.992927038576454E-004;
2.402666666666667E+009;1.636167764663696E-001;2.943989820778370E-002;2.157563110813499E-003;-4.116481577511877E-004;
2.402833333333334E+009;1.645817756652832E-001;2.807942777872086E-002;2.297787694260478E-003;-2.624449552968144E-004;
2.403000000000000E+009;1.654963493347168E-001;2.650025114417076E-002;2.174964407458901E-003;-5.140778375789523E-004;
2.403166666666667E+009;1.664621829986572E-001;2.526595257222652E-002;2.216060413047671E-003;-4.158091032877564E-004;
2.403333333333334E+009;1.673540174961090E-001;2.412812970578671E-002;2.093666233122349E-003;-4.962679231539369E-004;
2.403500000000000E+009;1.683945059776306E-001;2.283624187111855E-002;2.062566345557571E-003;-6.352076889015734E-004;
2.403666666666667E+009;1.693256348371506E-001;2.165178582072258E-002;2.105429768562317E-003;-5.415435880422592E-004;
2.403833333333334E+009;1.704651862382889E-001;2.066982537508011E-002;2.218789886683226E-003;-7.647520396858454E-004;
2.404000000000000E+009;1.713943928480148E-001;1.989920996129513E-002;2.185745863243938E-003;-5.761861102655530E-004;
2.404166666666667E+009;1.722378581762314E-001;1.888811960816383E-002;2.261581830680370E-003;-7.408584351651371E-004;
2.404333333333334E+009;1.732346117496491E-001;1.821564696729183E-002;2.156206406652927E-003;-7.129666046239436E-004;
2.404500000000000E+009;1.739830076694489E-001;1.721148379147053E-002;2.182682277634740E-003;-7.221181294880807E-004;
2.404666666666667E+009;1.747156232595444E-001;1.675301976501942E-002;2.091690665110946E-003;-8.022905676625669E-004;
2.404833333333334E+009;1.757415831089020E-001;1.616399176418781E-002;2.215942135080695E-003;-7.577994256280363E-004;
2.405000000000000E+009;1.763242632150650E-001;1.572879403829575E-002;2.110349014401436E-003;-8.100959239527583E-004;
2.405166666666667E+009;1.769632548093796E-001;1.524113025516272E-002;2.261610003188252E-003;-7.791726384311914E-004;
2.405333333333334E+009;1.775560528039932E-001;1.483708713203669E-002;2.082682680338621E-003;-8.859657682478428E-004;
2.405500000000000E+009;1.781619340181351E-001;1.438453607261181E-002;2.019402571022511E-003;-7.875507581047714E-004;
2.405666666666667E+009;1.786281168460846E-001;1.424928568303585E-002;2.311989199370146E-003;-1.009382074698806E-003;
2.405833333333334E+009;1.790241003036499E-001;1.392694190144539E-002;2.120103221386671E-003;-1.057457993738353E-003;
2.406000000000000E+009;1.793468296527863E-001;1.367044914513826E-002;2.235148800536990E-003;-1.096279011107981E-003;
2.406166666666667E+009;1.795871257781982E-001;1.341084204614162E-002;2.295821206644177E-003;-1.181832747533917E-003;
2.406333333333334E+009;1.797389835119247E-001;1.313704904168844E-002;2.368443412706256E-003;-1.210809336043894E-003;
2.406500000000000E+009;1.797423064708710E-001;1.282182335853577E-002;2.306963317096233E-003;-1.232857233844698E-003;
2.406666666666667E+009;1.796700358390808E-001;1.251257490366697E-002;2.267845906317234E-003;-1.319438102655113E-003;
2.406833333333334E+009;1.796003282070160E-001;1.213728263974190E-002;2.270054537802935E-003;-1.414248486980796E-003;
2.407000000000000E+009;1.795728802680969E-001;1.173644885420799E-002;2.195398090407252E-003;-1.255851355381310E-003;
2.407166666666667E+009;1.795250326395035E-001;1.145446859300137E-002;2.203242853283882E-003;-1.478446647524834E-003;
2.407333333333334E+009;1.790308803319931E-001;1.084435731172562E-002;2.217361470684409E-003;-1.568933716043830E-003;
2.407500000000000E+009;1.787026673555374E-001;1.032133400440216E-002;2.223854651674628E-003;-1.487146015278995E-003;
2.407666666666667E+009;1.783788651227951E-001;9.704079478979111E-003;2.305774250999093E-003;-1.743959495797753E-003;
2.407833333333334E+009;1.777873784303665E-001;8.882926777005196E-003;2.189363818615675E-003;-1.743581378832459E-003;
2.408000000000000E+009;1.774354279041290E-001;8.223712444305420E-003;2.212209394201636E-003;-1.872114953584969E-003;
2.408166666666667E+009;1.767028272151947E-001;7.447264157235622E-003;2.274843165650964E-003;-1.923279254697263E-003;
2.408333333333334E+009;1.763169169425964E-001;6.528765894472599E-003;2.084560226649046E-003;-2.010461175814271E-003;
2.408500000000000E+009;1.754808425903320E-001;5.469315219670534E-003;2.175437984988093E-003;-2.152114408090711E-003;
2.408666666666667E+009;1.749474555253983E-001;4.221007227897644E-003;2.319418359547854E-003;-2.214765409007669E-003;
2.408833333333334E+009;1.740953326225281E-001;3.086556214839220E-003;2.194786677137017E-003;-2.322976710274816E-003;
2.409000000000000E+009;1.734818369150162E-001;1.879161922261119E-003;2.089397050440311E-003;-2.304473193362355E-003;
2.409166666666667E+009;1.728261411190033E-001;3.376525710336864E-004;1.964096678420901E-003;-2.355291275307536E-003;
2.409333333333334E+009;1.724087595939636E-001;-1.078441273421049E-003;1.994287827983499E-003;-2.520867157727480E-003;
2.409500000000000E+009;1.715144217014313E-001;-2.664161380380392E-003;2.008424839004874E-003;-2.690342022106051E-003;
2.409666666666667E+009;1.708689928054810E-001;-4.262177273631096E-003;2.188536804169416E-003;-2.617156831547618E-003;
2.409833333333334E+009;1.701877862215042E-001;-5.867130123078823E-003;1.802890095859766E-003;-2.715385984629393E-003;
2.410000000000000E+009;1.697892695665360E-001;-7.543602958321571E-003;1.643221592530608E-003;-2.888929797336459E-003;
2.410166666666667E+009;1.693785190582275E-001;-9.381064213812351E-003;1.740678795613349E-003;-2.931173657998443E-003;
2.410333333333334E+009;1.686872392892838E-001;-1.122339442372322E-002;1.629618578590453E-003;-3.152839140966535E-003;
2.410500000000000E+009;1.684165447950363E-001;-1.296805869787931E-002;1.547664985992014E-003;-3.197890706360340E-003;
2.410666666666667E+009;1.680438518524170E-001;-1.516595669090748E-002;1.422724220901728E-003;-3.255586838349700E-003;
2.410833333333334E+009;1.678221821784973E-001;-1.685202494263649E-002;1.449267379939556E-003;-3.454444929957390E-003;
2.411000000000000E+009;1.675654500722885E-001;-1.873114705085754E-002;1.309649087488651E-003;-3.406843869015575E-003;
2.411166666666667E+009;1.675439476966858E-001;-2.079994045197964E-002;1.225041341967881E-003;-3.647483885288239E-003;
2.411333333333334E+009;1.674597412347794E-001;-2.283459156751633E-002;1.137241371907294E-003;-3.761290106922388E-003;
2.411500000000000E+009;1.674065440893173E-001;-2.486234158277512E-002;6.968692177906632E-004;-3.836799412965775E-003;
2.411666666666667E+009;1.676814854145050E-001;-2.651115506887436E-002;8.126382017508149E-004;-3.844653721898794E-003;
2.411833333333334E+009;1.678534150123596E-001;-2.863298356533051E-002;6.003818707540631E-004;-3.883100114762783E-003;
2.412000000000000E+009;1.682140231132507E-001;-3.051060810685158E-002;6.740580429323018E-004;-3.908921498805285E-003;
2.412166666666667E+009;1.684748083353043E-001;-3.271761164069176E-002;1.718175481073558E-004;-3.960257861763239E-003;
2.412333333333334E+009;1.690488606691361E-001;-3.425356745719910E-002;2.765407843980938E-004;-3.789112903177738E-003;
2.412500000000000E+009;1.692828983068466E-001;-3.602153062820435E-002;3.154509249725379E-005;-4.066639114171267E-003;
2.412666666666667E+009;1.698643863201141E-001;-3.796051442623138E-002;-9.593816503183916E-005;-4.090499598532915E-003;
2.412833333333334E+009;1.703984737396240E-001;-3.959921747446060E-002;-2.461783587932587E-004;-4.116252996027470E-003;
2.413000000000000E+009;1.709065139293671E-001;-4.121941700577736E-002;-3.957328444812447E-004;-4.067608155310154E-003;
2.413166666666667E+009;1.714585423469544E-001;-4.280091449618340E-002;-5.475050420500338E-004;-3.849601838737726E-003;
2.413333333333334E+009;1.721065342426300E-001;-4.437040537595749E-002;-8.809287683106959E-004;-3.939755260944367E-003;
2.413500000000000E+009;1.726399958133698E-001;-4.578753560781479E-002;-9.678549831733108E-004;-3.951310180127621E-003;
2.413666666666667E+009;1.733476370573044E-001;-4.725075140595436E-002;-1.257764874026179E-003;-3.945284988731146E-003;
2.413833333333334E+009;1.739388853311539E-001;-4.832299053668976E-002;-1.269238768145442E-003;-3.925324417650700E-003;
2.414000000000000E+009;1.744766831398010E-001;-4.975386708974838E-002;-1.310621271841228E-003;-3.848234424367547E-003;
2.414166666666667E+009;1.751178801059723E-001;-5.072520673274994E-002;-1.584808109328151E-003;-3.751109587028623E-003;
2.414333333333334E+009;1.757519990205765E-001;-5.179405212402344E-002;-1.639122725464404E-003;-3.778796875849366E-003;
2.414500000000000E+009;1.764048635959625E-001;-5.265631154179573E-002;-1.611744868569076E-003;-3.648658283054829E-003;
2.414666666666667E+009;1.767713129520416E-001;-5.346664041280747E-002;-1.899876282550395E-003;-3.623804775997996E-003;
2.414833333333334E+009;1.773014515638351E-001;-5.428365990519524E-002;-2.115322509780526E-003;-3.554611233994365E-003;
2.415000000000000E+009;1.775970160961151E-001;-5.494002252817154E-002;-2.093006391078234E-003;-3.425888717174530E-003;
2.415166666666667E+009;1.779445558786392E-001;-5.554263293743134E-002;-2.215341432020068E-003;-3.240158082917333E-003;
2.415333333333334E+009;1.783326417207718E-001;-5.596412345767021E-002;-2.379046054556966E-003;-3.305993275716901E-003;
2.415500000000000E+009;1.784685105085373E-001;-5.658835545182228E-002;-2.507890807464719E-003;-3.259062999859452E-003;
2.415666666666667E+009;1.785479635000229E-001;-5.681423097848892E-002;-2.635510871186853E-003;-2.837700070813298E-003;
2.415833333333334E+009;1.786776781082153E-001;-5.726923793554306E-002;-2.563410205766559E-003;-2.890824340283871E-003;
2.416000000000000E+009;1.784780919551849E-001;-5.767381936311722E-002;-2.831572666764259E-003;-2.800042042508721E-003;
2.416166666666667E+009;1.785889565944672E-001;-5.791800841689110E-002;-2.926161047071219E-003;-2.759533235803247E-003;
2.416333333333334E+009;1.784291118383408E-001;-5.795793235301971E-002;-2.904578810557723E-003;-2.658640500158072E-003;
2.416500000000000E+009;1.779607534408569E-001;-5.837297812104225E-002;-3.056606743484736E-003;-2.656260505318642E-003;
2.416666666666667E+009;1.775612235069275E-001;-5.844197049736977E-002;-3.145815804600716E-003;-2.342842752113938E-003;
2.416833333333334E+009;1.772461384534836E-001;-5.874827131628990E-002;-3.182126209139824E-003;-2.355867763981223E-003;
2.417000000000000E+009;1.764588356018066E-001;-5.889201536774635E-002;-3.316927468404174E-003;-2.230806043371558E-003;
2.417166666666667E+009;1.758297383785248E-001;-5.914004519581795E-002;-3.364291507750750E-003;-2.092796610668302E-003;
2.417333333333334E+009;1.750306785106659E-001;-5.929338559508324E-002;-3.254133276641369E-003;-1.915216911584139E-003;
2.417500000000000E+009;1.743407994508743E-001;-5.982151255011559E-002;-3.184010973200202E-003;-1.977371983230114E-003;
2.417666666666667E+009;1.734174042940140E-001;-5.987468734383583E-002;-3.384578740224242E-003;-1.840862678363919E-003;
2.417833333333334E+009;1.724801361560822E-001;-6.024201586842537E-002;-3.354165470227599E-003;-1.711929915472865E-003;
2.418000000000000E+009;1.713237911462784E-001;-6.079993024468422E-002;-3.556933952495456E-003;-1.649454585276544E-003;
2.418166666666667E+009;1.701953709125519E-001;-6.103870645165443E-002;-3.428789088502526E-003;-1.413949416019023E-003;
2.418333333333334E+009;1.693308353424072E-001;-6.166228652000427E-002;-3.379331203177571E-003;-1.348160090856254E-003;
2.418500000000000E+009;1.680679172277451E-001;-6.222403421998024E-002;-3.501951461657882E-003;-1.269597676582634E-003;
2.418666666666667E+009;1.669580191373825E-001;-6.283307820558548E-002;-3.514809999614954E-003;-1.103118178434670E-003;
2.418833333333334E+009;1.654678583145142E-001;-6.368120759725571E-002;-3.572346642613411E-003;-1.207985100336373E-003;
2.419000000000000E+009;1.642263978719711E-001;-6.441999226808548E-002;-3.643422387540340E-003;-1.066168653778732E-003;
2.419166666666667E+009;1.629920601844788E-001;-6.530381739139557E-002;-3.563325153663755E-003;-8.577058906666935E-004;
2.419333333333334E+009;1.617358922958374E-001;-6.605214625597000E-002;-3.543944330886006E-003;-7.348647341132164E-004;
2.419500000000000E+009;1.605707556009293E-001;-6.717120856046677E-002;-3.652550512924790E-003;-6.563480710610747E-004;
2.419666666666667E+009;1.594344675540924E-001;-6.832237541675568E-002;-3.616315079852939E-003;-7.227018941193819E-004;
2.419833333333334E+009;1.581349372863770E-001;-6.941001117229462E-002;-3.709086216986179E-003;-5.263898638077080E-004;
2.420000000000000E+009;1.570744663476944E-001;-7.075150310993195E-002;-3.636299399659038E-003;-4.026830138172954E-004;
2.420166666666667E+009;1.561873555183411E-001;-7.197613269090653E-002;-3.739535110071302E-003;-4.676295502576977E-004;
2.420333333333334E+009;1.550849676132202E-001;-7.323057949542999E-002;-3.720218548551202E-003;-2.122565201716498E-004;
2.420500000000000E+009;1.541386991739273E-001;-7.450117170810700E-002;-3.898986149579287E-003;-2.931563940364867E-004;
2.420666666666667E+009;1.533448398113251E-001;-7.605089247226715E-002;-3.871825058013201E-003;2.587654307717457E-005;
2.420833333333334E+009;1.524111479520798E-001;-7.767777889966965E-002;-3.872970351949334E-003;5.254690040601417E-005;
2.421000000000000E+009;1.516855508089066E-001;-7.935970276594162E-002;-3.949339967221022E-003;8.776842150837183E-005;
2.421166666666667E+009;1.512276828289032E-001;-8.081358671188355E-002;-3.924961667507887E-003;2.348139969399199E-004;
2.421333333333334E+009;1.508712470531464E-001;-8.251713961362839E-002;-3.886483609676361E-003;3.159014158882201E-004;
2.421500000000000E+009;1.502345353364945E-001;-8.411127328872681E-002;-3.849253058433533E-003;5.568002816289663E-004;
2.421666666666667E+009;1.498150825500488E-001;-8.582960069179535E-002;-4.002412315458059E-003;5.641775787808001E-004;
2.421833333333334E+009;1.496056616306305E-001;-8.747984468936920E-002;-4.010186530649662E-003;7.733396487310529E-004;
2.422000000000000E+009;1.493216454982758E-001;-8.907417953014374E-002;-3.776290686801076E-003;9.202903602272272E-004;
2.422166666666667E+009;1.493129730224609E-001;-9.110876917839050E-002;-3.850541543215513E-003;1.131000695750117E-003;
2.422333333333334E+009;1.493214219808579E-001;-9.258987009525299E-002;-3.850211855024099E-003;1.185128698125482E-003;
2.422500000000000E+009;1.492832154035568E-001;-9.418582171201706E-002;-3.909541293978691E-003;1.398001099005342E-003;
2.422666666666667E+009;1.493616551160812E-001;-9.581783413887024E-002;-3.803448751568794E-003;1.649540266953409E-003;
2.422833333333334E+009;1.496737152338028E-001;-9.744212776422501E-002;-3.759082639589906E-003;1.652506412938237E-003;
2.423000000000000E+009;1.500010043382645E-001;-9.914156794548035E-002;-3.744194051250815E-003;1.885442179627717E-003;
2.423166666666667E+009;1.503729671239853E-001;-1.006594598293304E-001;-3.709674347192049E-003;1.956518739461899E-003;
2.423333333333334E+009;1.509207040071487E-001;-1.018219888210297E-001;-3.510386217385531E-003;2.242567948997021E-003;
2.423500000000000E+009;1.512512564659119E-001;-1.035182550549507E-001;-3.432324388995767E-003;2.456777961924672E-003;
2.423666666666667E+009;1.516715288162231E-001;-1.047449111938477E-001;-3.371919738128781E-003;2.582075772807002E-003;
2.423833333333334E+009;1.521736830472946E-001;-1.060755103826523E-001;-3.224305808544159E-003;2.777956658974290E-003;
2.424000000000000E+009;1.526292860507965E-001;-1.072848811745644E-001;-3.125925781205297E-003;2.735116286203265E-003;
2.424166666666667E+009;1.530985981225967E-001;-1.083016172051430E-001;-3.174918470904231E-003;2.922726096585393E-003;
2.424333333333334E+009;1.536674052476883E-001;-1.093490421772003E-001;-2.963591367006302E-003;3.095176303759217E-003;
2.424500000000000E+009;1.541531085968018E-001;-1.104443073272705E-001;-2.665038919076324E-003;3.139782231301069E-003;
2.424666666666667E+009;1.548590064048767E-001;-1.112385541200638E-001;-2.550906734541059E-003;3.284926759079099E-003;
2.424833333333334E+009;1.551848500967026E-001;-1.122379899024963E-001;-2.382471226155758E-003;3.344342345371842E-003;
2.425000000000000E+009;1.556605547666550E-001;-1.129429191350937E-001;-2.243402646854520E-003;3.332202322781086E-003;
2.425166666666667E+009;1.558832228183746E-001;-1.135178655385971E-001;-2.026760950684547E-003;3.499389160424471E-003;
2.425333333333334E+009;1.563904136419296E-001;-1.141951903700829E-001;-1.857466762885451E-003;3.432016819715500E-003;
2.425500000000000E+009;1.565840840339661E-001;-1.147086471319199E-001;-1.705592265352607E-003;3.701039124280214E-003;
2.425666666666667E+009;1.566668748855591E-001;-1.151881366968155E-001;-1.506773522123694E-003;3.585639176890254E-003;
2.425833333333334E+009;1.568943709135056E-001;-1.155389100313187E-001;-1.236224314197898E-003;3.611815860494971E-003;
2.426000000000000E+009;1.569918543100357E-001;-1.158795878291130E-001;-1.207054592669010E-003;3.614579094573855E-003;
2.426166666666667E+009;1.570740491151810E-001;-1.162544935941696E-001;-9.706419659778476E-004;3.619935363531113E-003;
2.426333333333334E+009;1.568341255187988E-001;-1.164285838603973E-001;-7.329596555791795E-004;3.679223358631134E-003;
2.426500000000000E+009;1.567945331335068E-001;-1.166464388370514E-001;-6.746809813193977E-004;3.520625876262784E-003;
2.426666666666667E+009;1.566055417060852E-001;-1.165241375565529E-001;-5.214823759160936E-004;3.498940262943506E-003;
2.426833333333334E+009;1.562196612358093E-001;-1.166998669505119E-001;-3.584322985261679E-004;3.526034997776151E-003;
2.427000000000000E+009;1.557383537292481E-001;-1.169199123978615E-001;-2.140380238415673E-004;3.439212683588266E-003;
2.427166666666667E+009;1.550258398056030E-001;-1.169594079256058E-001;-1.979205990210176E-004;3.425698960199952E-003;
2.427333333333334E+009;1.545059382915497E-001;-1.170891821384430E-001;2.406239673291566E-006;3.393776249140501E-003;
2.427500000000000E+009;1.539148241281509E-001;-1.171305999159813E-001;6.798966205678880E-005;3.237883327528834E-003;
2.427666666666667E+009;1.529311090707779E-001;-1.173270866274834E-001;2.359059581067413E-004;3.271663328632712E-003;
