# Hz S RI R 50
2400000000.0000000000 0.160510167479515103439169365629 0.056830551475286476825754533593 0.003146287053823471069335937500 0.002227624179795383973362588037 0 0 0 0 
2400166666.6666665077 0.160580664873123196700888115629 0.055459808558225631713867187500 0.003425940172746777968165732275 0.002190237864851952032801962744 0 0 0 0 
2400333333.3333334923 0.160556823015213012695312500000 0.053568057715892791748046875000 0.003489750670269132094142294775 0.002008369192481040954589843750 0 0 0 0 
2400500000.0000000000 0.160630539059639004806356865629 0.051772184669971473003347028907 0.003622751915827393965480185400 0.002005224814638495011570595850 0 0 0 0 
2400666666.6666665077 0.160881370306014986892861884371 0.050003916025161743164062500000 0.003587543265894054932835244287 0.001625529141165316104888916016 0 0 0 0 
2400833333.3333334923 0.161023423075675992111044365629 0.048269130289554602886159528907 0.003745394526049495177028036963 0.001616208930499851920484233325 0 0 0 0 
2401000000.0000000000 0.161267310380935696700888115629 0.046188648790121078491210937500 0.003854012349620461897609091650 0.001551812281832098960876464844 0 0 0 0 
2401166666.6666665077 0.161532849073410006424111884371 0.044435389339923858642578125000 0.003789275418967009024379111182 0.001329659251496196009992289966 0 0 0 0 
2401333333.3333334923 0.161674126982688903808593750000 0.042474702000617980957031250000 0.003906510770320892333984375000 0.001250147586688399098039936597 0 0 0 0 
2401500000.0000000000 0.162121817469596890548544365629 0.040657255798578262329101562500 0.003827902488410472869873046875 0.001062986324541270949720073169 0 0 0 0 
2401666666.6666665077 0.162694469094276400467080634371 0.038894783705472953105886091407 0.003962616436183452606201171875 0.000995063688606023788452148438 0 0 0 0 
2401833333.3333334923 0.162893772125244112869424384371 0.036955125629901892925222028907 0.004046204965561628341674804688 0.000868139613885432481765747070 0 0 0 0 
2402000000.0000000000 0.163296669721603393554687500000 0.035113994032144553447682966407 0.003886856138706206841709756006 0.000763070129323750734329223633 0 0 0 0 
2402166666.6666665077 0.163631290197372408767861884371 0.033280797302722930908203125000 0.003963591065257787704467773438 0.000502752372995018959045410156 0 0 0 0 
2402333333.3333334923 0.164312794804573086837606865629 0.031606569886207580566406250000 0.003840214340016245841979980469 0.000394816044718027114868164062 0 0 0 0 
2402500000.0000000000 0.165073812007904108245526231258 0.030188266187906268728236014454 0.003787649562582374052760458838 0.000148398743476718691274365836 0 0 0 0 
2402666666.6666665077 0.165534049272537203689736884371 0.028744312003254890441894531250 0.003840184770524501800537109375 0.000053389605454867712479045255 0 0 0 0 
2402833333.3333334923 0.166162267327308710296307481258 0.027100061997771259653111641796 0.003957676235586404800415039062 -0.000067929358920082449913024902 0 0 0 0 
2403000000.0000000000 0.166824147105217007736044365629 0.025690004229545589792271798046 0.003770678536966443061828613281 -0.000241427551372908109992426740 0 0 0 0 
2403166666.6666665077 0.167670309543609591385049384371 0.024190943688154220581054687500 0.003830007510259747938868857275 -0.000323512533213943188816624774 0 0 0 0 
2403333333.3333334923 0.168597355484962491134481865629 0.023124253377318378793736641796 0.003647824283689260916468954932 -0.000381305115297436714172363281 0 0 0 0 
2403500000.0000000000 0.169016420841217013260049384371 0.021688425913453098642369454296 0.003666592529043554826023720850 -0.000510447076521813869476318359 0 0 0 0 
2403666666.6666665077 0.169974833726882906814736884371 0.020380940288305279123326485546 0.003603101475164293809178017725 -0.000387762498576194102137965070 0 0 0 0 
2403833333.3333334923 0.170683175325393704513388115629 0.019197706133127209054967110546 0.003487770212814211845397949219 -0.000722063181456178426742553711 0 0 0 0 
2404000000.0000000000 0.171483322978019686599893134371 0.018323907628655430185338204296 0.003527330467477440834045410156 -0.000870118383318185806274414062 0 0 0 0 
2404166666.6666665077 0.172139704227447509765625000000 0.017063057050108909606933593750 0.003393608378246427016017294775 -0.000802447029855102300643920898 0 0 0 0 
2404333333.3333334923 0.172791078686714200118856865629 0.016182690858840938913365548046 0.003254974028095602989196777344 -0.001019072020426392988917685400 0 0 0 0 
2404500000.0000000000 0.173507735133171109298544365629 0.015224727801978589838971522852 0.003178456332534552054164267432 -0.001131956931203603961347270435 0 0 0 0 
2404666666.6666665077 0.174147814512252807617187500000 0.014626572839915750676165195898 0.003181061474606395201442099463 -0.001128973672166466929792094653 0 0 0 0 
2404833333.3333334923 0.174781128764152499099893134371 0.013778687454760079819648943555 0.003100821282714604897740029443 -0.001212518080137670040130615234 0 0 0 0 
2405000000.0000000000 0.175367206335067804534588731258 0.013144182041287420445452305273 0.002874666359275579886195517432 -0.001078638131730258898494101416 0 0 0 0 
2405166666.6666665077 0.176058739423751803299111884371 0.012567605823278430593470389454 0.002910767914727330207824707031 -0.001242919708602129979374550928 0 0 0 0 
2405333333.3333334923 0.176584020256996210296307481258 0.011859189718961719167689139454 0.002791387028992176055908203125 -0.001358214765787125067469931494 0 0 0 0 
2405500000.0000000000 0.177068158984184292892294365629 0.011523776687681680161445818555 0.002678042976185679002049111475 -0.001187985646538435979130410303 0 0 0 0 
2405666666.6666665077 0.177396357059478787521200615629 0.010939342901110650843610194727 0.002681891666725277900695800781 -0.001251296140253544070600200122 0 0 0 0 
2405833333.3333334923 0.177629396319389287750567518742 0.010457305237650869542131992773 0.002765462500974535942077636719 -0.001409556367434561035753559644 0 0 0 0 
2406000000.0000000000 0.177913084626197787185830634371 0.009915624745190143585205078125 0.002612828742712736129760742188 -0.001350218430161475918413471753 0 0 0 0 
2406166666.6666665077 0.178215190768241910079794365629 0.009760042652487754821777343750 0.002486522309482098059413290869 -0.001398293534293771006940532153 0 0 0 0 
2406333333.3333334923 0.178533479571342496017294365629 0.009396098554134368896484375000 0.002572479890659451918361044775 -0.001455623772926629023310995947 0 0 0 0 
2406500000.0000000000 0.178500637412071200271768134371 0.008946320973336696624755859375 0.002493097679689526991603232275 -0.001451177522540092901942587744 0 0 0 0 
2406666666.6666665077 0.178506985306739807128906250000 0.008457162417471408843994140625 0.002503936411812901930568076025 -0.001472992356866597912432026440 0 0 0 0 
2406833333.3333334923 0.178525745868682889083700615629 0.007965660654008388519287109375 0.002671992871910334067103720557 -0.001436509541235863945604633862 0 0 0 0 
2407000000.0000000000 0.178516149520873995681924384371 0.007641657721251249313354492188 0.002349688205868006186244345557 -0.001378748682327568964717245947 0 0 0 0 
2407166666.6666665077 0.178546935319900512695312500000 0.007151002064347267150878906250 0.002555701648816465897801064600 -0.001449508708901702924015664209 0 0 0 0 
2407333333.3333334923 0.178207531571388189117755018742 0.006532693747431039810180664062 0.002443728270009160041809082031 -0.001453521079383790926692343604 0 0 0 0 
2407500000.0000000000 0.178008481860160799881143134371 0.006086462642997503280639648438 0.002392638940364121957066201318 -0.001437496743164957003352499854 0 0 0 0 
2407666666.6666665077 0.177772060036659212967080634371 0.005531050264835357666015625000 0.002439762698486446900608681787 -0.001567529747262597084045410156 0 0 0 0 
2407833333.3333334923 0.177193343639373807052450615629 0.004882529843598604202270507812 0.002359932754188776016235351562 -0.001660740934312344031092978369 0 0 0 0 
2408000000.0000000000 0.176955550909042386154013115629 0.003889447078108787970301962744 0.002488293452188373045680380713 -0.001799359335564076900482177734 0 0 0 0 
2408166666.6666665077 0.176477819681167602539062500000 0.003253865754231811003444052588 0.002411767141893506050109863281 -0.001688406337052583911298442310 0 0 0 0 
2408333333.3333334923 0.176196962594985989669638115629 0.002396214520558714866638183594 0.002335057826712727980372763525 -0.001867775339633225960972451318 0 0 0 0 
2408500000.0000000000 0.175535157322883605957031250000 0.001377645414322615103480673682 0.002258987864479423002955771338 -0.001891202642582356929779052734 0 0 0 0 
2408666666.6666665077 0.174951046705245999435263115629 0.000371071713743731379508972168 0.002352460520341991944553994287 -0.001702863839454948902130126953 0 0 0 0 
2408833333.3333334923 0.174258902668952886383380018742 -0.000624217558652162551879882812 0.002254318213090300993678427588 -0.001932003884576261043548583984 0 0 0 0 
2409000000.0000000000 0.173754736781120300292968750000 -0.001695650629699229977251362378 0.002271695528179407119750976562 -0.001941843540407717011095356519 0 0 0 0 
2409166666.6666665077 0.173156559467315701583700615629 -0.003169952426105738119838095557 0.002300063380971550941467285156 -0.001963202608749270005467080225 0 0 0 0 
2409333333.3333334923 0.172792658209800692459268134371 -0.004450482316315174102783203125 0.002196114044636487960815429688 -0.002123128389939665794372558594 0 0 0 0 
2409500000.0000000000 0.172010913491249112228231865629 -0.005893868394196034345144941113 0.002246850635856389999389648438 -0.002087571658194065093994140625 0 0 0 0 
2409666666.6666665077 0.171460315585136413574218750000 -0.007272646296769380569458007812 0.002240014029666780991795205225 -0.002190448809415102005004882812 0 0 0 0 
2409833333.3333334923 0.170898288488388089279013115629 -0.008728598244488239288330078125 0.002152542117983102798461914062 -0.002295139478519558906555175781 0 0 0 0 
2410000000.0000000000 0.170541808009147588531817518742 -0.010132861323654649907122227148 0.002010139403864740891697548975 -0.002299883868545293807983398438 0 0 0 0 
2410166666.6666665077 0.169751077890396090408486884371 -0.011791023425757890183418474805 0.001887025544419884898542094653 -0.002265818417072296142578125000 0 0 0 0 
2410333333.3333334923 0.169492363929748507400674384371 -0.013543303124606609344482421875 0.001867853803560137965558696216 -0.002480197930708527998683310400 0 0 0 0 
2410500000.0000000000 0.169043377041816711425781250000 -0.015266565605998039245605468750 0.001834027585573494000675820459 -0.002450011437758802933933877100 0 0 0 0 
2410666666.6666665077 0.168660178780555697342080634371 -0.017219508066773421550710310157 0.001801719074137509086011577075 -0.002590982010588049888610839844 0 0 0 0 
2410833333.3333334923 0.168431341648101806640625000000 -0.018852617591619491577148437500 0.001886848709546030001399374854 -0.002541049849241971969604492188 0 0 0 0 
2411000000.0000000000 0.168341457843780489822549384371 -0.020553598180413249624232108204 0.001753808348439634063123393481 -0.002646398963406682014465332031 0 0 0 0 
2411166666.6666665077 0.167973145842552212814169365629 -0.022525267675518989562988281250 0.001649366924539207978489541162 -0.002696543466299771828892373193 0 0 0 0 
2411333333.3333334923 0.167871698737144497970419365629 -0.024220140650868419301966483204 0.001533436821773648045183491284 -0.002672323957085609002354287256 0 0 0 0 
2411500000.0000000000 0.167698919773101806640625000000 -0.026251183822751048696497733204 0.001543853781186043999315571362 -0.002827836433425546126124716650 0 0 0 0 
2411666666.6666665077 0.167854666709899902343750000000 -0.028252931311726570129394531250 0.001423184410668909983394003760 -0.002729224506765604019165039062 0 0 0 0 
2411833333.3333334923 0.167849138379097012618856865629 -0.029873775318264961242675781250 0.001456739613786339976667094653 -0.002998221199959516958949423682 0 0 0 0 
2412000000.0000000000 0.168065741658210809905682481258 -0.032021079212427139282226562500 0.001364802243188024000880576025 -0.002937655663117765946629189600 0 0 0 0 
2412166666.6666665077 0.168264999985694913009481865629 -0.033881690353155143047292341407 0.001312534324824810028076171875 -0.003112954553216695785522460938 0 0 0 0 
2412333333.3333334923 0.168595954775810186188067518742 -0.035555653274059302593190778907 0.001176572404801845984217978369 -0.002921896986663341955897665869 0 0 0 0 
2412500000.0000000000 0.168737590312957791427450615629 -0.037316985428333282470703125000 0.001111669233068824031232524341 -0.003138777101412415938136435400 0 0 0 0 
2412666666.6666665077 0.169172197580337496658486884371 -0.039313822984695441509206403907 0.000915416050702333450317382812 -0.003061868250370026068446493994 0 0 0 0 
2412833333.3333334923 0.169454768300056513030682481258 -0.040869630873203277587890625000 0.000861171050928533077239990234 -0.003177151316776872114894247900 0 0 0 0 
2413000000.0000000000 0.169905245304107693771200615629 -0.042609397321939468383789062500 0.000793614424765110015869140625 -0.003230010392144321961643838037 0 0 0 0 
2413166666.6666665077 0.170179605484008789062500000000 -0.044247873127460479736328125000 0.000628199544735252857208251953 -0.003214248688891530036926269531 0 0 0 0 
2413333333.3333334923 0.170699715614318903167401231258 -0.045822832733392722392995466407 0.000657269032672047615051269531 -0.003161776112392545180079794775 0 0 0 0 
2413500000.0000000000 0.171291619539260892013388115629 -0.047344356775283806537668596093 0.000521871435921639204025268555 -0.003095007268711924986598349463 0 0 0 0 
2413666666.6666665077 0.171797618269920404632244981258 -0.048873327672481536865234375000 0.000479580048704519922107142316 -0.003234489820897579193115234375 0 0 0 0 
2413833333.3333334923 0.172176107764244107345419365629 -0.050113070756196982646901716407 0.000294571946142241412967127667 -0.003330791136249899864196777344 0 0 0 0 
2414000000.0000000000 0.172615259885787991622763115629 -0.051565561443567282939870466407 0.000337539269821718280941563739 -0.003094176994636654853820800781 0 0 0 0 
2414166666.6666665077 0.173294708132743807693643134371 -0.052545860409736633300781250000 0.000335779390297830104827880859 -0.003244820749387145042419433594 0 0 0 0 
2414333333.3333334923 0.173841223120689392089843750000 -0.053724166005849838256835937500 -0.000014504742466670000419922369 -0.003213748801499605178833007812 0 0 0 0 
2414500000.0000000000 0.174418091773986788650674384371 -0.054748129099607467651367187500 0.000101336183433886603869576726 -0.003095417050644754929783486475 0 0 0 0 
2414666666.6666665077 0.174714922904968289474325615629 -0.055730406194925308227539062500 -0.000003772412355829147114183149 -0.003058684058487414880039834131 0 0 0 0 
2414833333.3333334923 0.175131812691688509842080634371 -0.056544665247201919555664062500 -0.000108071581053081899881362915 -0.003199352649971843199488974463 0 0 0 0 
2415000000.0000000000 0.175506651401519803146200615629 -0.057406801730394363403320312500 -0.000239433255046606090947827750 -0.003077238332480192184448242188 0 0 0 0 
2415166666.6666665077 0.175835072994232205489950615629 -0.058095280081033706665039062500 -0.000313410040689632296562194824 -0.003211941570043563842773437500 0 0 0 0 
2415333333.3333334923 0.176378697156906100174111884371 -0.058786544948816299438476562500 -0.000395417853724211508601588116 -0.003179766004905105070826865088 0 0 0 0 
2415500000.0000000000 0.176458731293678311446981865629 -0.059231199324131011962890625000 -0.000444003148004412705272120343 -0.003234252100810409025904990088 0 0 0 0 
2415666666.6666665077 0.176661401987075805664062500000 -0.059620846062898642803151716407 -0.000470629631308838725090026855 -0.003295768052339553833007812500 0 0 0 0 
2415833333.3333334923 0.176712885499000604827557481258 -0.060175761580467217182199846093 -0.000530886929482221603393554688 -0.003279893426224588914158486475 0 0 0 0 
2416000000.0000000000 0.176699727773666409591513115629 -0.060631096363067626953125000000 -0.000704979989677667617797851562 -0.002923149382695556120631552588 0 0 0 0 
2416166666.6666665077 0.176829606294632013518963731258 -0.060825616121292107318918596093 -0.000765411532483994960784912109 -0.003171349409967660903930664062 0 0 0 0 
2416333333.3333334923 0.176643371582031305511151231258 -0.061144307255744927143137346093 -0.000824965478386729955673217773 -0.003137630177661776976344443213 0 0 0 0 
2416500000.0000000000 0.176498502492904690841513115629 -0.061403959989547729492187500000 -0.000965496292337775230407714844 -0.003054973203688859939575195312 0 0 0 0 
2416666666.6666665077 0.176010295748710604568643134371 -0.061600543558597571636159528907 -0.001042365329340100071550678784 -0.003078305628150701956508017432 0 0 0 0 
2416833333.3333334923 0.175989285111427307128906250000 -0.061982814222574227069895158593 -0.001120904111303389072418212891 -0.002992442809045314788818359375 0 0 0 0 
2417000000.0000000000 0.175180658698081997970419365629 -0.062117781490087509155273437500 -0.001195144839584826989414834131 -0.002976040821522473855259560693 0 0 0 0 
2417166666.6666665077 0.174731776118278503417968750000 -0.062211748212575912475585937500 -0.001255557872354984066606831128 -0.002897194819524883790257119287 0 0 0 0 
2417333333.3333334923 0.174236208200454711914062500000 -0.062570706009864807128906250000 -0.001379116554744542078730917822 -0.002835105406120419935939169775 0 0 0 0 
2417500000.0000000000 0.173489749431610107421875000000 -0.062852784991264343261718750000 -0.001352352788671850941301655347 -0.002829019445925951004028320312 0 0 0 0 
2417666666.6666665077 0.172775521874427795410156250000 -0.063016146421432495117187500000 -0.001589151215739547989488911206 -0.002902681706473230881931923975 0 0 0 0 
2417833333.3333334923 0.171948418021202087402343750000 -0.063275575637817382812500000000 -0.001629864214919507937190390479 -0.002910126699134707884547568213 0 0 0 0 
2418000000.0000000000 0.170839115977287292480468750000 -0.063740924000740051269531250000 -0.001665663789026438973070454175 -0.002800496760755776925327920068 0 0 0 0 
2418166666.6666665077 0.169908568263053894042968750000 -0.063870035111904144287109375000 -0.001547252759337425015093159253 -0.002859016880393027825596474756 0 0 0 0 
2418333333.3333334923 0.169186353683471707443075615629 -0.064289793372154235839843750000 -0.001830694382078946070430136572 -0.002708954270929098129272460938 0 0 0 0 
2418500000.0000000000 0.167822316288948086837606865629 -0.064827941358089447021484375000 -0.001899395603686570904375385815 -0.002783990465104579925537109375 0 0 0 0 
2418666666.6666665077 0.166909292340278597732705634371 -0.065291389822959899902343750000 -0.001980419969186186790466308594 -0.002691205590963364081141806494 0 0 0 0 
2418833333.3333334923 0.165593758225441006759481865629 -0.065761081874370574951171875000 -0.002006295602768660025355673682 -0.002511175582185388045070029150 0 0 0 0 
2419000000.0000000000 0.164203241467475891113281250000 -0.066295012831687927246093750000 -0.002097683725878595872166298975 -0.002472667023539543151855468750 0 0 0 0 
2419166666.6666665077 0.163307353854179410079794365629 -0.067135781049728393554687500000 -0.002211621962487698034999228369 -0.002517695771530271010157919775 0 0 0 0 
2419333333.3333334923 0.161725655198097201248330634371 -0.067730709910392761230468750000 -0.002191415522247552871704101562 -0.002383346902206540107727050781 0 0 0 0 
2419500000.0000000000 0.160789906978607205489950615629 -0.068767890334129333496093750000 -0.002195331500843166871311806787 -0.002333212178200482888462685693 0 0 0 0 
2419666666.6666665077 0.159651920199394198318643134371 -0.069660693407058715820312500000 -0.002369870198890566825866699219 -0.002168888924643396897556923975 0 0 0 0 
2419833333.3333334923 0.158267959952354403396768134371 -0.070574253797531127929687500000 -0.002365846652537583871128701318 -0.002172371372580527825596474756 0 0 0 0 
