# Hz S RI R 50
2400000000.0000000000 0.158184930682182312011718750000 0.062768533825874328613281250000 0.002486165147274733023402548682 -0.000031406489142682403326034546 0 0 0 0 
2400166666.6666665077 0.157797098159790011306924384371 0.060980238020420067523996721093 0.002472786465659738020655966650 -0.000166161044035106897354125977 0 0 0 0 
2400333333.3333334923 0.157592833042144803146200615629 0.059139072895050048828125000000 0.002259696833789349035975790869 -0.000319728598697111010551452637 0 0 0 0 
2400500000.0000000000 0.158007815480232211013955634371 0.057251591235399253154714216407 0.002399640390649437904357910156 -0.000507629418279975652694702148 0 0 0 0 
2400666666.6666665077 0.157690539956092806717080634371 0.055149942636489868164062500000 0.002361365361139177842381142725 -0.000593352131545543670654296875 0 0 0 0 
2400833333.3333334923 0.157728657126426696777343750000 0.053229089826345436786692033593 0.002218139125034213066101074219 -0.000610308256000280380249023438 0 0 0 0 
2401000000.0000000000 0.157833486795425387283486884371 0.051194351166486740112304687500 0.002441034419462085203883505713 -0.000719922303687781095504760742 0 0 0 0 
2401166666.6666665077 0.157905697822570800781250000000 0.049115374684333801269531250000 0.002290195086970924897434853662 -0.000782508112024515867233276367 0 0 0 0 
2401333333.3333334923 0.158080667257308987716513115629 0.046974238008260726928710937500 0.002113524824380875067469931494 -0.000955193885602056980133056641 0 0 0 0 
2401500000.0000000000 0.158429712057113702972088731258 0.044955648481845862651784528907 0.002034949837252498106715536963 -0.001060404581949115016339946216 0 0 0 0 
2401666666.6666665077 0.158653080463409396072549384371 0.043142430484294891357421875000 0.001955303829163312911987304688 -0.001182851614430546977399516528 0 0 0 0 
2401833333.3333334923 0.159115657210350008865518134371 0.040780674666166312480886091407 0.001765171648003160953521728516 -0.001327887061052023930790566553 0 0 0 0 
2402000000.0000000000 0.159324303269386291503906250000 0.038879882544279098510742187500 0.001605395576916635036468505859 -0.001395071274600923061370849609 0 0 0 0 
2402166666.6666665077 0.159894108772277804275674384371 0.036725722253322601318359375000 0.001458844984881580092786479419 -0.001473421114496886947034526294 0 0 0 0 
2402333333.3333334923 0.160507306456565912444744981258 0.034946728497743606567382812500 0.001583400997333229021785117041 -0.001515202224254607937456440503 0 0 0 0 
2402500000.0000000000 0.161249667406082208831463731258 0.033128775656223297119140625000 0.001375273335725069046020507812 -0.001531086629256606101989746094 0 0 0 0 
2402666666.6666665077 0.161743104457855196853799384371 0.031373031437397003173828125000 0.001123205991461873054504394531 -0.001489003770984709046007465894 0 0 0 0 
2402833333.3333334923 0.162670716643333407303018134371 0.029737414792180061340332031250 0.001041273004375397942186665112 -0.001632282743230462074279785156 0 0 0 0 
2403000000.0000000000 0.163471624255180386642294365629 0.028175137937068939208984375000 0.000980598852038383483886718750 -0.001623610034584999084472656250 0 0 0 0 
2403166666.6666665077 0.164290547370910589020098768742 0.026453545317053798330286795704 0.000818688597064465284347534180 -0.001740047475323081016540527344 0 0 0 0 
2403333333.3333334923 0.165215998888015802581463731258 0.024985851719975471496582031250 0.000651456066407263278961181641 -0.001485138083808124065399169922 0 0 0 0 
2403500000.0000000000 0.166029974818229703048544365629 0.023500997573137279855748360546 0.000439395196735858917236328125 -0.001460354775190352959873818506 0 0 0 0 
2403666666.6666665077 0.167128503322601290603799384371 0.022030251100659370422363281250 0.000348151719663292223781031476 -0.001449054805561899922014545972 0 0 0 0 
2403833333.3333334923 0.168074324727058410644531250000 0.020645948126912120473841483204 0.000056259366829181089997291565 -0.001373629434965550899505615234 0 0 0 0 
2404000000.0000000000 0.169140711426734896560830634371 0.019553907215595248830775076954 0.000078396253229584544897079468 -0.001524233026430011012433696216 0 0 0 0 
2404166666.6666665077 0.170052915811538696289062500000 0.018546687439084049570103829296 -0.000015426192476297728717327118 -0.001375416642986238002777099609 0 0 0 0 
2404333333.3333334923 0.171057984232902499099893134371 0.017431257292628288269042968750 -0.000072196191467810422182083130 -0.001294486224651337103602743994 0 0 0 0 
2404500000.0000000000 0.171847090125083895584268134371 0.016357341781258579599400704296 -0.000360158737748861312866210938 -0.000886431487742811441421508789 0 0 0 0 
2404666666.6666665077 0.173157051205635098556356865629 0.015665188431739810598353201954 -0.000246660551056265776783543719 -0.001059443806298077106475830078 0 0 0 0 
2404833333.3333334923 0.173871889710426302810830634371 0.014794112183153629302978515625 -0.000290359865175560116767883301 -0.000887497735675424337387084961 0 0 0 0 
2405000000.0000000000 0.174807488918304387848223768742 0.014258827082812789571741873829 -0.000314323668135330080986022949 -0.000764617347158491611480712891 0 0 0 0 
2405166666.6666665077 0.175684049725532503982705634371 0.013405481353402139491071132227 -0.000379852543119341080814915790 -0.000620382721535861492156982422 0 0 0 0 
2405333333.3333334923 0.176586002111434908767861884371 0.012818954885005949193010899023 -0.000623610569164156913757324219 -0.000574688136111944913864135742 0 0 0 0 
2405500000.0000000000 0.177307590842247009277343750000 0.012456959113478660583496093750 -0.000417929113609716296195983887 -0.000519092020113021135330200195 0 0 0 0 
2405666666.6666665077 0.177911907434463500976562500000 0.011995706707239149266253086523 -0.000486200005980208516120910645 -0.000390058296034112626880091534 0 0 0 0 
2405833333.3333334923 0.178512334823608398437500000000 0.011567184701561929530133632227 -0.000554431695491075515747070312 -0.000254475831752642989158630371 0 0 0 0 
2406000000.0000000000 0.179146856069564791580361884371 0.011049181222915649414062500000 -0.000407558400183916091918945312 -0.000263617374002933502197265625 0 0 0 0 
2406166666.6666665077 0.179524734616279602050781250000 0.010961920022964479273785975977 -0.000397389638237655217021387921 0.000034015520213870331645011902 0 0 0 0 
2406333333.3333334923 0.180178314447403009612713731258 0.010481880046427249908447265625 -0.000405780388973653316497802734 0.000005491216597874881699681282 0 0 0 0 
2406500000.0000000000 0.180441498756408691406250000000 0.010210517793893810617467110546 -0.000184036704013124108314514160 0.000216489235754124793127337045 0 0 0 0 
2406666666.6666665077 0.180549010634422302246093750000 0.010049007833003999537457850977 -0.000218130880966782596990308218 0.000232476028031669611304682599 0 0 0 0 
2406833333.3333334923 0.180833220481872586349325615629 0.009570329450070858001708984375 -0.000416377733927220106124877930 0.000344167841831222176551818848 0 0 0 0 
2407000000.0000000000 0.181076601147651700118856865629 0.009307094849646091461181640625 -0.000203107803827151710360926495 0.000368689594324678182601928711 0 0 0 0 
2407166666.6666665077 0.181166544556617709060830634371 0.009069154039025306701660156250 -0.000098112694104202091693878174 0.000406179111450910622447413312 0 0 0 0 
2407333333.3333334923 0.180902957916259793380575615629 0.008536096662282943725585937500 -0.000145495141623541712760925293 0.000482009607367217486530858173 0 0 0 0 
2407500000.0000000000 0.180732548236846896072549384371 0.008185631595551967620849609375 0.000105660139524843503110347609 0.000665547966491430997848510742 0 0 0 0 
2407666666.6666665077 0.180501535534858703613281250000 0.007774281315505504608154296875 0.000153912435052916407585144043 0.000549451797269284725189208984 0 0 0 0 
2407833333.3333334923 0.180121168494224603850994981258 0.007113623432815074920654296875 0.000223777416977100101396283560 0.000616284611169248819351196289 0 0 0 0 
2408000000.0000000000 0.179791197180748013595419365629 0.006507779937237501144409179688 0.000321353407343849485546666278 0.000609234091825783252716064453 0 0 0 0 
2408166666.6666665077 0.179460987448692294021768134371 0.005972201470285654067993164062 0.000414809968788176774978637695 0.000629515154287219047546386719 0 0 0 0 
2408333333.3333334923 0.179044395685195895095986884371 0.005136207211762666702270507812 0.000391580862924456596374511719 0.000494659587275236953436696741 0 0 0 0 
2408500000.0000000000 0.178371742367744501311932481258 0.004245819989591836929321289062 0.000526844407431781291961669922 0.000690775457769632339477539062 0 0 0 0 
2408666666.6666665077 0.177853599190712002853231865629 0.003430016571655869917628622900 0.000730362837202847003936767578 0.000450371589977294206619262695 0 0 0 0 
2408833333.3333334923 0.177094250917434692382812500000 0.002408517757430673079249716650 0.000800374953541904687881469727 0.000425149424700066501468104230 0 0 0 0 
2409000000.0000000000 0.176247775554657010177450615629 0.001530498266220092990277934497 0.000727994192857295274734497070 0.000556037877686321735382080078 0 0 0 0 
2409166666.6666665077 0.175764515995979309082031250000 0.000420443131588399410247802734 0.000781928072683513164520263672 0.000366371154086664319038391113 0 0 0 0 
2409333333.3333334923 0.175145447254180908203125000000 -0.000767845020163804292678833008 0.000843983143568038940429687500 0.000564235262572765350341796875 0 0 0 0 
2409500000.0000000000 0.174336791038513211349325615629 -0.002204331103712319894077920068 0.001023482531309128024457621997 0.000384858634788542985916137695 0 0 0 0 
2409666666.6666665077 0.173646420240402193924111884371 -0.003466737689450383186340332031 0.001050637685693800015690468896 0.000310492818243801593780517578 0 0 0 0 
2409833333.3333334923 0.172913715243339510818643134371 -0.004827018361538648605346679688 0.001244846498593688011169433594 0.000520724628586322069168090820 0 0 0 0 
2410000000.0000000000 0.172257989645004300216513115629 -0.006205189507454633712768554688 0.001117416075430811102028871851 0.000396062358049675822257995605 0 0 0 0 
2410166666.6666665077 0.171699121594428988357705634371 -0.007867249660193920135498046875 0.001173610449768603064893413013 0.000293389224680140614509582520 0 0 0 0 
2410333333.3333334923 0.170996710658073397537393134371 -0.009423535317182540893554687500 0.001286885235458612008335732568 0.000226036019739694893360137939 0 0 0 0 
2410500000.0000000000 0.170548900961875887771768134371 -0.011199548840522769582728201954 0.001331054838374257087707519531 0.000026834297386812980880941085 0 0 0 0 
2410666666.6666665077 0.169803068041801508147869981258 -0.013155698776245120656946951954 0.001212401315569878058192587744 0.000076408745371736586093902588 0 0 0 0 
2410833333.3333334923 0.169418290257453890701455634371 -0.014758581295609470712681954296 0.001334394793957472064374614185 0.000047681038267910480499267578 0 0 0 0 
2411000000.0000000000 0.169013589620590209960937500000 -0.016702361404895779001256173046 0.001313055283389985995051718604 -0.000021313117031240839173997573 0 0 0 0 
2411166666.6666665077 0.168489992618560791015625000000 -0.018594596534967419015904610546 0.001258666045032442049739218604 -0.000124698402942158308908185416 0 0 0 0 
2411333333.3333334923 0.168357029557228088378906250000 -0.020532635971903800964355468750 0.001430760486982763030408549731 -0.000259593594819307273060399188 0 0 0 0 
2411500000.0000000000 0.168140023946762112716513115629 -0.022495545446872711181640625000 0.001220977981574832959416054834 -0.000342607992934063076972961426 0 0 0 0 
2411666666.6666665077 0.168019548058509798904580634371 -0.024474037811160091054896170704 0.001232495415024458928349160303 -0.000278382212854921817779541016 0 0 0 0 
2411833333.3333334923 0.167929604649543789962606865629 -0.026395117864012721670130545704 0.001279380638152360916137695312 -0.000381260033464059179455357684 0 0 0 0 
2412000000.0000000000 0.168029591441154507736044365629 -0.028449721634387969970703125000 0.001206749817356467030168842847 -0.000460188923170790076255798340 0 0 0 0 
2412166666.6666665077 0.168160349130630493164062500000 -0.030377853661775588989257812500 0.001124350121244787953020405347 -0.000556154700461775064468383789 0 0 0 0 
2412333333.3333334923 0.168390125036239596267861884371 -0.032088100910186767578125000000 0.001114916638471185944200825269 -0.000567693437915295362472534180 0 0 0 0 
2412500000.0000000000 0.168312072753906305511151231258 -0.034082427620887763286550153907 0.001164235640317202048060751807 -0.000482094706967472975880223407 0 0 0 0 
2412666666.6666665077 0.168822765350341796875000000000 -0.036176096647977828979492187500 0.001135337282903493101235414819 -0.000643604551441967487335205078 0 0 0 0 
2412833333.3333334923 0.169041261076927212814169365629 -0.037998724728822708129882812500 0.001202941872179507992388081128 -0.000740065996069461107254028320 0 0 0 0 
2413000000.0000000000 0.169435486197471590896768134371 -0.039846654981374740600585937500 0.001043727388605474992039345850 -0.000730347586795687675476074219 0 0 0 0 
2413166666.6666665077 0.169780969619751004318075615629 -0.041375704109668731689453125000 0.001118177548050879998448037256 -0.000758364913053810596466064453 0 0 0 0 
2413333333.3333334923 0.170240134000778198242187500000 -0.043134961277246482158620466407 0.001074601546861230893376015771 -0.000705233949702233076095581055 0 0 0 0 
2413500000.0000000000 0.170863822102546691894531250000 -0.044753689318895339965820312500 0.001040879637002944946289062500 -0.000716667273081839084625244141 0 0 0 0 
2413666666.6666665077 0.171402886509895296951455634371 -0.046452652662992477416992187500 0.001017230446450412056566547925 -0.000836015038657933473587036133 0 0 0 0 
2413833333.3333334923 0.171987101435661288162393134371 -0.047839544713497161865234375000 0.001071968115866184017778706128 -0.000913784082513302564620971680 0 0 0 0 
2414000000.0000000000 0.172493010759353609939736884371 -0.049339894205331802368164062500 0.000985231599770486354827880859 -0.000826935051009058952331542969 0 0 0 0 
2414166666.6666665077 0.173100188374519403655682481258 -0.050635576248168952251393903907 0.000966987572610378265380859375 -0.000897664402145892381668090820 0 0 0 0 
2414333333.3333334923 0.173536419868469210525674384371 -0.051852542906999588012695312500 0.001115049468353390910504985278 -0.001009590108878910975215292822 0 0 0 0 
2414500000.0000000000 0.174189537763595608810263115629 -0.052919436246156692504882812500 0.000882749562151730060577392578 -0.001114920596592128059984516675 0 0 0 0 
2414666666.6666665077 0.174672096967697088043536268742 -0.053943675011396408081054687500 0.001019455376081169085261679541 -0.001077210064977408105965639429 0 0 0 0 
2414833333.3333334923 0.174988970160484286209268134371 -0.055075995624065399169921875000 0.001067335484549402973772358472 -0.001052791718393564007402729565 0 0 0 0 
2415000000.0000000000 0.175620287656784113128338731258 -0.055880818516016013408620466407 0.000947489286772906780242919922 -0.001151619595475495078443217700 0 0 0 0 
2415166666.6666665077 0.176070839166641207595986884371 -0.056578926742076866840402971093 0.000936185126192867755889892578 -0.001304515870288013978245400537 0 0 0 0 
2415333333.3333334923 0.176414176821708706954794365629 -0.057446699589490890502929687500 0.000769603357184678316116333008 -0.001211448921822011904475546729 0 0 0 0 
2415500000.0000000000 0.176798075437545804122763115629 -0.057971626520156860351562500000 0.000990680535323917865753173828 -0.001236870302818716006038046729 0 0 0 0 
2415666666.6666665077 0.177076980471610995193643134371 -0.058517448604106903076171875000 0.000920649734325706958770751953 -0.001379349967464805083033896338 0 0 0 0 
2415833333.3333334923 0.177383512258529690841513115629 -0.059005536139011383056640625000 0.000887985399458557367324829102 -0.001347357523627578995348286206 0 0 0 0 
2416000000.0000000000 0.177405044436454800704794365629 -0.059369061142206192016601562500 0.000916108081582933664321899414 -0.001442744513042270920397114331 0 0 0 0 
2416166666.6666665077 0.177629843354225186446981865629 -0.059869032353162772441823591407 0.000833931961096823215484619141 -0.001557981828227638981462788159 0 0 0 0 
2416333333.3333334923 0.177621662616729708572549384371 -0.060015819966793060302734375000 0.000870674033649265766143798828 -0.001436924096196890094159770435 0 0 0 0 
2416500000.0000000000 0.177470445632934598068075615629 -0.060467038303613662719726562500 0.000759877148084342479705810547 -0.001393075799569488005397177588 0 0 0 0 
2416666666.6666665077 0.177234679460525512695312500000 -0.060578987002372741699218750000 0.000673086033202707767486572266 -0.001523931859992444948909140479 0 0 0 0 
2416833333.3333334923 0.177089989185333307464276231258 -0.061027824878692626953125000000 0.000643317762296646833419799805 -0.001620435388758779005763388525 0 0 0 0 
2417000000.0000000000 0.176615506410598810393963731258 -0.061252351850271231914479841407 0.000683212128933519124984741211 -0.001617101836018264076830219800 0 0 0 0 
2417166666.6666665077 0.176218986511230496505575615629 -0.061220642179250717163085937500 0.000488993246108293533325195312 -0.001693200902082026004791259766 0 0 0 0 
2417333333.3333334923 0.175882175564765902420205634371 -0.061469182372093200683593750000 0.000495378102641552686691284180 -0.001713115023449063084245991284 0 0 0 0 
2417500000.0000000000 0.175094515085220309158486884371 -0.061809930950403206562082658593 0.000457866146462038213580530988 -0.001865806290879846052882529150 0 0 0 0 
2417666666.6666665077 0.174588128924369812011718750000 -0.061844419687986366962473283593 0.000287804461549967473179417743 -0.001782603678293525955797504956 0 0 0 0 
2417833333.3333334923 0.173661366105079706390057481258 -0.062029443681240081787109375000 0.000394207600038498585850316180 -0.001815453520976006984710693359 0 0 0 0 
2418000000.0000000000 0.172702968120575006683026231258 -0.062564894556999206542968750000 0.000255176622886210680007934570 -0.001909830258227884986280131763 0 0 0 0 
2418166666.6666665077 0.171913966536521911621093750000 -0.062741093337535858154296875000 0.000218085682718083289548596793 -0.001852186978794633908512734521 0 0 0 0 
2418333333.3333334923 0.171067267656326293945312500000 -0.063104383647441864013671875000 0.000380275654606521075398045673 -0.001911506056785583929774618994 0 0 0 0 
2418500000.0000000000 0.169883072376251192947549384371 -0.063540518283843994140625000000 0.000222531409235671189710339957 -0.001962255453690886931178427588 0 0 0 0 
2418666666.6666665077 0.168773248791694613357705634371 -0.063994340598583221435546875000 0.000122433193610049811288556509 -0.001864563208073378042933798682 0 0 0 0 
2418833333.3333334923 0.167745217680931091308593750000 -0.064530670642852783203125000000 0.000170605781022459295675000601 -0.002030982635915278954746865381 0 0 0 0 
2419000000.0000000000 0.166433379054069491287393134371 -0.065081797540187835693359375000 0.000041976363718276836652348177 -0.001923857373185456015943217700 0 0 0 0 
2419166666.6666665077 0.165353998541831997970419365629 -0.065824724733829498291015625000 -0.000121705154015217003509244376 -0.002027200534939765930175781250 0 0 0 0 
2419333333.3333334923 0.163999378681182889083700615629 -0.066244877874851226806640625000 -0.000009662397133070044219493866 -0.002023592824116348786595009912 0 0 0 0 
2419500000.0000000000 0.162820115685463007171307481258 -0.067394554615020751953125000000 -0.000208363475394435199812212534 -0.002032685792073607011082314600 0 0 0 0 
2419666666.6666665077 0.161689504981041010100994981258 -0.068317756056785583496093750000 -0.000269084266619756817817687988 -0.001991142751649022102355957031 0 0 0 0 
2419833333.3333334923 0.160500824451446505447549384371 -0.069029048085212707519531250000 -0.000298286817269399816363734113 -0.002050330163910984992980957031 0 0 0 0 
