# Hz S RI R 50
2400000000.0000000000 0.158059209585189791580361884371 0.062555618584156036376953125000 0.002449346706271172003505087744 -0.000159203176735900288254338397 0 0 0 0 
2400166666.6666665077 0.158157303929328890701455634371 0.060966815799474723125417341407 0.002284444868564606146571493994 -0.000158804992679506513193407602 0 0 0 0 
2400333333.3333334923 0.157858893275260897537393134371 0.059164907783269882202148437500 0.002274315804243088202235556494 -0.000346476794220507090717869891 0 0 0 0 
2400500000.0000000000 0.157733723521232604980468750000 0.057178236544132232666015625000 0.002398981014266610145568847656 -0.000300420797429978901713770734 0 0 0 0 
2400666666.6666665077 0.157693058252334594726562500000 0.055159851908683776855468750000 0.002306027570739388899562216650 -0.000528750999365001916885375977 0 0 0 0 
2400833333.3333334923 0.157900139689445495605468750000 0.053391445428133010864257812500 0.002161077456548810005187988281 -0.000632219598628580570220947266 0 0 0 0 
2401000000.0000000000 0.157863557338714599609375000000 0.051146153360605239868164062500 0.002226881217211484909057617188 -0.000785719719715416431427001953 0 0 0 0 
2401166666.6666665077 0.158048450946807889083700615629 0.049061592668294906616210937500 0.002137446310371160940883017432 -0.000866509624756872653961181641 0 0 0 0 
2401333333.3333334923 0.158086106181144686599893134371 0.047070410102605819702148437500 0.002268398646265267892124795068 -0.000826098665129393339157104492 0 0 0 0 
2401500000.0000000000 0.158545672893524197677450615629 0.044841274619102478027343750000 0.002145582111552358107325888525 -0.001006282400339842059491801685 0 0 0 0 
2401666666.6666665077 0.158675208687782287597656250000 0.042996238917112350463867187500 0.001892354106530546925188374097 -0.001276286551728845076320029150 0 0 0 0 
2401833333.3333334923 0.159195244312286404708700615629 0.040786404162645339965820312500 0.001801339676603675105451274341 -0.001251444919034838893293071216 0 0 0 0 
2402000000.0000000000 0.159502685070037786285723768742 0.038913205265998840332031250000 0.001604756340384482903721474756 -0.001314206747338175990461039966 0 0 0 0 
2402166666.6666665077 0.159959167242050198654013115629 0.036796659231185913085937500000 0.001584104262292385101318359375 -0.001338489353656769015668559497 0 0 0 0 
2402333333.3333334923 0.160555571317672701736611884371 0.034828241914510726928710937500 0.001519304933026432991027832031 -0.001538529875688255050061870044 0 0 0 0 
2402500000.0000000000 0.161291629076004000564736884371 0.032996866852045059204101562500 0.001316023524850606918334960938 -0.001523579354397952990290976416 0 0 0 0 
2402666666.6666665077 0.161852538585662786285723768742 0.031339809298515319824218750000 0.001128782751038670973536826025 -0.001466456684283911965013813550 0 0 0 0 
2402833333.3333334923 0.162673503160476712325888115629 0.029605632647871971130371093750 0.001027033315040170929552387769 -0.001556590199470520019531250000 0 0 0 0 
2403000000.0000000000 0.163400843739509610275106865629 0.028036611154675480234166329296 0.000995784183032810688018798828 -0.001656658365391195037244487231 0 0 0 0 
2403166666.6666665077 0.164344251155853299239950615629 0.026588067412376400339146798046 0.000774079642724245786666870117 -0.001726550515741110064862895435 0 0 0 0 
2403333333.3333334923 0.165235653519630404373330634371 0.025079628452658649789830391796 0.000703600409906357526779174805 -0.001615015207789838097215961987 0 0 0 0 
2403500000.0000000000 0.166056916117668207366619981258 0.023478889837861061096191406250 0.000528077944181859493255615234 -0.001372717437334358909009623950 0 0 0 0 
2403666666.6666665077 0.167094141244888305664062500000 0.021954588592052459716796875000 0.000473367836093530113070887433 -0.001492287032306194088579487378 0 0 0 0 
2403833333.3333334923 0.168115377426147488693075615629 0.020981477573513991619069685157 0.000391926005249843001365661621 -0.001305297832004725933074951172 0 0 0 0 
2404000000.0000000000 0.169139131903648404220419365629 0.019585631787776950490931326954 0.000162119584274478310912531720 -0.001382542192004621028900146484 0 0 0 0 
2404166666.6666665077 0.170110911130905206878338731258 0.018277259543538090097447579296 -0.000024135420972015708684921265 -0.001325986115261911912205361475 0 0 0 0 
2404333333.3333334923 0.171094372868537902832031250000 0.017453290522098541259765625000 -0.000216049913433380397871294565 -0.001195487333461642048479389722 0 0 0 0 
2404500000.0000000000 0.171983256936073303222656250000 0.016478274017572399484654610546 -0.000156050416990183293819427490 -0.001137192593887448094011616284 0 0 0 0 
2404666666.6666665077 0.172991573810577392578125000000 0.015651775524020198476771170704 -0.000298860511975362896919250488 -0.001011104322969913916346884619 0 0 0 0 
2404833333.3333334923 0.173870816826820401290731865629 0.014802227728068830317487147852 -0.000166113764862529906347551889 -0.000972024456132203340530395508 0 0 0 0 
2405000000.0000000000 0.174839526414871188064736884371 0.013998717069625849288017072070 -0.000451398780569434220164698468 -0.000865975627675652503967285156 0 0 0 0 
2405166666.6666665077 0.175739094614982604980468750000 0.013474452309310439718226248829 -0.000524557835888117551803588867 -0.000830323959235101938247680664 0 0 0 0 
2405333333.3333334923 0.176611125469207791427450615629 0.012731679715216159820556640625 -0.000649575376883149147033691406 -0.000759415328502655029296875000 0 0 0 0 
2405500000.0000000000 0.177431896328926086425781250000 0.012304131872951979201347150195 -0.000501299160532653331756591797 -0.000298024911899119615554809570 0 0 0 0 
2405666666.6666665077 0.178015932440757806975994981258 0.011900072917342189443568045704 -0.000345650914823636412620544434 -0.000427310704253614003032130109 0 0 0 0 
2405833333.3333334923 0.178467586636543301681356865629 0.011623466387391090393066406250 -0.000596303143538534641265869141 -0.000376522075384855324595850812 0 0 0 0 
2406000000.0000000000 0.179231196641921997070312500000 0.011022975668311120814313319727 -0.000544585287570953369140625000 -0.000075713127444032579660415649 0 0 0 0 
2406166666.6666665077 0.179655119776725796798544365629 0.010855235159397130448311052930 -0.000332599563989788293838500977 -0.000056739962019491940736770630 0 0 0 0 
2406333333.3333334923 0.180110111832618713378906250000 0.010452195070683959615687186329 -0.000398121919715776985317784442 0.000099795826827175915241241455 0 0 0 0 
2406500000.0000000000 0.180493354797363309005575615629 0.010234710760414600372314453125 -0.000321592990076169425815028058 0.000124560974654741612359723502 0 0 0 0 
2406666666.6666665077 0.180491790175437899490518134371 0.009893927723169326782226562500 -0.000294100958853959983021336688 0.000103656850114930394008913583 0 0 0 0 
2406833333.3333334923 0.180825412273407010177450615629 0.009535538032650947570800781250 -0.000170486513525247600957593375 0.000424187572207301909297388898 0 0 0 0 
2407000000.0000000000 0.181117445230484008789062500000 0.009183176793158054351806640625 -0.000134272602736018598079681396 0.000439540133811533505290430890 0 0 0 0 
2407166666.6666665077 0.181134238839149502853231865629 0.009095543064177036285400390625 -0.000194015025044791400432586670 0.000423695135395973920822143555 0 0 0 0 
2407333333.3333334923 0.180823192000389099121093750000 0.008421609178185462951660156250 -0.000138226081617176505640307016 0.000324821216054260676533299579 0 0 0 0 
2407500000.0000000000 0.180786430835723904708700615629 0.008182641118764877319335937500 0.000032413368899142369627952576 0.000592037336900830268859863281 0 0 0 0 
2407666666.6666665077 0.180533379316330011565838731258 0.007699097972363234433645917676 0.000159814851940609487608233041 0.000337054778356105089187622070 0 0 0 0 
2407833333.3333334923 0.180090427398681612869424384371 0.007052531465888023376464843750 0.000287229835521429777145385742 0.000764796161092817783355712891 0 0 0 0 
2408000000.0000000000 0.179817542433738708496093750000 0.006522808689624071121215820312 0.000250438868533819913864135742 0.000626396038569509983062744141 0 0 0 0 
2408166666.6666665077 0.179294273257255609710369981258 0.006080397870391607284545898438 0.000367134780390188097953796387 0.000682174752000719308853149414 0 0 0 0 
2408333333.3333334923 0.178977698087692288497763115629 0.005315163172781466570382402637 0.000417910749092698097229003906 0.000666711945086717605590820312 0 0 0 0 
2408500000.0000000000 0.178383529186248807052450615629 0.004508995916694402694702148438 0.000467392412247136181027012958 0.000546958763152360916137695312 0 0 0 0 
2408666666.6666665077 0.177801981568336486816406250000 0.003581506200134754180908203125 0.000651653099339455366134643555 0.000627567700576037168502807617 0 0 0 0 
2408833333.3333334923 0.177121058106422396560830634371 0.002598212566226720809936523438 0.000591401010751724243164062500 0.000720923941116780042648315430 0 0 0 0 
2409000000.0000000000 0.176390364766120910644531250000 0.001701686182059348063227988135 0.000783788214903324842453002930 0.000592737400438636541366577148 0 0 0 0 
2409166666.6666665077 0.175771504640579195877236884371 0.000480328482808545177609044208 0.000821194087620824575424194336 0.000558639178052544593811035156 0 0 0 0 
2409333333.3333334923 0.175117433071136502364950615629 -0.000728962884750217199325561523 0.000840173219330608844757080078 0.000438575021689757704734802246 0 0 0 0 
2409500000.0000000000 0.174320802092552212814169365629 -0.002083615167066454887390136719 0.000878589111380279064178466797 0.000463379226857796311378479004 0 0 0 0 
2409666666.6666665077 0.173677623271942110916299384371 -0.003401077352464199066162109375 0.000940992904361337423324584961 0.000400072982301935607760828839 0 0 0 0 
2409833333.3333334923 0.172939673066139193435830634371 -0.004749309271574020385742187500 0.001000465359538793997523642432 0.000464008684502914602130335675 0 0 0 0 
2410000000.0000000000 0.172433063387870788574218750000 -0.006259295623749495419974042676 0.001149707008153199932695698315 0.000284976471448317224353236066 0 0 0 0 
2410166666.6666665077 0.171638354659080505371093750000 -0.007741589099168778333182050488 0.001154161989688873074175190503 0.000400772492866963202327174054 0 0 0 0 
2410333333.3333334923 0.171117037534713800628338731258 -0.009450481273233890533447265625 0.001198556623421608968022011865 0.000273133744485676288604736328 0 0 0 0 
2410500000.0000000000 0.170438766479492187500000000000 -0.011020363308489319192906563671 0.001232242793776094913482666016 0.000167172489454969790860852652 0 0 0 0 
2410666666.6666665077 0.169917419552803011795205634371 -0.013118284754455089569091796875 0.001254039583727716965916298975 -0.000067038621637038886547088623 0 0 0 0 
2410833333.3333334923 0.169471919536590603927450615629 -0.014820477925240990030308907421 0.001233692746609448952915810693 0.000005824567324452800676226616 0 0 0 0 
2411000000.0000000000 0.169114798307418795486611884371 -0.016546227037906650197962576954 0.001262502395547925992252968896 -0.000112194800749421106137414250 0 0 0 0 
2411166666.6666665077 0.168694108724594088455361884371 -0.018535764887928959238072579296 0.001325903576798737049102783203 -0.000236766281886957612916669302 0 0 0 0 
2411333333.3333334923 0.168336585164070101638955634371 -0.020266104489564899099329764454 0.001218362711369991085649799878 -0.000192821607924997806549072266 0 0 0 0 
2411500000.0000000000 0.168232709169387789627236884371 -0.022386787459254268300989920704 0.001252073212526739077327109229 -0.000223061360884457799509325571 0 0 0 0 
2411666666.6666665077 0.168158173561096191406250000000 -0.024393914267420768737792968750 0.001216402743011713027954101562 -0.000487309793243184685707092285 0 0 0 0 
2411833333.3333334923 0.168001294136047391036825615629 -0.026211826130747798574427420704 0.001245224848389625982997275244 -0.000311522802803665399551391602 0 0 0 0 
2412000000.0000000000 0.168136194348335293868856865629 -0.028368758037686351430872733204 0.001213477808050811073900532300 -0.000390783534385263919830322266 0 0 0 0 
2412166666.6666665077 0.167994767427444513518963731258 -0.030233941972255710256556326954 0.001079652807675302028656005859 -0.000442680437117815017700195312 0 0 0 0 
2412333333.3333334923 0.168462395668029812911825615629 -0.032080400735139846801757812500 0.001011441228911281065699911963 -0.000504833122249692678451538086 0 0 0 0 
2412500000.0000000000 0.168400213122367886642294365629 -0.034074027091264731670339216407 0.001149776275269686958910297925 -0.000621216546278446912765502930 0 0 0 0 
2412666666.6666665077 0.168918892741203308105468750000 -0.036107987165451049804687500000 0.001103490474633872942683554541 -0.000658513978123664855957031250 0 0 0 0 
2412833333.3333334923 0.169134855270385686676348768742 -0.038037355989217758178710937500 0.001123181544244288964512490381 -0.000600866391323506832122802734 0 0 0 0 
2413000000.0000000000 0.169525593519210787674111884371 -0.039640929549932479858398437500 0.001086019212380052046534872900 -0.000567551702260971069335937500 0 0 0 0 
2413166666.6666665077 0.169897437095642089843750000000 -0.041362244635820388793945312500 0.001145806163549423000933003003 -0.000682852580212056636810302734 0 0 0 0 
2413333333.3333334923 0.170291826128959711272869981258 -0.043289653956890113140065778907 0.001002945820800960063934326172 -0.000769216101616621017456054688 0 0 0 0 
2413500000.0000000000 0.170772641897201510330361884371 -0.044797006994485862041432966407 0.001032070373184978961944580078 -0.000794873747508972883224487305 0 0 0 0 
2413666666.6666665077 0.171412199735641507247763115629 -0.046318478882312781597097028907 0.001117406296543776988983154297 -0.000684217549860477447509765625 0 0 0 0 
2413833333.3333334923 0.171921670436859103103799384371 -0.047878701239824301982839216407 0.001012301072478293938877724756 -0.000748723570723086595535278320 0 0 0 0 
2414000000.0000000000 0.172228395938873291015625000000 -0.049416728317737579345703125000 0.000962322228588163852691650391 -0.000754856271669268608093261719 0 0 0 0 
2414166666.6666665077 0.172937273979187011718750000000 -0.050591301172971732402761091407 0.001064380398020148060442280347 -0.000856090045999735593795776367 0 0 0 0 
2414333333.3333334923 0.173661783337593106368856865629 -0.051902834326028816913645158593 0.001002120319753885052324604565 -0.000790803867857903242111206055 0 0 0 0 
2414500000.0000000000 0.174253180623054504394531250000 -0.052926249802112579345703125000 0.001058046589605510017992329175 -0.000943196122534573078155517578 0 0 0 0 
2414666666.6666665077 0.174667671322822598556356865629 -0.053876582533121109008789062500 0.000982938683591783046722412109 -0.000924975902307778596878051758 0 0 0 0 
2414833333.3333334923 0.175206884741783086578692518742 -0.054934281855821609497070312500 0.001003475743345916054369282300 -0.001022574491798877932904887622 0 0 0 0 
2415000000.0000000000 0.175575748085975702483807481258 -0.055839378386735923076589216407 0.000925489410292357206344604492 -0.001005287514999509074567485278 0 0 0 0 
2415166666.6666665077 0.176162287592887906173544365629 -0.056681610643863677978515625000 0.001069332705810666084289550781 -0.001010588719509541988372802734 0 0 0 0 
2415333333.3333334923 0.176522627472877502441406250000 -0.057478509843349456787109375000 0.001013789093121886036516499097 -0.001129116280935704924939799731 0 0 0 0 
2415500000.0000000000 0.176821082830429104904013115629 -0.057993877679109573364257812500 0.001054439577274024920222617041 -0.001111723133362829902051616138 0 0 0 0 
2415666666.6666665077 0.177082240581512506683026231258 -0.058508038520812988281250000000 0.000818261236418038606643676758 -0.001308449311181903102277446216 0 0 0 0 
2415833333.3333334923 0.177406653761863708496093750000 -0.059069830924272537231445312500 0.001072664046660066084620810400 -0.001127962139435112910029745947 0 0 0 0 
2416000000.0000000000 0.177419885993003900725994981258 -0.059437118470668792724609375000 0.000953982642386108636856079102 -0.001383480150252581076381064307 0 0 0 0 
2416166666.6666665077 0.177713811397552490234375000000 -0.059772640466690056537668596093 0.000842403562273830175399780273 -0.001236459123902023055432963794 0 0 0 0 
2416333333.3333334923 0.177637100219726590255575615629 -0.060093395411968231201171875000 0.000799529778305441141128540039 -0.001435313257388771013972617041 0 0 0 0 
2416500000.0000000000 0.177570343017578097244424384371 -0.060548767447471618652343750000 0.000769784615840762853622436523 -0.001417052000761032104492187500 0 0 0 0 
2416666666.6666665077 0.177295565605163601974325615629 -0.060577545315027236938476562500 0.000860384898260235786437988281 -0.001518746488727628967882465894 0 0 0 0 
2416833333.3333334923 0.177061617374420193771200615629 -0.060879345983266830444335937500 0.000713835004717111587524414062 -0.001572901732288300991058349609 0 0 0 0 
2417000000.0000000000 0.176593646407127408126669365629 -0.061177406460046768188476562500 0.000628268171567469835281372070 -0.001651533646509051106096577222 0 0 0 0 
2417166666.6666665077 0.176328122615814208984375000000 -0.061165492981672286987304687500 0.000636120326817035675048828125 -0.001596952439285814978955913013 0 0 0 0 
2417333333.3333334923 0.175745636224746704101562500000 -0.061418019235134131694753278907 0.000610551855061203241348266602 -0.001602252130396663925768208081 0 0 0 0 
2417500000.0000000000 0.175077170133590698242187500000 -0.061768859624862670898437500000 0.000683627848047763109207153320 -0.001674134167842566967010498047 0 0 0 0 
2417666666.6666665077 0.174469783902168301681356865629 -0.061974968761205673217773437500 0.000497329514473676681518554688 -0.001825873972848057963727641528 0 0 0 0 
2417833333.3333334923 0.173676833510398892501669365629 -0.062199249863624572753906250000 0.000563742651138454675674438477 -0.001777011784724890968920063550 0 0 0 0 
2418000000.0000000000 0.172759220004081698318643134371 -0.062553502619266510009765625000 0.000411756511311978101730346680 -0.001801284844987093968632363428 0 0 0 0 
2418166666.6666665077 0.171781569719314602950888115629 -0.062641762197017669677734375000 0.000320142193231731707423609601 -0.001868207473307847976684570312 0 0 0 0 
2418333333.3333334923 0.171183779835700988769531250000 -0.063232384622097015380859375000 0.000344199535902589613765162335 -0.001875129761174320957781147534 0 0 0 0 
2418500000.0000000000 0.169936940073967007736044365629 -0.063472449779510498046875000000 0.000228503340622410205289563589 -0.001868400140665471987483359229 0 0 0 0 
2418666666.6666665077 0.169022396206855801681356865629 -0.064079686999320983886718750000 0.000263093155808746814727783203 -0.001930107246153057055232382666 0 0 0 0 
2418833333.3333334923 0.167638733983039911468182481258 -0.064453639090061187744140625000 0.000175074965227395296096801758 -0.002025589114055037932154990088 0 0 0 0 
2419000000.0000000000 0.166483342647552490234375000000 -0.065160721540451049804687500000 0.000060148544434923678636550903 -0.001947354641743004105211567456 0 0 0 0 
2419166666.6666665077 0.165449991822242709060830634371 -0.065828874707221984863281250000 -0.000079655568697489798069000244 -0.002077862853184341950657509912 0 0 0 0 
2419333333.3333334923 0.164014443755149813553018134371 -0.066289909183979034423828125000 -0.000060056743677705533128192289 -0.002004993846639990806579589844 0 0 0 0 
2419500000.0000000000 0.162750035524368286132812500000 -0.067252069711685180664062500000 -0.000084309380326885730028152466 -0.001964532537385820908787392725 0 0 0 0 
2419666666.6666665077 0.161766678094863891601562500000 -0.068242177367210388183593750000 -0.000079209639807231724262237549 -0.002016213489696383909938193213 0 0 0 0 
2419833333.3333334923 0.160543248057365389724893134371 -0.068990334868431091308593750000 -0.000318185193464160019725245343 -0.002085902029648423194885253906 0 0 0 0 
