# Version 1.00
#
freq[Hz];re:Trc1_S11;im:Trc1_S11;re:Trc2_S21;im:Trc2_S21;
2.400000000000000E+009;1.513979285955429E-001;1.158064976334572E-001;4.308655858039856E-003;7.153633981943131E-003;
2.400166666666667E+009;1.508818864822388E-001;1.134930923581123E-001;4.402357153594494E-003;6.929020863026381E-003;
2.400333333333334E+009;1.511062830686569E-001;1.113184392452240E-001;4.452785011380911E-003;6.771229207515717E-003;
2.400500000000000E+009;1.509255766868591E-001;1.086321026086807E-001;4.721435252577066E-003;6.578866858035326E-003;
2.400666666666667E+009;1.506796926259995E-001;1.062983945012093E-001;4.750241991132498E-003;6.443774327635765E-003;
2.400833333333334E+009;1.506538838148117E-001;1.033456474542618E-001;4.938357509672642E-003;6.314307451248169E-003;
2.401000000000000E+009;1.508666723966599E-001;1.006004884839058E-001;4.948848392814398E-003;6.086468696594238E-003;
2.401166666666667E+009;1.506653428077698E-001;9.782028943300247E-002;4.934703465551138E-003;5.989789962768555E-003;
2.401333333333334E+009;1.511056423187256E-001;9.501600265502930E-002;5.191475152969360E-003;5.795302335172892E-003;
2.401500000000000E+009;1.513703614473343E-001;9.216027706861496E-002;5.284595768898726E-003;5.633034277707338E-003;
2.401666666666667E+009;1.517068445682526E-001;8.948498219251633E-002;5.227804649621248E-003;5.767737049609423E-003;
2.401833333333334E+009;1.521081179380417E-001;8.665025979280472E-002;5.527418106794357E-003;5.513090640306473E-003;
2.402000000000000E+009;1.530130058526993E-001;8.370738476514816E-002;5.689852871000767E-003;5.521632265299559E-003;
2.402166666666667E+009;1.538682878017426E-001;8.125052601099014E-002;5.854346323758364E-003;5.544742569327354E-003;
2.402333333333334E+009;1.548041999340057E-001;7.839690893888474E-002;5.931638181209564E-003;5.351026542484760E-003;
2.402500000000000E+009;1.561075150966644E-001;7.572904229164124E-002;6.453088019043207E-003;5.197471007704735E-003;
2.402666666666667E+009;1.573370695114136E-001;7.325959205627441E-002;6.500015035271645E-003;5.083724390715361E-003;
2.402833333333334E+009;1.587616950273514E-001;7.071799784898758E-002;6.813675165176392E-003;5.161769222468138E-003;
2.403000000000000E+009;1.602866500616074E-001;6.816877424716950E-002;7.290225476026535E-003;4.680196754634380E-003;
2.403166666666667E+009;1.624320000410080E-001;6.570938974618912E-002;7.433925755321980E-003;4.598055034875870E-003;
2.403333333333334E+009;1.638817638158798E-001;6.327494978904724E-002;7.691670209169388E-003;4.132793750613928E-003;
2.403500000000000E+009;1.658603996038437E-001;6.122567504644394E-002;8.060451596975327E-003;3.818888682872057E-003;
2.403666666666667E+009;1.678508371114731E-001;5.899709835648537E-002;8.254640735685825E-003;3.482984844595194E-003;
2.403833333333334E+009;1.697966307401657E-001;5.692202225327492E-002;8.272984996438026E-003;3.225767519325018E-003;
2.404000000000000E+009;1.715573966503143E-001;5.504351109266281E-002;8.460291661322117E-003;2.513941144570708E-003;
2.404166666666667E+009;1.734861880540848E-001;5.334096774458885E-002;8.627060800790787E-003;2.356859855353832E-003;
2.404333333333334E+009;1.755000054836273E-001;5.158106610178947E-002;8.682600222527981E-003;1.930361613631249E-003;
2.404500000000000E+009;1.772132813930512E-001;4.988425597548485E-002;8.649233728647232E-003;1.690652570687234E-003;
2.404666666666667E+009;1.795003712177277E-001;4.869262874126434E-002;8.584733121097088E-003;1.203255378641188E-003;
2.404833333333334E+009;1.813297122716904E-001;4.747248068451881E-002;8.548907935619354E-003;8.319001644849777E-004;
2.405000000000000E+009;1.828519701957703E-001;4.667615517973900E-002;8.554714731872082E-003;5.671176477335393E-004;
2.405166666666667E+009;1.846091151237488E-001;4.571009427309036E-002;8.527209982275963E-003;1.938455388881266E-004;
2.405333333333334E+009;1.863891780376434E-001;4.506998136639595E-002;8.508453145623207E-003;3.269633452873677E-005;
2.405500000000000E+009;1.880959570407867E-001;4.447139799594879E-002;8.533807471394539E-003;-2.945059386547655E-004;
2.405666666666667E+009;1.897149682044983E-001;4.411819949746132E-002;8.325072005391121E-003;-6.465670885518193E-004;
2.405833333333334E+009;1.913759708404541E-001;4.374388605356216E-002;8.301227353513241E-003;-7.744352915324271E-004;
2.406000000000000E+009;1.925716996192932E-001;4.345481470227242E-002;8.335880935192108E-003;-1.168358372524381E-003;
2.406166666666667E+009;1.939107179641724E-001;4.313033819198608E-002;8.210713975131512E-003;-1.462806947529316E-003;
2.406333333333334E+009;1.950987279415131E-001;4.323694482445717E-002;8.332670666277409E-003;-1.811320078559220E-003;
2.406500000000000E+009;1.962638646364212E-001;4.307533800601959E-002;8.193658664822578E-003;-2.015358069911599E-003;
2.406666666666667E+009;1.972415447235107E-001;4.316217824816704E-002;8.169340901076794E-003;-2.304814523085952E-003;
2.406833333333334E+009;1.980034857988358E-001;4.310236498713493E-002;7.934366352856159E-003;-2.799062058329582E-003;
2.407000000000000E+009;1.985473334789276E-001;4.337023198604584E-002;7.799983955919743E-003;-2.927369438111782E-003;
2.407166666666667E+009;1.991546303033829E-001;4.331015050411224E-002;7.806562818586826E-003;-3.262003883719444E-003;
2.407333333333334E+009;1.993530839681625E-001;4.332154244184494E-002;7.422647438943386E-003;-3.535190364345908E-003;
2.407500000000000E+009;1.995188593864441E-001;4.357893764972687E-002;7.377093192189932E-003;-3.775962162762880E-003;
2.407666666666667E+009;1.997333168983460E-001;4.338765889406204E-002;7.115346379578114E-003;-4.080013372004032E-003;
2.407833333333334E+009;1.994555592536926E-001;4.345517978072166E-002;6.932191550731659E-003;-4.143054597079754E-003;
2.408000000000000E+009;1.994027346372604E-001;4.330558329820633E-002;6.753894034773111E-003;-4.450277425348759E-003;
2.408166666666667E+009;1.988932788372040E-001;4.310372844338417E-002;6.828522775322199E-003;-4.595042206346989E-003;
2.408333333333334E+009;1.985150426626205E-001;4.273964837193489E-002;6.386228837072849E-003;-4.749237094074488E-003;
2.408500000000000E+009;1.978756189346314E-001;4.251737892627716E-002;6.067835725843906E-003;-4.960929974913597E-003;
2.408666666666667E+009;1.973001509904862E-001;4.198361188173294E-002;5.967890843749046E-003;-5.236702505499125E-003;
2.408833333333334E+009;1.965456455945969E-001;4.136067256331444E-002;5.748595576733351E-003;-5.374723579734564E-003;
2.409000000000000E+009;1.955117285251617E-001;4.063445329666138E-002;5.451047793030739E-003;-5.471507087349892E-003;
2.409166666666667E+009;1.945119798183441E-001;3.979972004890442E-002;5.273106507956982E-003;-5.570571403950453E-003;
2.409333333333334E+009;1.933771669864655E-001;3.892429545521736E-002;5.040680989623070E-003;-5.836802534759045E-003;
2.409500000000000E+009;1.921256482601166E-001;3.780282661318779E-002;4.863854963332415E-003;-5.795632489025593E-003;
2.409666666666667E+009;1.909718364477158E-001;3.635280206799507E-002;4.694727715104818E-003;-5.873112939298153E-003;
2.409833333333334E+009;1.897382587194443E-001;3.505418822169304E-002;4.376575350761414E-003;-6.077357567846775E-003;
2.410000000000000E+009;1.884993463754654E-001;3.347325697541237E-002;4.131398629397154E-003;-6.144522689282894E-003;
2.410166666666667E+009;1.873589307069778E-001;3.180043771862984E-002;4.049299750477076E-003;-6.133084185421467E-003;
2.410333333333334E+009;1.862731128931046E-001;3.024500235915184E-002;3.834622912108898E-003;-6.291353143751621E-003;
2.410500000000000E+009;1.849363446235657E-001;2.829632535576820E-002;3.667622804641724E-003;-6.182408891618252E-003;
2.410666666666667E+009;1.838644742965698E-001;2.618563547730446E-002;3.479919163510203E-003;-6.420134566724300E-003;
2.410833333333334E+009;1.829759776592255E-001;2.409234829246998E-002;3.248468972742558E-003;-6.524078082293272E-003;
2.411000000000000E+009;1.820937693119049E-001;2.190803550183773E-002;3.137205960229039E-003;-6.334557663649321E-003;
2.411166666666667E+009;1.812913417816162E-001;1.970976591110230E-002;2.971741603687406E-003;-6.592083722352982E-003;
2.411333333333334E+009;1.803638786077499E-001;1.726046204566956E-002;2.783342963084579E-003;-6.504432298243046E-003;
2.411500000000000E+009;1.799445599317551E-001;1.492697931826115E-002;2.430689986795187E-003;-6.593286059796810E-003;
2.411666666666667E+009;1.793246567249298E-001;1.227674260735512E-002;2.404684200882912E-003;-6.664285436272621E-003;
2.411833333333334E+009;1.788493841886520E-001;9.939111769199371E-003;2.281263237819076E-003;-6.705611944198608E-003;
2.412000000000000E+009;1.788686066865921E-001;7.294354028999806E-003;1.939177513122559E-003;-6.596424151211977E-003;
2.412166666666667E+009;1.787324547767639E-001;4.775659646838903E-003;1.893561799079180E-003;-6.677836645394564E-003;
2.412333333333334E+009;1.785926818847656E-001;2.173733431845903E-003;1.653844374231994E-003;-6.671089679002762E-003;
2.412500000000000E+009;1.789386719465256E-001;-4.660557897295803E-004;1.603148411959410E-003;-6.847769021987915E-003;
2.412666666666667E+009;1.792930811643601E-001;-3.064409131184220E-003;1.305683166719973E-003;-6.827145349234343E-003;
2.412833333333334E+009;1.798923164606094E-001;-5.722424015402794E-003;1.233473070897162E-003;-6.788870785385370E-003;
2.413000000000000E+009;1.804913878440857E-001;-8.209330029785633E-003;1.155960955657065E-003;-6.809568498283625E-003;
2.413166666666667E+009;1.810340583324432E-001;-1.058728247880936E-002;9.802030399441719E-004;-7.022795733064413E-003;
2.413333333333334E+009;1.820891052484512E-001;-1.309572253376246E-002;8.323063957504928E-004;-7.100695278495550E-003;
2.413500000000000E+009;1.828743517398834E-001;-1.548125874251127E-002;5.217466969043016E-004;-7.231486495584250E-003;
2.413666666666667E+009;1.840344965457916E-001;-1.788971759378910E-002;3.477463324088603E-004;-7.233391515910626E-003;
2.413833333333334E+009;1.851008534431458E-001;-2.007672935724258E-002;1.456457830499858E-004;-7.299306802451611E-003;
2.414000000000000E+009;1.861469894647598E-001;-2.211633697152138E-002;-1.468858390580863E-004;-7.547870744019747E-003;
2.414166666666667E+009;1.874263882637024E-001;-2.427313104271889E-002;-4.459080810192972E-004;-7.417291868478060E-003;
2.414333333333334E+009;1.884635239839554E-001;-2.656609751284123E-002;-6.921636522747576E-004;-7.350118365138769E-003;
2.414500000000000E+009;1.899234801530838E-001;-2.804366685450077E-002;-1.062333351001144E-003;-7.504399865865707E-003;
2.414666666666667E+009;1.910534501075745E-001;-2.967825718224049E-002;-1.272804569453001E-003;-7.453765720129013E-003;
2.414833333333334E+009;1.922478079795837E-001;-3.130121901631355E-002;-1.724869245663285E-003;-7.304077502340078E-003;
2.415000000000000E+009;1.934007555246353E-001;-3.269043937325478E-002;-1.999335363507271E-003;-7.322277408093214E-003;
2.415166666666667E+009;1.947731077671051E-001;-3.372015431523323E-002;-2.236009575426579E-003;-7.384229451417923E-003;
2.415333333333334E+009;1.961129456758499E-001;-3.504557907581329E-002;-2.564344322308898E-003;-7.259628269821405E-003;
2.415500000000000E+009;1.972872316837311E-001;-3.566240146756172E-002;-2.822110662236810E-003;-7.043203338980675E-003;
2.415666666666667E+009;1.984242647886276E-001;-3.680434077978134E-002;-3.145129652693868E-003;-6.990749388933182E-003;
2.415833333333334E+009;1.994681358337402E-001;-3.748216107487679E-002;-3.357279347255826E-003;-6.800419185310602E-003;
2.416000000000000E+009;2.003195732831955E-001;-3.803282603621483E-002;-3.440808737650514E-003;-6.642805412411690E-003;
2.416166666666667E+009;2.011618912220001E-001;-3.866648301482201E-002;-3.725619753822684E-003;-6.595507729798555E-003;
2.416333333333334E+009;2.019507586956024E-001;-3.901713341474533E-002;-3.966001793742180E-003;-6.316096521914005E-003;
2.416500000000000E+009;2.026036530733109E-001;-3.921140730381012E-002;-4.129006527364254E-003;-6.174764130264521E-003;
2.416666666666667E+009;2.028271853923798E-001;-3.947153314948082E-002;-4.317140672355890E-003;-6.073214579373598E-003;
2.416833333333334E+009;2.033015191555023E-001;-3.942684829235077E-002;-4.598921630531550E-003;-5.763623863458633E-003;
2.417000000000000E+009;2.036262452602387E-001;-3.952824696898460E-002;-4.829289857298136E-003;-5.682866089046001E-003;
2.417166666666667E+009;2.035614103078842E-001;-3.932285308837891E-002;-4.886069800704718E-003;-5.532079376280308E-003;
2.417333333333334E+009;2.035131305456162E-001;-3.892306238412857E-002;-4.828322213143110E-003;-5.409439094364643E-003;
2.417500000000000E+009;2.033384293317795E-001;-3.880115598440170E-002;-5.139289889484644E-003;-5.298800300806761E-003;
2.417666666666667E+009;2.028882354497910E-001;-3.851053863763809E-002;-5.220255814492703E-003;-5.169796291738749E-003;
2.417833333333334E+009;2.027612626552582E-001;-3.810784220695496E-002;-5.443742964416742E-003;-5.022128112614155E-003;
2.418000000000000E+009;2.022605985403061E-001;-3.764142841100693E-002;-5.767282098531723E-003;-4.849015735089779E-003;
2.418166666666667E+009;2.015927284955978E-001;-3.742948174476624E-002;-5.963657982647419E-003;-4.763516131788492E-003;
2.418333333333334E+009;2.008320242166519E-001;-3.690304234623909E-002;-6.186333484947681E-003;-4.624474793672562E-003;
2.418500000000000E+009;2.000150084495544E-001;-3.683919459581375E-002;-6.415910087525845E-003;-4.339151550084353E-003;
2.418666666666667E+009;1.991857290267944E-001;-3.665573149919510E-002;-6.624591536819935E-003;-4.077605437487364E-003;
2.418833333333334E+009;1.980639994144440E-001;-3.652625530958176E-002;-6.956138648092747E-003;-3.840951481834054E-003;
2.419000000000000E+009;1.967667788267136E-001;-3.643777966499329E-002;-7.019063923507929E-003;-3.384112380445004E-003;
2.419166666666667E+009;1.957643032073975E-001;-3.659579902887344E-002;-7.189209572970867E-003;-3.073040628805757E-003;
2.419333333333334E+009;1.943660974502564E-001;-3.681770339608192E-002;-7.296410854905844E-003;-2.831041114404798E-003;
2.419500000000000E+009;1.928361803293228E-001;-3.721831738948822E-002;-7.296446245163679E-003;-2.318643964827061E-003;
2.419666666666667E+009;1.913228332996368E-001;-3.772991150617600E-002;-7.316990289837122E-003;-1.999697647988796E-003;
2.419833333333334E+009;1.897012144327164E-001;-3.827005252242088E-002;-7.307544350624085E-003;-1.623984426259995E-003;
2.420000000000000E+009;1.881142407655716E-001;-3.890806436538696E-002;-7.195923477411270E-003;-1.405968330800533E-003;
2.420166666666667E+009;1.865786910057068E-001;-3.968998044729233E-002;-7.131688762456179E-003;-1.062998780980706E-003;
2.420333333333334E+009;1.847819238901138E-001;-4.065550863742828E-002;-7.118067238479853E-003;-9.196386672556400E-004;
2.420500000000000E+009;1.830208897590637E-001;-4.186366125941277E-002;-7.058290299028158E-003;-5.898145609535277E-004;
2.420666666666667E+009;1.814495921134949E-001;-4.293255880475044E-002;-6.873573176562786E-003;-4.037823819089681E-004;
2.420833333333334E+009;1.796666532754898E-001;-4.434584081172943E-002;-6.743863690644503E-003;-2.805142430588603E-004;
2.421000000000000E+009;1.780546605587006E-001;-4.566877707839012E-002;-6.765094120055437E-003;-2.269025426357985E-004;
2.421166666666667E+009;1.765212267637253E-001;-4.739204421639442E-002;-6.508390884846449E-003;7.204309076769278E-005;
2.421333333333334E+009;1.747177392244339E-001;-4.891953989863396E-002;-6.557969376444817E-003;3.142083005513996E-004;
2.421500000000000E+009;1.733106523752213E-001;-5.062785372138023E-002;-6.477639079093933E-003;3.015810798387975E-004;
2.421666666666667E+009;1.719304919242859E-001;-5.238043516874313E-002;-6.390993483364582E-003;5.181721644476056E-004;
2.421833333333334E+009;1.706140339374542E-001;-5.430270358920097E-002;-6.487569306045771E-003;5.836816271767020E-004;
2.422000000000000E+009;1.693702787160873E-001;-5.618590489029884E-002;-6.448107771575451E-003;6.853197701275349E-004;
2.422166666666667E+009;1.683275401592255E-001;-5.816887691617012E-002;-6.386217661201954E-003;7.812549592927098E-004;
2.422333333333334E+009;1.670429110527039E-001;-6.038152053952217E-002;-6.433735601603985E-003;1.020328258164227E-003;
2.422500000000000E+009;1.663412004709244E-001;-6.217770278453827E-002;-6.394908763468266E-003;1.208240631967783E-003;
2.422666666666667E+009;1.656669825315476E-001;-6.432530283927918E-002;-6.438344717025757E-003;1.391349011100829E-003;
2.422833333333334E+009;1.649787724018097E-001;-6.622810661792755E-002;-6.357579957693815E-003;1.526041422039270E-003;
2.423000000000000E+009;1.643996536731720E-001;-6.853294372558594E-002;-6.311265286058188E-003;1.663459348492324E-003;
2.423166666666667E+009;1.641553193330765E-001;-7.050192356109619E-002;-6.282735615968704E-003;1.973625039681792E-003;
2.423333333333334E+009;1.637690961360931E-001;-7.267479598522186E-002;-6.372853182256222E-003;2.061403123661876E-003;
2.423500000000000E+009;1.636130958795548E-001;-7.450459897518158E-002;-6.369482260197401E-003;2.178975846618414E-003;
2.423666666666667E+009;1.635952293872833E-001;-7.647411525249481E-002;-6.158026866614819E-003;2.590733813121915E-003;
2.423833333333334E+009;1.636521071195602E-001;-7.840970158576965E-002;-6.066918373107910E-003;2.905901521444321E-003;
2.424000000000000E+009;1.637792587280273E-001;-8.048082888126373E-002;-6.151312030851841E-003;3.099768655374646E-003;
2.424166666666667E+009;1.637780964374542E-001;-8.204752951860428E-002;-5.795787088572979E-003;3.261382458731532E-003;
2.424333333333334E+009;1.642717123031616E-001;-8.368719369173050E-002;-5.803373176604509E-003;3.453868674114347E-003;
2.424500000000000E+009;1.647910326719284E-001;-8.577413111925125E-002;-5.433065816760063E-003;3.731251228600740E-003;
2.424666666666667E+009;1.650201827287674E-001;-8.710453659296036E-002;-5.473271943628788E-003;3.857281291857362E-003;
2.424833333333334E+009;1.657868772745132E-001;-8.863110840320587E-002;-5.072225350886583E-003;4.060150124132633E-003;
2.425000000000000E+009;1.661502271890640E-001;-9.004169702529907E-002;-4.985776264220476E-003;4.322133027017117E-003;
2.425166666666667E+009;1.667374968528748E-001;-9.104954451322556E-002;-4.898472689092159E-003;4.220609553158283E-003;
2.425333333333334E+009;1.672115027904511E-001;-9.224769473075867E-002;-4.773104097694159E-003;4.597595427185297E-003;
2.425500000000000E+009;1.678928136825562E-001;-9.325657039880753E-002;-4.464909434318543E-003;4.585473332554102E-003;
2.425666666666667E+009;1.684854775667191E-001;-9.419369697570801E-002;-4.390154033899307E-003;4.746282938867807E-003;
2.425833333333334E+009;1.690243929624558E-001;-9.509188681840897E-002;-4.017240833491087E-003;4.835676401853561E-003;
2.426000000000000E+009;1.696646511554718E-001;-9.564962983131409E-002;-3.855749731883407E-003;5.030345637351275E-003;
2.426166666666667E+009;1.702092289924622E-001;-9.611575305461884E-002;-3.807652741670609E-003;5.050633568316698E-003;
2.426333333333334E+009;1.706781685352325E-001;-9.677123278379440E-002;-3.623148426413536E-003;5.116092506796122E-003;
2.426500000000000E+009;1.713631004095078E-001;-9.720034897327423E-002;-3.323467681184411E-003;5.306472070515156E-003;
2.426666666666667E+009;1.719393730163574E-001;-9.754383563995361E-002;-3.233481664210558E-003;5.300749093294144E-003;
2.426833333333334E+009;1.724755018949509E-001;-9.799301624298096E-002;-3.082340816035867E-003;5.272820591926575E-003;
2.427000000000000E+009;1.727790534496307E-001;-9.827984869480133E-002;-2.891884418204427E-003;5.448541603982449E-003;
2.427166666666667E+009;1.730787009000778E-001;-9.844761341810226E-002;-2.612226177006960E-003;5.384914577007294E-003;
2.427333333333334E+009;1.731640547513962E-001;-9.866077452898026E-002;-2.568171359598637E-003;5.580211989581585E-003;
2.427500000000000E+009;1.732340604066849E-001;-9.884034097194672E-002;-2.342815976589918E-003;5.536971613764763E-003;
2.427666666666667E+009;1.731739789247513E-001;-9.899532049894333E-002;-2.208331367000938E-003;5.660774186253548E-003;
