# Hz S RI R 
2400000000.0000000000 0.168059542775154113769531250000 0.040972020477056503295898437500 -0.000348675384884700179100036621 -0.001959468703716992898228310693 0 0 0 0 
2400166666.6666665077 0.168645694851875305175781250000 0.040355104953050613403320312500 -0.000207334509468637406826019287 -0.002052383264526724815368652344 0 0 0 0 
2400333333.3333334923 0.169019535183906610686932481258 0.039283167570829391479492187500 -0.000254630605923011898994445801 -0.002005504444241524176356650244 0 0 0 0 
2400500000.0000000000 0.169425234198570306975994981258 0.038535162806510932231862653907 -0.000142177348607219809859675275 -0.002180598676204680962803506006 0 0 0 0 
2400666666.6666665077 0.169891923666000393966513115629 0.037669006735086441040039062500 -0.000238480090047232806682586670 -0.002360372804105281829833984375 0 0 0 0 
2400833333.3333334923 0.170181408524513189117755018742 0.036741770803928382183034528907 -0.000211404680158011588171282358 -0.002461264375597238974330283057 0 0 0 0 
2401000000.0000000000 0.170440658926963806152343750000 0.035941738635301589965820312500 -0.000317832513246685320704859601 -0.002599023282527924017665243994 0 0 0 0 
2401166666.6666665077 0.170818313956260708907919365629 0.034889247268438339233398437500 -0.000339187972713261788517552509 -0.002632300602272152900695800781 0 0 0 0 
2401333333.3333334923 0.170978099107742309570312500000 0.034071907401084899902343750000 -0.000602712389081716537475585938 -0.002728907158598303794860839844 0 0 0 0 
2401500000.0000000000 0.171238198876380892654580634371 0.033270537853240966796875000000 -0.000426989427069202119677943097 -0.002877399791032075881958007812 0 0 0 0 
2401666666.6666665077 0.171239703893661499023437500000 0.032354153692722320556640625000 -0.000707713828887790441513061523 -0.002987127518281341032740927588 0 0 0 0 
2401833333.3333334923 0.171390309929847689529580634371 0.031433369964361190795898437500 -0.000777322624344378709793090820 -0.002932836767286061806919716943 0 0 0 0 
2402000000.0000000000 0.171366766095161410232705634371 0.030759446322917941701868826954 -0.000865684996824711561203002930 -0.002891059033572673797607421875 0 0 0 0 
2402166666.6666665077 0.171577781438827486892861884371 0.029508689418435100210169608204 -0.000902310712262988090515136719 -0.003021432319656014008762978662 0 0 0 0 
2402333333.3333334923 0.171514749526977511306924384371 0.028789008036255839956263358204 -0.001163013163022696971893310547 -0.003037682501599193053004599463 0 0 0 0 
2402500000.0000000000 0.171435534954070989410723768742 0.027757158502936359750767891796 -0.001173965167254209952113486182 -0.003069466212764381928684853662 0 0 0 0 
2402666666.6666665077 0.171479225158691406250000000000 0.026641191914677619934082031250 -0.001179372891783714077593159253 -0.002964181127026677131652832031 0 0 0 0 
2402833333.3333334923 0.171593129634857205489950615629 0.025802278891205791128138358204 -0.001376052387058734893798828125 -0.003082957817241549925563193213 0 0 0 0 
2403000000.0000000000 0.171378478407859802246093750000 0.024673294275999069213867187500 -0.001535429852083324952366494287 -0.003064594930037856101989746094 0 0 0 0 
2403166666.6666665077 0.171273365616798400878906250000 0.023574274033308029174804687500 -0.001593187451362610080121684497 -0.003120503155514597892761230469 0 0 0 0 
2403333333.3333334923 0.171380549669265802581463731258 0.022344214841723438608189766796 -0.001727336784824728965759277344 -0.003230154281482100920436240088 0 0 0 0 
2403500000.0000000000 0.171157225966453607757244981258 0.021348511800169951702077497657 -0.001762938569299876906751323169 -0.003129714168608189062831259619 0 0 0 0 
2403666666.6666665077 0.171031713485717801193075615629 0.019923811778426170349121093750 -0.001970622921362518830540322412 -0.003213074291124939918518066406 0 0 0 0 
2403833333.3333334923 0.170959159731864901443643134371 0.018670570105314261699636091407 -0.002227439312264322800877236475 -0.003095736727118492126464843750 0 0 0 0 
2404000000.0000000000 0.170778065919876098632812500000 0.017491262406110760080357735546 -0.002435823902487754821777343750 -0.003237021621316670937779091943 0 0 0 0 
2404166666.6666665077 0.170702502131462097167968750000 0.016175655648112300527552420704 -0.002508739940822124914882040869 -0.003213932272046803994419716943 0 0 0 0 
2404333333.3333334923 0.170643016695976312835369981258 0.014923023059964179992675781250 -0.002650963375344872908351279150 -0.003179868916049600081202841650 0 0 0 0 
2404500000.0000000000 0.170462757349014309982138115629 0.013424532487988470250139805273 -0.002787007484585047201869345557 -0.003078369656577705903294228662 0 0 0 0 
2404666666.6666665077 0.170418620109558105468750000000 0.012030366808176040649414062500 -0.003088453551754354996922158350 -0.003228431800380349159240722656 0 0 0 0 
2404833333.3333334923 0.170371085405349703689736884371 0.010547360405325889587402343750 -0.003379364730790257887599326025 -0.002863250207155942916870117188 0 0 0 0 
2405000000.0000000000 0.170276716351509094238281250000 0.009151080623269081115722656250 -0.003435229882597922845127724756 -0.002666423795744777159449911963 0 0 0 0 
2405166666.6666665077 0.170320510864257812500000000000 0.007620580028742551803588867188 -0.003731334581971168951747275244 -0.002562735462561250166652060400 0 0 0 0 
2405333333.3333334923 0.170337945222854586502236884371 0.005976215004920960340017987988 -0.003750307485461235046386718750 -0.002406509360298513932469033350 0 0 0 0 
2405500000.0000000000 0.170187547802925109863281250000 0.004648015368729829788208007812 -0.003961717709898948669433593750 -0.002186638070270419120788574219 0 0 0 0 
2405666666.6666665077 0.170298919081687899490518134371 0.002851113444194198088404990088 -0.004070345778018236160278320312 -0.001983213238418101830723427881 0 0 0 0 
2405833333.3333334923 0.170076549053192110916299384371 0.001331103034317493005039834131 -0.004024951718747615814208984375 -0.001866872888058423995971679688 0 0 0 0 
2406000000.0000000000 0.170102283358573913574218750000 -0.000428894534707069396972656250 -0.003939841873943805694580078125 -0.001538152340799570083618164062 0 0 0 0 
2406166666.6666665077 0.169859468936920193771200615629 -0.001787874149158596992492675781 -0.004107233602553606033325195312 -0.001265407656319438977482461084 0 0 0 0 
2406333333.3333334923 0.170003086328506497482138115629 -0.003376028966158628897425986182 -0.004228670150041580200195312500 -0.001152704702690243937848735278 0 0 0 0 
2406500000.0000000000 0.169725149869918795486611884371 -0.005028015933930873870849609375 -0.004094002302736043930053710938 -0.001059819362126291015027690356 0 0 0 0 
2406666666.6666665077 0.169472172856330899337606865629 -0.006379178259521722793579101562 -0.004136721137911081314086914062 -0.000778790970798581838607788086 0 0 0 0 
2406833333.3333334923 0.169478937983512906173544365629 -0.007963630370795726776123046875 -0.004176789894700050354003906250 -0.000708344508893787860870361328 0 0 0 0 
2407000000.0000000000 0.169259950518608093261718750000 -0.009474483318626880645751953125 -0.004184579942375422391409589551 -0.000538242049515247344970703125 0 0 0 0 
2407166666.6666665077 0.169256910681724603850994981258 -0.010890812613070009404192539648 -0.004181971773505210876464843750 -0.000117793024401180500358027325 0 0 0 0 
2407333333.3333334923 0.169053882360458401779013115629 -0.012189694680273529397984688671 -0.004189060535281896591186523438 -0.000030754687031731009483337402 0 0 0 0 
2407500000.0000000000 0.168863400816917391678018134371 -0.013506688177585600071917149023 -0.004048422444611787796020507812 0.000136686750920489403322496957 0 0 0 0 
2407666666.6666665077 0.168769210577011108398437500000 -0.014694002456963060551653477148 -0.004095791373401880264282226562 0.000274862599326297586590367450 0 0 0 0 
2407833333.3333334923 0.168485149741172790527343750000 -0.015980919823050498962402343750 -0.003742051078006625175476074219 0.000398966454667970483929234637 0 0 0 0 
2408000000.0000000000 0.168423637747764587402343750000 -0.017131134867668148386021798046 -0.003693873994052410125732421875 0.000452863605460151975781041278 0 0 0 0 
2408166666.6666665077 0.168308228254318209549111884371 -0.017941173166036609304407889454 -0.003583410754799842834472656250 0.000631313072517514228820800781 0 0 0 0 
2408333333.3333334923 0.168503910303115789215411268742 -0.019041320309042930603027343750 -0.003523609368130565123317099463 0.000647434557322412729263305664 0 0 0 0 
2408500000.0000000000 0.168266147375106811523437500000 -0.019946845248341560363769531250 -0.003514074720442295074462890625 0.000720601179637014865875244141 0 0 0 0 
2408666666.6666665077 0.168348342180252102950888115629 -0.020883422344923019409179687500 -0.003408781019970775084254599463 0.000543590751476585865020751953 0 0 0 0 
2408833333.3333334923 0.168336868286132812500000000000 -0.021683426573872569692591483204 -0.003367467084899545149562216650 0.000662774604279547929763793945 0 0 0 0 
2409000000.0000000000 0.168296948075294494628906250000 -0.022675598040223121643066406250 -0.003226008033379911942722939600 0.000702046323567628860473632812 0 0 0 0 
2409166666.6666665077 0.168609708547592190841513115629 -0.023652367293834689748743826954 -0.003268100088462233977076865088 0.000738743576221168041229248047 0 0 0 0 
2409333333.3333334923 0.168692782521247891525106865629 -0.024572279304265979421595389454 -0.003301793476566671891453408350 0.000653559749480336904525756836 0 0 0 0 
2409500000.0000000000 0.168875798583030700683593750000 -0.025376746430993080139160156250 -0.003393798833712935014012002100 0.000735592853743582963943481445 0 0 0 0 
2409666666.6666665077 0.168870076537132290939169365629 -0.026455525308847430837611014454 -0.003432928118854761123657226562 0.000864254485350102186203002930 0 0 0 0 
2409833333.3333334923 0.168903857469558688064736884371 -0.027252076193690299987792968750 -0.003317553317174315886256552588 0.000812591984868049621582031250 0 0 0 0 
2410000000.0000000000 0.169026166200637789627236884371 -0.028139678761363029479980468750 -0.003371983766555786132812500000 0.000807672389782965183258056641 0 0 0 0 
2410166666.6666665077 0.169133871793747003753338731258 -0.028828132897615429269810860546 -0.003392084036022425131556845557 0.000857312814332544803619384766 0 0 0 0 
2410333333.3333334923 0.168934136629104586502236884371 -0.029755048453807830810546875000 -0.003464851528406143188476562500 0.001024820143356919071794819409 0 0 0 0 
2410500000.0000000000 0.169035375118255587478799384371 -0.030562907457351691509206403907 -0.003535233205184340910670615088 0.001145035726949572996852255713 0 0 0 0 
2410666666.6666665077 0.168719500303268404861611884371 -0.031688787043094641948659528907 -0.003553933463990687890293740381 0.001246356638148427009582519531 0 0 0 0 
2410833333.3333334923 0.168850928544998196700888115629 -0.032432150095701217651367187500 -0.003565500257536768913269042969 0.001415606355294585011125874097 0 0 0 0 
2411000000.0000000000 0.168631762266159113128338731258 -0.033160638064146041870117187500 -0.003523675026372075080871582031 0.001434289268217981078504252856 0 0 0 0 
2411166666.6666665077 0.168475016951561001876669365629 -0.034317824989557273174245466407 -0.003484905231744050979614257812 0.001641063718125223896623920972 0 0 0 0 
2411333333.3333334923 0.168311566114425686935263115629 -0.035053212195634841918945312500 -0.003357617883011699156520224463 0.001708247000351547978044819409 0 0 0 0 
2411500000.0000000000 0.167973384261131286621093750000 -0.035921979695558547973632812500 -0.003347700461745262145996093750 0.001833746675401926040649414062 0 0 0 0 
2411666666.6666665077 0.167985484004020690917968750000 -0.036640141159296042705495466407 -0.003331385785713791847229003906 0.002235133666545153097865439307 0 0 0 0 
2411833333.3333334923 0.167601495981216402908486884371 -0.037518434226512908935546875000 -0.003194391494616866111755371094 0.002158614108338952064514160156 0 0 0 0 
2412000000.0000000000 0.167527288198471097091513115629 -0.038610834628343582153320312500 -0.003268959233537315888645791162 0.002376763150095940069911337744 0 0 0 0 
2412166666.6666665077 0.167085543274879511077557481258 -0.039652500301599502563476562500 -0.003270626999437808990478515625 0.002463484648615121841430664062 0 0 0 0 
2412333333.3333334923 0.167079418897628811935263115629 -0.040362749248743057250976562500 -0.003148622345179318948032998193 0.002619911218062043190002441406 0 0 0 0 
2412500000.0000000000 0.166616111993789700607138115629 -0.041373558342456817626953125000 -0.003166661132127047018763876807 0.002642793115228414969203329932 0 0 0 0 
2412666666.6666665077 0.166273579001426696777343750000 -0.042511675506830222392995466407 -0.002893566852435470061061240088 0.002800642745569347901585244287 0 0 0 0 
2412833333.3333334923 0.166040092706680297851562500000 -0.043493606150150299072265625000 -0.002754764398559927940368652344 0.002913122298195958137512207031 0 0 0 0 
2413000000.0000000000 0.165452271699905395507812500000 -0.044516514986753456806223283593 -0.002892428776249289946315146338 0.003030977211892604827880859375 0 0 0 0 
2413166666.6666665077 0.165219366550445612151776231258 -0.045390095561742782592773437500 -0.002646841341629623933079384912 0.003246463136747479005100869287 0 0 0 0 
2413333333.3333334923 0.164460048079490689376669365629 -0.046579197049140930175781250000 -0.002590076532214879989624023438 0.003258111653849482969996786963 0 0 0 0 
2413500000.0000000000 0.164193511009216308593750000000 -0.047575291246175772930104841407 -0.002254437422379850907566689600 0.003467670641839503808262490381 0 0 0 0 
2413666666.6666665077 0.163745686411857604980468750000 -0.048691410571336753154714216407 -0.002055360237136483192443847656 0.003539965255185962157008505713 0 0 0 0 
2413833333.3333334923 0.163104787468910189529580634371 -0.049609337002038962627370466407 -0.002073022536933422088623046875 0.003634576918557285828831338037 0 0 0 0 
2414000000.0000000000 0.162816271185874911209268134371 -0.050664111971855156635324846093 -0.001773286727257072925567626953 0.003691110294312239126918173682 0 0 0 0 
2414166666.6666665077 0.162321165204048212249432481258 -0.051591366529464721679687500000 -0.001671369187533855004551552881 0.003786945482715963883640908350 0 0 0 0 
2414333333.3333334923 0.162039384245872497558593750000 -0.052519619464874267578125000000 -0.001396709587424993948695517432 0.003752336604520678953883505713 0 0 0 0 
2414500000.0000000000 0.161867097020149203201455634371 -0.053436856716871261596679687500 -0.001192210242152214050292968750 0.003730992088094354109523154150 0 0 0 0 
2414666666.6666665077 0.161504387855529812911825615629 -0.054421588778495788574218750000 -0.000937586824875324964523315430 0.003765542525798081918003701318 0 0 0 0 
2414833333.3333334923 0.161143809556961087325888115629 -0.055528845638036727905273437500 -0.000776056491304188966751098633 0.003541894489899278120753622900 0 0 0 0 
2415000000.0000000000 0.160903632640838595291299384371 -0.056426621973514556884765625000 -0.000708172447048127651214599609 0.003724932204931973977329873193 0 0 0 0 
2415166666.6666665077 0.160685122013092013260049384371 -0.057535514235496520996093750000 -0.000600176223088055849075317383 0.003469427349045873121974326025 0 0 0 0 
2415333333.3333334923 0.160702899098396301269531250000 -0.058684945106506347656250000000 -0.000448123784735798781544285907 0.003348730271682143211364746094 0 0 0 0 
2415500000.0000000000 0.160397350788116510589276231258 -0.059824299067258841777761091407 -0.000293459830572828704684656964 0.003156883874908090071437216650 0 0 0 0 
2415666666.6666665077 0.160118401050567599197549384371 -0.060851234942674636840820312500 -0.000301127642160281484753209247 0.003079275134950875802281045068 0 0 0 0 
2415833333.3333334923 0.160064861178398104568643134371 -0.062173232436180121684987653907 -0.000336157623678445816040039062 0.002893164288252592086791992188 0 0 0 0 
2416000000.0000000000 0.159733802080154391189736884371 -0.063357636332511901855468750000 -0.000070733964093960821628570557 0.002828218974173069000244140625 0 0 0 0 
2416166666.6666665077 0.159754738211631802657919365629 -0.064560361206531524658203125000 -0.000329057424096390604972839355 0.002680061385035514831542968750 0 0 0 0 
2416333333.3333334923 0.159514471888542203048544365629 -0.065696157515048980712890625000 -0.000378390977857634425163269043 0.002671116730198264122009277344 0 0 0 0 
2416500000.0000000000 0.159148678183555603027343750000 -0.066951453685760498046875000000 -0.000412029825383797287940979004 0.002685441169887781143188476562 0 0 0 0 
2416666666.6666665077 0.158856853842735290527343750000 -0.068169653415679931640625000000 -0.000320305116474628502696436749 0.002541403053328394889831542969 0 0 0 0 
2416833333.3333334923 0.158758804202079800704794365629 -0.069335855543613433837890625000 -0.000364361796528101021617335187 0.002685721032321453094482421875 0 0 0 0 
2417000000.0000000000 0.158139646053314208984375000000 -0.070486016571521759033203125000 -0.000280249631032347679138183594 0.002777046291157602830174111475 0 0 0 0 
2417166666.6666665077 0.157861709594726590255575615629 -0.071489386260509490966796875000 -0.000479564070701599121093750000 0.002952468581497668786289834131 0 0 0 0 
2417333333.3333334923 0.157575041055679293533486884371 -0.072394132614135742187500000000 -0.000377330754417926073074340820 0.002830512588843702836277627100 0 0 0 0 
2417500000.0000000000 0.157230839133262606521768134371 -0.073605068027973175048828125000 -0.000252352328971028273731785907 0.002929340349510312080383300781 0 0 0 0 
2417666666.6666665077 0.157021299004554804046307481258 -0.074215374886989593505859375000 -0.000290107593173161203235072003 0.003100261325016618208644247900 0 0 0 0 
2417833333.3333334923 0.156719133257865905761718750000 -0.075260095298290252685546875000 -0.000138200877700001001358032227 0.003078512614592909812927246094 0 0 0 0 
2418000000.0000000000 0.156269147992134094238281250000 -0.076134771108627319335937500000 0.000006318522991932695731520653 0.003165879286825656890869140625 0 0 0 0 
2418166666.6666665077 0.155951038002967806717080634371 -0.076778382062911987304687500000 0.000023780403353157449850832292 0.003261576406657696203944540869 0 0 0 0 
2418333333.3333334923 0.155889675021171597579794365629 -0.077693127095699310302734375000 0.000244675407884642481803894043 0.003193831304088234901428222656 0 0 0 0 
2418500000.0000000000 0.155566498637199401855468750000 -0.078472726047039031982421875000 0.000309153983835130875736790790 0.003066279692575335936305380713 0 0 0 0 
2418666666.6666665077 0.155241265892982510665731865629 -0.079182498157024383544921875000 0.000466838857391849214404505597 0.002966096857562661170959472656 0 0 0 0 
2418833333.3333334923 0.154831767082214410979901231258 -0.080016277730464935302734375000 0.000502950628288090229034423828 0.002872117562219500975367880713 0 0 0 0 
2419000000.0000000000 0.154532432556152288238848768742 -0.080737881362438201904296875000 0.000517963257152587175369262695 0.002881903899833559989929199219 0 0 0 0 
2419166666.6666665077 0.154189109802246093750000000000 -0.081280358135700225830078125000 0.000606263114605098962783813477 0.002851333236321806907653808594 0 0 0 0 
2419333333.3333334923 0.153714761137962313553018134371 -0.081838443875312805175781250000 0.000598810613155364990234375000 0.002693758578971027894261025537 0 0 0 0 
2419500000.0000000000 0.153411984443664606292401231258 -0.082693569362163543701171875000 0.000492211082018911838531494141 0.002618017606437205834629677881 0 0 0 0 
2419666666.6666665077 0.153132170438766507247763115629 -0.083245314657688140869140625000 0.000495936314109712839126586914 0.002787911100313067002537392725 0 0 0 0 
2419833333.3333334923 0.152606680989265386383380018742 -0.083740159869194030761718750000 0.000542377762030810117721557617 0.002704840386286377906799316406 0 0 0 0 
