# Hz S RI R 
2400000000.0000000000 0.168659225106239291092080634371 0.039501357823610312725026716407 0.001167763839475810961482382666 0.001142120105214416980743408203 0 0 0 0 
2400166666.6666665077 0.169664308428764287750567518742 0.038675900548696517944335937500 0.001134935766458510918858193506 0.001067712670192122893092490088 0 0 0 0 
2400333333.3333334923 0.170226246118545504470986884371 0.037688259035348892211914062500 0.001022921642288566069362021338 0.001099450513720511956455849756 0 0 0 0 
2400500000.0000000000 0.170902147889137295821981865629 0.036915425211191177368164062500 0.000877561396919190883636474609 0.001132896984927356026293110425 0 0 0 0 
2400666666.6666665077 0.171653181314468411544638115629 0.036387991160154342651367187500 0.000794176128692924976348876953 0.001179152051918209032771445166 0 0 0 0 
2400833333.3333334923 0.172198072075843811035156250000 0.035654723644256591796875000000 0.000762289215344935655593872070 0.001077957684174180030822753906 0 0 0 0 
2401000000.0000000000 0.172739818692207308670205634371 0.034756984561681747436523437500 0.000501280010212212800979614258 0.001091996324248611927032470703 0 0 0 0 
2401166666.6666665077 0.173053458333015386383380018742 0.034137651324272162700612653907 0.000496896798722445964813232422 0.001207825960591434998753213037 0 0 0 0 
2401333333.3333334923 0.173343628644943209549111884371 0.033315811306238167499582658593 0.000678623327985405921936035156 0.001271194312721491076825786060 0 0 0 0 
2401500000.0000000000 0.173835545778274508377236884371 0.032619714736938476562500000000 0.000484165095258504206508082257 0.001479633618146181106567382812 0 0 0 0 
2401666666.6666665077 0.174013242125511197189169365629 0.031923841685056693340261091407 0.000527872936800122261047363281 0.001349006430245935916900634766 0 0 0 0 
2401833333.3333334923 0.174269214272499112228231865629 0.031229848042130470275878906250 0.000434196030255407094955444336 0.001564135891385377103920961694 0 0 0 0 
2402000000.0000000000 0.174325138330459594726562500000 0.030607281252741810190221016796 0.000606231275014579296112060547 0.001716332626529037952423095703 0 0 0 0 
2402166666.6666665077 0.174374163150787409026776231258 0.029742656275630000722864920704 0.000739213312044739723205566406 0.001670787227340043024775839697 0 0 0 0 
2402333333.3333334923 0.173988088965416010100994981258 0.029014782980084419250488281250 0.000616433564573526382446289062 0.001675316598266362927080463940 0 0 0 0 
2402500000.0000000000 0.174232184886932400802450615629 0.028386702761054039001464843750 0.000917987141292542219161987305 0.001952421385794878005981445312 0 0 0 0 
2402666666.6666665077 0.174228101968765286544638115629 0.027749922126531600952148437500 0.000889818416908383369445800781 0.002049111295491456985473632812 0 0 0 0 
2402833333.3333334923 0.174082934856414794921875000000 0.026910673826932910573939139454 0.000889331684447824954986572266 0.001916273031383753039716411060 0 0 0 0 
2403000000.0000000000 0.174014419317245511154013115629 0.025896349921822551382044608204 0.000950600893702358007431030273 0.002057133009657264189479208838 0 0 0 0 
2403166666.6666665077 0.174115478992462213714276231258 0.024893006309866908681849295704 0.001005834201350807926775288159 0.002156214555725454850437783350 0 0 0 0 
2403333333.3333334923 0.173795327544212313553018134371 0.024198923259973529470423514454 0.001328710117377341010450053638 0.002254170365631579919102334131 0 0 0 0 
2403500000.0000000000 0.173465535044670104980468750000 0.023117618635296821594238281250 0.001296808361075818972346640479 0.002206988167017697854282998193 0 0 0 0 
2403666666.6666665077 0.173037990927696200271768134371 0.021881787106394771230677420704 0.001699782093055546066881489331 0.002417587209492921829223632812 0 0 0 0 
2403833333.3333334923 0.173020631074905395507812500000 0.020792193710803989065150076954 0.001620530965737998919246054541 0.002234859392046927972080849756 0 0 0 0 
2404000000.0000000000 0.172637894749641390701455634371 0.019870087504386898386021798046 0.001905564335174859003779745947 0.002253929385915399031398154150 0 0 0 0 
2404166666.6666665077 0.172279775142669705489950615629 0.018410051241517070425013358204 0.002097440883517264886143349756 0.002135189017280935807469033350 0 0 0 0 
2404333333.3333334923 0.172094643115997286697549384371 0.017466450110077861440638358204 0.002104005776345729827880859375 0.002284272108227014975306845557 0 0 0 0 
2404500000.0000000000 0.171601250767707796951455634371 0.015946902334690090524693673046 0.002338636899366974830627441406 0.002198599046096206145045615088 0 0 0 0 
2404666666.6666665077 0.171311616897583007812500000000 0.014520557597279550379743007227 0.002622692147269845008850097656 0.002179656643420457839965820312 0 0 0 0 
2404833333.3333334923 0.171290114521980313400106865629 0.013130632229149339848528477148 0.002549330703914165930507040869 0.002138929907232522964477539062 0 0 0 0 
2405000000.0000000000 0.170896485447883605957031250000 0.011547287926077839242955391796 0.002838402753695846037623740088 0.001910303486511111042620014722 0 0 0 0 
2405166666.6666665077 0.170704305171966608245526231258 0.010005101561546329153040701954 0.002916321856901050047633505713 0.001700850902125238938572548975 0 0 0 0 
2405333333.3333334923 0.170549556612968389313067518742 0.008356311358511447906494140625 0.003131066216155887083766318213 0.001696969382464885928510356372 0 0 0 0 
2405500000.0000000000 0.170161649584770202636718750000 0.006716048810631036758422851562 0.003242668462917209105250693213 0.001404789974913001060485839844 0 0 0 0 
2405666666.6666665077 0.169933438301086398025674384371 0.005042548291385173797607421875 0.003395872656255960898158408057 0.001595839741639792919158935547 0 0 0 0 
2405833333.3333334923 0.169511482119560186188067518742 0.003350931219756602807285927881 0.003682650392875074906590127100 0.001278607524000108025194477612 0 0 0 0 
2406000000.0000000000 0.169369161128997802734375000000 0.001444720430299639918683696216 0.003640318755060433907749795068 0.001153189805336296992060995947 0 0 0 0 
2406166666.6666665077 0.168976068496704101562500000000 -0.000190742648555897203370770865 0.003888238454237579865696572412 0.000989891821518540382385253906 0 0 0 0 
2406333333.3333334923 0.168969139456748990157919365629 -0.001988434698432683944702148438 0.003843859769403934912440634619 0.000622126797679811716079711914 0 0 0 0 
2406500000.0000000000 0.168501555919647189041299384371 -0.003795910626649857001063681494 0.004018919076770544052124023438 0.000347726745530962889820653094 0 0 0 0 
2406666666.6666665077 0.168044432997703607757244981258 -0.005395435262471438321585370801 0.003859426127746700806858681787 0.000176201487192884087562561035 0 0 0 0 
2406833333.3333334923 0.168059438467025812347088731258 -0.007211648393422365188598632812 0.003952045459300279617309570312 -0.000170081446412950808375758038 0 0 0 0 
2407000000.0000000000 0.167789697647094698806924384371 -0.008842863142490386962890625000 0.003966189455240964889526367188 -0.000699664640706032514572143555 0 0 0 0 
2407166666.6666665077 0.167637214064598111251669365629 -0.010412517935037609445592110546 0.003744615940377116203308105469 -0.000676771218422800302505493164 0 0 0 0 
2407333333.3333334923 0.167220741510391207595986884371 -0.012052675709128379821777343750 0.003800668753683567047119140625 -0.000984032754786312580108642578 0 0 0 0 
2407500000.0000000000 0.167120993137359591385049384371 -0.013471650891005989419957344921 0.003561385208740829987766884912 -0.001172838150523602962493896484 0 0 0 0 
2407666666.6666665077 0.166851341724395807464276231258 -0.015002116560935970651646798046 0.003460139036178588867187500000 -0.001335628796368836922886513818 0 0 0 0 
2407833333.3333334923 0.166897088289260892013388115629 -0.016453219577670100820521170704 0.003289863234385848045349121094 -0.001580880954861640930175781250 0 0 0 0 
2408000000.0000000000 0.166797786951065091232138115629 -0.017675310373306270944615548046 0.003057526424527167840244912256 -0.001531505840830504894256591797 0 0 0 0 
2408166666.6666665077 0.166761606931686401367187500000 -0.018863402307033538818359375000 0.002856020815670489831211709131 -0.001625307602807879014256142725 0 0 0 0 
2408333333.3333334923 0.166966959834098788162393134371 -0.020017115399241450918177420704 0.002752956002950667901280068506 -0.001714075682684778950334858472 0 0 0 0 
2408500000.0000000000 0.167150601744651794433593750000 -0.021155798807740211486816406250 0.002676979405805468992946005713 -0.001762894215062261061427451025 0 0 0 0 
2408666666.6666665077 0.167261093854904202560263115629 -0.022221488878130909311314766796 0.002518704859539866013767861475 -0.001859971904195844910265278394 0 0 0 0 
2408833333.3333334923 0.167389035224914606292401231258 -0.023285204544663429260253906250 0.002450722269713879065272665869 -0.001982247224077581925633095850 0 0 0 0 
2409000000.0000000000 0.167632505297660799881143134371 -0.024199074134230610239049141796 0.002274490660056471824645996094 -0.001922494615428149917005229419 0 0 0 0 
2409166666.6666665077 0.168029412627220209319744981258 -0.025208082050085071218470389454 0.002123856684193015098571777344 -0.001846256200224160931230854565 0 0 0 0 
2409333333.3333334923 0.168404772877693204025106865629 -0.026239939033985141408900076954 0.002102497266605495972874306787 -0.001922682276926934935926127856 0 0 0 0 
2409500000.0000000000 0.168768674135208102127236884371 -0.027483170852065089834193045704 0.001975529594346880912780761719 -0.001847486593760550022125244141 0 0 0 0 
2409666666.6666665077 0.168888211250305203536825615629 -0.028262441977858539926549141796 0.001846056431531905911089253003 -0.001935260486789047934888530200 0 0 0 0 
2409833333.3333334923 0.169365048408508300781250000000 -0.029201405122876170766810233204 0.001747872331179678006413125146 -0.001749676419422030015232705225 0 0 0 0 
2410000000.0000000000 0.169873625040054293533486884371 -0.030068315565586090087890625000 0.001563182100653647942783974756 -0.001865611760877073027967143481 0 0 0 0 
2410166666.6666665077 0.170065239071846008300781250000 -0.030878396704792979848841483204 0.001645750482566654898999858325 -0.001859544776380062103271484375 0 0 0 0 
2410333333.3333334923 0.170249149203300503829794365629 -0.031748455017805099487304687500 0.001552419504150748036028217847 -0.001804327825084329085109091650 0 0 0 0 
2410500000.0000000000 0.170537024736404391189736884371 -0.032677076756954193115234375000 0.001492789597250520966173481519 -0.001676223240792751095415424878 0 0 0 0 
2410666666.6666665077 0.170520499348640386383380018742 -0.033637646585702903057057966407 0.001581112388521433093427348560 -0.001737870275974273898481059497 0 0 0 0 
2410833333.3333334923 0.170790746808052090743856865629 -0.034130234271287918090820312500 0.001652419217862189032910991138 -0.001728459610603749968885112231 0 0 0 0 
2411000000.0000000000 0.170816436409950311858807481258 -0.034905686974525451660156250000 0.001674253959208727099775004810 -0.001579382689669728062273335034 0 0 0 0 
2411166666.6666665077 0.170695349574089105804119981258 -0.035808149725198752666432966407 0.001589583000168204090715717847 -0.001604651217348874048945761572 0 0 0 0 
2411333333.3333334923 0.170548215508460998535156250000 -0.036422483623027801513671875000 0.001545686041936277909519814600 -0.001653789309784770011901855469 0 0 0 0 
2411500000.0000000000 0.170541107654571505447549384371 -0.037375953048467643047292341407 0.001678005442954600074170756763 -0.001704463968053459904314350659 0 0 0 0 
2411666666.6666665077 0.170662045478820800781250000000 -0.037992998957633972167968750000 0.001762603293173014900804829175 -0.001801985665224492983577109229 0 0 0 0 
2411833333.3333334923 0.170516982674598693847656250000 -0.038562990725040442729909528907 0.001680359244346619086024618994 -0.001969580538570880889892578125 0 0 0 0 
2412000000.0000000000 0.170452371239662198165731865629 -0.039405323565006263042409528907 0.001805037143640219948412251050 -0.002084991894662379784824990381 0 0 0 0 
2412166666.6666665077 0.169978812336921691894531250000 -0.040037550032138817523996721093 0.001725435373373330073115683447 -0.002250754740089178085327148438 0 0 0 0 
2412333333.3333334923 0.170080915093421908279580634371 -0.040828566998243331909179687500 0.001974865328520535989048623193 -0.002228850033134222030639648438 0 0 0 0 
2412500000.0000000000 0.169610321521759005447549384371 -0.041580364108085632324218750000 0.001916356035508214993717812646 -0.002440631389617919921875000000 0 0 0 0 
2412666666.6666665077 0.169335663318634005447549384371 -0.042525175958871841430664062500 0.001687119831331074020983051831 -0.002609855961054563956019736182 0 0 0 0 
2412833333.3333334923 0.169006720185279901702557481258 -0.043183989822864532470703125000 0.001645074109546839974047016675 -0.002615199889987707138061523438 0 0 0 0 
2413000000.0000000000 0.168473482131958007812500000000 -0.043942350894212722778320312500 0.001669839140959084033966064453 -0.002786314813420176939723349463 0 0 0 0 
2413166666.6666665077 0.167869493365287808517294365629 -0.044769648462533950805664062500 0.001505442662164568901062011719 -0.002788247074931859970092773438 0 0 0 0 
2413333333.3333334923 0.167359456419944790939169365629 -0.045505423098802573467214216407 0.001475437427870929024339985425 -0.002942273393273354010341025244 0 0 0 0 
2413500000.0000000000 0.166931092739105196853799384371 -0.046437472105026252056081403907 0.001392650534398853995679545825 -0.003123758593574165864231728662 0 0 0 0 
2413666666.6666665077 0.166324630379676791092080634371 -0.047335680574178702617604841407 0.001302187680266797976252890479 -0.003050597617402673201320029150 0 0 0 0 
2413833333.3333334923 0.165732547640800503829794365629 -0.048133429139852516864817033593 0.001366352546028793074964213794 -0.003278900403529406027552939307 0 0 0 0 
2414000000.0000000000 0.164903029799461392501669365629 -0.049013298004865653301198591407 0.001121276523917913003208779443 -0.003399649169296025796177529443 0 0 0 0 
2414166666.6666665077 0.164551198482513399978799384371 -0.049684759229421622539479841407 0.000970119785051792860031127930 -0.003664117539301515059230185400 0 0 0 0 
2414333333.3333334923 0.163789555430412292480468750000 -0.050560556352138519287109375000 0.000865471374709159135818481445 -0.003710487624630331993103027344 0 0 0 0 
2414500000.0000000000 0.163464933633804293533486884371 -0.051299031823873519897460937500 0.000788286153692752122879028320 -0.003846098901703954176661826025 0 0 0 0 
2414666666.6666665077 0.162972003221511813064736884371 -0.052368421107530586933176408593 0.000314458302455022876888829364 -0.004080771468579769134521484375 0 0 0 0 
2414833333.3333334923 0.162401691079139709472656250000 -0.053207583725452423095703125000 0.000130142085254192406505030499 -0.004142303485423327359671308301 0 0 0 0 
2415000000.0000000000 0.161973729729652404785156250000 -0.054027907550334930419921875000 -0.000113968555524479597806930542 -0.004300949163734912872314453125 0 0 0 0 
2415166666.6666665077 0.161562666296958895584268134371 -0.055251047015190131450612653907 -0.000319218204822391325801295148 -0.004276522900909185409545898438 0 0 0 0 
2415333333.3333334923 0.161155149340629605392294365629 -0.056497324258089072490651716407 -0.000661393743939697742462158203 -0.004176766611635684967041015625 0 0 0 0 
2415500000.0000000000 0.160753607749938992599325615629 -0.057608835399150848388671875000 -0.001010378007777035019518208081 -0.004248514305800200376028730176 0 0 0 0 
2415666666.6666665077 0.160460755228996304611044365629 -0.058569926768541342998464216407 -0.001206083456054330088971782153 -0.004003307782113552093505859375 0 0 0 0 
2415833333.3333334923 0.160144343972206087967080634371 -0.060037255287170410156250000000 -0.001508964924141765074488974463 -0.003965673036873340606689453125 0 0 0 0 
2416000000.0000000000 0.159589707851409912109375000000 -0.061244476586580283428151716407 -0.001862988574430346922633505713 -0.003918204922229051589965820312 0 0 0 0 
2416166666.6666665077 0.159465134143829401214276231258 -0.062683574855327606201171875000 -0.001994767226278781890869140625 -0.003687832970172166824340820312 0 0 0 0 
2416333333.3333334923 0.158954814076423700530682481258 -0.063874818384647369384765625000 -0.002224939176812767982482910156 -0.003348470199853181838989257812 0 0 0 0 
2416500000.0000000000 0.158453270792961092849893134371 -0.065316617488861083984375000000 -0.002432989422231913046595908057 -0.003244048450142145156860351562 0 0 0 0 
2416666666.6666665077 0.158077061176300104339276231258 -0.066605098545551300048828125000 -0.002507819561287761168238974463 -0.002985429950058459801914834131 0 0 0 0 
2416833333.3333334923 0.157755166292190607268963731258 -0.068165518343448638916015625000 -0.002575401449576019807102822412 -0.002672987757250667052028036963 0 0 0 0 
2417000000.0000000000 0.157143786549568204025106865629 -0.069401286542415618896484375000 -0.002581351902335882186889648438 -0.002461844822391868071315146338 0 0 0 0 
2417166666.6666665077 0.156720429658889798263388115629 -0.070592284202575683593750000000 -0.002551749348640441894531250000 -0.002253903774544597105738974463 0 0 0 0 
2417333333.3333334923 0.156379863619804410079794365629 -0.071895480155944824218750000000 -0.002591244410723447799682617188 -0.002244085539132357077357626807 0 0 0 0 
2417500000.0000000000 0.156048253178596496582031250000 -0.073291152715682983398437500000 -0.002395155839622021155116415869 -0.002137881936505436897277832031 0 0 0 0 
2417666666.6666665077 0.155653417110443087478799384371 -0.074188716709613800048828125000 -0.002493571490049362182617187500 -0.001937244785949588038800883716 0 0 0 0 
2417833333.3333334923 0.155416101217269897460937500000 -0.075281642377376556396484375000 -0.002529362216591835021972656250 -0.001833913847804069952723837744 0 0 0 0 
2418000000.0000000000 0.154970154166221590896768134371 -0.076497465372085571289062500000 -0.002575590973719954924342490088 -0.001701029133982955975773476709 0 0 0 0 
2418166666.6666665077 0.154715299606323186676348768742 -0.077374398708343505859375000000 -0.002466551726683973832371377100 -0.001741041196510195948957133716 0 0 0 0 
2418333333.3333334923 0.154935508966445895095986884371 -0.078507378697395324707031250000 -0.002489079255610703988316201318 -0.001625857083126903013942099463 0 0 0 0 
2418500000.0000000000 0.154491782188415499588174384371 -0.079419031739234924316406250000 -0.002659300109371542930603027344 -0.001506722066551446914672851562 0 0 0 0 
2418666666.6666665077 0.154405251145362909515057481258 -0.080393232405185699462890625000 -0.002629573456943035125732421875 -0.001410939847119152979609824072 0 0 0 0 
2418833333.3333334923 0.154039263725280789474325615629 -0.081451959908008575439453125000 -0.002738534007221459908726357568 -0.001362540759146213965175009619 0 0 0 0 
2419000000.0000000000 0.153954043984413202483807481258 -0.082316942512989044189453125000 -0.002617263235151768164393759619 -0.001231224508956074931501079028 0 0 0 0 
2419166666.6666665077 0.153825119137764004806356865629 -0.083134330809116363525390625000 -0.002551100449636578993556357275 -0.001048399019055068926570273291 0 0 0 0 
2419333333.3333334923 0.153557702898979187011718750000 -0.083887383341789245605468750000 -0.002537386957556008858921670068 -0.001138774096034467003465961987 0 0 0 0 
2419500000.0000000000 0.153466597199440002441406250000 -0.084739297628402709960937500000 -0.002511217724531888961791992188 -0.000939734454732388257980346680 0 0 0 0 
2419666666.6666665077 0.153343215584754888336505018742 -0.085573934018611907958984375000 -0.002485644770786166191101074219 -0.000810941099189221858978271484 0 0 0 0 
2419833333.3333334923 0.153135269880294799804687500000 -0.086082763969898223876953125000 -0.002518096007406712012050009619 -0.000942331796977669000625610352 0 0 0 0 
