# Hz S RI R 
2400000000.0000000000 0.171988248825073186676348768742 0.048803627490997307514231096093 0.004835565108805894851684570312 0.005337081383913755416870117188 0 0 0 0 
2400166666.6666665077 0.174005731940269497970419365629 0.048078566789627082134206403907 0.005071755498647689819335937500 0.003749747294932603836059570312 0 0 0 0 
2400333333.3333334923 0.174128666520118713378906250000 0.046482946723699569702148437500 0.004527163691818714141845703125 0.003893397515639663176295615088 0 0 0 0 
2400500000.0000000000 0.175285965204238891601562500000 0.046750847250223159790039062500 0.005597357638180255889892578125 0.003261918434873222871067666162 0 0 0 0 
2400666666.6666665077 0.174525126814842196365518134371 0.046034067869186401367187500000 0.005295265465974807739257812500 0.004025971516966819763183593750 0 0 0 0 
2400833333.3333334923 0.175294920802116394042968750000 0.045615628361701972270925153907 0.005716503597795963287353515625 0.003755981102585792975184775244 0 0 0 0 
2401000000.0000000000 0.175397723913192804534588731258 0.044836733490228652954101562500 0.005994405131787061691284179688 0.003640545532107353210449218750 0 0 0 0 
2401166666.6666665077 0.175577387213706997970419365629 0.044236164540052407001535783593 0.006229786667972803115844726562 0.003607762278988956971409463037 0 0 0 0 
2401333333.3333334923 0.175648972392082186599893134371 0.043660022318363189697265625000 0.006170079112052918347830487988 0.003481723600998520851135253906 0 0 0 0 
2401500000.0000000000 0.175862118601799011230468750000 0.042832352221012122417409528907 0.006537027657032012939453125000 0.003284431295469402833225869287 0 0 0 0 
2401666666.6666665077 0.175794944167137201507244981258 0.042154885828495032573659528907 0.006724929902702569961547851562 0.003119752276688814163208007812 0 0 0 0 
2401833333.3333334923 0.175763919949531610686932481258 0.041433602571487426757812500000 0.006787413731217384338378906250 0.003008688567206263975856161963 0 0 0 0 
2402000000.0000000000 0.175548315048217801193075615629 0.040646724402904510498046875000 0.006843226496130228042602539062 0.002751789987087250189540243994 0 0 0 0 
2402166666.6666665077 0.175539329648017911056356865629 0.039716381579637527465820312500 0.007208660244941711425781250000 0.002590834628790616989135742188 0 0 0 0 
2402333333.3333334923 0.175440698862075805664062500000 0.038904778659343719482421875000 0.007416019681841135025024414062 0.002295160200446844100952148438 0 0 0 0 
2402500000.0000000000 0.175522401928901700118856865629 0.038014609366655349731445312500 0.007563789840787649154663085938 0.002164128934964538054225302588 0 0 0 0 
2402666666.6666665077 0.175171390175819396972656250000 0.036998767405748367309570312500 0.007710599340498447418212890625 0.001958683598786592917201376807 0 0 0 0 
2402833333.3333334923 0.174669966101646395584268134371 0.035950463265180587768554687500 0.007771362084895372390747070312 0.001789089292287826971766806494 0 0 0 0 
2403000000.0000000000 0.174405202269554110428018134371 0.034855410456657409667968750000 0.008196388371288776397705078125 0.001468340284191071987152099609 0 0 0 0 
2403166666.6666665077 0.174308598041534396072549384371 0.033317450433969497680664062500 0.008109000511467456817626953125 0.001319414586760103919385600513 0 0 0 0 
2403333333.3333334923 0.173947826027870205978231865629 0.032059609889984130859375000000 0.008092551492154598236083984375 0.000856356287840753793716430664 0 0 0 0 
2403500000.0000000000 0.173518002033233587066973768742 0.030508942902088168752650076954 0.008255613967776298522949218750 0.000653492636047303676605224609 0 0 0 0 
2403666666.6666665077 0.173140153288841303069744981258 0.028828434646129611623743826954 0.008573018945753574371337890625 0.000062512903241440653800964355 0 0 0 0 
2403833333.3333334923 0.172910094261169405838174384371 0.027207354083657271648366560157 0.008417776785790920257568359375 -0.000100721001217607395209450993 0 0 0 0 
2404000000.0000000000 0.172371968626976013183593750000 0.025611191987991329538365548046 0.008587613701820373535156250000 -0.000445936602773144786984044208 0 0 0 0 
2404166666.6666665077 0.172056019306182889083700615629 0.023805964738130569458007812500 0.008754516951739788055419921875 -0.000667057116515934467315673828 0 0 0 0 
2404333333.3333334923 0.171777173876762390136718750000 0.022017687559127811086634451954 0.008617617189884185791015625000 -0.001175066456198692104936909253 0 0 0 0 
2404500000.0000000000 0.171352550387382507324218750000 0.020086826756596568716028983204 0.008636011742055416107177734375 -0.001394170336425303979160927881 0 0 0 0 
2404666666.6666665077 0.171088039875030489822549384371 0.018105262890458110464075858204 0.008434290066361427307128906250 -0.001638535177335143089294433594 0 0 0 0 
2404833333.3333334923 0.170869946479797391036825615629 0.016137998551130298269251639454 0.008356864564120769500732421875 -0.002034627832472323937657021631 0 0 0 0 
2405000000.0000000000 0.170627444982528686523437500000 0.014025779440999029332171055273 0.008206961676478385925292968750 -0.002354989293962717056274414062 0 0 0 0 
2405166666.6666665077 0.170431584119796808440838731258 0.012192175723612310236920741602 0.008213978260755538940429687500 -0.002653132425621151924133300781 0 0 0 0 
2405333333.3333334923 0.170540943741798400878906250000 0.010149327106773849832555001171 0.008108082227408885955810546875 -0.003055276814848185019252158057 0 0 0 0 
2405500000.0000000000 0.170547842979431207854901231258 0.008181251585483551025390625000 0.007827105931937694549560546875 -0.003226713743060826821568154443 0 0 0 0 
2405666666.6666665077 0.170502960681915310958700615629 0.006118146702647209167480468750 0.007803139276802539825439453125 -0.003538197604939341978785849463 0 0 0 0 
2405833333.3333334923 0.170482978224754305740518134371 0.004147063475102186203002929688 0.007670757360756397247314453125 -0.003726860275492072105407714844 0 0 0 0 
2406000000.0000000000 0.170998871326446505447549384371 0.001866004080511630015132285010 0.007430092897266150388235761426 -0.004009083844721317291259765625 0 0 0 0 
2406166666.6666665077 0.171150133013725308517294365629 0.000020588324332493360748494796 0.007270080968737602233886718750 -0.004213264212012290954589843750 0 0 0 0 
2406333333.3333334923 0.171717733144760104080361884371 -0.002043235348537563843968056787 0.007076764013618230819702148438 -0.004553482867777348432059003613 0 0 0 0 
2406500000.0000000000 0.172106325626373291015625000000 -0.004099607933312655362600995801 0.007065817248076201352591230176 -0.004745395388454198837280273438 0 0 0 0 
2406666666.6666665077 0.172393336892127990722656250000 -0.005975152831524611386770917676 0.006893473211675882339477539062 -0.004808138590306043624877929688 0 0 0 0 
2406833333.3333334923 0.173169463872909601409588731258 -0.008068786002695560455322265625 0.006658087018877267837524414062 -0.004994994960725308331961347363 0 0 0 0 
2407000000.0000000000 0.173634171485900906661825615629 -0.009984934702515602111816406250 0.006468175910413265228271484375 -0.005228891037404537200927734375 0 0 0 0 
2407166666.6666665077 0.174449518322944613357705634371 -0.011651607230305669957171055273 0.006227497011423110961914062500 -0.005432083271443843841552734375 0 0 0 0 
2407333333.3333334923 0.175040304660797091385049384371 -0.013706614263355730229387852148 0.005995241459459066390991210938 -0.005660478491336107254028320312 0 0 0 0 
2407500000.0000000000 0.175850480794906588455361884371 -0.015425824560225009918212890625 0.005756255239248275756835937500 -0.006077339872717857360839843750 0 0 0 0 
2407666666.6666665077 0.176686525344848605056924384371 -0.017058666795492168771763985546 0.005586151964962483319754316113 -0.006059185136109591397757245801 0 0 0 0 
2407833333.3333334923 0.177140265703201293945312500000 -0.018889514729380611074427420704 0.005454460158944129943847656250 -0.006278173532336950302124023438 0 0 0 0 
2408000000.0000000000 0.178008407354354886154013115629 -0.020604945719242099416712576954 0.005372287239879369735717773438 -0.006431853864341974258422851562 0 0 0 0 
2408166666.6666665077 0.178679957985877990722656250000 -0.022073794156312939035435860546 0.005009238608181476593017578125 -0.006536738947033882141113281250 0 0 0 0 
2408333333.3333334923 0.179473027586937006194744981258 -0.023583656176924708974818045704 0.004778592381626367568969726562 -0.006801055744290351867675781250 0 0 0 0 
2408500000.0000000000 0.180058553814888000488281250000 -0.024992328137159351003626639454 0.004612536635249853134155273438 -0.006806329824030399322509765625 0 0 0 0 
2408666666.6666665077 0.180628627538681002517861884371 -0.026474040001630779611607735546 0.004413357004523277282714843750 -0.006944810505956411361694335938 0 0 0 0 
2408833333.3333334923 0.181108906865119906326455634371 -0.027752434834837910043736641796 0.004261799622327089309692382812 -0.007100815884768962860107421875 0 0 0 0 
2409000000.0000000000 0.181601598858833312988281250000 -0.028711799532175060617467110546 0.004033938050270080566406250000 -0.007163552567362785339355468750 0 0 0 0 
2409166666.6666665077 0.182130947709083612640057481258 -0.029809178784489631652832031250 0.003931065090000629425048828125 -0.007265821564942598342895507812 0 0 0 0 
2409333333.3333334923 0.182584047317504910568075615629 -0.030685892328619960439661795704 0.003755973419174551963806152344 -0.007391431368887425336355878613 0 0 0 0 
2409500000.0000000000 0.182775318622589111328125000000 -0.031572535634040832519531250000 0.003635424887761474089381552588 -0.007504040375351905822753906250 0 0 0 0 
2409666666.6666665077 0.183157384395599392989950615629 -0.032171893864870071411132812500 0.003371227066963911056518554688 -0.007651173509657382965087890625 0 0 0 0 
2409833333.3333334923 0.183249637484550503829794365629 -0.032618649303913123393972028907 0.003200712148100138144252158057 -0.007722602225840091705322265625 0 0 0 0 
2410000000.0000000000 0.183803573250770596603231865629 -0.033193062990903847431223283593 0.002921438077464700178859091650 -0.007942668162286281585693359375 0 0 0 0 
2410166666.6666665077 0.183866545557975796798544365629 -0.033676408231258392333984375000 0.002839545253664255142211914062 -0.007943339645862579345703125000 0 0 0 0 
2410333333.3333334923 0.183939486742019708831463731258 -0.034013975411653518676757812500 0.002536528278142213821411132812 -0.008101528510451316833496093750 0 0 0 0 
2410500000.0000000000 0.184053972363472012618856865629 -0.034392852336168289184570312500 0.002349858870729804039001464844 -0.008429876528680324554443359375 0 0 0 0 
2410666666.6666665077 0.183918118476867703536825615629 -0.034789059311151511455495466407 0.002101412275806068940403603662 -0.008435558527708053588867187500 0 0 0 0 
2410833333.3333334923 0.183945477008819607833700615629 -0.035013008862733840942382812500 0.001849040156230330900904990088 -0.008561830967664718627929687500 0 0 0 0 
2411000000.0000000000 0.183791279792785589020098768742 -0.035467844456434249877929687500 0.001407006871886550946476601709 -0.008754209615290164947509765625 0 0 0 0 
2411166666.6666665077 0.183410972356796292404013115629 -0.035958431661128997802734375000 0.001200607046484946987749409253 -0.009005031548440456390380859375 0 0 0 0 
2411333333.3333334923 0.183070838451385498046875000000 -0.036047395318746566772460937500 0.000794977648183703422546386719 -0.009044398553669452667236328125 0 0 0 0 
2411500000.0000000000 0.182371169328689602950888115629 -0.036482226103544242168386091407 0.000553832564037293195724487305 -0.008986965753138065338134765625 0 0 0 0 
2411666666.6666665077 0.182079091668128995040731865629 -0.036846671253442757343332658593 0.000194810942048206898287096567 -0.009275996126234531402587890625 0 0 0 0 
2411833333.3333334923 0.181486591696739196777343750000 -0.037210572510957717895507812500 -0.000330639042658731287151890887 -0.009267372079193592071533203125 0 0 0 0 
2412000000.0000000000 0.180793821811675997635049384371 -0.037688251584768302226979841407 -0.000625263783149421215057373047 -0.009234935045242309570312500000 0 0 0 0 
2412166666.6666665077 0.179701372981071499923544365629 -0.038148920983076102519948591407 -0.000993481022305786609649658203 -0.009330014698207378387451171875 0 0 0 0 
2412333333.3333334923 0.179025277495384188553018134371 -0.038644071668386459350585937500 -0.001268689637072383923771523584 -0.009022788144648075103759765625 0 0 0 0 
2412500000.0000000000 0.178054317831993103027343750000 -0.039166260510683059692382812500 -0.001841659075580537102342915112 -0.009130909107625484466552734375 0 0 0 0 
2412666666.6666665077 0.176949799060821505447549384371 -0.039956353604793548583984375000 -0.002119713928550481796264648438 -0.009051286615431308746337890625 0 0 0 0 
2412833333.3333334923 0.175905451178550692459268134371 -0.040647752583026892925222028907 -0.002558236708864570097682333838 -0.008886998519301414489746093750 0 0 0 0 
2413000000.0000000000 0.174607947468757601638955634371 -0.041286092251539230346679687500 -0.002962358994409441947937011719 -0.008816284127533435821533203125 0 0 0 0 
2413166666.6666665077 0.173394590616226196289062500000 -0.042199555784463882446289062500 -0.003185427282005548910853720557 -0.008672217838466167449951171875 0 0 0 0 
2413333333.3333334923 0.172105371952056912521200615629 -0.043148364871740341186523437500 -0.003593392437323927879333496094 -0.008409841917455196380615234375 0 0 0 0 
2413500000.0000000000 0.170772522687911987304687500000 -0.044012788683176040649414062500 -0.003880928969010711149928427588 -0.008199606090784072875976562500 0 0 0 0 
2413666666.6666665077 0.169388383626937893966513115629 -0.044996976852416992187500000000 -0.004121559672057628631591796875 -0.007936926558613777160644531250 0 0 0 0 
2413833333.3333334923 0.168097972869873102386151231258 -0.046062413603067398071289062500 -0.004331853240728378295898437500 -0.007611185312271118164062500000 0 0 0 0 
2414000000.0000000000 0.166800245642662103850994981258 -0.047342192381620407104492187500 -0.004706919658929109573364257812 -0.007569541689008474349975585938 0 0 0 0 
2414166666.6666665077 0.165545269846916198730468750000 -0.048619054257869720458984375000 -0.005084058269858360290527343750 -0.007355662994086742401123046875 0 0 0 0 
2414333333.3333334923 0.164341792464256286621093750000 -0.050002899020910263061523437500 -0.005061905831098557385916425488 -0.007064259145408868789672851562 0 0 0 0 
2414500000.0000000000 0.163296490907669095138388115629 -0.051384534686803817749023437500 -0.005394219420850276947021484375 -0.006924521643668413162231445312 0 0 0 0 
2414666666.6666665077 0.162001341581344604492187500000 -0.052761331200599670410156250000 -0.005636404734104871749877929688 -0.006616832688450813293457031250 0 0 0 0 
2414833333.3333334923 0.160887688398361206054687500000 -0.054437953978776931762695312500 -0.005643869284540414810180664062 -0.006302503403276205062866210938 0 0 0 0 
2415000000.0000000000 0.159725874662399291992187500000 -0.056107088923454291606862653907 -0.005911576561629772186279296875 -0.006100797560065984725952148438 0 0 0 0 
2415166666.6666665077 0.158732488751411410232705634371 -0.057834401726722717285156250000 -0.006161238066852092742919921875 -0.005868012551218271255493164062 0 0 0 0 
2415333333.3333334923 0.157897531986236600021200615629 -0.059597600251436226581613908593 -0.006166544277220964431762695312 -0.005542668513953685760498046875 0 0 0 0 
2415500000.0000000000 0.156993731856346102615518134371 -0.061400327831506729125976562500 -0.006296321284025908383841230176 -0.005508529022336006164550781250 0 0 0 0 
2415666666.6666665077 0.156161785125732394119424384371 -0.063246935606002807617187500000 -0.006441770121455193433279706738 -0.005080441478639841079711914062 0 0 0 0 
2415833333.3333334923 0.155553609132766695877236884371 -0.065130189061164855957031250000 -0.006525817327201366424560546875 -0.004846225492656230926513671875 0 0 0 0 
2416000000.0000000000 0.154694706201553289215411268742 -0.067183546721935272216796875000 -0.006517700385302305221557617188 -0.004720441531389951705932617188 0 0 0 0 
2416166666.6666665077 0.154256254434585599044638115629 -0.069078907370567321777343750000 -0.006701695267111063003540039062 -0.004269897472113370895385742188 0 0 0 0 
2416333333.3333334923 0.153792634606361389160156250000 -0.071068391203880310058593750000 -0.006835545878857374191284179688 -0.003969064448028802871704101562 0 0 0 0 
2416500000.0000000000 0.153393477201461791992187500000 -0.073019906878471374511718750000 -0.006656861864030361175537109375 -0.003858044743537902832031250000 0 0 0 0 
2416666666.6666665077 0.152758628129959106445312500000 -0.074932582676410675048828125000 -0.006792223546653985977172851562 -0.003435346996411681175231933594 0 0 0 0 
2416833333.3333334923 0.152600198984146090408486884371 -0.077032558619976043701171875000 -0.006950679235160350799560546875 -0.003242563456296921210048056494 0 0 0 0 
2417000000.0000000000 0.152138665318489102462606865629 -0.078992851078510284423828125000 -0.007044631522148847579956054688 -0.002978886011987925009486533057 0 0 0 0 
2417166666.6666665077 0.151808485388755798339843750000 -0.080674462020397186279296875000 -0.007033315487205982208251953125 -0.002694337628781795935389853369 0 0 0 0 
2417333333.3333334923 0.151715159416198702713174384371 -0.082454346120357513427734375000 -0.007024450693279504776000976562 -0.002660007448866962952854775537 0 0 0 0 
2417500000.0000000000 0.151578098535537691970986884371 -0.084342636168003082275390625000 -0.007070607040077447891235351562 -0.002276789629831910133361816406 0 0 0 0 
2417666666.6666665077 0.151718780398368807693643134371 -0.085777953267097473144531250000 -0.007113664411008358001708984375 -0.002293419325724244117736816406 0 0 0 0 
2417833333.3333334923 0.151661604642867986481036268742 -0.087239414453506469726562500000 -0.007060595322400332364554120801 -0.001840669196099042892456054688 0 0 0 0 
2418000000.0000000000 0.151555150747299194335937500000 -0.088929429650306701660156250000 -0.007141976151615381240844726562 -0.001694224425591527981999062646 0 0 0 0 
2418166666.6666665077 0.151636824011802701095419365629 -0.090065196156501770019531250000 -0.007044663652777671813964843750 -0.001507458626292645931243896484 0 0 0 0 
2418333333.3333334923 0.152011916041374206542968750000 -0.091392472386360168457031250000 -0.007074157707393169403076171875 -0.001037781592458486990687704932 0 0 0 0 
2418500000.0000000000 0.152031019330024691482705634371 -0.092538170516490936279296875000 -0.007091838400810956954956054688 -0.000823616166599094867706298828 0 0 0 0 
2418666666.6666665077 0.152308598160743713378906250000 -0.093651369214057922363281250000 -0.007049294188618659973144531250 -0.000704061414580792188644409180 0 0 0 0 
2418833333.3333334923 0.152296915650367709060830634371 -0.094504825770854949951171875000 -0.007084157783538103103637695312 -0.000590845127590000629425048828 0 0 0 0 
2419000000.0000000000 0.152506843209266690353231865629 -0.095224969089031219482421875000 -0.006826825905591250333304120801 -0.000162335563800297704621991568 0 0 0 0 
2419166666.6666665077 0.152665421366691589355468750000 -0.095989435911178588867187500000 -0.006903031840920448303222656250 0.000051480285037541761994361877 0 0 0 0 
2419333333.3333334923 0.152800053358078002929687500000 -0.096423022449016571044921875000 -0.006873035337775945663452148438 0.000215536056202836307600298471 0 0 0 0 
2419500000.0000000000 0.153102338314056396484375000000 -0.097039118409156799316406250000 -0.006638747174292802810668945312 0.000489493540953844785690307617 0 0 0 0 
2419666666.6666665077 0.153561130166053799728231865629 -0.097380258142948150634765625000 -0.006670236587524414062500000000 0.000741739000659435987472534180 0 0 0 0 
2419833333.3333334923 0.153318390250205993652343750000 -0.097594112157821655273437500000 -0.006589383818209171295166015625 0.000989511376246809959411621094 0 0 0 0 
