# Hz S RI R 50
2400000000.0000000000 0.167589575052261408050213731258 0.041205100715160369873046875000 -0.001299923751503228924394917065 0.002530340338125824928283691406 0 0 0 0 
2400166666.6666665077 0.168100848793983487228231865629 0.040408477187156677246093750000 -0.001159406267106533050537109375 0.002524028532207012176513671875 0 0 0 0 
2400333333.3333334923 0.168788969516754205901776231258 0.039495453238487236713449846093 -0.001093420316465198993682861328 0.002493582898750900788548134912 0 0 0 0 
2400500000.0000000000 0.169136419892311096191406250000 0.038476698100566857074777971093 -0.001045789103955030007603310693 0.002417512936517595811131142725 0 0 0 0 
2400666666.6666665077 0.169479906558990506271200615629 0.037648458033800132060964216407 -0.000772807572502642869949340820 0.002321861218661069869995117188 0 0 0 0 
2400833333.3333334923 0.169857889413833590408486884371 0.036705672740936279296875000000 -0.000918396515771746635437011719 0.002235757419839500947239541162 0 0 0 0 
2401000000.0000000000 0.170053407549858093261718750000 0.035938989371061332012136091407 -0.000701480603311210870742797852 0.002169805113226174874546670068 0 0 0 0 
2401166666.6666665077 0.170358166098594693282919365629 0.035091884434223181987722028907 -0.000726337020751088857650756836 0.002064699539914727210998535156 0 0 0 0 
2401333333.3333334923 0.170536577701568603515625000000 0.034163147211074829101562500000 -0.000645131629426032304763793945 0.002117287833243608908412314307 0 0 0 0 
2401500000.0000000000 0.170939207077026394943075615629 0.033237252384424209594726562500 -0.000631813192740082740783691406 0.001979505876079202131984091650 0 0 0 0 
2401666666.6666665077 0.171109780669212313553018134371 0.032349374145269386982004533593 -0.000588534341659396886825561523 0.001816975884139538028119731372 0 0 0 0 
2401833333.3333334923 0.171057790517807006835937500000 0.031527925282716751098632812500 -0.000519437948241829872131347656 0.001773927942849695899366069263 0 0 0 0 
2402000000.0000000000 0.171077147126197787185830634371 0.030490357428789138793945312500 -0.000587045273277908563613891602 0.001701841596513987021205283057 0 0 0 0 
2402166666.6666665077 0.171300172805786105056924384371 0.029460048303008079528808593750 -0.000641257036477327346801757812 0.001684518880210817077039409106 0 0 0 0 
2402333333.3333334923 0.171223402023315401931924384371 0.028685571625828739511510079296 -0.000606900139246135950088500977 0.001573377870954572937609028394 0 0 0 0 
2402500000.0000000000 0.171355277299881009200888115629 0.027691768482327461242675781250 -0.000654790434055030345916748047 0.001633951556868850968004536206 0 0 0 0 
2402666666.6666665077 0.171286731958389309982138115629 0.026705792173743251455286795704 -0.000637592864222824573516845703 0.001636658096686006026027060400 0 0 0 0 
2402833333.3333334923 0.171363845467567388336505018742 0.025567814707756039011021798046 -0.000842574110720306634902954102 0.001637513865716754956486367334 0 0 0 0 
2403000000.0000000000 0.171319693326950100997763115629 0.024542843922972679138183593750 -0.000773186562582850456237792969 0.001629502512514591000200581128 0 0 0 0 
2403166666.6666665077 0.171337321400642395019531250000 0.023306611925363540649414062500 -0.000715122965630143880844116211 0.001589399296790360970738076318 0 0 0 0 
2403333333.3333334923 0.171196952462196405608807481258 0.022241370752453800546666329296 -0.000803744187578558921813964844 0.001417128136381506919860839844 0 0 0 0 
2403500000.0000000000 0.171003565192222595214843750000 0.021024655550718310964564139454 -0.000976465234998613595962524414 0.001535243238322437026380229419 0 0 0 0 
2403666666.6666665077 0.171043440699577303787393134371 0.019739571958780288696289062500 -0.000879270199220627546310424805 0.001858783769421278996708535303 0 0 0 0 
2403833333.3333334923 0.171081736683845492263955634371 0.018408492207527160644531250000 -0.000972807174548506736755371094 0.001768745598383248069165873950 0 0 0 0 
2404000000.0000000000 0.170806735754013089279013115629 0.017191473394632339477539062500 -0.000974316033534705638885498047 0.001833104528486729101893759619 0 0 0 0 
2404166666.6666665077 0.170747965574264498611611884371 0.015968587249517440795898437500 -0.000892308482434600591659545898 0.001950183766894042925593710791 0 0 0 0 
2404333333.3333334923 0.170631825923919705489950615629 0.014682717621326450002650076954 -0.000906975532416254281997680664 0.001992834266275167898890829932 0 0 0 0 
2404500000.0000000000 0.170538157224655206878338731258 0.013190604746341710526436052930 -0.000885074143297970294952392578 0.002114985603839159011840820312 0 0 0 0 
2404666666.6666665077 0.170488119125366210937500000000 0.011766032315790649759312813671 -0.000860665633808821439743041992 0.002027137903496623039245605469 0 0 0 0 
2404833333.3333334923 0.170409917831420898437500000000 0.010568752884864810598353201954 -0.000610329851042479276657104492 0.002160304924473166899440146338 0 0 0 0 
2405000000.0000000000 0.170346081256866510589276231258 0.008875599130988121032714843750 -0.000706404680386185646057128906 0.002274306723847984833958291162 0 0 0 0 
2405166666.6666665077 0.170389935374260004241619981258 0.007415737491101027402395917676 -0.000633547606412321329116821289 0.002230434445664287047145224463 0 0 0 0 
2405333333.3333334923 0.170567452907562311370526231258 0.005728554911911487579345703125 -0.000460702722193673307269495831 0.002202751347795128822326660156 0 0 0 0 
2405500000.0000000000 0.170438423752784701248330634371 0.004341246094554662704467773438 -0.000317748636007309014171046124 0.002212119754403830008265829932 0 0 0 0 
2405666666.6666665077 0.170343309640884399414062500000 0.002946424297988415198085165869 -0.000190281440154649290159502573 0.002213090891018509864807128906 0 0 0 0 
2405833333.3333334923 0.170190349221229608733807481258 0.001213750219903886101366352612 -0.000249356962740421295166015625 0.002197009976953268051147460938 0 0 0 0 
2406000000.0000000000 0.170188352465629605392294365629 -0.000318905746098607778549194336 0.000051328850531717762351036072 0.001990482443943620161769247900 0 0 0 0 
2406166666.6666665077 0.170031920075416592696981865629 -0.001931443577632308006286621094 0.000129276653751730891779223032 0.001932700164616107940673828125 0 0 0 0 
2406333333.3333334923 0.170165926218032809158486884371 -0.003309934632852673964259482275 -0.000190714083146303892135620117 0.001895798603072762922999716650 0 0 0 0 
2406500000.0000000000 0.169781878590583801269531250000 -0.004941237159073352813720703125 -0.000118485339044127599753518376 0.001754248049110173962236713940 0 0 0 0 
2406666666.6666665077 0.169580504298210088531817518742 -0.006422082427889108657836914062 -0.000041683186282170943241526945 0.001648399396799504973767924731 0 0 0 0 
2406833333.3333334923 0.169548436999321011642294365629 -0.007969385944306850433349609375 -0.000163523858645930913373670035 0.001778655918315052986145019531 0 0 0 0 
2407000000.0000000000 0.169340774416923495193643134371 -0.009523016400635242462158203125 -0.000332205643644556403160095215 0.001618123846128582954406738281 0 0 0 0 
2407166666.6666665077 0.169190496206283597091513115629 -0.010692532174289230001429373829 -0.000415701390011236125796717511 0.001493791700340807004215859521 0 0 0 0 
2407333333.3333334923 0.168948113918304387848223768742 -0.012205396778881549835205078125 -0.000635767530184239149093627930 0.001664496026933192989946674878 0 0 0 0 
2407500000.0000000000 0.168785661458969088455361884371 -0.013309263624250890559186366602 -0.000662923324853181838989257812 0.001583778648637234947801899487 0 0 0 0 
2407666666.6666665077 0.168743297457695007324218750000 -0.014566836878657339268694492773 -0.000782061251811683177947998047 0.001874799258075654940364218604 0 0 0 0 
2407833333.3333334923 0.168246775865554809570312500000 -0.015854347497224811208704764454 -0.000903071777429431676864624023 0.001886196667328476905822753906 0 0 0 0 
2408000000.0000000000 0.168195754289627102950888115629 -0.016798319295048710214635079296 -0.000931469199713319540023803711 0.002139404881745576858520507812 0 0 0 0 
2408166666.6666665077 0.168029800057411193847656250000 -0.017747197300195690500279610546 -0.001116865896619855923893593896 0.002194725908339024023768759619 0 0 0 0 
2408333333.3333334923 0.168136000633239801604901231258 -0.018524697050452228891392891796 -0.001048638834618031978607177734 0.002371540525928140120265341650 0 0 0 0 
2408500000.0000000000 0.168124377727508489410723768742 -0.019569201394915580749511718750 -0.001037014299072325012804340894 0.002640105783939362005946493994 0 0 0 0 
2408666666.6666665077 0.168149232864379910568075615629 -0.020550271496176719665527343750 -0.000794464780483394861221313477 0.002809969242662190957310341943 0 0 0 0 
2408833333.3333334923 0.168139129877090509612713731258 -0.021339688450098041189173514454 -0.000791769474744796752929687500 0.002962395781651138825657509912 0 0 0 0 
2409000000.0000000000 0.168265581130981500823651231258 -0.022112190723419189453125000000 -0.000678355048876255750656127930 0.003248292487114667892456054688 0 0 0 0 
2409166666.6666665077 0.168489620089530889313067518742 -0.023107718676328659057617187500 -0.000485100928926840424537658691 0.003485867287963629202601767432 0 0 0 0 
2409333333.3333334923 0.168649047613143893142861884371 -0.023906275629997249948521798046 -0.000423102988861501216888427734 0.003427341580390930175781250000 0 0 0 0 
2409500000.0000000000 0.168681606650352505782919365629 -0.024797184392809871328333670704 -0.000211168066016398397371015005 0.003751479787752031846287392725 0 0 0 0 
2409666666.6666665077 0.168769046664238003829794365629 -0.025890622287988659250279610546 -0.000013580578524852169846194420 0.003735982114449142976048134912 0 0 0 0 
2409833333.3333334923 0.168865099549293490310830634371 -0.026489136740565299987792968750 0.000102812809927854700528006282 0.003905995516106485886814736475 0 0 0 0 
2410000000.0000000000 0.169050589203834505935830634371 -0.027565056458115581167200858204 0.000174105691257864209726610727 0.003979229833930730819702148438 0 0 0 0 
2410166666.6666665077 0.168954089283943204025106865629 -0.028613803908228870737096016796 0.000661484315060079097747802734 0.004010611213743686676025390625 0 0 0 0 
2410333333.3333334923 0.168914377689361600021200615629 -0.029367243871092799795130545704 0.000750441744457930326461791992 0.004130470100790262222290039062 0 0 0 0 
2410500000.0000000000 0.168891087174415588378906250000 -0.030341705307364460336705391796 0.001086828182451426982879638672 0.004200410097837448120117187500 0 0 0 0 
2410666666.6666665077 0.168773204088211087325888115629 -0.031468492001295089721679687500 0.001325029646977782032610249097 0.004210903774946928024291992188 0 0 0 0 
2410833333.3333334923 0.168633952736854608733807481258 -0.032340392470359802246093750000 0.001490827300585805936100625146 0.004171893466264010343069745801 0 0 0 0 
2411000000.0000000000 0.168511286377906799316406250000 -0.032965622842311859130859375000 0.001752207172103225968004536206 0.004220709670335054397583007812 0 0 0 0 
2411166666.6666665077 0.168407559394836398025674384371 -0.034140381962060928344726562500 0.002040691673755646185633993994 0.004076755139976739883422851562 0 0 0 0 
2411333333.3333334923 0.168275162577629089355468750000 -0.035018645226955406879465471093 0.002316928934305905862095498193 0.004053075797855854034423828125 0 0 0 0 
2411500000.0000000000 0.167777091264724703689736884371 -0.036051414906978607177734375000 0.002552281832322477860691689600 0.003931748215109109878540039062 0 0 0 0 
2411666666.6666665077 0.167803809046745300292968750000 -0.036699593067169189453125000000 0.002715907059609889984130859375 0.003908737096935510635375976562 0 0 0 0 
2411833333.3333334923 0.167524769902229309082031250000 -0.037562415003776550292968750000 0.002956883516162633895874023438 0.003721535671502352194545126807 0 0 0 0 
2412000000.0000000000 0.167303234338760403732138115629 -0.038779255002737052226979841407 0.003179676132276653809788369287 0.003553866175934671921970986475 0 0 0 0 
2412166666.6666665077 0.166961446404457092285156250000 -0.039596933871507651592214216407 0.003357034176588058905360556494 0.003344041062518953843357705225 0 0 0 0 
2412333333.3333334923 0.166837215423584012130575615629 -0.040469937026500701904296875000 0.003630431601777673201320029150 0.003296271432191133932826376807 0 0 0 0 
2412500000.0000000000 0.166392907500267001053018134371 -0.041565168648958213115651716407 0.003756054444238543944117880713 0.003040014766156672997715615381 0 0 0 0 
2412666666.6666665077 0.166216149926185607910156250000 -0.042618710547685623168945312500 0.003875847673043609099147177588 0.002877395134419202804565429688 0 0 0 0 
2412833333.3333334923 0.165921539068222101409588731258 -0.043556727468967437744140625000 0.004033993929624558362478925488 0.002680236473679542975184775244 0 0 0 0 
2413000000.0000000000 0.165223717689514187911825615629 -0.044633261859416961669921875000 0.004295098595321177568917558887 0.002312909578904509978053427588 0 0 0 0 
2413166666.6666665077 0.164977639913558987716513115629 -0.045592702925205230712890625000 0.004360518418252468109130859375 0.002118382370099424882176064600 0 0 0 0 
2413333333.3333334923 0.164334222674369812011718750000 -0.046575736254453659057617187500 0.004328772891312837600708007812 0.001887531252577901103376079028 0 0 0 0 
2413500000.0000000000 0.164079040288925198654013115629 -0.047540757805109017108957658593 0.004562256857752799987792968750 0.001527572167105972983716655200 0 0 0 0 
2413666666.6666665077 0.163643181324005099197549384371 -0.048788312822580337524414062500 0.004549488425254821777343750000 0.001453982549719512896296835791 0 0 0 0 
2413833333.3333334923 0.162985995411872891525106865629 -0.049620721489191062236745466407 0.004550687968730927381033612988 0.001166059402748941941502236475 0 0 0 0 
2414000000.0000000000 0.162657245993614196777343750000 -0.050690334290266036987304687500 0.004674601368606091413016034863 0.000791637576185166835784912109 0 0 0 0 
2414166666.6666665077 0.162256851792335510253906250000 -0.051695022732019417499582658593 0.004603270906955003738403320312 0.000611378345638513565063476562 0 0 0 0 
2414333333.3333334923 0.161907941102981595138388115629 -0.052673742175102226947824846093 0.004670459311455488204956054688 0.000362199585651978904574793683 0 0 0 0 
2414500000.0000000000 0.161887481808662386795205634371 -0.053498689085245132446289062500 0.004528436809778214368338300488 0.000111764988105278502829136034 0 0 0 0 
2414666666.6666665077 0.161392435431480407714843750000 -0.054577730596065521240234375000 0.004422313999384641647338867188 -0.000128204585053026703283032828 0 0 0 0 
2414833333.3333334923 0.161102116107940701583700615629 -0.055571347475051879882812500000 0.004124381579458714398855878613 -0.000187723591807298389360150748 0 0 0 0 
2415000000.0000000000 0.160793662071227999588174384371 -0.056558597832918167114257812500 0.004159978125244379043579101562 -0.000550768629182130098342895508 0 0 0 0 
2415166666.6666665077 0.160588279366493197342080634371 -0.057644706219434738159179687500 0.004040213767439126968383789062 -0.000703602912835776805877685547 0 0 0 0 
2415333333.3333334923 0.160627081990242004394531250000 -0.058787934482097632671315778907 0.003821295918896793885471963037 -0.000791273720096796751022338867 0 0 0 0 
2415500000.0000000000 0.160469919443130493164062500000 -0.059896696358919136737863908593 0.003818103810772300200221396338 -0.001055110013112426020978618091 0 0 0 0 
2415666666.6666665077 0.160220697522163391113281250000 -0.060941461473703377460520158593 0.003678124630823730988743447412 -0.001205644919537008025525737231 0 0 0 0 
2415833333.3333334923 0.160232558846473693847656250000 -0.062166240066289901733398437500 0.003315061563625932173487997900 -0.001253995462320744991302490234 0 0 0 0 
2416000000.0000000000 0.159900605678558405120526231258 -0.063330240547657012939453125000 0.003288415260612965063807822119 -0.001426496542990208105800009619 0 0 0 0 
2416166666.6666665077 0.159896582365036010742187500000 -0.064487375319004058837890625000 0.003008323488757013840916298975 -0.001359032583422959067701030200 0 0 0 0 
2416333333.3333334923 0.159642755985260009765625000000 -0.065759249031543731689453125000 0.003055820474401115937473916162 -0.001477175392210483984706259619 0 0 0 0 
2416500000.0000000000 0.159375727176666287521200615629 -0.066818282008171081542968750000 0.002861354034394025802612304688 -0.001545469509437680027605366284 0 0 0 0 
2416666666.6666665077 0.159037485718727111816406250000 -0.067917838692665100097656250000 0.002660033758729695840122841943 -0.001551030552946031093597412109 0 0 0 0 
2416833333.3333334923 0.158771470189094487945880018742 -0.069235622882843017578125000000 0.002619334962218999862670898438 -0.001558263669721781990648579175 0 0 0 0 
2417000000.0000000000 0.158254280686378506759481865629 -0.070420362055301666259765625000 0.002433691173791884942295693506 -0.001467615715228020928026508862 0 0 0 0 
2417166666.6666665077 0.158094853162765502929687500000 -0.071272559463977813720703125000 0.002353620249778031869175576318 -0.001464197877794503948808979565 0 0 0 0 
2417333333.3333334923 0.157826319336891202071981865629 -0.072276316583156585693359375000 0.002114087343215941949131631006 -0.001604366581887006976483989185 0 0 0 0 
2417500000.0000000000 0.157363712787628201583700615629 -0.073335736989974975585937500000 0.002060196129605174064636230469 -0.001531101530417799949645996094 0 0 0 0 
2417666666.6666665077 0.157255619764328002929687500000 -0.074147574603557586669921875000 0.001976653002202510833740234375 -0.001510288915596901936772011865 0 0 0 0 
2417833333.3333334923 0.156785160303115789215411268742 -0.074986897408962249755859375000 0.001911952160298824093462299878 -0.001534471986815332932713173975 0 0 0 0 
2418000000.0000000000 0.156514495611190795898437500000 -0.075932338833808898925781250000 0.001908388570882380008697509766 -0.001570833148434757969499897534 0 0 0 0 
2418166666.6666665077 0.156172484159469604492187500000 -0.076559819281101226806640625000 0.001744790119118988947627402197 -0.001416914397850633101222372900 0 0 0 0 
2418333333.3333334923 0.156169936060905512054119981258 -0.077505096793174743652343750000 0.001683557406067847988725971753 -0.001416187151335180022596049731 0 0 0 0 
2418500000.0000000000 0.155667990446090698242187500000 -0.078270174562931060791015625000 0.001619597896933556036708212744 -0.001203127554617821953417133862 0 0 0 0 
2418666666.6666665077 0.155572220683097811599893134371 -0.079133406281471252441406250000 0.001631041755899786949157714844 -0.001176431425847112915636372144 0 0 0 0 
2418833333.3333334923 0.155059307813644409179687500000 -0.079839788377285003662109375000 0.001604521530680357976200722803 -0.001194180222228169007542275537 0 0 0 0 
2419000000.0000000000 0.154638782143592806717080634371 -0.080534942448139190673828125000 0.001777649391442537090898823315 -0.001177118159830570004106831128 0 0 0 0 
2419166666.6666665077 0.154263570904731805999432481258 -0.081275172531604766845703125000 0.001601646887138485908508300781 -0.000976252951659262180328369141 0 0 0 0 
2419333333.3333334923 0.153952881693839999099893134371 -0.081728719174861907958984375000 0.001688359654508531093597412109 -0.000978894880972802639007568359 0 0 0 0 
2419500000.0000000000 0.153480291366577203948651231258 -0.082732439041137695312500000000 0.001716504222713411071180034106 -0.000991236884146928787231445312 0 0 0 0 
2419666666.6666665077 0.153326570987701388260049384371 -0.083152122795581817626953125000 0.001886574900709093050715781104 -0.000961960235144942998886108398 0 0 0 0 
2419833333.3333334923 0.152766734361648587325888115629 -0.083591103553771972656250000000 0.001870260457508265972137451172 -0.000904256128706037998199462891 0 0 0 0 
