# Hz S RI R 
2400000000.0000000000 0.168358296155929593185263115629 0.041009113192558288574218750000 -0.001016558264382183985469199072 -0.003173464443534613089320517432 0 0 0 0 
2400166666.6666665077 0.168976306915283203125000000000 0.040157578885555267333984375000 -0.001018637674860656044603657300 -0.003146837232634425163269042969 0 0 0 0 
2400333333.3333334923 0.169431462883949307540731865629 0.039253994822502143169362653907 -0.000964518811088055372238159180 -0.003210844239220023155212402344 0 0 0 0 
2400500000.0000000000 0.170018941164016695877236884371 0.038396537303924560546875000000 -0.001202446524985135035273886572 -0.003105599200353025956394814600 0 0 0 0 
2400666666.6666665077 0.170288264751434298416299384371 0.037541691213846206665039062500 -0.001059647649526596069335937500 -0.003149248659610747857334756006 0 0 0 0 
2400833333.3333334923 0.170757800340652493575888115629 0.036865785717964172363281250000 -0.001150634721852838993072509766 -0.002960752462968229813816689600 0 0 0 0 
2401000000.0000000000 0.170789599418640108963174384371 0.035839814692735671997070312500 -0.001246417639777064106584858472 -0.003151376498863101005554199219 0 0 0 0 
2401166666.6666665077 0.170999184250831604003906250000 0.035010077059268951416015625000 -0.001323854783549905040143657153 -0.003163879737257957892176962744 0 0 0 0 
2401333333.3333334923 0.171049058437347412109375000000 0.034293502569198608398437500000 -0.001409125514328479983686137622 -0.003069475060328841209411621094 0 0 0 0 
2401500000.0000000000 0.171384274959564208984375000000 0.033376432955265052104909528907 -0.001350645325146615938899374854 -0.003093671984970570044276572119 0 0 0 0 
2401666666.6666665077 0.171534731984138488769531250000 0.032642979174852371215820312500 -0.001381472917273641066310263525 -0.003215048462152481079101562500 0 0 0 0 
2401833333.3333334923 0.171669110655784606933593750000 0.031570687890052802349050153907 -0.001538681215606630065320659106 -0.003116212552413343949558877100 0 0 0 0 
2402000000.0000000000 0.171298936009406987945880018742 0.030706353485584259033203125000 -0.001699004089459777095197368091 -0.003258218988776206970214843750 0 0 0 0 
2402166666.6666665077 0.171490013599395807464276231258 0.029750527814030650747278983204 -0.001921908929944037957432412256 -0.003461343236267567114589072119 0 0 0 0 
2402333333.3333334923 0.171660706400871304611044365629 0.028855912387371059762974923046 -0.002058641519397497177124023438 -0.003263814141973853111267089844 0 0 0 0 
2402500000.0000000000 0.171772390604019192794638115629 0.028046099469065669668177420704 -0.001977164996787906126735068213 -0.003078632056713103814366006006 0 0 0 0 
2402666666.6666665077 0.171420127153396606445312500000 0.026973960921168330800989920704 -0.002386183012276887893676757812 -0.003187938127666711807250976562 0 0 0 0 
2402833333.3333334923 0.171296194195747403243856865629 0.026031903922557830810546875000 -0.002364759333431721167323447119 -0.003085801610723137855529785156 0 0 0 0 
2403000000.0000000000 0.171478077769279507736044365629 0.024916736409068111074427420704 -0.002729845931753516197204589844 -0.003027985105291008949279785156 0 0 0 0 
2403166666.6666665077 0.171288445591926602462606865629 0.023633746430277820932408516796 -0.002629423048347235159633017432 -0.003001508302986621856689453125 0 0 0 0 
2403333333.3333334923 0.171209529042244013030682481258 0.022788798436522480356236641796 -0.002841118490323423905613564600 -0.002909739501774311065673828125 0 0 0 0 
2403500000.0000000000 0.171024367213249206542968750000 0.021650863811373710632324218750 -0.002604865469038486914393759619 -0.002685771323740481896641396631 0 0 0 0 
2403666666.6666665077 0.171001881361007690429687500000 0.020110733807086951518972028907 -0.002938607241958380179164267432 -0.002883913461118936972377158057 0 0 0 0 
2403833333.3333334923 0.170764297246933011154013115629 0.019038313999772068368931954296 -0.002906219800934195952174521338 -0.002647849498316646055934286963 0 0 0 0 
2404000000.0000000000 0.170496314764022799392861884371 0.017757587134838100778599923046 -0.003106199437752366065979003906 -0.002645328175276517868041992188 0 0 0 0 
2404166666.6666665077 0.170478329062461908538494981258 0.016356699168682098388671875000 -0.003114863764494657950160361182 -0.002541000023484230041503906250 0 0 0 0 
2404333333.3333334923 0.170363336801528902908486884371 0.014974879100918769836425781250 -0.003157690865918993949890136719 -0.002485753269866108894348144531 0 0 0 0 
2404500000.0000000000 0.170128643512725802322549384371 0.013500657863914970052698905079 -0.003381109097972511811497353662 -0.002122405450791120962855673682 0 0 0 0 
2404666666.6666665077 0.170189350843429593185263115629 0.012042743153870109212855155079 -0.003291465807706118063685751807 -0.002161640208214520974400185693 0 0 0 0 
2404833333.3333334923 0.170097202062606811523437500000 0.010564969852566720789899257227 -0.003388782730326056914088583838 -0.001953413942828774885890341650 0 0 0 0 
2405000000.0000000000 0.170020312070846613128338731258 0.009103530086576938629150390625 -0.003549783257767558097839355469 -0.001954654231667519049403525244 0 0 0 0 
2405166666.6666665077 0.170000657439231900314169365629 0.007662592455744743347167968750 -0.003510528709739447073695517432 -0.001751558156684041023254394531 0 0 0 0 
2405333333.3333334923 0.170033812522888211349325615629 0.005968702025711536407470703125 -0.003701320383697748184204101562 -0.001774004776962101893184042822 0 0 0 0 
2405500000.0000000000 0.169800207018852206131143134371 0.004548440687358379364013671875 -0.003657256020233035087585449219 -0.001618189038708806037902832031 0 0 0 0 
2405666666.6666665077 0.169893428683280889313067518742 0.002823102986440062956569052588 -0.003505959874019027189967490088 -0.001376515603624284050585102612 0 0 0 0 
2405833333.3333334923 0.169620901346206692794638115629 0.001392562291584908962249755859 -0.003573658177629113197326660156 -0.001493295654654503085492778247 0 0 0 0 
2406000000.0000000000 0.169697329401969909667968750000 -0.000390755565604194998741149902 -0.003745055058971046967747353662 -0.001265982864424586079241108472 0 0 0 0 
2406166666.6666665077 0.169494241476058987716513115629 -0.001839680830016731999040913159 -0.003736313199624419212341308594 -0.001190394279547035910962748950 0 0 0 0 
2406333333.3333334923 0.169474527239799499511718750000 -0.003514183685183525085449218750 -0.003774148179218173027038574219 -0.001013101311400532939313579028 0 0 0 0 
2406500000.0000000000 0.169401571154594393631143134371 -0.005157038569450378417968750000 -0.003849801607429980798008584131 -0.001022698939777910926221538013 0 0 0 0 
2406666666.6666665077 0.169178158044815091232138115629 -0.006636183243244886398315429688 -0.003881606971845030784606933594 -0.000756619789171963930130004883 0 0 0 0 
2406833333.3333334923 0.169251441955566406250000000000 -0.008250127546489238739013671875 -0.003872968722134829001185751807 -0.000738273665774613618850708008 0 0 0 0 
2407000000.0000000000 0.169220164418220492263955634371 -0.009695217944681644439697265625 -0.004078879021108151349539472363 -0.000613385753240436315536499023 0 0 0 0 
2407166666.6666665077 0.169099241495132501800213731258 -0.011129168793559069197685040820 -0.003873895388096570968627929688 -0.000322384847095236182212829590 0 0 0 0 
2407333333.3333334923 0.168712779879570007324218750000 -0.012508871033787730825403983204 -0.004016757942736148834228515625 -0.000289952120510861277580261230 0 0 0 0 
2407500000.0000000000 0.168762847781181307693643134371 -0.013826849870383739471435546875 -0.003924684599041938781738281250 -0.000037380352296167991381099088 0 0 0 0 
2407666666.6666665077 0.168585672974586486816406250000 -0.014872943051159380131731602148 -0.003859755117446184158325195312 0.000085082989244256168603897095 0 0 0 0 
2407833333.3333334923 0.168354138731956509689169365629 -0.016259353607892990112304687500 -0.003933598753064870834350585938 0.000125004240544512895032605582 0 0 0 0 
2408000000.0000000000 0.168263733386993408203125000000 -0.017323339357972148550013358204 -0.003662618575617671012878417969 0.000370108289644122123718261719 0 0 0 0 
2408166666.6666665077 0.168346032500267001053018134371 -0.018241282552480701101282889454 -0.003642447292804718017578125000 0.000306626374367624521255493164 0 0 0 0 
2408333333.3333334923 0.168460294604301508147869981258 -0.019297342747449878347376639454 -0.003383326577022672133204794775 0.000521621492225676774978637695 0 0 0 0 
2408500000.0000000000 0.168432012200355502029580634371 -0.020068822428584098815917968750 -0.003388503100723028182983398438 0.000525953772012144327163696289 0 0 0 0 
2408666666.6666665077 0.168490335345268305022869981258 -0.021144594997167590749720389454 -0.003224989864975214004516601562 0.000718673574738204479217529297 0 0 0 0 
2408833333.3333334923 0.168527498841285705566406250000 -0.022054970264434810983678048046 -0.002996110823005437850952148438 0.000722878146916627883911132812 0 0 0 0 
2409000000.0000000000 0.168591216206550598144531250000 -0.022904992103576660156250000000 -0.003254003822803496880772256006 0.000728638027794659137725830078 0 0 0 0 
2409166666.6666665077 0.168801739811897305587606865629 -0.023705169558525088918665701954 -0.002987902611494063897373818506 0.000699965748935937881469726562 0 0 0 0 
2409333333.3333334923 0.169054731726646395584268134371 -0.024676695466041568410853201954 -0.002923492109403014183044433594 0.000681752688251435756683349609 0 0 0 0 
2409500000.0000000000 0.169081628322601290603799384371 -0.025593673810362819326380545704 -0.002898006932809948921203613281 0.000414204056141897981793004169 0 0 0 0 
2409666666.6666665077 0.169268518686294611175213731258 -0.026499580591917041433314139454 -0.002959802979603410200831747900 0.000528557458892464637756347656 0 0 0 0 
2409833333.3333334923 0.169097796082496587555255018742 -0.027147561311721798288365548046 -0.002946465974673628807067871094 0.000482672010548412799835205078 0 0 0 0 
2410000000.0000000000 0.169306010007858304122763115629 -0.028091391548514369619349295704 -0.003038951195776462988612509619 0.000383280828827992081642150879 0 0 0 0 
2410166666.6666665077 0.169337585568428011795205634371 -0.029149027541279789316197579296 -0.002917631994932889938354492188 0.000387827982194721698760986328 0 0 0 0 
2410333333.3333334923 0.169398784637451199630575615629 -0.029864491894841190683385079296 -0.003220289945602416992187500000 0.000214195140870287987306871957 0 0 0 0 
2410500000.0000000000 0.169391304254531888107138115629 -0.030815362930297851562500000000 -0.003290018998086452917811728369 0.000410573877161368673473912372 0 0 0 0 
2410666666.6666665077 0.169148951768875094314736884371 -0.031846962869167327880859375000 -0.003260074183344841003417968750 0.000436433736467733979225158691 0 0 0 0 
2410833333.3333334923 0.169068485498428289215411268742 -0.032549530267715447162668596093 -0.003499254118651152090785361182 0.000322006497299298589855748309 0 0 0 0 
2411000000.0000000000 0.168863490223884610275106865629 -0.033225454390048980712890625000 -0.003595320973545312881469726562 0.000623704516328871250152587891 0 0 0 0 
2411166666.6666665077 0.168745875358581487457598768742 -0.034062772989273071289062500000 -0.003719656728208065032958984375 0.000678428448736667633056640625 0 0 0 0 
2411333333.3333334923 0.168662562966346712967080634371 -0.034949991852045059204101562500 -0.003793679410591721968409872900 0.000823997543193399906158447266 0 0 0 0 
2411500000.0000000000 0.168179243803024291992187500000 -0.035907261073589331890065778907 -0.004092641640454530715942382812 0.000923230894841253757476806641 0 0 0 0 
2411666666.6666665077 0.168066009879112188141192518742 -0.036624215543270111083984375000 -0.004121927544474601745605468750 0.001038186135701834938646626050 0 0 0 0 
2411833333.3333334923 0.167873203754425104339276231258 -0.037280377000570297241210937500 -0.004220271948724985122680664062 0.001223880331963300921796489185 0 0 0 0 
2412000000.0000000000 0.167862489819526700118856865629 -0.038414403796195976947824846093 -0.004495318047702313336844159863 0.001442052191123365922215127100 0 0 0 0 
2412166666.6666665077 0.167310044169425992111044365629 -0.039308778941631317138671875000 -0.004460158292204141616821289062 0.001628329744562506892560649341 0 0 0 0 
2412333333.3333334923 0.167130008339881896972656250000 -0.040142584592103958129882812500 -0.004338831640779972076416015625 0.002030121861025691032409667969 0 0 0 0 
2412500000.0000000000 0.166614398360252408126669365629 -0.040935676544904708862304687500 -0.004502111114561557769775390625 0.002348530804738401932957314600 0 0 0 0 
2412666666.6666665077 0.166237428784370394607705634371 -0.042348723858594887470285783593 -0.004443226847797632217407226562 0.002608713926747440858128213037 0 0 0 0 
2412833333.3333334923 0.166003271937370300292968750000 -0.043228272348642349243164062500 -0.004325415939092636108398437500 0.002954950788989663124084472656 0 0 0 0 
2413000000.0000000000 0.165538519620895413497763115629 -0.044064991176128387451171875000 -0.004270907957106828689575195312 0.003115004859864712195155478369 0 0 0 0 
2413166666.6666665077 0.165101632475852994064169365629 -0.045151807367801673198659528907 -0.004017011728137732419485761426 0.003532493952661753134486533057 0 0 0 0 
2413333333.3333334923 0.164507463574409512618856865629 -0.046058341860771179199218750000 -0.003852598136290907859802246094 0.003592113731428980827331542969 0 0 0 0 
2413500000.0000000000 0.164114698767662103850994981258 -0.047125570476055152202565778907 -0.003740385873243213133571005713 0.003908819518983364105224609375 0 0 0 0 
2413666666.6666665077 0.163787305355071993728799384371 -0.048183396458625793457031250000 -0.003222709987312554879429482568 0.004040816798806191358084394238 0 0 0 0 
2413833333.3333334923 0.163145452737808199783486884371 -0.049186151474714279174804687500 -0.003288352862000464959385537256 0.004339702893048524856567382812 0 0 0 0 
2414000000.0000000000 0.162621274590492304046307481258 -0.050140101462602622295339216407 -0.002811980899423360824584960938 0.004502835683524608612060546875 0 0 0 0 
2414166666.6666665077 0.162316769361495999435263115629 -0.051080785691738128662109375000 -0.002609843388199806213378906250 0.004512961953878402709960937500 0 0 0 0 
2414333333.3333334923 0.161848545074462890625000000000 -0.052151348441839218139648437500 -0.002309886738657950921299599756 0.004656136501580476760864257812 0 0 0 0 
2414500000.0000000000 0.161747291684150695800781250000 -0.053049910813570022583007812500 -0.002143293153494596915004111182 0.004523806739598512649536132812 0 0 0 0 
2414666666.6666665077 0.161431759595870999435263115629 -0.053969778120517730712890625000 -0.001760807586833835081813193213 0.004520279821008443832397460938 0 0 0 0 
2414833333.3333334923 0.161138162016868591308593750000 -0.055132091045379638671875000000 -0.001435049111023545048357319409 0.004582162480801343917846679688 0 0 0 0 
2415000000.0000000000 0.160742074251174899002236884371 -0.056219320744276046752929687500 -0.001163162407465279102325439453 0.004483249504119157791137695312 0 0 0 0 
2415166666.6666665077 0.160518839955329895019531250000 -0.057347543537616729736328125000 -0.001164622372016310908673930591 0.004448813386261463165283203125 0 0 0 0 
2415333333.3333334923 0.160610422492027310470419365629 -0.058558285236358642578125000000 -0.000895916484296321868896484375 0.004396105650812388333792402051 0 0 0 0 
2415500000.0000000000 0.160295322537422207931356865629 -0.059654731303453452373464216407 -0.000666921841911971569061279297 0.004367350134998559951782226562 0 0 0 0 
2415666666.6666665077 0.160048663616180392166299384371 -0.060843192040920257568359375000 -0.000613826035987585783004760742 0.004257962107658386230468750000 0 0 0 0 
2415833333.3333334923 0.160017743706703213790731865629 -0.062079522758722312236745466407 -0.000557416991796344518661499023 0.004307089373469352722167968750 0 0 0 0 
2416000000.0000000000 0.159533873200416592696981865629 -0.063320577144622802734375000000 -0.000410911015933379476696568622 0.004089929163455963134765625000 0 0 0 0 
2416166666.6666665077 0.159653633832931490799111884371 -0.064611800014972686767578125000 -0.000354073476046323776245117188 0.004103410989046096801757812500 0 0 0 0 
2416333333.3333334923 0.159305930137634305099325615629 -0.065792031586170196533203125000 0.000024539167498005550691877671 0.003898490685969591140747070312 0 0 0 0 
2416500000.0000000000 0.159171059727668789962606865629 -0.067081674933433532714843750000 0.000027722860977519300172125169 0.003861743025481700897216796875 0 0 0 0 
2416666666.6666665077 0.158789783716201809982138115629 -0.068164288997650146484375000000 0.000128279149066656800821581430 0.003876831149682403044459677588 0 0 0 0 
2416833333.3333334923 0.158638194203376797775106865629 -0.069510892033576965332031250000 0.000137969109346158802509307861 0.003776758443564176993129111182 0 0 0 0 
2417000000.0000000000 0.158124804496765108963174384371 -0.070682153105735778808593750000 0.000284412584733218008845728741 0.003695370396599173979518271338 0 0 0 0 
2417166666.6666665077 0.157855093479156494140625000000 -0.071752160787582397460937500000 0.000262053887126967310905456543 0.003588194726034998893737792969 0 0 0 0 
2417333333.3333334923 0.157553136348724392989950615629 -0.072784177958965301513671875000 0.000476932880701497197151184082 0.003400651272386312918422079932 0 0 0 0 
2417500000.0000000000 0.157218530774116488357705634371 -0.073900774121284484863281250000 0.000408964086091145873069763184 0.003461440559476613998413085938 0 0 0 0 
2417666666.6666665077 0.156937822699546786209268134371 -0.074617333710193634033203125000 0.000547277042642235755920410156 0.003501373576000332832336425781 0 0 0 0 
2417833333.3333334923 0.156652465462684603592080634371 -0.075625732541084289550781250000 0.000434535031672567074925023212 0.003345622913911939100978232275 0 0 0 0 
2418000000.0000000000 0.156255841255187988281250000000 -0.076599813997745513916015625000 0.000416375434724614024162292480 0.003161961911246180968043661963 0 0 0 0 
2418166666.6666665077 0.156027004122734097579794365629 -0.077180072665214538574218750000 0.000533201382495462894439697266 0.003113968763500452041625976562 0 0 0 0 
2418333333.3333334923 0.155960351228713989257812500000 -0.078079000115394592285156250000 0.000544509035535156726837158203 0.003241578117012978033778525244 0 0 0 0 
2418500000.0000000000 0.155591353774070711990518134371 -0.078816927969455718994140625000 0.000570619478821754455566406250 0.002998243551701306863072060693 0 0 0 0 
2418666666.6666665077 0.155382648110389709472656250000 -0.079730652272701263427734375000 0.000378437107428908402293604718 0.003150230972096323966979980469 0 0 0 0 
2418833333.3333334923 0.154988065361976595779580634371 -0.080424360930919647216796875000 0.000389465712942183017730712891 0.003217868972569704055786132812 0 0 0 0 
2419000000.0000000000 0.154632776975631713867187500000 -0.081112049520015716552734375000 0.000498434063047170639038085938 0.003265053033828734917881631006 0 0 0 0 
2419166666.6666665077 0.154274836182594299316406250000 -0.081682667136192321777343750000 0.000440934702055528814166468488 0.003279487369582056999206542969 0 0 0 0 
2419333333.3333334923 0.153988197445869501311932481258 -0.082212932407855987548828125000 0.000606776040513068437576293945 0.003372244769707322120666503906 0 0 0 0 
2419500000.0000000000 0.153640344738960293868856865629 -0.083033032715320587158203125000 0.000444739998783916180759984149 0.003267059335485101179835654150 0 0 0 0 
2419666666.6666665077 0.153519004583358792404013115629 -0.083565041422843933105468750000 0.000608362432103604078292846680 0.003447830444201827049255371094 0 0 0 0 
2419833333.3333334923 0.153006494045257596114950615629 -0.083965286612510681152343750000 0.000832944060675799846649169922 0.003479748265817760987522744287 0 0 0 0 
