# Version 1.00
#
freq[Hz];re:Trc1_S11;im:Trc1_S11;re:Trc2_S21;im:Trc2_S21;
2.400000000000000E+009;1.710100471973419E-001;4.005277529358864E-002;1.117279753088951E-003;-1.896283589303494E-003;
2.400166666666667E+009;1.716740578413010E-001;3.941794112324715E-002;9.546372457407415E-004;-1.933354185894132E-003;
2.400333333333334E+009;1.719387322664261E-001;3.880998864769936E-002;8.648229995742440E-004;-1.949800760485232E-003;
2.400500000000000E+009;1.726868301630020E-001;3.824077919125557E-002;8.088002796284854E-004;-1.690163509920239E-003;
2.400666666666667E+009;1.727333515882492E-001;3.744674846529961E-002;6.279642111621797E-004;-1.558631774969399E-003;
2.400833333333334E+009;1.732581108808518E-001;3.700794279575348E-002;5.492491764016450E-004;-1.384850242175162E-003;
2.401000000000000E+009;1.733484417200089E-001;3.635001555085182E-002;6.584941875189543E-004;-1.465860987082124E-003;
2.401166666666667E+009;1.735890954732895E-001;3.557511046528816E-002;6.044349865987897E-004;-1.230110297910869E-003;
2.401333333333334E+009;1.734534054994583E-001;3.519851341843605E-002;6.681620725430548E-004;-1.140221487730742E-003;
2.401500000000000E+009;1.735317856073380E-001;3.443033993244171E-002;7.865302031859756E-004;-8.729360415600240E-004;
2.401666666666667E+009;1.735176742076874E-001;3.378390520811081E-002;8.918886887840927E-004;-9.486623457632959E-004;
2.401833333333334E+009;1.733171194791794E-001;3.295159712433815E-002;8.747546235099435E-004;-1.011044601909816E-003;
2.402000000000000E+009;1.729979664087296E-001;3.234583139419556E-002;1.046595047228038E-003;-9.980094619095326E-004;
2.402166666666667E+009;1.729403436183929E-001;3.122805245220661E-002;1.115376246161759E-003;-9.255865588784218E-004;
2.402333333333334E+009;1.726390868425369E-001;3.063357062637806E-002;1.272120629437268E-003;-1.073618768714368E-003;
2.402500000000000E+009;1.725804358720779E-001;2.965246513485909E-002;1.295385649427772E-003;-1.103170681744814E-003;
2.402666666666667E+009;1.721335500478745E-001;2.875318937003613E-002;1.507121371105313E-003;-1.065250951796770E-003;
2.402833333333334E+009;1.718856692314148E-001;2.785607241094112E-002;1.511342357844114E-003;-1.305379322730005E-003;
2.403000000000000E+009;1.715504378080368E-001;2.688149921596050E-002;1.506634755060077E-003;-1.368629746139050E-003;
2.403166666666667E+009;1.713235527276993E-001;2.564618736505508E-002;1.416950835846365E-003;-1.497910008765757E-003;
2.403333333333334E+009;1.709900349378586E-001;2.465851604938507E-002;1.605588127858937E-003;-1.687091309577227E-003;
2.403500000000000E+009;1.704038977622986E-001;2.330848202109337E-002;1.601431635208428E-003;-1.759896404109895E-003;
2.403666666666667E+009;1.700188070535660E-001;2.194793708622456E-002;1.460428000427783E-003;-2.024826360866427E-003;
2.403833333333334E+009;1.700036376714706E-001;2.047429233789444E-002;1.426538103260100E-003;-1.906111370772123E-003;
2.404000000000000E+009;1.695466339588165E-001;1.909936778247356E-002;1.397708547301590E-003;-2.162847435101867E-003;
2.404166666666667E+009;1.691790521144867E-001;1.756731979548931E-002;1.200781553052366E-003;-2.174877095967531E-003;
2.404333333333334E+009;1.689681112766266E-001;1.631387136876583E-002;1.077043707482517E-003;-2.325359266251326E-003;
2.404500000000000E+009;1.686363220214844E-001;1.447242312133312E-002;9.806620655581355E-004;-2.260755747556686E-003;
2.404666666666667E+009;1.685363054275513E-001;1.303202286362648E-002;7.854177965782583E-004;-2.407192951068282E-003;
2.404833333333334E+009;1.684103906154633E-001;1.123697590082884E-002;7.967166602611542E-004;-2.281854161992669E-003;
2.405000000000000E+009;1.684145182371140E-001;9.417651221156120E-003;6.421221769414842E-004;-2.357600489631295E-003;
2.405166666666667E+009;1.682015508413315E-001;7.740321103483439E-003;6.684859399683774E-004;-2.344577107578516E-003;
2.405333333333334E+009;1.681924164295197E-001;5.779218394309282E-003;4.951368900947273E-004;-2.404519123956561E-003;
2.405500000000000E+009;1.681362092494965E-001;4.070021212100983E-003;5.333354347385466E-004;-2.238628221675754E-003;
2.405666666666667E+009;1.680570393800736E-001;2.275413600727916E-003;5.325076635926962E-004;-2.447476377710700E-003;
2.405833333333334E+009;1.679077595472336E-001;3.828722692560405E-004;5.277965101413429E-004;-2.495514461770654E-003;
2.406000000000000E+009;1.680222153663635E-001;-1.709459000267088E-003;4.454032168723643E-004;-2.519928384572268E-003;
2.406166666666667E+009;1.679136902093887E-001;-3.302161814644933E-003;3.576599119696766E-004;-2.520547946915031E-003;
2.406333333333334E+009;1.681406646966934E-001;-5.195265170186758E-003;2.655526041053236E-004;-2.563804155215621E-003;
2.406500000000000E+009;1.680104434490204E-001;-7.105168420821428E-003;3.231395385228097E-004;-2.531926613301039E-003;
2.406666666666667E+009;1.678907275199890E-001;-8.753431029617786E-003;1.366576616419479E-004;-2.778744790703058E-003;
2.406833333333334E+009;1.680236756801605E-001;-1.054514944553375E-002;-3.641639341367409E-005;-2.732405904680491E-003;
2.407000000000000E+009;1.680983155965805E-001;-1.224492117762566E-002;-9.016263356897980E-005;-2.709916327148676E-003;
2.407166666666667E+009;1.681894659996033E-001;-1.361662521958351E-002;-1.746679190546274E-004;-2.724686870351434E-003;
2.407333333333334E+009;1.680799126625061E-001;-1.510094664990902E-002;-3.209233400411904E-004;-2.672982169315219E-003;
2.407500000000000E+009;1.681177765130997E-001;-1.653313450515270E-002;-4.075804317835718E-004;-2.719607669860125E-003;
2.407666666666667E+009;1.681862771511078E-001;-1.782958209514618E-002;-5.475322250276804E-004;-2.608600771054626E-003;
2.407833333333334E+009;1.682399213314056E-001;-1.902051270008087E-002;-5.192101816646755E-004;-2.630091039463878E-003;
2.408000000000000E+009;1.683676093816757E-001;-2.028278633952141E-002;-5.332978325895965E-004;-2.613852731883526E-003;
2.408166666666667E+009;1.685399860143662E-001;-2.111580781638622E-002;-6.113631534390152E-004;-2.657124074175954E-003;
2.408333333333334E+009;1.689448952674866E-001;-2.209877222776413E-002;-7.183610578067601E-004;-2.799363806843758E-003;
2.408500000000000E+009;1.689748317003250E-001;-2.300495468080044E-002;-8.113732328638434E-004;-2.741916105151177E-003;
2.408666666666667E+009;1.693421155214310E-001;-2.394289895892143E-002;-9.968733647838235E-004;-2.807619515806437E-003;
2.408833333333334E+009;1.694559603929520E-001;-2.470898628234863E-002;-1.202529994770885E-003;-2.825250150635839E-003;
2.409000000000000E+009;1.698413789272308E-001;-2.545967884361744E-002;-1.394109800457954E-003;-2.889120019972324E-003;
2.409166666666667E+009;1.702249199151993E-001;-2.620908431708813E-002;-1.517785480245948E-003;-2.746350364759564E-003;
2.409333333333334E+009;1.706820577383041E-001;-2.687728963792324E-002;-1.536892494186759E-003;-2.803073963150382E-003;
2.409500000000000E+009;1.708704233169556E-001;-2.775489725172520E-002;-1.890435465611517E-003;-2.758000046014786E-003;
2.409666666666667E+009;1.710824966430664E-001;-2.841700054705143E-002;-1.947092474438250E-003;-2.440790412947536E-003;
2.409833333333334E+009;1.712344139814377E-001;-2.908282168209553E-002;-2.015366917476058E-003;-2.548882970586419E-003;
2.410000000000000E+009;1.713709533214569E-001;-2.962907031178474E-002;-2.258875407278538E-003;-2.420888980850577E-003;
2.410166666666667E+009;1.716193705797195E-001;-3.042226471006870E-002;-2.216364257037640E-003;-2.355538774281740E-003;
2.410333333333334E+009;1.716746836900711E-001;-3.119936212897301E-002;-2.249571494758129E-003;-1.987840514630079E-003;
2.410500000000000E+009;1.717260479927063E-001;-3.184146061539650E-002;-2.357810502871871E-003;-1.921200542710722E-003;
2.410666666666667E+009;1.715792715549469E-001;-3.269773721694946E-002;-2.526873955503106E-003;-1.939456327818334E-003;
2.410833333333334E+009;1.715431958436966E-001;-3.320872783660889E-002;-2.539351349696517E-003;-1.634757034480572E-003;
2.411000000000000E+009;1.711744666099548E-001;-3.381466493010521E-002;-2.630759030580521E-003;-1.574396970681846E-003;
2.411166666666667E+009;1.709710210561752E-001;-3.437437489628792E-002;-2.769803162664175E-003;-1.365505158901215E-003;
2.411333333333334E+009;1.707198172807694E-001;-3.508326783776283E-002;-2.590130083262920E-003;-1.297662733122706E-003;
2.411500000000000E+009;1.702476590871811E-001;-3.584369271993637E-002;-2.723285695537925E-003;-9.944576304405928E-004;
2.411666666666667E+009;1.702616363763809E-001;-3.642069548368454E-002;-2.609836868941784E-003;-9.724759147502482E-004;
2.411833333333334E+009;1.697851270437241E-001;-3.706679120659828E-002;-2.643831539899111E-003;-8.458968950435519E-004;
2.412000000000000E+009;1.693645864725113E-001;-3.764616698026657E-002;-2.733770525082946E-003;-8.165367762558162E-004;
2.412166666666667E+009;1.687838286161423E-001;-3.852361068129540E-002;-2.511149272322655E-003;-7.460720953531563E-004;
2.412333333333334E+009;1.683963388204575E-001;-3.927791863679886E-002;-2.349785296246409E-003;-5.451550241559744E-004;
2.412500000000000E+009;1.676954030990601E-001;-4.003231599926949E-002;-2.175893867388368E-003;-6.250364240258932E-004;
2.412666666666667E+009;1.671794503927231E-001;-4.108537361025810E-002;-2.233719220384955E-003;-6.461653392761946E-004;
2.412833333333334E+009;1.665648967027664E-001;-4.204932972788811E-002;-2.127306070178747E-003;-6.503334152512252E-004;
2.413000000000000E+009;1.659644991159439E-001;-4.294177144765854E-002;-2.110634930431843E-003;-7.002294296398759E-004;
2.413166666666667E+009;1.652444601058960E-001;-4.395378381013870E-002;-2.216599881649017E-003;-6.593703874386847E-004;
2.413333333333334E+009;1.646199524402618E-001;-4.482720792293549E-002;-2.050677081570029E-003;-1.069372869096696E-003;
2.413500000000000E+009;1.639313101768494E-001;-4.594562947750092E-002;-2.316918224096298E-003;-8.435636991634965E-004;
2.413666666666667E+009;1.633388102054596E-001;-4.708102345466614E-002;-2.399057615548372E-003;-9.277259232476354E-004;
2.413833333333334E+009;1.624253243207932E-001;-4.794066771864891E-002;-2.634703181684017E-003;-1.116927014663816E-003;
2.414000000000000E+009;1.616647094488144E-001;-4.901347309350967E-002;-2.965583931654692E-003;-9.493105462752283E-004;
2.414166666666667E+009;1.611940711736679E-001;-5.008270218968391E-002;-3.114057937636972E-003;-1.000148477032781E-003;
2.414333333333334E+009;1.606499105691910E-001;-5.105470120906830E-002;-3.395747626200318E-003;-8.296214509755373E-004;
2.414500000000000E+009;1.602271944284439E-001;-5.224728211760521E-002;-3.557321615517139E-003;-6.012328085489571E-004;
2.414666666666667E+009;1.596990972757340E-001;-5.345273017883301E-002;-3.700222354382277E-003;-3.539812169037759E-004;
2.414833333333334E+009;1.591814607381821E-001;-5.466007441282272E-002;-4.017252940684557E-003;-1.046774050337263E-004;
2.415000000000000E+009;1.587443202733994E-001;-5.575206503272057E-002;-3.901024581864476E-003;4.267603799235076E-005;
2.415166666666667E+009;1.584448069334030E-001;-5.706124380230904E-002;-3.914342727512121E-003;7.335459813475609E-004;
2.415333333333334E+009;1.584178954362869E-001;-5.841210857033730E-002;-4.117194563150406E-003;1.009563100524247E-003;
2.415500000000000E+009;1.581378579139710E-001;-5.966376140713692E-002;-3.912915941327810E-003;1.352108898572624E-003;
2.415666666666667E+009;1.578208208084106E-001;-6.116539612412453E-002;-3.767033806070685E-003;1.577121205627918E-003;
2.415833333333334E+009;1.577973514795303E-001;-6.246076896786690E-002;-3.776940982788801E-003;1.908993464894593E-003;
2.416000000000000E+009;1.574201285839081E-001;-6.398200243711472E-002;-3.561526769772172E-003;2.230059821158648E-003;
2.416166666666667E+009;1.575341671705246E-001;-6.540623307228088E-002;-3.246083389967680E-003;2.311364980414510E-003;
2.416333333333334E+009;1.572219133377075E-001;-6.676586717367172E-002;-3.045225981622934E-003;2.542314585298300E-003;
2.416500000000000E+009;1.570143848657608E-001;-6.819399446249008E-002;-2.767513738945127E-003;2.734939567744732E-003;
2.416666666666667E+009;1.568745225667954E-001;-6.964439153671265E-002;-2.299150917679071E-003;2.932783681899309E-003;
2.416833333333334E+009;1.567265987396240E-001;-7.105907052755356E-002;-2.082760911434889E-003;2.884134184569120E-003;
2.417000000000000E+009;1.563671231269836E-001;-7.233911007642746E-002;-1.946612144820392E-003;2.907921792939305E-003;
2.417166666666667E+009;1.562777161598206E-001;-7.354334741830826E-002;-1.599358161911368E-003;2.865229966118932E-003;
2.417333333333334E+009;1.561881750822067E-001;-7.458462566137314E-002;-1.280732220038772E-003;2.991097280755639E-003;
2.417500000000000E+009;1.558921039104462E-001;-7.607635855674744E-002;-1.096944441087544E-003;2.931007416918874E-003;
2.417666666666667E+009;1.557675600051880E-001;-7.688756287097931E-002;-8.140838472172618E-004;2.806011587381363E-003;
2.417833333333334E+009;1.557470262050629E-001;-7.795929908752441E-002;-6.618514889851213E-004;2.633010968565941E-003;
2.418000000000000E+009;1.555752009153366E-001;-7.898088544607163E-002;-5.575456889346242E-004;2.459291601553559E-003;
2.418166666666667E+009;1.554469019174576E-001;-7.962024211883545E-002;-2.698729222174734E-004;2.312951488420367E-003;
2.418333333333334E+009;1.556484550237656E-001;-8.060836791992188E-002;-2.867530565708876E-004;2.270875498652458E-003;
2.418500000000000E+009;1.554447710514069E-001;-8.132890611886978E-002;-1.021897987811826E-004;2.103204838931561E-003;
2.418666666666667E+009;1.554696112871170E-001;-8.216356486082077E-002;-1.927579287439585E-004;2.000539796426892E-003;
2.418833333333334E+009;1.550994664430618E-001;-8.284480869770050E-002;-2.060493570752442E-004;1.717473729513586E-003;
2.419000000000000E+009;1.549950540065765E-001;-8.337192237377167E-002;-2.465470170136541E-004;1.585636986419559E-003;
2.419166666666667E+009;1.549467891454697E-001;-8.394666016101837E-002;-4.019919142592698E-004;1.514960429631174E-003;
2.419333333333334E+009;1.545388102531433E-001;-8.426527678966522E-002;-1.559021475259215E-004;1.458856742829084E-003;
2.419500000000000E+009;1.544124037027359E-001;-8.511947840452194E-002;-3.240320947952569E-004;1.242629135958850E-003;
2.419666666666667E+009;1.544927805662155E-001;-8.552462607622147E-002;-4.210610641166568E-004;1.231594011187553E-003;
2.419833333333334E+009;1.542093753814697E-001;-8.575530350208283E-002;-5.993733648210764E-004;1.162618747912347E-003;
2.420000000000000E+009;1.541454792022705E-001;-8.620648831129074E-002;-6.018234416842461E-004;1.271223998628557E-003;
2.420166666666667E+009;1.538081169128418E-001;-8.669974654912949E-002;-5.487601156346500E-004;1.411490840837359E-003;
2.420333333333334E+009;1.535188406705856E-001;-8.704183995723724E-002;-6.049178773537278E-004;1.248919288627803E-003;
2.420500000000000E+009;1.534485071897507E-001;-8.716107904911041E-002;-6.671757437288761E-004;1.387989730574191E-003;
2.420666666666667E+009;1.530437469482422E-001;-8.758348226547241E-002;-7.076776819303632E-004;1.563295023515821E-003;
2.420833333333334E+009;1.527979969978333E-001;-8.804462105035782E-002;-8.409617003053427E-004;1.515329699032009E-003;
2.421000000000000E+009;1.523976624011993E-001;-8.840442448854446E-002;-7.626588921993971E-004;1.645315089263022E-003;
2.421166666666667E+009;1.518252491950989E-001;-8.899602293968201E-002;-5.702349590137601E-004;1.696377759799361E-003;
2.421333333333334E+009;1.515042930841446E-001;-8.956917375326157E-002;-6.113583804108203E-004;1.665934803895652E-003;
2.421500000000000E+009;1.509263813495636E-001;-8.986882120370865E-002;-5.710049881599844E-004;1.741782529279590E-003;
2.421666666666667E+009;1.504289209842682E-001;-9.040395170450211E-002;-5.399407818913460E-004;1.760131679475308E-003;
2.421833333333334E+009;1.496741324663162E-001;-9.099070727825165E-002;-3.547015658114106E-004;1.674511004239321E-003;
2.422000000000000E+009;1.491578519344330E-001;-9.142461419105530E-002;-4.063879605382681E-004;1.853278139606118E-003;
2.422166666666667E+009;1.483662426471710E-001;-9.217000752687454E-002;-4.817860026378185E-004;1.843795413151383E-003;
2.422333333333334E+009;1.475989222526550E-001;-9.254992753267288E-002;-2.833499456755817E-004;1.810929272323847E-003;
2.422500000000000E+009;1.469019502401352E-001;-9.334958344697952E-002;-2.923838037531823E-004;1.782782142981887E-003;
2.422666666666667E+009;1.459881365299225E-001;-9.405024349689484E-002;-2.461608091834933E-004;1.849776250310242E-003;
2.422833333333334E+009;1.451941579580307E-001;-9.490904211997986E-002;-2.672401024028659E-004;1.907138852402568E-003;
2.423000000000000E+009;1.440886259078980E-001;-9.568201750516892E-002;-1.593121705809608E-004;1.799889374524355E-003;
2.423166666666667E+009;1.434876918792725E-001;-9.634866565465927E-002;-2.120505087077618E-004;1.814758754335344E-003;
2.423333333333334E+009;1.427748352289200E-001;-9.724429249763489E-002;-6.105919601395726E-005;2.019616309553385E-003;
2.423500000000000E+009;1.417172700166702E-001;-9.824628382921219E-002;-2.177498245146126E-004;2.040048129856587E-003;
2.423666666666667E+009;1.408234089612961E-001;-9.919842332601547E-002;-2.394869370618835E-004;1.950350473634899E-003;
2.423833333333334E+009;1.399695575237274E-001;-1.000846996903420E-001;-1.427270035492256E-004;2.049109200015664E-003;
2.424000000000000E+009;1.390229016542435E-001;-1.011729463934898E-001;-2.615772245917469E-004;2.063153544440866E-003;
2.424166666666667E+009;1.379629224538803E-001;-1.022170260548592E-001;-9.449064964428544E-005;2.038039499893785E-003;
2.424333333333334E+009;1.373705714941025E-001;-1.031429469585419E-001;-1.708071067696437E-004;2.213786588981748E-003;
2.424500000000000E+009;1.365396827459335E-001;-1.042551547288895E-001;1.941240952874068E-005;2.308058785274625E-003;
2.424666666666667E+009;1.357233375310898E-001;-1.051850244402885E-001;1.324030017713085E-004;2.362248022109270E-003;
2.424833333333334E+009;1.348474621772766E-001;-1.064115464687347E-001;2.012119875871576E-005;2.436803653836250E-003;
2.425000000000000E+009;1.343120485544205E-001;-1.076873540878296E-001;2.705038932617754E-004;2.528621349483728E-003;
2.425166666666667E+009;1.333614140748978E-001;-1.086601093411446E-001;4.858259926550090E-004;2.581398934125900E-003;
2.425333333333334E+009;1.328725665807724E-001;-1.097915694117546E-001;5.657833535224199E-004;2.626107074320316E-003;
2.425500000000000E+009;1.323378235101700E-001;-1.110081076622009E-001;8.614917169325054E-004;2.653240459039807E-003;
2.425666666666667E+009;1.316954344511032E-001;-1.120881065726280E-001;8.641572785563767E-004;2.613546792417765E-003;
2.425833333333334E+009;1.311326175928116E-001;-1.133091971278191E-001;9.240751969628036E-004;2.468036022037268E-003;
2.426000000000000E+009;1.306622028350830E-001;-1.146230548620224E-001;1.230434863828123E-003;2.535360399633646E-003;
2.426166666666667E+009;1.304020434617996E-001;-1.159101426601410E-001;1.286190585233271E-003;2.468299586325884E-003;
2.426333333333334E+009;1.299193352460861E-001;-1.169566065073013E-001;1.408701180480421E-003;2.455156296491623E-003;
2.426500000000000E+009;1.295498758554459E-001;-1.179982721805573E-001;1.462060725316405E-003;2.509564626961947E-003;
2.426666666666667E+009;1.291689425706863E-001;-1.190652325749397E-001;1.839153235778213E-003;2.362020779401064E-003;
2.426833333333334E+009;1.289133578538895E-001;-1.200160756707192E-001;1.709611038677394E-003;2.372100017964840E-003;
2.427000000000000E+009;1.285992711782455E-001;-1.212094649672508E-001;1.870275475084782E-003;2.139906631782651E-003;
2.427166666666667E+009;1.282695084810257E-001;-1.219408884644508E-001;2.110809087753296E-003;2.230135956779122E-003;
2.427333333333334E+009;1.279892325401306E-001;-1.229587569832802E-001;2.119497396051884E-003;2.025539288297296E-003;
2.427500000000000E+009;1.279087364673615E-001;-1.238531544804573E-001;2.259583212435246E-003;1.951836631633341E-003;
2.427666666666667E+009;1.276622116565704E-001;-1.246911510825157E-001;2.392514608800411E-003;1.871329382993281E-003;
