# Version 1.00
#
freq[Hz];re:Trc1_S11;im:Trc1_S11;re:Trc2_S21;im:Trc2_S21;
2.400000000000000E+009;1.733324378728867E-001;4.934946447610855E-002;-2.394251059740782E-003;3.545775543898344E-003;
2.400166666666667E+009;1.739166229963303E-001;4.881658032536507E-002;-2.450391417369247E-003;3.751132637262344E-003;
2.400333333333334E+009;1.742803603410721E-001;4.790566489100456E-002;-2.507919212803245E-003;4.014757927507162E-003;
2.400500000000000E+009;1.748001724481583E-001;4.737582057714462E-002;-2.658668905496597E-003;4.117299802601337E-003;
2.400666666666667E+009;1.749296039342880E-001;4.677176848053932E-002;-2.705087885260582E-003;4.287043120712042E-003;
2.400833333333334E+009;1.752100586891174E-001;4.618991911411285E-002;-2.735589165240526E-003;4.462784156203270E-003;
2.401000000000000E+009;1.753849834203720E-001;4.540251940488815E-002;-2.704609883949161E-003;4.747359082102776E-003;
2.401166666666667E+009;1.756406128406525E-001;4.471795633435249E-002;-2.693622140213847E-003;4.942301660776138E-003;
2.401333333333334E+009;1.755032092332840E-001;4.403809085488319E-002;-2.465220168232918E-003;5.197096616029739E-003;
2.401500000000000E+009;1.758112162351608E-001;4.327553883194923E-002;-2.410770161077380E-003;5.479837767779827E-003;
2.401666666666667E+009;1.756898760795593E-001;4.264534264802933E-002;-2.263151807710528E-003;5.682190880179405E-003;
2.401833333333334E+009;1.757194548845291E-001;4.172588512301445E-002;-2.070417627692223E-003;5.836076568812132E-003;
2.402000000000000E+009;1.754940599203110E-001;4.107896238565445E-002;-1.951701240614057E-003;6.162261590361595E-003;
2.402166666666667E+009;1.754962205886841E-001;4.004772752523422E-002;-1.673556747846305E-003;6.286599207669497E-003;
2.402333333333334E+009;1.750020682811737E-001;3.913078457117081E-002;-1.506215776316822E-003;6.384306121617556E-003;
2.402500000000000E+009;1.750306189060211E-001;3.810584172606468E-002;-1.323203672654927E-003;6.637912709265947E-003;
2.402666666666667E+009;1.749111413955689E-001;3.698760271072388E-002;-1.135177211835980E-003;6.651934701949358E-003;
2.402833333333334E+009;1.744191944599152E-001;3.561719506978989E-002;-9.971404215320945E-004;6.755684036761522E-003;
2.403000000000000E+009;1.741784065961838E-001;3.440892696380615E-002;-4.555514315143228E-004;7.065747864544392E-003;
2.403166666666667E+009;1.739856004714966E-001;3.289395570755005E-002;-2.886277798097581E-004;6.996196229010820E-003;
2.403333333333334E+009;1.738419830799103E-001;3.153140470385552E-002;4.197727685095742E-005;7.227303460240364E-003;
2.403500000000000E+009;1.732592731714249E-001;3.002895601093769E-002;2.967606124002487E-004;7.291190791875124E-003;
2.403666666666667E+009;1.729056090116501E-001;2.827655896544457E-002;6.836747634224594E-004;7.114789914339781E-003;
2.403833333333334E+009;1.725512146949768E-001;2.646325528621674E-002;8.484016289003193E-004;7.169354707002640E-003;
2.404000000000000E+009;1.721915900707245E-001;2.489962615072727E-002;1.120019936934114E-003;7.218025159090757E-003;
2.404166666666667E+009;1.719589084386826E-001;2.280955947935581E-002;1.378436572849751E-003;6.979309022426605E-003;
2.404333333333334E+009;1.714767664670944E-001;2.108896151185036E-002;1.559698721393943E-003;7.094235159456730E-003;
2.404500000000000E+009;1.710613965988159E-001;1.890732534229755E-002;1.874514739029110E-003;6.974754855036736E-003;
2.404666666666667E+009;1.708505451679230E-001;1.714112795889378E-002;2.091089263558388E-003;7.030035834759474E-003;
2.404833333333334E+009;1.705943793058395E-001;1.512985862791538E-002;2.292558550834656E-003;6.972700357437134E-003;
2.405000000000000E+009;1.705356240272522E-001;1.309627667069435E-002;2.586180344223976E-003;6.950565613806248E-003;
2.405166666666667E+009;1.702883094549179E-001;1.104225032031536E-002;2.659879857674241E-003;6.905274931341410E-003;
2.405333333333334E+009;1.702840775251389E-001;8.892384357750416E-003;3.017670009285212E-003;6.808361969888210E-003;
2.405500000000000E+009;1.703323125839233E-001;7.016747258603573E-003;3.295445814728737E-003;6.746424362063408E-003;
2.405666666666667E+009;1.704228669404984E-001;4.991070367395878E-003;3.392820712178946E-003;6.637548096477985E-003;
2.405833333333334E+009;1.703945994377136E-001;3.034549299627543E-003;3.544227918609977E-003;6.731139030307531E-003;
2.406000000000000E+009;1.708847135305405E-001;8.231931133195758E-004;3.948034252971411E-003;6.471579894423485E-003;
2.406166666666667E+009;1.709248572587967E-001;-1.132737612351775E-003;4.116201773285866E-003;6.541074253618717E-003;
2.406333333333334E+009;1.714893728494644E-001;-3.097107866778970E-003;4.433099180459976E-003;6.446242798119783E-003;
2.406500000000000E+009;1.719733476638794E-001;-4.947711713612080E-003;4.568293690681458E-003;6.573946680873632E-003;
2.406666666666667E+009;1.722227036952972E-001;-6.992449052631855E-003;4.797894507646561E-003;6.447778549045324E-003;
2.406833333333334E+009;1.730120927095413E-001;-8.856833912432194E-003;5.177955143153667E-003;6.325020920485258E-003;
2.407000000000000E+009;1.735442727804184E-001;-1.082574762403965E-002;5.482688080519438E-003;6.049809046089649E-003;
2.407166666666667E+009;1.743287295103073E-001;-1.255687139928341E-002;5.713351536542177E-003;6.036663893610239E-003;
2.407333333333334E+009;1.748936027288437E-001;-1.438488997519016E-002;6.031597964465618E-003;5.717141553759575E-003;
2.407500000000000E+009;1.756990700960159E-001;-1.618307642638683E-002;6.540915463119745E-003;5.605168640613556E-003;
2.407666666666667E+009;1.764663010835648E-001;-1.775672845542431E-002;6.716435775160790E-003;5.338597577065229E-003;
2.407833333333334E+009;1.770223528146744E-001;-1.950505562126637E-002;6.922364700585604E-003;4.885847214609385E-003;
2.408000000000000E+009;1.777502447366715E-001;-2.098873071372509E-002;7.196318823844194E-003;4.758987110108137E-003;
2.408166666666667E+009;1.784774512052536E-001;-2.235425077378750E-002;7.531195413321257E-003;4.380819853395224E-003;
2.408333333333334E+009;1.792531013488770E-001;-2.392172254621983E-002;7.814245298504829E-003;4.024752881377935E-003;
2.408500000000000E+009;1.797878146171570E-001;-2.522465027868748E-002;7.847473956644535E-003;3.496116492897272E-003;
2.408666666666667E+009;1.803884804248810E-001;-2.652202360332012E-002;7.972883060574532E-003;3.159082960337400E-003;
2.408833333333334E+009;1.808225810527802E-001;-2.777157351374626E-002;7.936708629131317E-003;2.774370834231377E-003;
2.409000000000000E+009;1.813099980354309E-001;-2.853585220873356E-002;8.091314695775509E-003;2.290131291374564E-003;
2.409166666666667E+009;1.817364394664764E-001;-2.954305894672871E-002;8.114775642752647E-003;2.119740005582571E-003;
2.409333333333334E+009;1.822623163461685E-001;-3.044244274497032E-002;8.034549653530121E-003;1.736822887323797E-003;
2.409500000000000E+009;1.825421303510666E-001;-3.126739710569382E-002;8.089290000498295E-003;1.335842534899712E-003;
2.409666666666667E+009;1.827034354209900E-001;-3.181227296590805E-002;8.033858612179756E-003;1.028721919283271E-003;
2.409833333333334E+009;1.829727888107300E-001;-3.235984221100807E-002;7.943987846374512E-003;7.702477741986513E-004;
2.410000000000000E+009;1.834138929843903E-001;-3.285029157996178E-002;7.706703152507544E-003;5.198412691242993E-004;
2.410166666666667E+009;1.834749877452850E-001;-3.315700963139534E-002;7.617495022714138E-003;2.208895457442850E-004;
2.410333333333334E+009;1.834421455860138E-001;-3.350709751248360E-002;7.676061242818832E-003;3.817209744738648E-006;
2.410500000000000E+009;1.834290325641632E-001;-3.401375189423561E-002;7.526569534093142E-003;-3.116274601779878E-004;
2.410666666666667E+009;1.832642704248428E-001;-3.441710025072098E-002;7.485844660550356E-003;-4.160173120908439E-004;
2.410833333333334E+009;1.832174658775330E-001;-3.466409817337990E-002;7.315694354474545E-003;-6.053355755284429E-004;
2.411000000000000E+009;1.829541474580765E-001;-3.474795073270798E-002;7.113614119589329E-003;-8.863955736160278E-004;
2.411166666666667E+009;1.826340109109879E-001;-3.507822751998901E-002;7.074208464473486E-003;-9.844815358519554E-004;
2.411333333333334E+009;1.820142120122910E-001;-3.546370938420296E-002;6.987536326050758E-003;-1.193512347526848E-003;
2.411500000000000E+009;1.816441416740418E-001;-3.589943423867226E-002;6.879054475575686E-003;-1.331490231677890E-003;
2.411666666666667E+009;1.811309158802033E-001;-3.619854152202606E-002;6.750152446329594E-003;-1.350506790913642E-003;
2.411833333333334E+009;1.802996844053268E-001;-3.648036718368530E-002;6.602781824767590E-003;-1.510383910499513E-003;
2.412000000000000E+009;1.794806271791458E-001;-3.696815669536591E-002;6.484380457550287E-003;-1.631457009352744E-003;
2.412166666666667E+009;1.786667853593826E-001;-3.742422908544540E-002;6.413185503333807E-003;-1.666594296693802E-003;
2.412333333333334E+009;1.778701841831207E-001;-3.781101852655411E-002;6.279088556766510E-003;-1.662018126808107E-003;
2.412500000000000E+009;1.766997873783112E-001;-3.862455114722252E-002;6.343188695609570E-003;-1.927515026181936E-003;
2.412666666666667E+009;1.756246685981751E-001;-3.935732319951057E-002;6.162378937005997E-003;-1.958337146788836E-003;
2.412833333333334E+009;1.743816584348679E-001;-3.987269848585129E-002;6.309242453426123E-003;-1.960003050044179E-003;
2.413000000000000E+009;1.732839792966843E-001;-4.062829166650772E-002;6.325319875031710E-003;-1.959343208000064E-003;
2.413166666666667E+009;1.719916015863419E-001;-4.142097756266594E-002;6.341150496155024E-003;-2.015212550759316E-003;
2.413333333333334E+009;1.706273108720779E-001;-4.230964556336403E-002;6.339489016681910E-003;-2.055845456197858E-003;
2.413500000000000E+009;1.693167239427567E-001;-4.321073368191719E-002;6.317393854260445E-003;-2.299683634191752E-003;
2.413666666666667E+009;1.682622283697128E-001;-4.445336386561394E-002;6.383904721587896E-003;-2.435658592730761E-003;
2.413833333333334E+009;1.668894886970520E-001;-4.539841040968895E-002;6.386044900864363E-003;-2.577676204964519E-003;
2.414000000000000E+009;1.654834300279617E-001;-4.673255980014801E-002;6.573236081749201E-003;-2.753780223429203E-003;
2.414166666666667E+009;1.645226627588272E-001;-4.781790450215340E-002;6.581372581422329E-003;-2.935636555776000E-003;
2.414333333333334E+009;1.630881726741791E-001;-4.919152706861496E-002;6.623433437198401E-003;-3.057489171624184E-003;
2.414500000000000E+009;1.622032821178436E-001;-5.063649266958237E-002;6.581218913197517E-003;-3.137664636597037E-003;
2.414666666666667E+009;1.608026772737503E-001;-5.215580761432648E-002;6.728462409228087E-003;-3.437774954363704E-003;
2.414833333333334E+009;1.598715037107468E-001;-5.374548956751823E-002;6.693547125905752E-003;-3.817950142547488E-003;
2.415000000000000E+009;1.588281393051148E-001;-5.521744117140770E-002;6.734746042639017E-003;-4.028623457998037E-003;
2.415166666666667E+009;1.579163521528244E-001;-5.694803968071938E-002;6.771003361791372E-003;-4.289668519049883E-003;
2.415333333333334E+009;1.572458446025848E-001;-5.892384797334671E-002;6.671155802905560E-003;-4.612386692315340E-003;
2.415500000000000E+009;1.563680917024612E-001;-6.055067852139473E-002;6.527576129883528E-003;-4.925538785755634E-003;
2.415666666666667E+009;1.556955128908157E-001;-6.234682351350784E-002;6.392533890902996E-003;-5.291371140629053E-003;
2.415833333333334E+009;1.552307158708572E-001;-6.442476063966751E-002;6.562500726431608E-003;-5.616924259811640E-003;
2.416000000000000E+009;1.544122546911240E-001;-6.639844179153442E-002;6.215104367583990E-003;-5.848054308444262E-003;
2.416166666666667E+009;1.542116403579712E-001;-6.833276152610779E-002;5.998400505632162E-003;-6.197030190378428E-003;
2.416333333333334E+009;1.537070572376251E-001;-7.014029473066330E-002;5.900877062231302E-003;-6.439637392759323E-003;
2.416500000000000E+009;1.534245312213898E-001;-7.232412695884705E-002;5.645609926432371E-003;-6.675164680927992E-003;
2.416666666666667E+009;1.530544757843018E-001;-7.418622076511383E-002;5.342409946024418E-003;-7.080207578837872E-003;
2.416833333333334E+009;1.528567075729370E-001;-7.623273134231567E-002;5.109981168061495E-003;-7.147920317947865E-003;
2.417000000000000E+009;1.525568217039108E-001;-7.805194705724716E-002;4.811682272702456E-003;-7.652087602764368E-003;
2.417166666666667E+009;1.525476276874542E-001;-7.976641505956650E-002;4.591630306094885E-003;-7.648879662156105E-003;
2.417333333333334E+009;1.524396538734436E-001;-8.164071291685104E-002;4.405148327350617E-003;-8.038619533181191E-003;
2.417500000000000E+009;1.523918509483337E-001;-8.344633877277374E-002;3.997790627181530E-003;-8.188317529857159E-003;
2.417666666666667E+009;1.525109261274338E-001;-8.503296226263046E-002;3.733158344402909E-003;-8.447719737887383E-003;
2.417833333333334E+009;1.525517702102661E-001;-8.663783222436905E-002;3.374682972207665E-003;-8.578662760555744E-003;
2.418000000000000E+009;1.526583880186081E-001;-8.804538846015930E-002;3.070389851927757E-003;-8.625338785350323E-003;
2.418166666666667E+009;1.527123451232910E-001;-8.940424025058746E-002;2.699052682146430E-003;-8.863855153322220E-003;
2.418333333333334E+009;1.531613916158676E-001;-9.080362319946289E-002;2.354516880586743E-003;-9.036328643560410E-003;
2.418500000000000E+009;1.531524062156677E-001;-9.188869595527649E-002;1.955726183950901E-003;-9.054381400346756E-003;
2.418666666666667E+009;1.534902602434158E-001;-9.306766837835312E-002;1.747775240801275E-003;-9.176244959235191E-003;
2.418833333333334E+009;1.535305082798004E-001;-9.400652348995209E-002;1.091339741833508E-003;-9.143460541963577E-003;
2.419000000000000E+009;1.536514610052109E-001;-9.479302912950516E-002;8.324915543198586E-004;-9.202591143548489E-003;
2.419166666666667E+009;1.540004611015320E-001;-9.558409452438355E-002;4.070093564223498E-004;-9.307348169386387E-003;
2.419333333333334E+009;1.540557146072388E-001;-9.598774462938309E-002;4.538213761406951E-005;-9.323846548795700E-003;
2.419500000000000E+009;1.543164551258087E-001;-9.674092382192612E-002;-5.483890417963266E-004;-9.297478944063187E-003;
2.419666666666667E+009;1.544310301542282E-001;-9.715654700994492E-002;-9.056585258804262E-004;-9.370570071041584E-003;
2.419833333333334E+009;1.545183062553406E-001;-9.722846001386643E-002;-1.202777959406376E-003;-9.257873520255089E-003;
2.420000000000000E+009;1.546329855918884E-001;-9.746029973030090E-002;-1.474155113101006E-003;-9.141315706074238E-003;
2.420166666666667E+009;1.545981913805008E-001;-9.749776870012283E-002;-1.859273877926171E-003;-8.941031992435455E-003;
2.420333333333334E+009;1.547041088342667E-001;-9.748786687850952E-002;-2.242295537143946E-003;-8.883677423000336E-003;
2.420500000000000E+009;1.547350138425827E-001;-9.734530746936798E-002;-2.579961204901338E-003;-8.749856613576412E-003;
2.420666666666667E+009;1.545925587415695E-001;-9.715709090232849E-002;-2.951713977381587E-003;-8.704040199518204E-003;
2.420833333333334E+009;1.544550061225891E-001;-9.690819680690765E-002;-3.273607464507222E-003;-8.512884378433228E-003;
2.421000000000000E+009;1.542688012123108E-001;-9.681810438632965E-002;-3.615551162511110E-003;-8.281305432319641E-003;
2.421166666666667E+009;1.540430784225464E-001;-9.652443975210190E-002;-3.872385481372476E-003;-8.182005025446415E-003;
2.421333333333334E+009;1.538740545511246E-001;-9.616026282310486E-002;-4.219264257699251E-003;-7.939781993627548E-003;
2.421500000000000E+009;1.531385928392410E-001;-9.565586596727371E-002;-4.510622937232256E-003;-7.686644326895475E-003;
2.421666666666667E+009;1.528023630380631E-001;-9.545766562223434E-002;-4.885952919721603E-003;-7.397232111543417E-003;
2.421833333333334E+009;1.522563099861145E-001;-9.506029635667801E-002;-5.114098545163870E-003;-7.190304808318615E-003;
2.422000000000000E+009;1.514970809221268E-001;-9.487838298082352E-002;-5.433441605418921E-003;-6.930864416062832E-003;
2.422166666666667E+009;1.506313979625702E-001;-9.469269216060638E-002;-5.591998808085918E-003;-6.775687448680401E-003;
2.422333333333334E+009;1.499736905097961E-001;-9.437882155179977E-002;-5.836003459990025E-003;-6.409138906747103E-003;
2.422500000000000E+009;1.488163173198700E-001;-9.417488425970078E-002;-6.014827173203230E-003;-6.011984311044216E-003;
2.422666666666667E+009;1.476084142923355E-001;-9.412638843059540E-002;-6.073011085391045E-003;-5.761298816651106E-003;
2.422833333333334E+009;1.465701609849930E-001;-9.403795003890991E-002;-6.309356540441513E-003;-5.471066571772099E-003;
2.423000000000000E+009;1.451478451490402E-001;-9.399665147066116E-002;-6.210248917341232E-003;-5.093348678201437E-003;
2.423166666666667E+009;1.438677757978439E-001;-9.390766173601151E-002;-6.318245548754931E-003;-4.693009890615940E-003;
2.423333333333334E+009;1.425596177577972E-001;-9.386837482452393E-002;-6.309377960860729E-003;-4.487757105380297E-003;
2.423500000000000E+009;1.409652531147003E-001;-9.391470998525620E-002;-6.340525578707457E-003;-4.152351990342140E-003;
2.423666666666667E+009;1.393976062536240E-001;-9.432166069746018E-002;-6.313763093203306E-003;-3.976350650191307E-003;
2.423833333333334E+009;1.380030959844589E-001;-9.449587017297745E-002;-6.297943647950888E-003;-3.689427394419909E-003;
2.424000000000000E+009;1.363058388233185E-001;-9.452251344919205E-002;-6.406707223504782E-003;-3.449099138379097E-003;
2.424166666666667E+009;1.349028944969177E-001;-9.508726745843887E-002;-6.167310290038586E-003;-3.454386489465833E-003;
2.424333333333334E+009;1.334545761346817E-001;-9.526062756776810E-002;-6.390734110027552E-003;-3.340118331834674E-003;
2.424500000000000E+009;1.320198029279709E-001;-9.616446495056152E-002;-6.313948426395655E-003;-3.013305133208633E-003;
2.424666666666667E+009;1.306105405092239E-001;-9.660361707210541E-002;-6.269217934459448E-003;-2.964252838864923E-003;
2.424833333333334E+009;1.291538774967194E-001;-9.734479337930679E-002;-6.436421070247889E-003;-2.707346808165312E-003;
2.425000000000000E+009;1.277976930141449E-001;-9.830320626497269E-002;-6.451007444411516E-003;-2.585273701697588E-003;
2.425166666666667E+009;1.263532042503357E-001;-9.913264214992523E-002;-6.377996411174536E-003;-2.530882367864251E-003;
2.425333333333334E+009;1.250466108322144E-001;-1.002191081643105E-001;-6.628763396292925E-003;-2.198226749897003E-003;
2.425500000000000E+009;1.239233240485191E-001;-1.014953926205635E-001;-6.693502888083458E-003;-2.018217695876956E-003;
2.425666666666667E+009;1.226372569799423E-001;-1.025809198617935E-001;-6.668582092970610E-003;-1.983879599720240E-003;
2.425833333333334E+009;1.214995384216309E-001;-1.038489118218422E-001;-6.658806931227446E-003;-1.574520603753626E-003;
2.426000000000000E+009;1.205628365278244E-001;-1.052748933434486E-001;-6.600824650377035E-003;-1.470338902436197E-003;
2.426166666666667E+009;1.196935847401619E-001;-1.066277548670769E-001;-6.641093641519547E-003;-1.150894211605191E-003;
2.426333333333334E+009;1.187834963202477E-001;-1.081176847219467E-001;-6.517081987112761E-003;-1.058491761796176E-003;
2.426500000000000E+009;1.179981157183647E-001;-1.095829159021378E-001;-6.587718147784472E-003;-8.523467695340514E-004;
2.426666666666667E+009;1.174055933952332E-001;-1.110476702451706E-001;-6.595565937459469E-003;-4.425552033353597E-004;
2.426833333333334E+009;1.168534159660339E-001;-1.126651689410210E-001;-6.496084388345480E-003;-3.729134623426944E-004;
2.427000000000000E+009;1.161832213401794E-001;-1.143439710140228E-001;-6.402878556400538E-003;-1.879527990240604E-004;
2.427166666666667E+009;1.157025545835495E-001;-1.157516464591026E-001;-6.305426824837923E-003;8.455220813630149E-005;
2.427333333333334E+009;1.152665987610817E-001;-1.174041777849197E-001;-6.241048220545054E-003;3.171199059579521E-004;
2.427500000000000E+009;1.151792034506798E-001;-1.189955696463585E-001;-6.192504893988371E-003;4.773919354192913E-004;
2.427666666666667E+009;1.148518696427345E-001;-1.205041408538818E-001;-6.165780127048492E-003;5.304027581587434E-004;
