# Version 1.00
#
freq[Hz];re:Trc1_S11;im:Trc1_S11;re:Trc2_S21;im:Trc2_S21;
2.400000000000000E+009;1.734673082828522E-001;4.926908016204834E-002;-2.563508925959468E-003;3.633960383012891E-003;
2.400166666666667E+009;1.740155965089798E-001;4.868455976247788E-002;-2.404802246019244E-003;3.921951167285442E-003;
2.400333333333334E+009;1.742787957191467E-001;4.787195846438408E-002;-2.716782269999385E-003;3.846528707072139E-003;
2.400500000000000E+009;1.745927929878235E-001;4.739895090460777E-002;-2.832083264365792E-003;4.053830634802580E-003;
2.400666666666667E+009;1.749360561370850E-001;4.646000638604164E-002;-2.720699645578861E-003;4.293395206332207E-003;
2.400833333333334E+009;1.752028614282608E-001;4.594121873378754E-002;-2.715206705033779E-003;4.506819881498814E-003;
2.401000000000000E+009;1.755452305078507E-001;4.540707170963287E-002;-2.535736421123147E-003;4.674149677157402E-003;
2.401166666666667E+009;1.755143851041794E-001;4.476178437471390E-002;-2.670288318768144E-003;4.883818794041872E-003;
2.401333333333334E+009;1.755507737398148E-001;4.421132802963257E-002;-2.604044741019607E-003;5.131433717906475E-003;
2.401500000000000E+009;1.756638586521149E-001;4.335338622331619E-002;-2.516070846468210E-003;5.438661668449640E-003;
2.401666666666667E+009;1.756031811237335E-001;4.271139577031136E-002;-2.137935254722834E-003;5.549674388021231E-003;
2.401833333333334E+009;1.757822334766388E-001;4.192339628934860E-002;-2.312051830813289E-003;5.808264948427677E-003;
2.402000000000000E+009;1.753901839256287E-001;4.098672047257423E-002;-2.062625018879771E-003;6.213001906871796E-003;
2.402166666666667E+009;1.753483265638351E-001;3.998727723956108E-002;-1.720787724480033E-003;6.254424341022968E-003;
2.402333333333334E+009;1.751116663217545E-001;3.902405872941017E-002;-1.567786792293191E-003;6.462720688432455E-003;
2.402500000000000E+009;1.751786172389984E-001;3.804916143417358E-002;-1.383669907227159E-003;6.587586365640163E-003;
2.402666666666667E+009;1.748288422822952E-001;3.698899969458580E-002;-1.153570716269314E-003;6.871314719319344E-003;
2.402833333333334E+009;1.746081560850143E-001;3.569225966930389E-002;-6.967454100959003E-004;6.847980897873640E-003;
2.403000000000000E+009;1.742080599069595E-001;3.432957082986832E-002;-5.343534285202622E-004;6.981297396123409E-003;
2.403166666666667E+009;1.738760620355606E-001;3.279480710625649E-002;-1.437967584934086E-004;7.030137814581394E-003;
2.403333333333334E+009;1.736084371805191E-001;3.151387721300125E-002;4.986330895917490E-005;7.109592668712139E-003;
2.403500000000000E+009;1.732303649187088E-001;3.009761497378349E-002;4.310674557927996E-004;7.091608829796314E-003;
2.403666666666667E+009;1.728722006082535E-001;2.824865654110909E-002;5.956231034360826E-004;7.162075024098158E-003;
2.403833333333334E+009;1.724524945020676E-001;2.653816714882851E-002;9.644050151109695E-004;7.039485499262810E-003;
2.404000000000000E+009;1.721097379922867E-001;2.490846626460552E-002;1.204983447678387E-003;7.087888661772013E-003;
2.404166666666667E+009;1.717274039983749E-001;2.302097715437412E-002;1.237917342223227E-003;7.033681962639093E-003;
2.404333333333334E+009;1.713057160377502E-001;2.121675014495850E-002;1.509135938249528E-003;6.978687830269337E-003;
2.404500000000000E+009;1.711197942495346E-001;1.909221708774567E-002;1.717284787446261E-003;6.913981400430203E-003;
2.404666666666667E+009;1.708036065101624E-001;1.732902228832245E-002;2.008984796702862E-003;6.977862678468227E-003;
2.404833333333334E+009;1.705739200115204E-001;1.533978339284658E-002;2.196003682911396E-003;6.710998248308897E-003;
2.405000000000000E+009;1.704372018575668E-001;1.326938159763813E-002;2.448983024805784E-003;6.886141374707222E-003;
2.405166666666667E+009;1.704475730657578E-001;1.120006944984198E-002;2.379705430939794E-003;6.773572415113449E-003;
2.405333333333334E+009;1.704121828079224E-001;9.074055589735508E-003;2.663843333721161E-003;6.590893492102623E-003;
2.405500000000000E+009;1.703161448240280E-001;7.137304637581110E-003;3.054147353395820E-003;6.737144198268652E-003;
2.405666666666667E+009;1.705256551504135E-001;5.083498079329729E-003;3.170027630403638E-003;6.752637214958668E-003;
2.405833333333334E+009;1.705251932144165E-001;3.108535427600145E-003;3.444682108238339E-003;6.447313819080591E-003;
2.406000000000000E+009;1.708295643329620E-001;9.856562828645110E-004;3.666958305984736E-003;6.679555401206017E-003;
2.406166666666667E+009;1.710175424814224E-001;-8.830272709019482E-004;3.819439560174942E-003;6.523913703858852E-003;
2.406333333333334E+009;1.716068089008331E-001;-2.950987312942743E-003;4.173432942479849E-003;6.464987061917782E-003;
2.406500000000000E+009;1.720129996538162E-001;-4.983463790267706E-003;4.560478962957859E-003;6.449530832469463E-003;
2.406666666666667E+009;1.723587065935135E-001;-6.802126299589872E-003;4.703195299953222E-003;6.374703254550695E-003;
2.406833333333334E+009;1.730642914772034E-001;-8.869612589478493E-003;4.927609115839005E-003;6.355203222483397E-003;
2.407000000000000E+009;1.736196726560593E-001;-1.083628367632628E-002;5.447419360280037E-003;6.159947719424963E-003;
2.407166666666667E+009;1.743599176406860E-001;-1.251155883073807E-002;5.716247484087944E-003;6.013068370521069E-003;
2.407333333333334E+009;1.748474687337875E-001;-1.441162452101708E-002;5.906315986067057E-003;5.774316377937794E-003;
2.407500000000000E+009;1.756673604249954E-001;-1.609544642269611E-002;6.277206819504499E-003;5.620480049401522E-003;
2.407666666666667E+009;1.764184236526489E-001;-1.774485781788826E-002;6.619552616029978E-003;5.356027744710445E-003;
2.407833333333334E+009;1.770424693822861E-001;-1.948850229382515E-002;6.939665414392948E-003;5.074151791632175E-003;
2.408000000000000E+009;1.776954382658005E-001;-2.114862017333508E-002;7.205465808510780E-003;4.633606877177954E-003;
2.408166666666667E+009;1.784840971231461E-001;-2.241730131208897E-002;7.449334952980280E-003;4.291226156055927E-003;
2.408333333333334E+009;1.793694943189621E-001;-2.391962520778179E-002;7.530827540904284E-003;4.172259010374546E-003;
2.408500000000000E+009;1.798527389764786E-001;-2.521654590964317E-002;7.853547111153603E-003;3.559806151315570E-003;
2.408666666666667E+009;1.804162710905075E-001;-2.656728029251099E-002;7.843079045414925E-003;3.257723059505224E-003;
2.408833333333334E+009;1.807398945093155E-001;-2.756631560623646E-002;7.952800951898098E-003;2.888267161324620E-003;
2.409000000000000E+009;1.812136918306351E-001;-2.870035916566849E-002;7.962327450513840E-003;2.524496288970113E-003;
2.409166666666667E+009;1.818194240331650E-001;-2.965878322720528E-002;7.978252135217190E-003;1.989388372749090E-003;
2.409333333333334E+009;1.823080331087112E-001;-3.048006445169449E-002;8.104462176561356E-003;1.665831077843905E-003;
2.409500000000000E+009;1.826013326644898E-001;-3.128034994006157E-002;8.028961718082428E-003;1.302029821090400E-003;
2.409666666666667E+009;1.827977746725082E-001;-3.192182630300522E-002;7.836103439331055E-003;9.449521894566715E-004;
2.409833333333334E+009;1.829683333635330E-001;-3.244199231266975E-002;7.730679586529732E-003;7.284631719812751E-004;
2.410000000000000E+009;1.832381486892700E-001;-3.270228952169418E-002;7.832742296159267E-003;5.152685916982591E-004;
2.410166666666667E+009;1.833656132221222E-001;-3.328683972358704E-002;7.835862226784229E-003;1.829084940254688E-004;
2.410333333333334E+009;1.835321933031082E-001;-3.358494490385056E-002;7.596960291266441E-003;-3.435029793763533E-005;
2.410500000000000E+009;1.834470629692078E-001;-3.394795209169388E-002;7.484987843781710E-003;-2.682166523300111E-004;
2.410666666666667E+009;1.833595335483551E-001;-3.439087420701981E-002;7.254948373883963E-003;-5.579415592364967E-004;
2.410833333333334E+009;1.832194626331329E-001;-3.427804633975029E-002;7.302301935851574E-003;-6.544647039845586E-004;
2.411000000000000E+009;1.829521954059601E-001;-3.493325039744377E-002;7.215889170765877E-003;-8.014605846256018E-004;
2.411166666666667E+009;1.824651062488556E-001;-3.509262949228287E-002;7.084742188453674E-003;-1.203750493004918E-003;
2.411333333333334E+009;1.821992099285126E-001;-3.548493236303330E-002;7.015477865934372E-003;-1.146040391176939E-003;
2.411500000000000E+009;1.815389096736908E-001;-3.587830439209938E-002;6.716452538967133E-003;-1.196006196551025E-003;
2.411666666666667E+009;1.810534000396729E-001;-3.621747717261314E-002;6.688152905553579E-003;-1.526016625575721E-003;
2.411833333333334E+009;1.803804486989975E-001;-3.655827790498734E-002;6.656567100435495E-003;-1.528298947960138E-003;
2.412000000000000E+009;1.797187626361847E-001;-3.713368996977806E-002;6.710122339427471E-003;-1.499695936217904E-003;
2.412166666666667E+009;1.786398142576218E-001;-3.742800280451775E-002;6.352488417178392E-003;-1.726061338558793E-003;
2.412333333333334E+009;1.779460459947586E-001;-3.793143481016159E-002;6.320925895124674E-003;-1.715619233436883E-003;
2.412500000000000E+009;1.766249537467957E-001;-3.841611742973328E-002;6.312862504273653E-003;-1.810138928703964E-003;
2.412666666666667E+009;1.756396591663361E-001;-3.917053341865540E-002;6.169329397380352E-003;-2.037949627265334E-003;
2.412833333333334E+009;1.746189296245575E-001;-3.993770107626915E-002;6.037388928234577E-003;-2.084725536406040E-003;
2.413000000000000E+009;1.734198182821274E-001;-4.058929532766342E-002;6.202406249940395E-003;-1.867220154963434E-003;
2.413166666666667E+009;1.719308942556381E-001;-4.139934480190277E-002;6.214257329702377E-003;-1.785026397556067E-003;
2.413333333333334E+009;1.704604625701904E-001;-4.231749847531319E-002;6.310304626822472E-003;-2.149830339476466E-003;
2.413500000000000E+009;1.695176661014557E-001;-4.327052459120750E-002;6.222137715667486E-003;-2.267389558255673E-003;
2.413666666666667E+009;1.682780236005783E-001;-4.449005424976349E-002;6.425799336284399E-003;-2.425990998744965E-003;
2.413833333333334E+009;1.667729318141937E-001;-4.540067911148071E-002;6.458867341279984E-003;-2.588069764897227E-003;
2.414000000000000E+009;1.654888689517975E-001;-4.661947116255760E-002;6.376580335199833E-003;-2.622906584292650E-003;
2.414166666666667E+009;1.644684225320816E-001;-4.786337167024612E-002;6.557183805853128E-003;-2.765817334875464E-003;
2.414333333333334E+009;1.632133126258850E-001;-4.934849590063095E-002;6.566148716956377E-003;-2.977819181978703E-003;
2.414500000000000E+009;1.622925549745560E-001;-5.064561963081360E-002;6.548716686666012E-003;-3.166926559060812E-003;
2.414666666666667E+009;1.609353423118591E-001;-5.224976316094399E-002;6.856332533061504E-003;-3.586463397368789E-003;
2.414833333333334E+009;1.599109172821045E-001;-5.365884676575661E-002;6.875248625874519E-003;-3.857392817735672E-003;
2.415000000000000E+009;1.588681638240814E-001;-5.524606257677078E-002;6.654308177530766E-003;-3.875919384881854E-003;
2.415166666666667E+009;1.580510139465332E-001;-5.708096548914909E-002;6.675484590232372E-003;-4.366717301309109E-003;
2.415333333333334E+009;1.572817713022232E-001;-5.881340056657791E-002;6.648546550422907E-003;-4.592830315232277E-003;
2.415500000000000E+009;1.565974354743958E-001;-6.063751876354218E-002;6.687596440315247E-003;-4.989304579794407E-003;
2.415666666666667E+009;1.558599770069122E-001;-6.237235665321350E-002;6.534625776112080E-003;-5.314704030752182E-003;
2.415833333333334E+009;1.551959216594696E-001;-6.439737975597382E-002;6.331000011414290E-003;-5.617828108370304E-003;
2.416000000000000E+009;1.544865667819977E-001;-6.640351563692093E-002;6.222894880920649E-003;-5.796233192086220E-003;
2.416166666666667E+009;1.542824655771256E-001;-6.835383921861649E-002;6.109620444476605E-003;-6.173847708851099E-003;
2.416333333333334E+009;1.537172198295593E-001;-7.025407999753952E-002;5.924046970903873E-003;-6.434938870370388E-003;
2.416500000000000E+009;1.532940715551376E-001;-7.237311452627182E-002;5.633919034153223E-003;-6.707806605845690E-003;
2.416666666666667E+009;1.530579924583435E-001;-7.418642938137054E-002;5.567775573581457E-003;-7.034336682409048E-003;
2.416833333333334E+009;1.528767943382263E-001;-7.632874697446823E-002;5.146407522261143E-003;-7.308770902454853E-003;
2.417000000000000E+009;1.526619940996170E-001;-7.812954485416412E-002;4.806534387171269E-003;-7.533673662692308E-003;
2.417166666666667E+009;1.524428874254227E-001;-7.986331731081009E-002;4.697526339441538E-003;-7.802319247275591E-003;
2.417333333333334E+009;1.523382663726807E-001;-8.163789659738541E-002;4.193006549030542E-003;-7.989968173205853E-003;
2.417500000000000E+009;1.523822098970413E-001;-8.354748785495758E-002;4.069228656589985E-003;-8.105779998004437E-003;
2.417666666666667E+009;1.525003015995026E-001;-8.498578518629074E-002;3.581705968827009E-003;-8.428076282143593E-003;
2.417833333333334E+009;1.526131331920624E-001;-8.657941222190857E-002;3.300686832517386E-003;-8.649730123579502E-003;
2.418000000000000E+009;1.525760293006897E-001;-8.810999244451523E-002;2.946795430034399E-003;-8.708512410521507E-003;
2.418166666666667E+009;1.526973694562912E-001;-8.945345878601074E-002;2.694574184715748E-003;-8.950980380177498E-003;
2.418333333333334E+009;1.531449109315872E-001;-9.086330980062485E-002;2.230960875749588E-003;-8.884527720510960E-003;
2.418500000000000E+009;1.531136482954025E-001;-9.200760722160339E-002;1.939609064720571E-003;-9.017421863973141E-003;
2.418666666666667E+009;1.535179316997528E-001;-9.302624315023422E-002;1.844836049713194E-003;-9.208464063704014E-003;
2.418833333333334E+009;1.536369770765305E-001;-9.412384033203125E-002;1.203861203975976E-003;-9.267664514482021E-003;
2.419000000000000E+009;1.536825746297836E-001;-9.470937401056290E-002;7.284303428605199E-004;-9.389601647853851E-003;
2.419166666666667E+009;1.539114117622376E-001;-9.552316367626190E-002;3.757049853447825E-004;-9.301006793975830E-003;
2.419333333333334E+009;1.540465056896210E-001;-9.602085500955582E-002;8.123665611492470E-005;-9.335225448012352E-003;
2.419500000000000E+009;1.541898995637894E-001;-9.655765444040299E-002;-4.431772686075419E-004;-9.508095681667328E-003;
2.419666666666667E+009;1.545043289661408E-001;-9.710779786109924E-002;-8.618778665550053E-004;-9.251938201487064E-003;
2.419833333333334E+009;1.543734222650528E-001;-9.717492014169693E-002;-1.091346493922174E-003;-9.258603677153587E-003;
2.420000000000000E+009;1.546631753444672E-001;-9.743110835552216E-002;-1.409150660037994E-003;-9.113983251154423E-003;
2.420166666666667E+009;1.546014696359634E-001;-9.739294648170471E-002;-1.882910379208624E-003;-9.052849374711514E-003;
2.420333333333334E+009;1.546824127435684E-001;-9.759849309921265E-002;-2.235768362879753E-003;-8.826614357531071E-003;
2.420500000000000E+009;1.548077017068863E-001;-9.734175354242325E-002;-2.547849435359240E-003;-8.826150558888912E-003;
2.420666666666667E+009;1.546976715326309E-001;-9.720747917890549E-002;-2.945740241557360E-003;-8.697135373950005E-003;
2.420833333333334E+009;1.544690281152725E-001;-9.696941077709198E-002;-3.381497459486127E-003;-8.493381552398205E-003;
2.421000000000000E+009;1.543117463588715E-001;-9.673202037811279E-002;-3.584810299798846E-003;-8.340786211192608E-003;
2.421166666666667E+009;1.540392190217972E-001;-9.652335196733475E-002;-4.012871999293566E-003;-8.046081289649010E-003;
2.421333333333334E+009;1.538306474685669E-001;-9.616904705762863E-002;-4.326205234974623E-003;-7.798739708960056E-003;
2.421500000000000E+009;1.532894223928452E-001;-9.582053869962692E-002;-4.534641746431589E-003;-7.709391880780459E-003;
2.421666666666667E+009;1.527781784534454E-001;-9.566185623407364E-002;-4.813681356608868E-003;-7.547954097390175E-003;
2.421833333333334E+009;1.521904617547989E-001;-9.528235346078873E-002;-5.108133424073458E-003;-7.292003836482763E-003;
2.422000000000000E+009;1.514409184455872E-001;-9.491581469774246E-002;-5.222666077315807E-003;-6.985011976212263E-003;
2.422166666666667E+009;1.507519781589508E-001;-9.489801526069641E-002;-5.591571796685457E-003;-6.785830948501825E-003;
2.422333333333334E+009;1.498480737209320E-001;-9.448935091495514E-002;-5.777427926659584E-003;-6.452590692788363E-003;
2.422500000000000E+009;1.488318294286728E-001;-9.429603815078735E-002;-5.969425663352013E-003;-6.174685899168253E-003;
2.422666666666667E+009;1.475346535444260E-001;-9.417681396007538E-002;-5.987650249153376E-003;-5.663744639605284E-003;
2.422833333333334E+009;1.463800370693207E-001;-9.419123083353043E-002;-6.118070799857378E-003;-5.468382500112057E-003;
2.423000000000000E+009;1.451389938592911E-001;-9.403894096612930E-002;-6.285386625677347E-003;-5.194926168769598E-003;
2.423166666666667E+009;1.439059078693390E-001;-9.407380223274231E-002;-6.396404933184385E-003;-4.764348734170198E-003;
2.423333333333334E+009;1.424762159585953E-001;-9.383938461542130E-002;-6.458358839154244E-003;-4.501549527049065E-003;
2.423500000000000E+009;1.411361843347549E-001;-9.403111040592194E-002;-6.429536733776331E-003;-4.240220878273249E-003;
2.423666666666667E+009;1.395134627819061E-001;-9.431314468383789E-002;-6.297280546277762E-003;-3.962049726396799E-003;
2.423833333333334E+009;1.380531936883926E-001;-9.446061402559280E-002;-6.324277259409428E-003;-3.858796553686261E-003;
2.424000000000000E+009;1.364342421293259E-001;-9.459231793880463E-002;-6.443763617426157E-003;-3.548105945810676E-003;
2.424166666666667E+009;1.348943263292313E-001;-9.501340985298157E-002;-6.414481438696384E-003;-3.409524681046605E-003;
2.424333333333334E+009;1.335345804691315E-001;-9.551469981670380E-002;-6.434327457100153E-003;-3.282389137893915E-003;
2.424500000000000E+009;1.320552080869675E-001;-9.608834981918335E-002;-6.428179796785116E-003;-3.039026632905006E-003;
2.424666666666667E+009;1.305834949016571E-001;-9.652261435985565E-002;-6.376413628458977E-003;-2.960616489872336E-003;
2.424833333333334E+009;1.290632337331772E-001;-9.742392599582672E-002;-6.551153492182493E-003;-2.722415374591947E-003;
2.425000000000000E+009;1.278057098388672E-001;-9.829552471637726E-002;-6.413581781089306E-003;-2.617642749100924E-003;
2.425166666666667E+009;1.262612491846085E-001;-9.927009046077728E-002;-6.439893506467342E-003;-2.433127723634243E-003;
2.425333333333334E+009;1.251219958066940E-001;-1.002113446593285E-001;-6.586044561117888E-003;-2.198137808591127E-003;
2.425500000000000E+009;1.240136921405792E-001;-1.014322340488434E-001;-6.580450106412172E-003;-2.137174829840660E-003;
2.425666666666667E+009;1.226964667439461E-001;-1.025679931044579E-001;-6.480386015027762E-003;-2.016250276938081E-003;
2.425833333333334E+009;1.215147748589516E-001;-1.038843840360642E-001;-6.677906960248947E-003;-1.771810231730342E-003;
2.426000000000000E+009;1.204201579093933E-001;-1.053122505545616E-001;-6.702047772705555E-003;-1.612701336853206E-003;
2.426166666666667E+009;1.197538524866104E-001;-1.066517680883408E-001;-6.628856528550386E-003;-1.386121963150799E-003;
2.426333333333334E+009;1.187465712428093E-001;-1.081170216202736E-001;-6.763500627130270E-003;-1.126895193010569E-003;
2.426500000000000E+009;1.180511191487312E-001;-1.096750646829605E-001;-6.639442872256041E-003;-7.600153330713511E-004;
2.426666666666667E+009;1.174589917063713E-001;-1.110915318131447E-001;-6.516734603792429E-003;-6.313647609204054E-004;
2.426833333333334E+009;1.168272644281387E-001;-1.126215904951096E-001;-6.646267138421536E-003;-2.598056744318456E-004;
2.427000000000000E+009;1.160976514220238E-001;-1.143429577350617E-001;-6.499025505036116E-003;-2.091025671688840E-004;
2.427166666666667E+009;1.157156005501747E-001;-1.157959848642349E-001;-6.316783372312784E-003;-7.690314669162035E-005;
2.427333333333334E+009;1.152822524309158E-001;-1.174542754888535E-001;-6.273250095546246E-003;2.403539983788505E-004;
2.427500000000000E+009;1.150866523385048E-001;-1.189670115709305E-001;-6.139910779893398E-003;2.766868856269866E-004;
2.427666666666667E+009;1.148961558938026E-001;-1.206126958131790E-001;-6.024614442139864E-003;3.960864851251245E-004;
