# Hz S RI R 50
2400000000.0000000000 0.173656180500984191894531250000 0.049535419791936867450754533593 0.001964847790077329115626669775 -0.002645800355821847915649414062 0 0 0 0 
2400166666.6666665077 0.174166128039360101897869981258 0.048971936106681816791574846093 0.001878914423286915042279887622 -0.002697560936212540106532431494 0 0 0 0 
2400333333.3333334923 0.174493566155433710296307481258 0.048157528042793266986887346093 0.001663956092670560099958110278 -0.002805491210892796950099326025 0 0 0 0 
2400500000.0000000000 0.174850285053253201583700615629 0.047409117221832282329518903907 0.001637101289816200950025248950 -0.002809078665450214905979775537 0 0 0 0 
2400666666.6666665077 0.175276711583137512207031250000 0.046940214931964867328684221093 0.001551530556753277995465922778 -0.002744956640526651902439736475 0 0 0 0 
2400833333.3333334923 0.175496175885200500488281250000 0.046372406184673309326171875000 0.001254656235687435106990195166 -0.002963798120617866949794150244 0 0 0 0 
2401000000.0000000000 0.175610616803169305999432481258 0.045425426214933402324636091407 0.001228717737831174893620156396 -0.002907982794567943053004599463 0 0 0 0 
2401166666.6666665077 0.175840958952903803069744981258 0.044957190752029418945312500000 0.001055833068676292896270751953 -0.002938358113169670104980468750 0 0 0 0 
2401333333.3333334923 0.175734221935272189041299384371 0.044209349900484092021901716407 0.001216659555211663029314350659 -0.002870989032089709801914834131 0 0 0 0 
2401500000.0000000000 0.175844773650169400314169365629 0.043668959289789199829101562500 0.000850164273288100957870483398 -0.002933707088232039971592568506 0 0 0 0 
2401666666.6666665077 0.175498232245445306975994981258 0.042940936982631683349609375000 0.000715505855623632669448852539 -0.002831941936165093941929482568 0 0 0 0 
2401833333.3333334923 0.175658136606216402908486884371 0.042002603411674499511718750000 0.000668766035232692956924438477 -0.002874003257602452798130654443 0 0 0 0 
2402000000.0000000000 0.175245180726051302810830634371 0.041199378669261932373046875000 0.000506163225509226322174072266 -0.002835290506482123894932412256 0 0 0 0 
2402166666.6666665077 0.175181522965431213378906250000 0.040217772126197821880300153907 0.000275586731731891577869969501 -0.002807493554428219795227050781 0 0 0 0 
2402333333.3333334923 0.174931243062019403655682481258 0.039288416504859917377512346093 0.000376682321075350100367945538 -0.002851790981367229981663369287 0 0 0 0 
2402500000.0000000000 0.174674421548843411544638115629 0.038174837827682502056081403907 0.000021279631255310960114002228 -0.002762901363894342942478798975 0 0 0 0 
2402666666.6666665077 0.174517273902893094161825615629 0.037131693214178092266042341407 0.000139064650284126400947570801 -0.002666172804310917854309082031 0 0 0 0 
2402833333.3333334923 0.174035936594009399414062500000 0.036068320274353027343750000000 -0.000064032734371721744537353516 -0.002586462302133440971374511719 0 0 0 0 
2403000000.0000000000 0.173771589994430486481036268742 0.034751463681459426879882812500 -0.000029156177333788949659074477 -0.002515812637284398078918457031 0 0 0 0 
2403166666.6666665077 0.173312991857528686523437500000 0.033172789961099631572682966407 0.000096552423201501369476318359 -0.002355729462578893141505576025 0 0 0 0 
2403333333.3333334923 0.173087507486343411544638115629 0.031912736594676971435546875000 -0.000125805570860393399566096173 -0.002108839107677340941188193213 0 0 0 0 
2403500000.0000000000 0.172493010759353609939736884371 0.030272098258137699472447579296 -0.000068924899096600711345672607 -0.002112778369337319894077920068 0 0 0 0 
2403666666.6666665077 0.172176107764244107345419365629 0.028492670506238940847376639454 -0.000117287054308690103605547495 -0.002232702448964118957519531250 0 0 0 0 
2403833333.3333334923 0.172066226601600702483807481258 0.026830216869711879384974295704 -0.000098304393759462982416152954 -0.002222161041572690010070800781 0 0 0 0 
2404000000.0000000000 0.171465680003166198730468750000 0.024997334927320480346679687500 0.000124181126011535498216906137 -0.002128026681020855903625488281 0 0 0 0 
2404166666.6666665077 0.171128496527671786209268134371 0.023015039041638370859166329296 -0.000055226839322131127119064331 -0.002087810309603809876682900537 0 0 0 0 
2404333333.3333334923 0.170765921473503112792968750000 0.021305896341800689697265625000 0.000039006561564747237343380587 -0.002105226274579762978794716943 0 0 0 0 
2404500000.0000000000 0.170342057943344088455361884371 0.019354324787855148315429687500 -0.000016671985576977018604074784 -0.001915718894451857046840048682 0 0 0 0 
2404666666.6666665077 0.170100450515747098068075615629 0.017325930297374728811243826954 0.000009382161806570366024971008 -0.002182027790695428848266601562 0 0 0 0 
2404833333.3333334923 0.169970840215683011154013115629 0.015434622764587400609026524023 0.000141171651193872094154357910 -0.002258814638480544090270996094 0 0 0 0 
2405000000.0000000000 0.169832572340965298751669365629 0.013288914225995540618896484375 -0.000064751351601444184780120850 -0.002209936035796999931335449219 0 0 0 0 
2405166666.6666665077 0.169700145721435602386151231258 0.011145728640258310490618320898 -0.000142912467708811191007337027 -0.002290681703016161918640136719 0 0 0 0 
2405333333.3333334923 0.169802367687225286285723768742 0.008882205933332443237304687500 -0.000040519058529753237962722778 -0.002277713268995285034179687500 0 0 0 0 
2405500000.0000000000 0.169873937964439392089843750000 0.007084719371050596237182617188 -0.000062451035773847252130508423 -0.002316001337021588845493935693 0 0 0 0 
2405666666.6666665077 0.170051246881485013107138115629 0.005009724758565425872802734375 -0.000220627713133581009790143423 -0.002280048327520490126368857275 0 0 0 0 
2405833333.3333334923 0.170114666223526000976562500000 0.003051570849493145942687988281 -0.000104789760371204506285251756 -0.002505530370399355888366699219 0 0 0 0 
2406000000.0000000000 0.170436099171638488769531250000 0.000782730290666222572326660156 -0.000220637346501462188646039420 -0.002579082502052187919616699219 0 0 0 0 
2406166666.6666665077 0.170720204710960388183593750000 -0.001013049157336354038835835034 -0.000476181507110595703125000000 -0.002583782654255629019496298682 0 0 0 0 
2406333333.3333334923 0.171197861433029202560263115629 -0.003091765334829688072204589844 -0.000554591126274317502975463867 -0.002512387465685606002807617188 0 0 0 0 
2406500000.0000000000 0.171615466475486810882244981258 -0.005211241543292999267578125000 -0.000666135922074317932128906250 -0.002510287100449204011204384912 0 0 0 0 
2406666666.6666665077 0.172039449214935302734375000000 -0.007064613513648509979248046875 -0.000646950968075543642044067383 -0.002508450299501419067382812500 0 0 0 0 
2406833333.3333334923 0.172847345471382113357705634371 -0.009045500308275222778320312500 -0.000775091932155191898345947266 -0.002442117780447005791905068506 0 0 0 0 
2407000000.0000000000 0.173469647765159606933593750000 -0.010845094919204710179339024023 -0.000750878243707120418548583984 -0.002388895023614168167114257812 0 0 0 0 
2407166666.6666665077 0.174304947257041903396768134371 -0.012696884572505949193010899023 -0.001101909321732819080352783203 -0.002385422121733427047729492188 0 0 0 0 
2407333333.3333334923 0.174965590238571194747763115629 -0.014636577107012270146380039648 -0.001197524368762969970703125000 -0.002397574484348297119140625000 0 0 0 0 
2407500000.0000000000 0.175790116190910311599893134371 -0.016236299648880958557128906250 -0.001278642681427299976348876953 -0.002406838815659285025355673682 0 0 0 0 
2407666666.6666665077 0.176573023200035095214843750000 -0.017799830064177509653111641796 -0.001377307344228029034258198315 -0.002248497912660241127014160156 0 0 0 0 
2407833333.3333334923 0.177299395203590393066406250000 -0.019526135176420208322545235546 -0.001522432314231991984723735278 -0.002104516606777905984165810693 0 0 0 0 
2408000000.0000000000 0.177992790937423706054687500000 -0.021213555708527568471888358204 -0.001592108979821204922319721753 -0.001952627324499190070508647388 0 0 0 0 
2408166666.6666665077 0.178708091378212002853231865629 -0.022549157962203029287318045704 -0.001559326425194740078569721753 -0.001843274571001529910443950122 0 0 0 0 
2408333333.3333334923 0.179525464773178100585937500000 -0.023926476016640659677525704296 -0.001725862734019756100298237378 -0.001793352887034415981890034253 0 0 0 0 
2408500000.0000000000 0.180109530687332208831463731258 -0.025341739878058430063267891796 -0.001711949706077575900434184497 -0.001849518390372395949122763525 0 0 0 0 
2408666666.6666665077 0.180786281824111910720986884371 -0.026674170047044750558873360546 -0.001531263929791748957393027197 -0.001637594657950103066088032300 0 0 0 0 
2408833333.3333334923 0.181256040930748013595419365629 -0.027918433770537379873255545704 -0.001703053247183561108232807690 -0.001311424537561834075330424731 0 0 0 0 
2409000000.0000000000 0.181792944669723510742187500000 -0.028686838224530220031738281250 -0.001497529447078705050824809497 -0.001351849758066236972808837891 0 0 0 0 
2409166666.6666665077 0.182169377803802490234375000000 -0.029694424942135810852050781250 -0.001628191908821464018580771338 -0.001215520780533551952959370190 0 0 0 0 
2409333333.3333334923 0.182629823684692410568075615629 -0.030529340729117390024205391796 -0.001429025433026253960253071362 -0.001234779483638704039930034106 0 0 0 0 
2409500000.0000000000 0.183014273643493707854901231258 -0.031166737899184230459193045704 -0.001445150817744434096692729419 -0.001270492793992161967633891528 0 0 0 0 
2409666666.6666665077 0.183161526918411310393963731258 -0.031706761568784706806223283593 -0.001638347166590393023249960791 -0.001027305261231959082959819263 0 0 0 0 
2409833333.3333334923 0.183352544903755187988281250000 -0.032246019691228866577148437500 -0.001590050524100661060930561597 -0.001002586563117801926256489331 0 0 0 0 
2410000000.0000000000 0.183524385094642611404580634371 -0.032664116472005837177317033593 -0.001408007927238940975786518628 -0.000861549400724470615386962891 0 0 0 0 
2410166666.6666665077 0.183787047863006591796875000000 -0.033079192042350769042968750000 -0.001581580610945821025251079028 -0.000889988208655267953872680664 0 0 0 0 
2410333333.3333334923 0.183763638138771112640057481258 -0.033414661884307861328125000000 -0.001417228020727633996250771631 -0.000827441283036023378372192383 0 0 0 0 
2410500000.0000000000 0.183542445302009610275106865629 -0.033519912511110312725026716407 -0.001555615919642149968388222803 -0.000781139882747083902359008789 0 0 0 0 
2410666666.6666665077 0.183584809303283691406250000000 -0.034147363156080252910573591407 -0.001356712658889591910718608325 -0.000851368182338774204254150391 0 0 0 0 
2410833333.3333334923 0.183472782373428289215411268742 -0.034111287444829940795898437500 -0.001395414583384990908979106372 -0.000549327116459608078002929688 0 0 0 0 
2411000000.0000000000 0.183347627520561190506143134371 -0.034459043294191360473632812500 -0.001335380482487380938289023291 -0.000719664618372917175292968750 0 0 0 0 
2411166666.6666665077 0.182884052395820589920205634371 -0.034758463501930236816406250000 -0.001460716594010591940638876807 -0.000529298151377588510513305664 0 0 0 0 
2411333333.3333334923 0.182348340749740600585937500000 -0.034885019063949591899831403907 -0.001378233777359127998352050781 -0.000633460353128612041473388672 0 0 0 0 
2411500000.0000000000 0.181772798299789400955361884371 -0.035504300147294998168945312500 -0.001277687726542354063746786963 -0.000561345485039055347442626953 0 0 0 0 
2411666666.6666665077 0.181317538022994995117187500000 -0.035754106938838958740234375000 -0.001172854797914623997331928784 -0.000448165723355486989021301270 0 0 0 0 
2411833333.3333334923 0.180590301752090509612713731258 -0.035847697407007217407226562500 -0.001246974919922650077222514575 -0.000450130552053451483875828876 0 0 0 0 
2412000000.0000000000 0.179836571216583307464276231258 -0.036800939589738852764089216407 -0.001270089880563318946241069263 -0.000375451287254691123962402344 0 0 0 0 
2412166666.6666665077 0.178801730275154113769531250000 -0.036931414157152182842214216407 -0.001113652368076146082637167822 -0.000320282590109854882389622821 0 0 0 0 
2412333333.3333334923 0.178082287311554010589276231258 -0.037359628826379782939870466407 -0.001142560038715600967407226562 -0.000386306463042274117469787598 0 0 0 0 
2412500000.0000000000 0.176786482334136990646200615629 -0.037978332489728927612304687500 -0.001139945467002690055249858325 -0.000265815091552212780148106708 0 0 0 0 
2412666666.6666665077 0.175854250788688687423544365629 -0.038651980459690087055246721093 -0.000952411792241036891937255859 -0.000343760271789506077766418457 0 0 0 0 
2412833333.3333334923 0.174564987421035794357138115629 -0.039530802518129348754882812500 -0.000881794665474444627761840820 -0.000224033894483000012949266977 0 0 0 0 
2413000000.0000000000 0.173391312360763605315838731258 -0.040165692567825317382812500000 -0.000803464732598513364791870117 -0.000198712994460947811603546143 0 0 0 0 
2413166666.6666665077 0.172046169638633700271768134371 -0.041213795542716979980468750000 -0.000757083878852427005767822266 -0.000227096054004505303785046988 0 0 0 0 
2413333333.3333334923 0.170687794685363797286825615629 -0.041929174214601516723632812500 -0.000604355940595269203186035156 -0.000225221185246482491493225098 0 0 0 0 
2413500000.0000000000 0.169496640563011197189169365629 -0.042951006442308432842214216407 -0.000453433836810290813446044922 -0.000370947644114494323730468750 0 0 0 0 
2413666666.6666665077 0.168351665139198303222656250000 -0.044279146939516067504882812500 -0.000517388805747032165527343750 -0.000338668498443439602851867676 0 0 0 0 
2413833333.3333334923 0.166936874389648409744424384371 -0.045329485088586807250976562500 -0.000286646827589720487594604492 -0.000442529999418184215396326886 0 0 0 0 
2414000000.0000000000 0.165559515357017489334268134371 -0.046680077910423278808593750000 -0.000199294663616456091403961182 -0.000468838028609752709239405499 0 0 0 0 
2414166666.6666665077 0.164474740624427795410156250000 -0.047863088548183441162109375000 -0.000314422504743561202853602277 -0.000650285743176937103271484375 0 0 0 0 
2414333333.3333334923 0.163178354501724187652911268742 -0.049450136721134192729909528907 -0.000083428494690451771020889282 -0.000952320231590420007705688477 0 0 0 0 
2414500000.0000000000 0.162264883518218994140625000000 -0.050823550671339041973073591407 -0.000178463858901523107856196271 -0.001014915294945240020751953125 0 0 0 0 
2414666666.6666665077 0.160955265164375305175781250000 -0.052210442721843719482421875000 -0.000139020776259712901994428091 -0.001093782368116080977796245044 0 0 0 0 
2414833333.3333334923 0.159842416644096402267294365629 -0.054047867655754089355468750000 0.000093996452051214873790740967 -0.001241273828782140991808247144 0 0 0 0 
2415000000.0000000000 0.158968120813369806487713731258 -0.055637598037719726562500000000 -0.000201581176952458890989580698 -0.001555380877107382037519145435 0 0 0 0 
2415166666.6666665077 0.157922267913818387130575615629 -0.057345453649759292602539062500 -0.000146366946864873197957715445 -0.001692899968475102944615029443 0 0 0 0 
2415333333.3333334923 0.157116010785102788727130018742 -0.059329897165298461914062500000 -0.000334106385707855224609375000 -0.001759435632266104004503559644 0 0 0 0 
2415500000.0000000000 0.156375929713249206542968750000 -0.061133529990911476825754533593 -0.000554772850591689348220825195 -0.001928157289512455897090292822 0 0 0 0 
2415666666.6666665077 0.155654802918434087555255018742 -0.063019871711730957031250000000 -0.000580998195800930261611938477 -0.002039509825408459143397665869 0 0 0 0 
2415833333.3333334923 0.155089810490608187576455634371 -0.064888559281826019287109375000 -0.000694315356668084859848022461 -0.002197738271206616921665810693 0 0 0 0 
2416000000.0000000000 0.154318556189537103850994981258 -0.067116625607013702392578125000 -0.001029025064781307957292866284 -0.002285570837557315826416015625 0 0 0 0 
2416166666.6666665077 0.154102131724357604980468750000 -0.069013126194477081298828125000 -0.001240728306584059975267719800 -0.002441628370434045791625976562 0 0 0 0 
2416333333.3333334923 0.153520971536636408050213731258 -0.071043618023395538330078125000 -0.001230147550813853957532573169 -0.002366357715800404982325888525 0 0 0 0 
2416500000.0000000000 0.153186514973640386383380018742 -0.073034413158893585205078125000 -0.001474736840464174964307475513 -0.002418792573735117912292480469 0 0 0 0 
2416666666.6666665077 0.152778789401054410079794365629 -0.074970595538616180419921875000 -0.001668381504714488983154296875 -0.002408476779237389998195029150 0 0 0 0 
2416833333.3333334923 0.152700901031494112869424384371 -0.077019900083541870117187500000 -0.001992128789424895806553506006 -0.002554176142439246177673339844 0 0 0 0 
2417000000.0000000000 0.152213007211685208419638115629 -0.078964911401271820068359375000 -0.002015726640820502801182412256 -0.002381137106567620797398232568 0 0 0 0 
2417166666.6666665077 0.152175605297088595291299384371 -0.080619357526302337646484375000 -0.002431295579299331145045615088 -0.002355915959924459891078329932 0 0 0 0 
2417333333.3333334923 0.152141451835632296463174384371 -0.082439199090003967285156250000 -0.002579050837084650993347167969 -0.002346048597246408896205283057 0 0 0 0 
2417500000.0000000000 0.152042642235755892654580634371 -0.084402821958065032958984375000 -0.002799592912197113037109375000 -0.002208177931606769995448447119 0 0 0 0 
2417666666.6666665077 0.152274340391159113128338731258 -0.085737586021423339843750000000 -0.002918987767770885987522744287 -0.002020450774580239815952920068 0 0 0 0 
2417833333.3333334923 0.152266621589660589020098768742 -0.087298840284347534179687500000 -0.003292337525635958151576376807 -0.002039074199274181885960244287 0 0 0 0 
2418000000.0000000000 0.152264595031738309005575615629 -0.088810227811336517333984375000 -0.003489422611892222924473427881 -0.001846573664806782982469868237 0 0 0 0 
2418166666.6666665077 0.152368977665901211837606865629 -0.090108804404735565185546875000 -0.003470571478828787803649902344 -0.001654900843277574019191122900 0 0 0 0 
2418333333.3333334923 0.152728602290153503417968750000 -0.091315560042858123779296875000 -0.003706783521920443014857626807 -0.001523166662082076072692871094 0 0 0 0 
2418500000.0000000000 0.152828469872474698165731865629 -0.092517353594303131103515625000 -0.003861991222947835922241210938 -0.001380297006107866980909038013 0 0 0 0 
2418666666.6666665077 0.153122112154960604568643134371 -0.093567490577697753906250000000 -0.004078907892107964429373456738 -0.001130704651586710973026894678 0 0 0 0 
2418833333.3333334923 0.153018653392791803558026231258 -0.094436667859554290771484375000 -0.004182806704193353652954101562 -0.000985187478363513946533203125 0 0 0 0 
2419000000.0000000000 0.153261587023735101897869981258 -0.095154188573360443115234375000 -0.004270746372640132904052734375 -0.000614518299698829650878906250 0 0 0 0 
2419166666.6666665077 0.153536826372146606445312500000 -0.095712326467037200927734375000 -0.004333750810474157333374023438 -0.000386754079954698681831359863 0 0 0 0 
2419333333.3333334923 0.153592050075531005859375000000 -0.096080727875232696533203125000 -0.004325878806412220001220703125 -0.000320321181789040619700831281 0 0 0 0 
2419500000.0000000000 0.153885409235954312423544365629 -0.096804186701774597167968750000 -0.004357356112450361251831054688 0.000114383830805309103287835393 0 0 0 0 
2419666666.6666665077 0.154129207134246798416299384371 -0.096952214837074279785156250000 -0.004334608558565378189086914062 0.000185310578672215288311558856 0 0 0 0 
2419833333.3333334923 0.154141560196876498123330634371 -0.097152069211006164550781250000 -0.004401728510856628417968750000 0.000462356023490428924560546875 0 0 0 0 
