# Hz S RI R 50
2400000000.0000000000 0.173602521419525201995526231258 0.049568533897399902343750000000 0.001956518506631255149841308594 -0.002644432242959738211390829932 0 0 0 0 
2400166666.6666665077 0.174274742603302001953125000000 0.048902321606874472881276716407 0.001856823917478322982788085938 -0.002657128497958182854893349756 0 0 0 0 
2400333333.3333334923 0.174805447459220886230468750000 0.048251464962959289550781250000 0.001755530829541384956957172925 -0.002663519233465195135829306494 0 0 0 0 
2400500000.0000000000 0.175025016069412203689736884371 0.047510433942079537128488908593 0.001498386263847351074218750000 -0.002785144140943884849548339844 0 0 0 0 
2400666666.6666665077 0.175284534692764309982138115629 0.046924289315938949584960937500 0.001549657084979116916656494141 -0.002842908725142478942871093750 0 0 0 0 
2400833333.3333334923 0.175544604659080505371093750000 0.046536643058061599731445312500 0.001358340028673409981968545068 -0.002847862429916859106776572119 0 0 0 0 
2401000000.0000000000 0.175420582294464111328125000000 0.045721281319856636737863908593 0.001194947632029653029200888525 -0.002933077514171599908116006006 0 0 0 0 
2401166666.6666665077 0.175635725259780911544638115629 0.044952057301998138427734375000 0.001173193799331784031511616284 -0.002871609525755047798156738281 0 0 0 0 
2401333333.3333334923 0.175616070628166198730468750000 0.044412761926651000976562500000 0.000937228614930063486099243164 -0.002880639862269163131713867188 0 0 0 0 
2401500000.0000000000 0.175930246710777310470419365629 0.043524876236915588378906250000 0.000807164644356817007064819336 -0.002907858695834875106811523438 0 0 0 0 
2401666666.6666665077 0.175644427537918090820312500000 0.042807497084140777587890625000 0.000789171317592263221740722656 -0.003021641168743371963500976562 0 0 0 0 
2401833333.3333334923 0.175571545958519009689169365629 0.042069621384143829345703125000 0.000638388562947511672973632812 -0.002832069760188459916355752100 0 0 0 0 
2402000000.0000000000 0.175276666879653902908486884371 0.041371069848537452007253278907 0.000592914526350796222686767578 -0.002866078400984406904933310400 0 0 0 0 
2402166666.6666665077 0.175115182995796203613281250000 0.040271706879138946533203125000 0.000450650899438187479972839355 -0.002834430430084466934204101562 0 0 0 0 
2402333333.3333334923 0.174933150410652188400106865629 0.039298247545957572246511091407 0.000253644568147137815326136456 -0.002802205039188265800476074219 0 0 0 0 
2402500000.0000000000 0.174866616725921603103799384371 0.038246151059865951538085937500 0.000345559528796002323001307355 -0.002589465118944644927978515625 0 0 0 0 
2402666666.6666665077 0.174285113811492892166299384371 0.037274833768606192851979841407 0.000200830676476471098974505014 -0.002572780009359120888950966943 0 0 0 0 
2402833333.3333334923 0.174109205603599603850994981258 0.035826519131660461425781250000 0.000189350903383456197663983755 -0.002378067234531044960021972656 0 0 0 0 
2403000000.0000000000 0.173825904726982088943643134371 0.034632161259651177143137346093 -0.000001927343191709951921130857 -0.002397227799519896940944052588 0 0 0 0 
2403166666.6666665077 0.173476934432983398437500000000 0.033134534955024719238281250000 0.000142552031320519799559992657 -0.002412130590528250174281454932 0 0 0 0 
2403333333.3333334923 0.172866955399513189117755018742 0.031873565167188637470285783593 -0.000144642632221803096219739371 -0.002414778107777237892150878906 0 0 0 0 
2403500000.0000000000 0.172551274299621609786825615629 0.030166381970047950744628906250 -0.000171250459970906403943738394 -0.002122259698808193206787109375 0 0 0 0 
2403666666.6666665077 0.172048479318618802169638115629 0.028480047360062599182128906250 0.000004936778168485034257173538 -0.002144861966371535821201943506 0 0 0 0 
2403833333.3333334923 0.171845868229866000076455634371 0.026994399726390838623046875000 -0.000000779806384798575891181827 -0.002186888130381702943089150537 0 0 0 0 
2404000000.0000000000 0.171467527747154208084268134371 0.024995351210236549377441406250 0.000094467752205673605203628540 -0.002196871675550938086268759619 0 0 0 0 
2404166666.6666665077 0.171078324317932101150674384371 0.023260133340954780578613281250 -0.000067096108978148549795150757 -0.001944349613040686087367392432 0 0 0 0 
2404333333.3333334923 0.170718982815742492675781250000 0.021403759717941280710240548046 -0.000022072659703553650865351030 -0.002098805038258432908299111475 0 0 0 0 
2404500000.0000000000 0.170347586274147005935830634371 0.019279032945632941509206403907 0.000010369183655711820517676507 -0.002058059209957718849182128906 0 0 0 0 
2404666666.6666665077 0.170289158821106012542401231258 0.017505265772342678415318673046 0.000325802539009600877761840820 -0.002239907858893274827244423975 0 0 0 0 
2404833333.3333334923 0.170020520687103299239950615629 0.015361336059868339193323905079 0.000003119524535577510991369047 -0.002267538104206324057338095557 0 0 0 0 
2405000000.0000000000 0.169883012771606500823651231258 0.013384778983891010284423828125 0.000092688824224751442670822144 -0.002205409109592438177821493994 0 0 0 0 
2405166666.6666665077 0.169792369008064297775106865629 0.011175386607646940403948399023 -0.000090091401943936944007873535 -0.002312877215445042090175009619 0 0 0 0 
2405333333.3333334923 0.169857397675514193435830634371 0.009158267639577388763427734375 0.000056091528676915907044003146 -0.002154604764655231995823525537 0 0 0 0 
2405500000.0000000000 0.169854372739791897872763115629 0.007057421375066041946411132812 -0.000162126976647414294168195181 -0.002327852649614214897155761719 0 0 0 0 
2405666666.6666665077 0.170068889856338500976562500000 0.005126231350004673004150390625 -0.000302017026115208918422144757 -0.002358706668019295172450400244 0 0 0 0 
2405833333.3333334923 0.170285999774932889083700615629 0.003230818314477800889256142725 -0.000288477167487144524424952374 -0.002438856055960059165954589844 0 0 0 0 
2406000000.0000000000 0.170571550726890591720419365629 0.000974337453953921794891357422 -0.000309148017549887299537658691 -0.002336498815566300912144326318 0 0 0 0 
2406166666.6666665077 0.170715436339378412444744981258 -0.001004314981400967077967978369 -0.000552782556042075157165527344 -0.002220108639448881149291992188 0 0 0 0 
2406333333.3333334923 0.171454384922981289962606865629 -0.003076626453548669815063476562 -0.000475932989502325708239954816 -0.002329356502741574807407998193 0 0 0 0 
2406500000.0000000000 0.171715378761291503906250000000 -0.005102251656353473663330078125 -0.000625112035777419805526733398 -0.002315878402441740036010742188 0 0 0 0 
2406666666.6666665077 0.172120749950408907791299384371 -0.006931701675057411193847656250 -0.000742438947781920433044433594 -0.002349925693124533133265829932 0 0 0 0 
2406833333.3333334923 0.172885641455650301834268134371 -0.008885356597602367401123046875 -0.001049111480824648900272988428 -0.002340768231078981919529580225 0 0 0 0 
2407000000.0000000000 0.173579782247543307205361884371 -0.010890554636716839181920235546 -0.000969643297139555215835571289 -0.002283402485772966904881142725 0 0 0 0 
2407166666.6666665077 0.174386009573936490157919365629 -0.012511863373219970357874686329 -0.000973152462393045425415039062 -0.002337743062525988058802939307 0 0 0 0 
2407333333.3333334923 0.175032839179039001464843750000 -0.014534099027514459437360194727 -0.001025251811370253996608115088 -0.002337735611945391134974814307 0 0 0 0 
2407500000.0000000000 0.175670698285102788727130018742 -0.016208015382289889944056326954 -0.001267297426238656044006347656 -0.002248446457087994055507040869 0 0 0 0 
2407666666.6666665077 0.176484644412994412521200615629 -0.017846712842583659780482108204 -0.001361379516310990073560405200 -0.002011096104979515075683593750 0 0 0 0 
2407833333.3333334923 0.177186653017997686188067518742 -0.019577013328671458852747733204 -0.001339829526841640906092978369 -0.001928641693666576905491494287 0 0 0 0 
2408000000.0000000000 0.178150758147239712814169365629 -0.021240269765257838857630545704 -0.001607934245839715003967285156 -0.001968373078852891921997070312 0 0 0 0 
2408166666.6666665077 0.178768604993820190429687500000 -0.022532237693667408334752266796 -0.001431709155440330939051962744 -0.001747629255987704017041850513 0 0 0 0 
2408333333.3333334923 0.179685980081558199783486884371 -0.024001918733119971538503278907 -0.001583781326189636967302631909 -0.001798166777007281997083354419 0 0 0 0 
2408500000.0000000000 0.180194646120071411132812500000 -0.025323292240500450134277343750 -0.001617452711798250892041850513 -0.001718509593047202067134238135 0 0 0 0 
2408666666.6666665077 0.180813565850257901290731865629 -0.026678187772631648672083670704 -0.001477202284149826006648398291 -0.001472349395044147968292236328 0 0 0 0 
2408833333.3333334923 0.181264787912368802169638115629 -0.027855766937136650085449218750 -0.001624322379939258098602294922 -0.001319790026172996001002646338 0 0 0 0 
2409000000.0000000000 0.181789502501487704178018134371 -0.028757803142070770263671875000 -0.001533792004920542023302387769 -0.001307800412178039984462118994 0 0 0 0 
2409166666.6666665077 0.182251334190368707854901231258 -0.029581306502223018300989920704 -0.001572778332047164006474160303 -0.001229748479090631008148193359 0 0 0 0 
2409333333.3333334923 0.182716876268386813064736884371 -0.030334299430251121520996093750 -0.001469718059524893977521586841 -0.001034383196383714892743754810 0 0 0 0 
2409500000.0000000000 0.182956323027610806564169365629 -0.031239071860909458505650704296 -0.001443017390556633906123495947 -0.001004890305921434922459267725 0 0 0 0 
2409666666.6666665077 0.183153718709945706466513115629 -0.031678315252065658569335937500 -0.001456444966606796004651713794 -0.001023269374854862906812358325 0 0 0 0 
2409833333.3333334923 0.183368042111396789550781250000 -0.032206945121288299560546875000 -0.001456378377042710997937846606 -0.001090476289391518072841025244 0 0 0 0 
2410000000.0000000000 0.183618664741516113281250000000 -0.032622270286083221435546875000 -0.001411924953572452068328857422 -0.001083965995348989963531494141 0 0 0 0 
2410166666.6666665077 0.183729961514472989181356865629 -0.032936427742242813110351562500 -0.001422132714651525020599365234 -0.000856093887705355882644653320 0 0 0 0 
2410333333.3333334923 0.183712452650070190429687500000 -0.033309303224086761474609375000 -0.001355125103145838000653911060 -0.000914046133402734994888305664 0 0 0 0 
2410500000.0000000000 0.183669358491897610763388115629 -0.033469133079051971435546875000 -0.001529506873339415030238486182 -0.000705595011822879314422607422 0 0 0 0 
2410666666.6666665077 0.183558642864227294921875000000 -0.033904045820236212993581403907 -0.001348663005046546892878867041 -0.000808170647360384464263916016 0 0 0 0 
2410833333.3333334923 0.183584347367286709884481865629 -0.034075349569320678710937500000 -0.001383735216222704107399965601 -0.000719882140401750802993774414 0 0 0 0 
2411000000.0000000000 0.183182835578918512542401231258 -0.034456476569175720214843750000 -0.001410275581292808055877685547 -0.000650863337796181440353393555 0 0 0 0 
2411166666.6666665077 0.182709217071533203125000000000 -0.034762073308229453350026716407 -0.001343789626844227097154926831 -0.000805696588940918554007375452 0 0 0 0 
2411333333.3333334923 0.182468250393867492675781250000 -0.034933440387248992919921875000 -0.001442753244191407940508198315 -0.000634225842077285051345825195 0 0 0 0 
2411500000.0000000000 0.181834459304809598068075615629 -0.035293810069561011577565778907 -0.001204666681587696075439453125 -0.000680699071381241083145141602 0 0 0 0 
2411666666.6666665077 0.181509941816330011565838731258 -0.035634003579616546630859375000 -0.001297687995247543074964213794 -0.000510399113409221172332763672 0 0 0 0 
2411833333.3333334923 0.180603832006454495529013115629 -0.035791356116533279418945312500 -0.001436122809536755084991455078 -0.000429007603088393807411193848 0 0 0 0 
2412000000.0000000000 0.179800763726234408279580634371 -0.036446027457714080810546875000 -0.001322263968177139975904155200 -0.000552884594071656465530395508 0 0 0 0 
2412166666.6666665077 0.178938657045364407638388115629 -0.036818508058786392211914062500 -0.001293026027269660992863320459 -0.000346503336913883686065673828 0 0 0 0 
2412333333.3333334923 0.178070589900016812423544365629 -0.037349957972764968872070312500 -0.001120356260798871950862265479 -0.000446891091996803879737854004 0 0 0 0 
2412500000.0000000000 0.176835536956787109375000000000 -0.037950467318296432495117187500 -0.001185925328172743103624653394 -0.000371597387129440903663635254 0 0 0 0 
2412666666.6666665077 0.175918430089950589279013115629 -0.038956142961978912353515625000 -0.001199853722937404892565083081 -0.000430425046943128108978271484 0 0 0 0 
2412833333.3333334923 0.174863338470459012130575615629 -0.039422392845153808593750000000 -0.001009585801512002944946289062 -0.000236630745348520604058942252 0 0 0 0 
2413000000.0000000000 0.173546195030212402343750000000 -0.040248081088066101074218750000 -0.000855814723763614892959594727 -0.000199295362108387107222956525 0 0 0 0 
2413166666.6666665077 0.172106683254241887848223768742 -0.041127461940050132060964216407 -0.000677812728099524974822998047 -0.000320993771310895681381225586 0 0 0 0 
2413333333.3333334923 0.170821785926818903167401231258 -0.042015153914690017700195312500 -0.000714733789209276437759399414 -0.000223599228775128695085802621 0 0 0 0 
2413500000.0000000000 0.169555798172950689117755018742 -0.042887505143880837177317033593 -0.000500545604154467582702636719 -0.000405565748224034905433654785 0 0 0 0 
2413666666.6666665077 0.168386042118072509765625000000 -0.044208399951457977294921875000 -0.000381156249204650521278381348 -0.000424441182985901778370457782 0 0 0 0 
2413833333.3333334923 0.167039707303047207931356865629 -0.045271780341863632202148437500 -0.000471938808914273977279663086 -0.000512142491061240434646606445 0 0 0 0 
2414000000.0000000000 0.165601924061775207519531250000 -0.046671599149703979492187500000 -0.000341766717610880678326207294 -0.000488647667225450277328491211 0 0 0 0 
2414166666.6666665077 0.164586618542671203613281250000 -0.047673616558313369750976562500 -0.000261776876868680119514465332 -0.000764381780754774808883666992 0 0 0 0 
2414333333.3333334923 0.163281098008155794998330634371 -0.049318276345729827880859375000 -0.000213386301766149699687957764 -0.000734530854970216751098632812 0 0 0 0 
2414500000.0000000000 0.162183150649070711990518134371 -0.050767112523317337036132812500 -0.000190975508303381502628326416 -0.000949975510593503713607788086 0 0 0 0 
2414666666.6666665077 0.160988435149192810058593750000 -0.052294362336397171020507812500 -0.000036853649362456046719143526 -0.001017718226648866913439106519 0 0 0 0 
2414833333.3333334923 0.159977108240127591232138115629 -0.053982619196176528930664062500 -0.000225105977733619511127471924 -0.001463027205318212942836142432 0 0 0 0 
2415000000.0000000000 0.158906981348991394042968750000 -0.055624455213546752929687500000 -0.000108461936179082800023494582 -0.001411466277204453945159912109 0 0 0 0 
2415166666.6666665077 0.157937154173851013183593750000 -0.057414699345827102661132812500 -0.000263737078057602102130335675 -0.001658762339502573013305664062 0 0 0 0 
2415333333.3333334923 0.157404065132141113281250000000 -0.059317763894796371459960937500 -0.000488509424030780792236328125 -0.001837973715737462043762207031 0 0 0 0 
2415500000.0000000000 0.156421393156051607986611884371 -0.061086453497409820556640625000 -0.000465084362076595425605773926 -0.001817376120015979030011821216 0 0 0 0 
2415666666.6666665077 0.155561849474906893631143134371 -0.063057944178581237792968750000 -0.000580284919124096632003784180 -0.001911224913783371014835976709 0 0 0 0 
2415833333.3333334923 0.155133247375488309005575615629 -0.065032429993152618408203125000 -0.000920205900911241769790649414 -0.002111829817295074896571493994 0 0 0 0 
2416000000.0000000000 0.154408380389213589767294365629 -0.067136794328689575195312500000 -0.000931231479626148939132690430 -0.002150825923308730125427246094 0 0 0 0 
2416166666.6666665077 0.154037088155746487716513115629 -0.069110721349716186523437500000 -0.001207529567182064056396484375 -0.002342385239899158911464072119 0 0 0 0 
2416333333.3333334923 0.153672635555267306228799384371 -0.071017794311046600341796875000 -0.001313409418798983097076416016 -0.002484270138666034178492880713 0 0 0 0 
2416500000.0000000000 0.153221875429153386871661268742 -0.072981968522071838378906250000 -0.001349915750324726104736328125 -0.002447221660986543135402060400 0 0 0 0 
2416666666.6666665077 0.152807876467704800704794365629 -0.074896469712257385253906250000 -0.001620598253794015104409242944 -0.002378416713327168984654091943 0 0 0 0 
2416833333.3333334923 0.152669355273246792892294365629 -0.077002353966236114501953125000 -0.001885287580080329938175820459 -0.002427325583994389014003134619 0 0 0 0 
2417000000.0000000000 0.152281075716018704513388115629 -0.078954502940177917480468750000 -0.002039391780272126197814941406 -0.002383394166827201843261718750 0 0 0 0 
2417166666.6666665077 0.152241274714469909667968750000 -0.080675899982452392578125000000 -0.002486807294189929962158203125 -0.002359533682465552850010537256 0 0 0 0 
2417333333.3333334923 0.152233690023422213455361884371 -0.082399830222129821777343750000 -0.002670076908543705940246582031 -0.002354939468204975128173828125 0 0 0 0 
2417500000.0000000000 0.152111098170280512054119981258 -0.084300741553306579589843750000 -0.002810323145240544839146279443 -0.002229991601780056953430175781 0 0 0 0 
2417666666.6666665077 0.152299717068672207931356865629 -0.085771717131137847900390625000 -0.003052751533687115149257040869 -0.002155186142772436141967773438 0 0 0 0 
2417833333.3333334923 0.152273550629615811446981865629 -0.087386317551136016845703125000 -0.003304024692624806924107216943 -0.002094553317874670028686523438 0 0 0 0 
2418000000.0000000000 0.152308091521263094803018134371 -0.088889881968498229980468750000 -0.003281314624473453001735068213 -0.002060829428955913023707724463 0 0 0 0 
2418166666.6666665077 0.152491956949234008789062500000 -0.090081840753555297851562500000 -0.003662631846964358849766396631 -0.001612264662981033108354878003 0 0 0 0 
2418333333.3333334923 0.152719736099243191818075615629 -0.091504670679569244384765625000 -0.003749736817553638978245400537 -0.001511195907369256019592285156 0 0 0 0 
2418500000.0000000000 0.152810335159301813323651231258 -0.092481568455696105957031250000 -0.003964104223996400833129882812 -0.001345275901257992007611918872 0 0 0 0 
2418666666.6666665077 0.153106153011321993728799384371 -0.093479268252849578857421875000 -0.004099701996892690658569335938 -0.001159040257334708950640034253 0 0 0 0 
2418833333.3333334923 0.153217107057571411132812500000 -0.094402544200420379638671875000 -0.004183506127446889877319335938 -0.000953049748204648494720458984 0 0 0 0 
2419000000.0000000000 0.153260946273803710937500000000 -0.095071069896221160888671875000 -0.004170512780547142028808593750 -0.000782450544647872447967529297 0 0 0 0 
2419166666.6666665077 0.153614804148674011230468750000 -0.095780782401561737060546875000 -0.004410826135426759719848632812 -0.000646947999484837055206298828 0 0 0 0 
2419333333.3333334923 0.153514131903648404220419365629 -0.096099644899368286132812500000 -0.004416136071085929870605468750 -0.000230959500186145305633544922 0 0 0 0 
2419500000.0000000000 0.154011875391006497482138115629 -0.096764273941516876220703125000 -0.004499655216932296752929687500 -0.000153804488945752409383496695 0 0 0 0 
2419666666.6666665077 0.154308423399925204178018134371 -0.096918836236000061035156250000 -0.004416645970195531845092773438 0.000161505173309706205695551740 0 0 0 0 
2419833333.3333334923 0.154226541519165011306924384371 -0.097070142626762390136718750000 -0.004300233442336320877075195312 0.000427669496275484616130274640 0 0 0 0 
