# Hz S RI R 
2400000000.0000000000 0.173738986253738403320312500000 0.049497287720441818237304687500 0.001895734341815114021301269531 -0.002470914972946048216578818213 0 0 0 0 
2400166666.6666665077 0.174267485737800598144531250000 0.048984635621309280395507812500 0.001877058064565062956569052588 -0.002705344231799244880676269531 0 0 0 0 
2400333333.3333334923 0.174427077174186706542968750000 0.048070527613162987445871721093 0.001736232079565525054931640625 -0.002788117853924632072448730469 0 0 0 0 
2400500000.0000000000 0.174897745251655606368856865629 0.047542057931423187255859375000 0.001515361713245511054992675781 -0.002699651988223195075988769531 0 0 0 0 
2400666666.6666665077 0.175297617912292508224325615629 0.046689849346876137470285783593 0.001551161520183085961582802881 -0.002966689644381403923034667969 0 0 0 0 
2400833333.3333334923 0.175577998161315890213174384371 0.046150173991918556903879533593 0.001386086223646997971775673975 -0.003004704136401414871215820312 0 0 0 0 
2401000000.0000000000 0.175689980387687710861044365629 0.045640699565410607074777971093 0.001234818482771516063092875903 -0.002869220916181803183314658057 0 0 0 0 
2401166666.6666665077 0.175740599632263211349325615629 0.044821072369813919067382812500 0.001135625643655657985089946216 -0.002998945536091924147364951025 0 0 0 0 
2401333333.3333334923 0.175741881132125910003338731258 0.044312048703432083129882812500 0.001016785274259746074676513672 -0.002897980157285929159877158057 0 0 0 0 
2401500000.0000000000 0.175786882638931302169638115629 0.043460205197334289550781250000 0.000966631690971553325653076172 -0.002828710246831179098842001807 0 0 0 0 
2401666666.6666665077 0.175839573144912691970986884371 0.042918574064970023418386091407 0.000759193149860948324203491211 -0.003001692704856396155116415869 0 0 0 0 
2401833333.3333334923 0.175749883055687006194744981258 0.042026113718748092651367187500 0.000608250906225293874740600586 -0.002841787878423929214477539062 0 0 0 0 
2402000000.0000000000 0.175130903720855712890625000000 0.041229035705327987670898437500 0.000458681926829740405082702637 -0.002896430436521769003627158057 0 0 0 0 
2402166666.6666665077 0.175061091780662508865518134371 0.040151041001081466674804687500 0.000450966268545016700595301495 -0.002974752569571136994602822412 0 0 0 0 
2402333333.3333334923 0.174802869558334406097088731258 0.039124391973018653179128278907 0.000176922490936704007074078970 -0.002927210181951522827148437500 0 0 0 0 
2402500000.0000000000 0.174889355897903386871661268742 0.038256555795669562602956403907 0.000264992355369031375080662860 -0.002720947610214353041407919775 0 0 0 0 
2402666666.6666665077 0.174257844686508206466513115629 0.037091564387083046649973283593 0.000232326579862274202421465463 -0.002548214280977845191955566406 0 0 0 0 
2402833333.3333334923 0.174063727259635897537393134371 0.035828202962875373149831403907 0.000207977529498748508378705435 -0.002564290305599569840672158350 0 0 0 0 
2403000000.0000000000 0.173707485198974609375000000000 0.034494128078222281719167341407 -0.000021203137293923649599755935 -0.002470698906108736991882324219 0 0 0 0 
2403166666.6666665077 0.173386469483375604827557481258 0.033185239881277077411692033593 -0.000017855287296697500755990676 -0.002256962703540921211242675781 0 0 0 0 
2403333333.3333334923 0.173039242625236511230468750000 0.031818691641092300415039062500 -0.000070484318712260574102401733 -0.002288299147039651870727539062 0 0 0 0 
2403500000.0000000000 0.172580063343048095703125000000 0.030125072225928310049036795704 0.000061047219787724316120147705 -0.002421807497739791870117187500 0 0 0 0 
2403666666.6666665077 0.172133058309555109222088731258 0.028413560241460800170898437500 -0.000081350059190299361944198608 -0.002151040593162178993225097656 0 0 0 0 
2403833333.3333334923 0.171915322542190607268963731258 0.026699787005782130849818045704 0.000081657315604388713836669922 -0.002161368029192090034484863281 0 0 0 0 
2404000000.0000000000 0.171442642807960510253906250000 0.025006363168358799325963204296 -0.000006308539468591334298253059 -0.002263912232592701911926269531 0 0 0 0 
2404166666.6666665077 0.171118840575218200683593750000 0.023205051198601719247838204296 0.000016895384760573509743417434 -0.002110041212290525002720498193 0 0 0 0 
2404333333.3333334923 0.170652076601982088943643134371 0.021336836740374568593958670704 0.000042072584619745612144470215 -0.002086653374135493798496865381 0 0 0 0 
2404500000.0000000000 0.170229285955429104904013115629 0.019267192110419269907017891796 -0.000114089503767900196000775748 -0.002187445061281322999241494287 0 0 0 0 
2404666666.6666665077 0.170050993561744689941406250000 0.017345080152153968811035156250 0.000026033203539554961025714874 -0.002071260008960961861851357568 0 0 0 0 
2404833333.3333334923 0.170031920075416592696981865629 0.015225800685584550339668474805 0.000064216874307021498680114746 -0.002169039333239198164698935400 0 0 0 0 
2405000000.0000000000 0.169777631759643610198651231258 0.013291895389556889969795427930 -0.000060020804085070267319679260 -0.002169403014704585075378417969 0 0 0 0 
2405166666.6666665077 0.169831961393356295486611884371 0.011096999049186710012415701954 0.000003863308393192710354924202 -0.002400310244411230087280273438 0 0 0 0 
2405333333.3333334923 0.169802516698837308029013115629 0.009088250808417797088623046875 -0.000130214320961385992452344351 -0.002238786779344081878662109375 0 0 0 0 
2405500000.0000000000 0.169894531369209289550781250000 0.007147353608161211013793945312 0.000040730068576522171497344971 -0.002373104216530919075012207031 0 0 0 0 
2405666666.6666665077 0.170066654682159396072549384371 0.005116817541420459747314453125 -0.000104970364191103699520388193 -0.002328488742932676835301064600 0 0 0 0 
2405833333.3333334923 0.170073926448821993728799384371 0.002993879141286015944239951025 -0.000278268969850614721148890363 -0.002301319269463419914245605469 0 0 0 0 
2406000000.0000000000 0.170523479580879211425781250000 0.000833058264106512069702148438 -0.000381280900910496711730957031 -0.002444952726364136175868368994 0 0 0 0 
2406166666.6666665077 0.170756027102470397949218750000 -0.000852171913720667362213134766 -0.000453948217909783124923706055 -0.002409600885584950013401650537 0 0 0 0 
2406333333.3333334923 0.171306356787681607345419365629 -0.003068106481805444197413779150 -0.000610454648267477750778198242 -0.002402636688202619986293173682 0 0 0 0 
2406500000.0000000000 0.171727135777473505218182481258 -0.005161342676728963851928710938 -0.000691655150149017572402954102 -0.002578169573098421096801757812 0 0 0 0 
2406666666.6666665077 0.172021582722663907150106865629 -0.007067613769322633743286132812 -0.000806118943728506565093994141 -0.002420850563794374899623251807 0 0 0 0 
2406833333.3333334923 0.172781452536583002288494981258 -0.009109467267990112304687500000 -0.000792317558079957962036132812 -0.002515068976208568053004599463 0 0 0 0 
2407000000.0000000000 0.173479855060577392578125000000 -0.010946230962872510392158709180 -0.000918833538889884948730468750 -0.002365746069699525833129882812 0 0 0 0 
2407166666.6666665077 0.174340412020683288574218750000 -0.012585400603711610276191912305 -0.001035606605000793933868408203 -0.002229113364592194990870810400 0 0 0 0 
2407333333.3333334923 0.174983605742454501053018134371 -0.014645662158727649343470389454 -0.001075236476026474995854043115 -0.002266783267259598212001181494 0 0 0 0 
2407500000.0000000000 0.175702303647994995117187500000 -0.016255374997854229318638985546 -0.001170671544969082095502543872 -0.002103535691276193098780966650 0 0 0 0 
2407666666.6666665077 0.176530152559280395507812500000 -0.017809592187404629098912423046 -0.001368378521874547004699707031 -0.002093075774610043005702353369 0 0 0 0 
2407833333.3333334923 0.177169844508171109298544365629 -0.019695566967129710805872733204 -0.001369023812003433921216655200 -0.001999069470912218093872070312 0 0 0 0 
2408000000.0000000000 0.178107529878616305252236884371 -0.021289240568876269948939139454 -0.001555227325297892093658447266 -0.001910640858113765933393168872 0 0 0 0 
2408166666.6666665077 0.178689792752265902420205634371 -0.022643325850367549550989920704 -0.001757772988639771938323974609 -0.001922748982906341986415243994 0 0 0 0 
2408333333.3333334923 0.179626151919364901443643134371 -0.024017330259084701538085937500 -0.001692111836746335029602050781 -0.001689982716925442001940083081 0 0 0 0 
2408500000.0000000000 0.180113598704338101486044365629 -0.025453237816691398620605468750 -0.001632489962503314018249511719 -0.001456183148548007011413574219 0 0 0 0 
2408666666.6666665077 0.180782571434974698165731865629 -0.026683203876018520700474923046 -0.001691650482825935103772807544 -0.001441060681827365918400429834 0 0 0 0 
2408833333.3333334923 0.181201770901679992675781250000 -0.027890155091881748544713204296 -0.001658070599660276932957314600 -0.001643093419261276938794780200 0 0 0 0 
2409000000.0000000000 0.181633591651916503906250000000 -0.028819035738706588745117187500 -0.001576493494212626977207802881 -0.001228887937031686089159321362 0 0 0 0 
2409166666.6666665077 0.182071983814239501953125000000 -0.029839048162102699279785156250 -0.001619685557670891068102192456 -0.001261023222468792958500527490 0 0 0 0 
2409333333.3333334923 0.182642370462417602539062500000 -0.030699873343110091472585310157 -0.001567368395626544952392578125 -0.001160464365966618061065673828 0 0 0 0 
2409500000.0000000000 0.182857125997543307205361884371 -0.031277056783437728881835937500 -0.001426311093382536931278847803 -0.001031984691508113904240273584 0 0 0 0 
2409666666.6666665077 0.182961106300354003906250000000 -0.031914412975311279296875000000 -0.001488771638832985921147011865 -0.001100497669540346102473593604 0 0 0 0 
2409833333.3333334923 0.183423638343811007400674384371 -0.032338187098503112792968750000 -0.001481211627833544991136860425 -0.000926231849007308483123779297 0 0 0 0 
2410000000.0000000000 0.183434680104255704025106865629 -0.032659590244293212890625000000 -0.001487160450778902010676718604 -0.000889485410880297422409057617 0 0 0 0 
2410166666.6666665077 0.183733806014061001876669365629 -0.033104896545410163188893903907 -0.001416127197444438934326171875 -0.000884386303368955850601196289 0 0 0 0 
2410333333.3333334923 0.183670148253440912444744981258 -0.033370885998010642314870466407 -0.001508452929556369998334575122 -0.000794923224020749330520629883 0 0 0 0 
2410500000.0000000000 0.183822646737098693847656250000 -0.033669240772724151611328125000 -0.001474050804972649054286337744 -0.000624286185484379529953002930 0 0 0 0 
2410666666.6666665077 0.183455362915992709060830634371 -0.034053251147270202636718750000 -0.001460605417378247001050639575 -0.000599042279645800590515136719 0 0 0 0 
2410833333.3333334923 0.183411225676536587814169365629 -0.034128580242395401000976562500 -0.001545113627798855087877583081 -0.000652166199870407581329345703 0 0 0 0 
2411000000.0000000000 0.183219283819198608398437500000 -0.034475561231374740600585937500 -0.001182322972454131083247519385 -0.000690541521180421113967895508 0 0 0 0 
2411166666.6666665077 0.182715982198715209960937500000 -0.034686140716075897216796875000 -0.001207197434268892028211284106 -0.000569572031963616609573364258 0 0 0 0 
2411333333.3333334923 0.182418361306190490722656250000 -0.035056814551353461528737653907 -0.001420786837115884044049907153 -0.000601660402026027441024780273 0 0 0 0 
2411500000.0000000000 0.181840151548385592361611884371 -0.035544786602258682250976562500 -0.001291234162636101029039692456 -0.000490173115395009517669677734 0 0 0 0 
2411666666.6666665077 0.181289613246917696853799384371 -0.035706978291273117065429687500 -0.001351803308352828025817871094 -0.000440011150203645175129490985 0 0 0 0 
2411833333.3333334923 0.180711939930915804763955634371 -0.035846550017595291137695312500 -0.001276489463634788990020751953 -0.000465034361695870811313074933 0 0 0 0 
2412000000.0000000000 0.179878532886505099197549384371 -0.036528445780277252197265625000 -0.001336262212134897925733256763 -0.000502245267853140830993652344 0 0 0 0 
2412166666.6666665077 0.178847089409828213790731865629 -0.037019871175289147113840471093 -0.001313740736804902987239218604 -0.000471807754365727305412292480 0 0 0 0 
2412333333.3333334923 0.178113535046577509124432481258 -0.037368837743997566913645158593 -0.001352040912024677016614604419 -0.000462685333332046920627039777 0 0 0 0 
2412500000.0000000000 0.176835149526596097091513115629 -0.037896592170000083232839216407 -0.001242192345671355941175151294 -0.000331279938109219074249267578 0 0 0 0 
2412666666.6666665077 0.175879836082458496093750000000 -0.038838762789964682842214216407 -0.001193336327560245990753173828 -0.000275043625151738524436950684 0 0 0 0 
2412833333.3333334923 0.174649640917777987381143134371 -0.039485298097133643413503278907 -0.001163504202850162982940673828 -0.000284669338725507313579005109 0 0 0 0 
2413000000.0000000000 0.173399642109870910644531250000 -0.040142931044101722026784528907 -0.000897016027010977268218994141 -0.000148408304085023701190948486 0 0 0 0 
2413166666.6666665077 0.172172456979751586914062500000 -0.041102860122919082641601562500 -0.000939020712394267320632934570 -0.000142708391649648601382655011 0 0 0 0 
2413333333.3333334923 0.170809760689735412597656250000 -0.041912265121936798095703125000 -0.000698660209309309720993041992 -0.000176059664227068397119799203 0 0 0 0 
2413500000.0000000000 0.169510051608085604568643134371 -0.042976170778274543071706403907 -0.000687595398630946874618530273 -0.000104777020169422003343859262 0 0 0 0 
2413666666.6666665077 0.168291434645652798751669365629 -0.044107060879468917846679687500 -0.000516859989147633314132690430 -0.000339927471941336989402770996 0 0 0 0 
2413833333.3333334923 0.166885420680046109298544365629 -0.045350130647420883178710937500 -0.000461809308035299181938171387 -0.000223867333261296207278651105 0 0 0 0 
2414000000.0000000000 0.165501669049263000488281250000 -0.046657510101795196533203125000 -0.000273829617071896791458129883 -0.000509431760292500257492065430 0 0 0 0 
2414166666.6666665077 0.164381727576255798339843750000 -0.047996204346418380737304687500 -0.000388614949770271778106689453 -0.000614188262261450290679931641 0 0 0 0 
2414333333.3333334923 0.163302734494209289550781250000 -0.049440685659646987915039062500 -0.000210773185244761407375335693 -0.000777035835199058055877685547 0 0 0 0 
2414500000.0000000000 0.162284478545188903808593750000 -0.050702091306447982788085937500 -0.000325924513163045102923792706 -0.000732611166313290596008300781 0 0 0 0 
2414666666.6666665077 0.160968929529190091232138115629 -0.052269261330366141582448591407 -0.000227622658712789389208117075 -0.001012635533697902939440083081 0 0 0 0 
2414833333.3333334923 0.159929871559143094161825615629 -0.054104611277580261230468750000 -0.000180301241925917592927655630 -0.001207752269692718982696533203 0 0 0 0 
2415000000.0000000000 0.158890560269355801681356865629 -0.055685233324766159057617187500 -0.000230650141020305508941096173 -0.001434034202247858047485351562 0 0 0 0 
2415166666.6666665077 0.157876893877983093261718750000 -0.057480052113533020019531250000 -0.000309318886138498783111572266 -0.001579020172357558987261128003 0 0 0 0 
2415333333.3333334923 0.157194882631301907638388115629 -0.059357073158025741577148437500 -0.000400635239202529191970825195 -0.001648144680075346989872597803 0 0 0 0 
2415500000.0000000000 0.156276255846023587325888115629 -0.061153948307037346576731096093 -0.000550354539882391691207885742 -0.001915626111440360979792929541 0 0 0 0 
2415666666.6666665077 0.155623123049735995193643134371 -0.063057281076908111572265625000 -0.000656520249322056770324707031 -0.001871990971267222924473427881 0 0 0 0 
2415833333.3333334923 0.155002251267433194259481865629 -0.065154947340488433837890625000 -0.000779845810029655694961547852 -0.002130015753209590911865234375 0 0 0 0 
2416000000.0000000000 0.154217422008514404296875000000 -0.066981308162212371826171875000 -0.000878085033036768436431884766 -0.002112469868734478950500488281 0 0 0 0 
2416166666.6666665077 0.154065445065498407561932481258 -0.069046661257743835449218750000 -0.001115278340876102013828896631 -0.002265397692099214033839560400 0 0 0 0 
2416333333.3333334923 0.153446823358535794357138115629 -0.070960082113742828369140625000 -0.001343998243100940964342426831 -0.002368460642173885865452431787 0 0 0 0 
2416500000.0000000000 0.153085857629776000976562500000 -0.072970263659954071044921875000 -0.001389509881846606948255229419 -0.002398960990831255912780761719 0 0 0 0 
2416666666.6666665077 0.152669325470924405196981865629 -0.074964344501495361328125000000 -0.001617818954400717995287251050 -0.002443483797833323912379599463 0 0 0 0 
2416833333.3333334923 0.152664333581924410720986884371 -0.077051907777786254882812500000 -0.001875451183877884907963418115 -0.002396269934251904921290732275 0 0 0 0 
2417000000.0000000000 0.152198731899261502364950615629 -0.078895583748817443847656250000 -0.002177383750677109198329306494 -0.002412160625681281089782714844 0 0 0 0 
2417166666.6666665077 0.152159258723258999923544365629 -0.080752089619636535644531250000 -0.002477322472259401841404580225 -0.002353121060878037972691201318 0 0 0 0 
2417333333.3333334923 0.152160838246345492263955634371 -0.082505188882350921630859375000 -0.002552663907408713860752724756 -0.002284756395965815024134970557 0 0 0 0 
2417500000.0000000000 0.152013674378395108321981865629 -0.084297269582748413085937500000 -0.002770299790427089171168661963 -0.002231437945738434791564941406 0 0 0 0 
2417666666.6666665077 0.152203455567359896560830634371 -0.085896268486976623535156250000 -0.002934458898380399183986044775 -0.002245224313810468153712607275 0 0 0 0 
2417833333.3333334923 0.152251541614532498458700615629 -0.087317995727062225341796875000 -0.003048269310966134071350097656 -0.002008759183809161186218261719 0 0 0 0 
2418000000.0000000000 0.152339160442352294921875000000 -0.088904172182083129882812500000 -0.003525421954691410064697265625 -0.001812768052332103035570454175 0 0 0 0 
2418166666.6666665077 0.152328506112098693847656250000 -0.090059675276279449462890625000 -0.003703774884343146844151162256 -0.001770498463883996009826660156 0 0 0 0 
2418333333.3333334923 0.152696356177329989334268134371 -0.091386429965496063232421875000 -0.003765832167118788199183798682 -0.001449750736355781988856650244 0 0 0 0 
2418500000.0000000000 0.152837008237838800628338731258 -0.092531271278858184814453125000 -0.003881013486534357070922851562 -0.001404134440235794024226523291 0 0 0 0 
2418666666.6666665077 0.153083637356758089920205634371 -0.093547612428665161132812500000 -0.004068328533321619033813476562 -0.001116442959755659103393554688 0 0 0 0 
2418833333.3333334923 0.153098538517951993087606865629 -0.094475254416465759277343750000 -0.004177503287792205810546875000 -0.000950462650507688522338867188 0 0 0 0 
2419000000.0000000000 0.153430864214897211272869981258 -0.095114856958389282226562500000 -0.004196722060441970825195312500 -0.000657860015053302049636840820 0 0 0 0 
2419166666.6666665077 0.153446048498153686523437500000 -0.095759525895118713378906250000 -0.004297690931707620620727539062 -0.000551889184862375259399414062 0 0 0 0 
2419333333.3333334923 0.153633922338485690017861884371 -0.096157655119895935058593750000 -0.004295790567994117736816406250 -0.000371438305592164397239685059 0 0 0 0 
2419500000.0000000000 0.153916165232658386230468750000 -0.096829310059547424316406250000 -0.004538798239082098007202148438 0.000039455891965189948678016663 0 0 0 0 
2419666666.6666665077 0.154164895415306091308593750000 -0.097079165279865264892578125000 -0.004371042363345623016357421875 0.000183528129127807888105669565 0 0 0 0 
2419833333.3333334923 0.154190331697463989257812500000 -0.097129501402378082275390625000 -0.004288980737328529357910156250 0.000300894054817035794258117676 0 0 0 0 
