# Hz S RI R 
2400000000.0000000000 0.173250228166580200195312500000 0.049787476658821112895925153907 0.006567304022610188397879316113 0.002025175374001265005824423682 0 0 0 0 
2400166666.6666665077 0.173919543623924310882244981258 0.049224596470594413066823591407 0.006642691325396299362182617188 0.001683914335444570021388388525 0 0 0 0 
2400333333.3333334923 0.174317702651023892501669365629 0.048386730253696441650390625000 0.006711269728839397430419921875 0.001222100574523210959193564307 0 0 0 0 
2400500000.0000000000 0.174673467874527005294638115629 0.047904614359140403057057966407 0.006552008911967278394217206738 0.000921158003620803356170654297 0 0 0 0 
2400666666.6666665077 0.174969986081123407561932481258 0.047038517892360687255859375000 0.006672931369394063949584960938 0.000572734803427010774612426758 0 0 0 0 
2400833333.3333334923 0.175280496478080805022869981258 0.046643219888210296630859375000 0.006655236706137657165527343750 0.000238954293308779597282409668 0 0 0 0 
2401000000.0000000000 0.175185754895210293868856865629 0.045897107571363449096679687500 0.006549444515258073806762695312 -0.000043821364670293412428309782 0 0 0 0 
2401166666.6666665077 0.175505802035331698318643134371 0.045193359255790710449218750000 0.006458826363086699572091387012 -0.000330447306623682379722595215 0 0 0 0 
2401333333.3333334923 0.175336256623268099685830634371 0.044482965022325522685964216407 0.006228578742593526840209960938 -0.000718974741175770759582519531 0 0 0 0 
2401500000.0000000000 0.175569638609886197189169365629 0.043696224689483642578125000000 0.006219953298568725585937500000 -0.001185016357339919047114706885 0 0 0 0 
2401666666.6666665077 0.175404250621795709808026231258 0.043179214000701897357981096093 0.006053371354937553405761718750 -0.001418085070326924107195210034 0 0 0 0 
2401833333.3333334923 0.175333023071289090255575615629 0.042350232601165771484375000000 0.005639638751745223999023437500 -0.001810892252251506068586039966 0 0 0 0 
2402000000.0000000000 0.175113096833229092696981865629 0.041480656713247299194335937500 0.005633911583572626113891601562 -0.002138539217412472204921103369 0 0 0 0 
2402166666.6666665077 0.174907118082046508789062500000 0.040383815765380859375000000000 0.005311417859047651290893554688 -0.002408536151051520867588662256 0 0 0 0 
2402333333.3333334923 0.174617871642112704178018134371 0.039620433002710342407226562500 0.004883601330220699310302734375 -0.002730451058596373038050986182 0 0 0 0 
2402500000.0000000000 0.174702107906341608245526231258 0.038440901786088936542551408593 0.004535007756203413009643554688 -0.002847822383046150207519531250 0 0 0 0 
2402666666.6666665077 0.174207240343093899825888115629 0.037544064223766326904296875000 0.004363875836133956909179687500 -0.003071764949709177017211914062 0 0 0 0 
2402833333.3333334923 0.173914730548858587066973768742 0.036234118044376373291015625000 0.003744558664038776917698525537 -0.003188752336427568955662392725 0 0 0 0 
2403000000.0000000000 0.173681870102882413009481865629 0.034865904599428176879882812500 0.003449573181569575829746865381 -0.003371958155184984207153320312 0 0 0 0 
2403166666.6666665077 0.173256069421768188476562500000 0.033450447022914893413503278907 0.003133655758574604988098144531 -0.003413274418562651114222861182 0 0 0 0 
2403333333.3333334923 0.173012509942054804046307481258 0.031900800764560699462890625000 0.002687858184799551963806152344 -0.003440340980887413024902343750 0 0 0 0 
2403500000.0000000000 0.172530457377433804611044365629 0.030598048120737079275111014454 0.002365854801610112190246582031 -0.003155429847538470788242959131 0 0 0 0 
2403666666.6666665077 0.172262743115425109863281250000 0.028829984366893768310546875000 0.002009253250434995131251669775 -0.003071213606745005087611533057 0 0 0 0 
2403833333.3333334923 0.171901702880859402755575615629 0.026871634647250178945521170704 0.001560340402647852897644042969 -0.002860523061826825141906738281 0 0 0 0 
2404000000.0000000000 0.171487644314765902420205634371 0.025217713788151741027832031250 0.001383669208735228018519736182 -0.002675222698599100112915039062 0 0 0 0 
2404166666.6666665077 0.171247631311416598220986884371 0.023343885317444801330566406250 0.001057279529049992995021201025 -0.002601399086415768103358603369 0 0 0 0 
2404333333.3333334923 0.170875787734985407073651231258 0.021656244993209838867187500000 0.000838994979858398437500000000 -0.002272844314575194878819131006 0 0 0 0 
2404500000.0000000000 0.170512676239013699630575615629 0.019510734826326370239257812500 0.000888272072188556194305419922 -0.001755248638801276900647807544 0 0 0 0 
2404666666.6666665077 0.170211091637611389160156250000 0.017575068399310108530064766796 0.000886889523826539516448974609 -0.001731664873659610965131450122 0 0 0 0 
2404833333.3333334923 0.170114189386367797851562500000 0.015436272136867049825648123829 0.000634691212326288223266601562 -0.001313451910391449928283691406 0 0 0 0 
2405000000.0000000000 0.169996827840805109222088731258 0.013385874219238759821881679102 0.000790063058957457542419433594 -0.000934534822590649127960205078 0 0 0 0 
2405166666.6666665077 0.169921189546585110763388115629 0.011471066623926159250279610546 0.000783055380452424287796020508 -0.000971282017417252063751220703 0 0 0 0 
2405333333.3333334923 0.169982254505157498458700615629 0.009325910359621047973632812500 0.000773261708673089742660522461 -0.000597924692556262016296386719 0 0 0 0 
2405500000.0000000000 0.170156344771385192871093750000 0.007232632953673601150512695312 0.001014122390188276984571147388 -0.000236615000176243511125287466 0 0 0 0 
2405666666.6666665077 0.170172438025474603850994981258 0.005260469391942024230957031250 0.001006439328193664984462118994 -0.000147230137372389408663073129 0 0 0 0 
2405833333.3333334923 0.170213073492050198654013115629 0.003258146811276673836949013818 0.001296357833780348084093403394 -0.000055035063269315287470817566 0 0 0 0 
2406000000.0000000000 0.170718982815742492675781250000 0.001035596593283117034314799731 0.001312928041443228938459086841 0.000229024211876094287067967548 0 0 0 0 
2406166666.6666665077 0.170926973223686190506143134371 -0.000868825940415263175964355469 0.001478244666941463947296142578 0.000369570159818977117538452148 0 0 0 0 
2406333333.3333334923 0.171521171927452087402343750000 -0.002996906405314803123474121094 0.001760617713443934917449951172 0.000389721506508067304461878644 0 0 0 0 
2406500000.0000000000 0.171898186206817599197549384371 -0.004868529736995697021484375000 0.001940591377206146933911967700 0.000561310909688472747802734375 0 0 0 0 
2406666666.6666665077 0.172206297516822787185830634371 -0.006781419739127159118652343750 0.002417030977085233168361044775 0.000568599964026361703872680664 0 0 0 0 
2406833333.3333334923 0.172951996326446505447549384371 -0.008808718062937259674072265625 0.002430851804092526002171181787 0.000596369849517941474914550781 0 0 0 0 
2407000000.0000000000 0.173615336418151910979901231258 -0.010720758698880670720110508398 0.002645082771778107123133993994 0.000526851334143429994583129883 0 0 0 0 
2407166666.6666665077 0.174328878521919305999432481258 -0.012394169345498090226143084180 0.003181347157806158065795898438 0.000186894263606518507003784180 0 0 0 0 
2407333333.3333334923 0.175006106495857211013955634371 -0.014299870468676090240478515625 0.003178642364218831062316894531 0.000312761432724073475033360614 0 0 0 0 
2407500000.0000000000 0.175780028104782104492187500000 -0.015980523079633709299107735546 0.003599744755774735970738076318 -0.000055852869991213083267211914 0 0 0 0 
2407666666.6666665077 0.176519155502319308181924384371 -0.017623361200094219553013985546 0.003780830418691039085388183594 -0.000237622531130909892633715219 0 0 0 0 
2407833333.3333334923 0.177079543471336392501669365629 -0.019327402114868160593053048046 0.003952094819396734237670898438 -0.000379406526917591691017150879 0 0 0 0 
2408000000.0000000000 0.177996367216110201736611884371 -0.020950295031070709228515625000 0.003932700958102942380423261426 -0.000738145259674638509750366211 0 0 0 0 
2408166666.6666665077 0.178775534033775301834268134371 -0.022212725132703781127929687500 0.004395691212266683578491210938 -0.001072843209840357086778950269 0 0 0 0 
2408333333.3333334923 0.179547876119613702972088731258 -0.023629710078239440917968750000 0.004300068598240613937377929688 -0.001373666920699178955675434644 0 0 0 0 
2408500000.0000000000 0.180068477988243103027343750000 -0.024974415078759189950963204296 0.004252052865922451019287109375 -0.001600038493052124977111816406 0 0 0 0 
2408666666.6666665077 0.180659741163253811935263115629 -0.026222098618745800363560860546 0.004561730660498142242431640625 -0.002037890255451201958897256006 0 0 0 0 
2408833333.3333334923 0.181170940399169894119424384371 -0.027422124519944190979003906250 0.004186894278973340988159179688 -0.002153761219233274893519736182 0 0 0 0 
2409000000.0000000000 0.181594803929328890701455634371 -0.028360212221741679800013358204 0.004121808335185050964355468750 -0.002655403455719352202174521338 0 0 0 0 
2409166666.6666665077 0.182052031159400912185830634371 -0.029390910640358928335169608204 0.004008765332400798797607421875 -0.002983144018799066977259970557 0 0 0 0 
2409333333.3333334923 0.182679787278175409515057481258 -0.030210487544536590576171875000 0.003840444143861532211303710938 -0.003067150944843887849095009912 0 0 0 0 
2409500000.0000000000 0.182756751775741604904013115629 -0.030868446454405791545827497657 0.003682661103084682984593056787 -0.003300619777292013168334960938 0 0 0 0 
2409666666.6666665077 0.183158844709396390060263115629 -0.031435202807188027118723283593 0.003514552488923072814941406250 -0.003471763106063007874729775537 0 0 0 0 
2409833333.3333334923 0.183327421545982388595419365629 -0.031921569257974631572682966407 0.003405869007110596136805868994 -0.003469729330390692190883017432 0 0 0 0 
2410000000.0000000000 0.183549165725708007812500000000 -0.032301444560289382934570312500 0.003086742479354143142700195312 -0.003783443709835410118103027344 0 0 0 0 
2410166666.6666665077 0.183874681591987609863281250000 -0.032611943781375891948659528907 0.002949991496279836134669638525 -0.004042405169457197189331054688 0 0 0 0 
2410333333.3333334923 0.183695167303085299392861884371 -0.033003967255353927612304687500 0.002880823798477650122401572119 -0.004107256885617971420288085938 0 0 0 0 
2410500000.0000000000 0.183675199747085599044638115629 -0.033510074019432067871093750000 0.002593262353911995887756347656 -0.004308369476348161697387695312 0 0 0 0 
2410666666.6666665077 0.183665499091148404220419365629 -0.033882055431604392314870466407 0.002324517816305160956141806494 -0.004325909540057182312011718750 0 0 0 0 
2410833333.3333334923 0.183573216199874905685263115629 -0.033972255885601036762277971093 0.002422544639557600021362304688 -0.004187368322163820266723632812 0 0 0 0 
2411000000.0000000000 0.183323875069618197342080634371 -0.034102965146303176879882812500 0.002059007296338676972630166162 -0.004384069703519344329833984375 0 0 0 0 
2411166666.6666665077 0.182891711592674310882244981258 -0.034693494439125061035156250000 0.001924945041537285067914653247 -0.004576611798256635665893554688 0 0 0 0 
2411333333.3333334923 0.182378932833671597579794365629 -0.034865368157625198364257812500 0.001734216231852770068525004810 -0.004435859154909849166870117188 0 0 0 0 
2411500000.0000000000 0.181861564517021206954794365629 -0.035345274955034262920339216407 0.001504032872617244937299418872 -0.004487488884478806581979082324 0 0 0 0 
2411666666.6666665077 0.181365609169006403167401231258 -0.035557385534048080444335937500 0.001334843109361826939823769678 -0.004444896243512631330008222363 0 0 0 0 
2411833333.3333334923 0.180704995989799499511718750000 -0.035790875554084777832031250000 0.001234029652550816969630576025 -0.004551946185529232025146484375 0 0 0 0 
2412000000.0000000000 0.180079460144042996505575615629 -0.036381039768457412719726562500 0.000937917968258261680603027344 -0.004635863006114959716796875000 0 0 0 0 
2412166666.6666665077 0.178886607289314297775106865629 -0.036902707070112228393554687500 0.001009932835586369037628173828 -0.004525136202573776245117187500 0 0 0 0 
2412333333.3333334923 0.178112611174583407303018134371 -0.037316255271434776996652971093 0.000854097947012633085250854492 -0.004566239658743143081665039062 0 0 0 0 
2412500000.0000000000 0.176806733012199401855468750000 -0.038139857351779937744140625000 0.000623829313553869724273681641 -0.004550669342279434204101562500 0 0 0 0 
2412666666.6666665077 0.175872370600700406173544365629 -0.038811374455690376972238908593 0.000647344044409692287445068359 -0.004452051129192113876342773438 0 0 0 0 
2412833333.3333334923 0.174809947609901400467080634371 -0.039436142891645431518554687500 0.000446360674686729907989501953 -0.004479399416595697402954101562 0 0 0 0 
2413000000.0000000000 0.173688396811485290527343750000 -0.040222015231847763061523437500 0.000409997039241716319888514386 -0.004367799032479524612426757812 0 0 0 0 
2413166666.6666665077 0.172069996595382690429687500000 -0.041120782494544982910156250000 0.000366744905477389693260192871 -0.004400201141834259033203125000 0 0 0 0 
2413333333.3333334923 0.170891016721725491622763115629 -0.042072977870702736591379533593 0.000239119064644910395145416260 -0.004505969583988189697265625000 0 0 0 0 
2413500000.0000000000 0.169567212462425204178018134371 -0.043117031455039978027343750000 0.000166590849403291886478978290 -0.004475153982639312744140625000 0 0 0 0 
2413666666.6666665077 0.168293461203575106521768134371 -0.044131793081760413433034528907 -0.000031147847039392217993736267 -0.004582292865961790084838867188 0 0 0 0 
2413833333.3333334923 0.166927963495254488845986884371 -0.045237969607114791870117187500 0.000031353945814771577715873718 -0.004511726554483175277709960938 0 0 0 0 
2414000000.0000000000 0.165628999471664400955361884371 -0.046552229672670357440988908593 -0.000311398878693580573231297626 -0.004633657168596982955932617188 0 0 0 0 
2414166666.6666665077 0.164333045482635498046875000000 -0.048056326806545257568359375000 -0.000332048773998394608497619629 -0.004517672583460807800292968750 0 0 0 0 
2414333333.3333334923 0.162977799773216303069744981258 -0.049344051629304892803151716407 -0.000493312545586377382278442383 -0.004722265992313623428344726562 0 0 0 0 
2414500000.0000000000 0.162301346659660311599893134371 -0.050865780562162399291992187500 -0.000689932378008961677551269531 -0.004759886302053928375244140625 0 0 0 0 
2414666666.6666665077 0.161067157983779907226562500000 -0.052117638289928443218190778907 -0.000682507583405822515487670898 -0.004673711489886046323294355176 0 0 0 0 
2414833333.3333334923 0.159829378128051813323651231258 -0.054008226841688163066823591407 -0.001148292678408324935315776294 -0.004747840110212565335745527051 0 0 0 0 
2415000000.0000000000 0.158845275640487698654013115629 -0.055617064237594597553293596093 -0.001078308559954165978672646631 -0.004656164441257715225219726562 0 0 0 0 
2415166666.6666665077 0.157871872186660794357138115629 -0.057345658540725708007812500000 -0.001373425009660423018811870044 -0.004813937935978174209594726562 0 0 0 0 
2415333333.3333334923 0.157088547945022610763388115629 -0.059128228574991233135182966407 -0.001473002834245562987086630713 -0.004758763592690229415893554688 0 0 0 0 
2415500000.0000000000 0.156417861580848693847656250000 -0.060872629284858696674387346093 -0.001685694907791912989375449072 -0.004766025580465793609619140625 0 0 0 0 
2415666666.6666665077 0.155559211969375610351562500000 -0.062695212662220001220703125000 -0.001777408644556998989702534253 -0.004533368162810803327078534863 0 0 0 0 
2415833333.3333334923 0.155077040195465087890625000000 -0.064789734780788421630859375000 -0.001952314167283474965336464990 -0.004571599420160055160522460938 0 0 0 0 
2416000000.0000000000 0.154318556189537103850994981258 -0.066821105778217315673828125000 -0.002197861205786467032191611182 -0.004268086981028318405151367188 0 0 0 0 
2416166666.6666665077 0.154045134782791109939736884371 -0.068615995347499847412109375000 -0.002378855366259812875034951318 -0.004274266771972179412841796875 0 0 0 0 
2416333333.3333334923 0.153604790568351801116619981258 -0.070519387722015380859375000000 -0.002396030118688941001892089844 -0.004224579315632581710815429688 0 0 0 0 
2416500000.0000000000 0.153255373239517211914062500000 -0.072667777538299560546875000000 -0.002407871186733245849609375000 -0.004157210234552621841430664062 0 0 0 0 
2416666666.6666665077 0.152865961194038391113281250000 -0.074511349201202392578125000000 -0.002498840680345892906188964844 -0.003930517937988042831420898438 0 0 0 0 
2416833333.3333334923 0.152718424797058105468750000000 -0.076588287949562072753906250000 -0.002472135005518794059753417969 -0.003881447250023483796360634912 0 0 0 0 
2417000000.0000000000 0.152422592043876703460369981258 -0.078459911048412322998046875000 -0.002611168893054128126857138525 -0.003602223470807075934169150244 0 0 0 0 
2417166666.6666665077 0.152305796742439297775106865629 -0.080128274857997894287109375000 -0.002705113030970097021815634619 -0.003516242140904068946838378906 0 0 0 0 
2417333333.3333334923 0.152332216501235989669638115629 -0.081902176141738891601562500000 -0.002707169391214847998378134619 -0.003458047751337289810180664062 0 0 0 0 
2417500000.0000000000 0.152319788932800292968750000000 -0.083811260759830474853515625000 -0.002621241146698594093322753906 -0.003477712161839007897617959131 0 0 0 0 
2417666666.6666665077 0.152589589357376098632812500000 -0.085214093327522277832031250000 -0.002958639059215784072875976562 -0.003357907757163047790527343750 0 0 0 0 
2417833333.3333334923 0.152524173259735107421875000000 -0.086804494261741638183593750000 -0.002786841476336121992823935400 -0.003345833858475089073181152344 0 0 0 0 
2418000000.0000000000 0.152593612670898409744424384371 -0.088378898799419403076171875000 -0.002637490164488554000854492188 -0.003398896893486381010768271338 0 0 0 0 
2418166666.6666665077 0.152810543775558499435263115629 -0.089655965566635131835937500000 -0.002845736918970942930934286963 -0.003340779803693294958827353369 0 0 0 0 
2418333333.3333334923 0.153219342231750488281250000000 -0.090905711054801940917968750000 -0.002860079286620020866394042969 -0.003397046588361262841465615381 0 0 0 0 
2418500000.0000000000 0.153329193592071505447549384371 -0.091997213661670684814453125000 -0.003000612836331129074096679688 -0.003448916133493185043334960938 0 0 0 0 
2418666666.6666665077 0.153619945049285888671875000000 -0.093006320297718048095703125000 -0.003105278359726070924046181787 -0.003477136138826609091517783057 0 0 0 0 
2418833333.3333334923 0.153722450137138394454794365629 -0.094137214124202728271484375000 -0.003075926098972558975219726562 -0.003690745914354919953587197412 0 0 0 0 
2419000000.0000000000 0.153858840465545709808026231258 -0.094857431948184967041015625000 -0.003358382964506744904759072412 -0.003666328731924294991734170068 0 0 0 0 
2419166666.6666665077 0.154102325439453097244424384371 -0.095484577119350433349609375000 -0.003431833349168301062342978369 -0.003653886727988719940185546875 0 0 0 0 
2419333333.3333334923 0.154152110219001797775106865629 -0.096044227480888366699218750000 -0.003826428204774857001063681494 -0.003693804610520600838902138818 0 0 0 0 
2419500000.0000000000 0.154480636119842501541299384371 -0.096819594502449035644531250000 -0.003987569361925125122070312500 -0.003803489264100790023803710938 0 0 0 0 
2419666666.6666665077 0.154680207371711703201455634371 -0.097015187144279479980468750000 -0.004082356113940477371215820312 -0.003643306437879800796508789062 0 0 0 0 
2419833333.3333334923 0.154629960656166104415731865629 -0.097176186740398406982421875000 -0.004473761655390262603759765625 -0.003657377557829021973850869287 0 0 0 0 
