# Hz S RI R 
2400000000.0000000000 0.156049907207489013671875000000 0.106313914060592706878338731258 -0.002897678175941110090968466650 0.001383288297802210070966411060 0 0 0 0 
2400166666.6666665077 0.155752256512641906738281250000 0.103866353631019606162944057814 -0.002854599151760340170619345557 0.001389556098729372024536132812 0 0 0 0 
2400333333.3333334923 0.155689105391502408126669365629 0.101570464670658097694477817186 -0.003000278957188128991367959131 0.001474834280088543891906738281 0 0 0 0 
2400500000.0000000000 0.155595541000366210937500000000 0.098785996437072753906250000000 -0.002960832323879003958461142432 0.001750331837683916091918945312 0 0 0 0 
2400666666.6666665077 0.155579715967178289215411268742 0.096344031393527984619140625000 -0.002999922493472694916966103662 0.001752436859533190944074321216 0 0 0 0 
2400833333.3333334923 0.155799984931945800781250000000 0.093279622495174407958984375000 -0.003058855654671788215637207031 0.001893139095045625946642231519 0 0 0 0 
2401000000.0000000000 0.156011477112770108321981865629 0.090512178838253021240234375000 -0.003065714379772543907165527344 0.002132741734385489983799599756 0 0 0 0 
2401166666.6666665077 0.155971840023994501311932481258 0.087632976472377777099609375000 -0.002861276501789689064025878906 0.002090694848448038101196289062 0 0 0 0 
2401333333.3333334923 0.156056135892867986481036268742 0.084702111780643463134765625000 -0.003109096549451351165771484375 0.002382237697020173072814941406 0 0 0 0 
2401500000.0000000000 0.156551122665405301193075615629 0.081729911267757415771484375000 -0.002934311982244253158569335938 0.002444229088723659949061728369 0 0 0 0 
2401666666.6666665077 0.156839340925216702560263115629 0.078947886824607849121093750000 -0.002915990538895130157470703125 0.002517973305657505989074707031 0 0 0 0 
2401833333.3333334923 0.157270729541778592208700615629 0.076278254389762878417968750000 -0.002977081341668962998631142725 0.002722523408010601997375488281 0 0 0 0 
2402000000.0000000000 0.158250883221626309493856865629 0.073364518582820892333984375000 -0.002657221397385001182556152344 0.002980432007461785836460732568 0 0 0 0 
2402166666.6666665077 0.158989921212196405608807481258 0.070825919508934020996093750000 -0.002665879437699913978576660156 0.003019044175744057135341025244 0 0 0 0 
2402333333.3333334923 0.159930825233459500411825615629 0.068059340119361877441406250000 -0.002504144795238972143885947119 0.003269633045420051054713583838 0 0 0 0 
2402500000.0000000000 0.160995051264762906173544365629 0.065474033355712890625000000000 -0.002689351327717303796055459131 0.003284657374024391174316406250 0 0 0 0 
2402666666.6666665077 0.162113755941390991210937500000 0.063228629529476165771484375000 -0.002398909302428365187404013525 0.003611285937950015068054199219 0 0 0 0 
2402833333.3333334923 0.163456201553344698806924384371 0.060755189508199691772460937500 -0.002347723580896853966953896631 0.003439833177253603935241699219 0 0 0 0 
2403000000.0000000000 0.164885982871055603027343750000 0.058237012475728988647460937500 -0.002085874322801827950718545068 0.003653467632830142974853515625 0 0 0 0 
2403166666.6666665077 0.166565001010894803146200615629 0.056145243346691131591796875000 -0.001846297411248088099836039966 0.003885230049490929083583212744 0 0 0 0 
2403333333.3333334923 0.167876258492469787597656250000 0.053936492651700966571848283593 -0.001949542085640131993534707178 0.003909451887011528015136718750 0 0 0 0 
2403500000.0000000000 0.169771790504455594161825615629 0.051870860159397132183034528907 -0.001649385783821343941929482568 0.004027532879263162612915039062 0 0 0 0 
2403666666.6666665077 0.171326741576194790939169365629 0.049968361854553222656250000000 -0.001292416010983288071276020581 0.004128331318497657775878906250 0 0 0 0 
2403833333.3333334923 0.173156082630157498458700615629 0.047988321632146842266042341407 -0.001277829869650304100633930737 0.004369297530502080917358398438 0 0 0 0 
2404000000.0000000000 0.174302324652671786209268134371 0.046147599816322326660156250000 -0.001035977387800812938092875903 0.004230775404721499356741620801 0 0 0 0 
2404166666.6666665077 0.176387682557105990310830634371 0.044861990958452231670339216407 -0.000676780706271529197692871094 0.004270770121365785598754882812 0 0 0 0 
2404333333.3333334923 0.177989050745964105804119981258 0.043287843465805046772043596093 -0.000678432232234627008438110352 0.004300560802221298217773437500 0 0 0 0 
2404500000.0000000000 0.179676190018653897384481865629 0.041698709130287170410156250000 -0.000188967300346121191978454590 0.004230604972690343856811523438 0 0 0 0 
2404666666.6666665077 0.181076377630233792404013115629 0.040810473263263702392578125000 -0.000126014463603496605723780499 0.004215408582240343093872070312 0 0 0 0 
2404833333.3333334923 0.182835906744003295898437500000 0.039549820125102996826171875000 0.000222160160774365094587048941 0.004091508220881223678588867188 0 0 0 0 
2405000000.0000000000 0.184013247489929199218750000000 0.039026122540235519409179687500 0.000203813586267642703935346060 0.004024615511298179626464843750 0 0 0 0 
2405166666.6666665077 0.185607656836509704589843750000 0.038318660110235207294504533593 0.000291800592094659805297851562 0.003862518118694425062892294775 0 0 0 0 
2405333333.3333334923 0.186898171901702908614950615629 0.037784755229949951171875000000 0.000375619216356426477432250977 0.003723420668393373923060751807 0 0 0 0 
2405500000.0000000000 0.188315063714981106857138115629 0.037261668592691421508789062500 0.000442911667050793821185511456 0.003767203073948622183558798682 0 0 0 0 
2405666666.6666665077 0.189439862966537503341513115629 0.036894682794809341430664062500 0.000653354509267956018447875977 0.003572371555492281913757324219 0 0 0 0 
2405833333.3333334923 0.190704599022865295410156250000 0.036683190613985061645507812500 0.000776895438320934772491455078 0.003352538915351033210754394531 0 0 0 0 
2406000000.0000000000 0.191709622740745488922442518742 0.036511529237031936645507812500 0.000763486197683960199356079102 0.003467011963948607011082314600 0 0 0 0 
2406166666.6666665077 0.192704945802688598632812500000 0.036390975117683410644531250000 0.000804345181677490472793579102 0.003417563391849399046656943213 0 0 0 0 
2406333333.3333334923 0.193568572402000399490518134371 0.036398157477378852153737653907 0.000827480282168835401535034180 0.003201752668246626853942871094 0 0 0 0 
2406500000.0000000000 0.194300696253776605804119981258 0.036551259458065032958984375000 0.001088127843104303099988627856 0.003282685531303286986110068213 0 0 0 0 
2406666666.6666665077 0.194787919521331787109375000000 0.036459106951951980590820312500 0.001161428634077310995814658057 0.003111983183771371841430664062 0 0 0 0 
2406833333.3333334923 0.195216670632362393478231865629 0.036595504730939872051198591407 0.001304665114730596976039267432 0.003089726902544498009922646631 0 0 0 0 
2407000000.0000000000 0.195662423968315096756143134371 0.036927372217178351665456403907 0.001336736488156021075007773291 0.003051679814234375953674316406 0 0 0 0 
2407166666.6666665077 0.195931643247604397872763115629 0.036684375256299972534179687500 0.001387275173328817107556987231 0.003013736102730036215541220557 0 0 0 0 
2407333333.3333334923 0.195770174264907809158486884371 0.036904361099004752422292341407 0.001497740624472498893737792969 0.002800548449158668951747275244 0 0 0 0 
2407500000.0000000000 0.195766419172286987304687500000 0.037051584571599960327148437500 0.001515584997832774899126362378 0.002778324065729976134059286963 0 0 0 0 
2407666666.6666665077 0.195737794041633605957031250000 0.037004318088293082500417341407 0.001407350762747227928758930737 0.002578346757218242125270224463 0 0 0 0 
2407833333.3333334923 0.195211663842201205154580634371 0.036978159099817282939870466407 0.001510603586211801008937216650 0.002543010050430893898010253906 0 0 0 0 
2408000000.0000000000 0.195119753479957608321981865629 0.036739867180585861206054687500 0.001544611412100493907928466797 0.002416752511635423140284872900 0 0 0 0 
2408166666.6666665077 0.194410189986228887359942518742 0.036587614566087722778320312500 0.001742778695188462951062846606 0.002348018111661076979396201025 0 0 0 0 
2408333333.3333334923 0.194139063358306912521200615629 0.036076478660106658935546875000 0.001644659088924526951433491284 0.002160704229027032852172851562 0 0 0 0 
2408500000.0000000000 0.193312987685203607757244981258 0.035747632384300231933593750000 0.001674130791798233985900878906 0.002160688163712621168849326025 0 0 0 0 
2408666666.6666665077 0.192711055278778103927450615629 0.035326845943927771831472028907 0.001586207072250545024871826172 0.001868271618150175051448202979 0 0 0 0 
2408833333.3333334923 0.191860333085060091873330634371 0.034591574221849441528320312500 0.001743304892443120913264609229 0.001847416511736809990526508862 0 0 0 0 
2409000000.0000000000 0.190873891115188598632812500000 0.033713702112436301494557966407 0.001495413249358535029767680591 0.001746018300764262893079448169 0 0 0 0 
2409166666.6666665077 0.189916670322418212890625000000 0.032770991325378417968750000000 0.001399721833877266103859926538 0.001852917135693133094190288013 0 0 0 0 
2409333333.3333334923 0.188866913318634005447549384371 0.031816113740205771709401716407 0.001430484117008746103999472510 0.001704059424810111956355429541 0 0 0 0 
2409500000.0000000000 0.187868952751159695724325615629 0.030422979965806010854700858204 0.001469568815082312063929892432 0.001839400385506450913072895581 0 0 0 0 
2409666666.6666665077 0.186841979622840909103231865629 0.029084641486406329763392264454 0.001378765446133912043330527197 0.001734372461214662031886435400 0 0 0 0 
2409833333.3333334923 0.185864955186843899825888115629 0.027661640197038650512695312500 0.001409677090123296000837016528 0.001565371174365282058715820312 0 0 0 0 
2410000000.0000000000 0.184714213013648986816406250000 0.026052128523588180541992187500 0.001330073107965290980098105322 0.001593611552380024953129433740 0 0 0 0 
2410166666.6666665077 0.183731377124786404708700615629 0.024173313751816749572753906250 0.001290852087549865028978657300 0.001691918354481459097621298682 0 0 0 0 
2410333333.3333334923 0.182693287730217007736044365629 0.022542254999279979360560233204 0.001229025656357408003566122900 0.001628617057576775984523154150 0 0 0 0 
2410500000.0000000000 0.181723415851592989822549384371 0.020447265356779098510742187500 0.001262637670151889107347797925 0.001658373279497026963474892725 0 0 0 0 
2410666666.6666665077 0.180699765682220486739950615629 0.018172809854149818420410156250 0.001434052130207418961765908350 0.001484591979533433914184570312 0 0 0 0 
2410833333.3333334923 0.180005282163619995117187500000 0.016013279557228088378906250000 0.001343241776339709975598979419 0.001677457010373472950578999097 0 0 0 0 
2411000000.0000000000 0.179416075348854092696981865629 0.013892503455281259364118007227 0.001482074381783605055568076025 0.001609081518836319012882851709 0 0 0 0 
2411166666.6666665077 0.178631320595741299728231865629 0.011624247767031189310094063671 0.001306473277509212927577353369 0.001796233584173023917554545825 0 0 0 0 
2411333333.3333334923 0.178175970911979703048544365629 0.009123422205448150634765625000 0.001395592465996742031694721753 0.001576523645780981020686484229 0 0 0 0 
2411500000.0000000000 0.177514329552650507171307481258 0.006808144040405750274658203125 0.001514036208391190008876181494 0.001505202730186284022090292822 0 0 0 0 
2411666666.6666665077 0.177525177597999600509481865629 0.004398704040795564651489257812 0.001362841459922492937800742041 0.001649949466809629960301064600 0 0 0 0 
2411833333.3333334923 0.177061691880226107498330634371 0.002052135765552521185633993994 0.001353259896859527067897177588 0.001554997521452605941175151294 0 0 0 0 
2412000000.0000000000 0.177184149622917203048544365629 -0.000531231926288455724716186523 0.001301485812291502952575683594 0.001388504402711987929103232275 0 0 0 0 
2412166666.6666665077 0.177349522709846496582031250000 -0.002767348196357489065883017432 0.001443336950615047974827431787 0.001480534672737122015712118994 0 0 0 0 
2412333333.3333334923 0.177589610219001797775106865629 -0.005255018360912799835205078125 0.001315690693445503928540873950 0.001508301007561386065242148291 0 0 0 0 
2412500000.0000000000 0.177939444780349703689736884371 -0.007729384582489728927612304688 0.001352067803964019038556743091 0.001418664352968334934831928784 0 0 0 0 
2412666666.6666665077 0.178505480289459200760049384371 -0.010160222649574279785156250000 0.001281280536204576925990439307 0.001623922144062817096710205078 0 0 0 0 
2412833333.3333334923 0.179208263754844693282919365629 -0.012462408281862739217737967579 0.001361786038614809946772910010 0.001564694219268857999088906396 0 0 0 0 
2413000000.0000000000 0.179893791675567599197549384371 -0.014799689874052999669085117773 0.001292583881877362944959330981 0.001610167208127677006962441553 0 0 0 0 
2413166666.6666665077 0.180826187133789090255575615629 -0.017053712159395221364954764454 0.001296232803724705956102680737 0.001774931442923844077466655200 0 0 0 0 
2413333333.3333334923 0.181643441319465609451455634371 -0.019349552690982818603515625000 0.001176078338176012039184570312 0.001779505633749068000196147388 0 0 0 0 
2413500000.0000000000 0.182736039161682101150674384371 -0.021664347499608990060826485546 0.001327090896666049957275390625 0.001902578282169997908948588794 0 0 0 0 
2413666666.6666665077 0.183920308947563199142294365629 -0.023821752518415451049804687500 0.001342965639196336052538227612 0.001912662759423255920410156250 0 0 0 0 
2413833333.3333334923 0.184928879141807611663494981258 -0.025660458952188488351842110546 0.001465294742956757979152060400 0.001899064285680652098414755713 0 0 0 0 
2414000000.0000000000 0.185996279120445306975994981258 -0.027712136507034298288365548046 0.001512501155957580046412802588 0.001943418639712036089656210791 0 0 0 0 
2414166666.6666665077 0.187445774674415588378906250000 -0.029449218884110450744628906250 0.001678799279034137942670512622 0.001942371018230915069580078125 0 0 0 0 
2414333333.3333334923 0.188647747039794894119424384371 -0.031282562762498862529714216407 0.001782863284461200020433735425 0.002036185702309011979344033350 0 0 0 0 
2414500000.0000000000 0.189784348011016901214276231258 -0.032803624868392937397043596093 0.001994612161070107980015420068 0.001958742039278150038478232275 0 0 0 0 
2414666666.6666665077 0.191052079200744601150674384371 -0.034230940043926239013671875000 0.001883675809949636893031454932 0.001884632045403122901916503906 0 0 0 0 
2414833333.3333334923 0.192105382680892888824786268742 -0.035586450248956680297851562500 0.002083338797092438177821493994 0.001810524147003889083862304688 0 0 0 0 
2415000000.0000000000 0.193266123533248901367187500000 -0.036825750023126602172851562500 0.002130376873537898063659667969 0.001791691174730658964869833838 0 0 0 0 
2415166666.6666665077 0.194436758756637600997763115629 -0.037930443882942199707031250000 0.002138585085049272017237997900 0.001829145243391395048854208838 0 0 0 0 
2415333333.3333334923 0.195726081728935186188067518742 -0.038767252117395401000976562500 0.002236330648884177207946777344 0.001631657127290963909746479565 0 0 0 0 
2415500000.0000000000 0.196772903203964205642861884371 -0.039464097470045089721679687500 0.002264784416183828873875283350 0.001697026891633868000627827222 0 0 0 0 
2415666666.6666665077 0.197855353355407687088174384371 -0.040262423455715179443359375000 0.002354834694415330886840820312 0.001605214551091193935991596753 0 0 0 0 
2415833333.3333334923 0.198763653635978698730468750000 -0.040797587484121322631835937500 0.002417833078652619881870888818 0.001710096956230700016021728516 0 0 0 0 
2416000000.0000000000 0.199473977088928194900674384371 -0.041330613195896148681640625000 0.002529336838051677183863974463 0.001598843839019536972045898438 0 0 0 0 
2416166666.6666665077 0.200168922543525695800781250000 -0.041870091110467910766601562500 0.002578429412096738815307617188 0.001747527974657713933231972803 0 0 0 0 
2416333333.3333334923 0.200873211026191711425781250000 -0.042121868580579757690429687500 0.002783248433843255043029785156 0.001598950359039009051081992041 0 0 0 0 
2416500000.0000000000 0.201348304748535211761151231258 -0.042344588786363601684570312500 0.002880443818867207007167197119 0.001504970365203917026519775391 0 0 0 0 
2416666666.6666665077 0.201646223664283807952557481258 -0.042541004717350013042409528907 0.002978913253173232078552246094 0.001548385131172836043714213794 0 0 0 0 
2416833333.3333334923 0.201714262366294888595419365629 -0.042639531195163726806640625000 0.003075573593378067016601562500 0.001521693309769033952000283350 0 0 0 0 
2417000000.0000000000 0.201858639717102106292401231258 -0.042555950582027442241628278907 0.003242211416363716125488281250 0.001390723977237940051435161060 0 0 0 0 
2417166666.6666665077 0.201534315943718012054119981258 -0.042501077055931091308593750000 0.003284574951976538138148642432 0.001368930446915328936335898291 0 0 0 0 
2417333333.3333334923 0.201360464096069308181924384371 -0.042239058762788772583007812500 0.003509009024128317832946777344 0.001179961371235549016239785303 0 0 0 0 
2417500000.0000000000 0.201167091727256802657919365629 -0.042123168706893920898437500000 0.003553788177669047875645302881 0.001018548384308815002441406250 0 0 0 0 
2417666666.6666665077 0.200502723455429104904013115629 -0.041838802397251129150390625000 0.003540663514286280112025595557 0.000770316866692155599594116211 0 0 0 0 
2417833333.3333334923 0.200183182954788208007812500000 -0.041581716388463967060129533593 0.003611838445067406134364462744 0.000755834393203258514404296875 0 0 0 0 
2418000000.0000000000 0.199578866362571688553018134371 -0.041322678327560431743581403907 0.003758355509489775137660361182 0.000613671494647860527038574219 0 0 0 0 
2418166666.6666665077 0.198675230145454406738281250000 -0.041067857295274727558176408593 0.003628481412306427955627441406 0.000476919551147148013114929199 0 0 0 0 
2418333333.3333334923 0.197883993387222290039062500000 -0.040976654738187789916992187500 0.003697136882692575888392783057 0.000334292999468743801116943359 0 0 0 0 
2418500000.0000000000 0.196922406554222106933593750000 -0.040955647826194763183593750000 0.003738927887752652168273925781 0.000164209370268508791923522949 0 0 0 0 
2418666666.6666665077 0.195971146225929288009481865629 -0.040807727724313742900807966407 0.003698428859934211210963583838 -0.000000988922010947135277092457 0 0 0 0 
2418833333.3333334923 0.194719806313514709472656250000 -0.040818538516759872436523437500 0.003638697089627385139465332031 -0.000031540294003207243304660184 0 0 0 0 
2419000000.0000000000 0.193450778722763089279013115629 -0.041142594069242477416992187500 0.003675135783851147131678915869 -0.000310817908030003309249877930 0 0 0 0 
2419166666.6666665077 0.192235544323921203613281250000 -0.041313156485557563091237653907 0.003676665481179953055140829932 -0.000322587729897350127070826398 0 0 0 0 
2419333333.3333334923 0.190806820988655090332031250000 -0.041825082153081886982004533593 0.003605774370953441099879599463 -0.000483473675558343475491124286 0 0 0 0 
2419500000.0000000000 0.189424604177475003341513115629 -0.042255051434040069580078125000 0.003757885657250881195068359375 -0.000510680431034415960311889648 0 0 0 0 
2419666666.6666665077 0.187968939542770413497763115629 -0.043046183884143829345703125000 0.003669829806312919096705771338 -0.000645146763417869806289672852 0 0 0 0 
2419833333.3333334923 0.186276614665985107421875000000 -0.043787479400634772563893903907 0.003515479154884815216064453125 -0.000748990976717323064804077148 0 0 0 0 
2420000000.0000000000 0.184774667024612399002236884371 -0.044556364417076110839843750000 0.003536222502589226202723837744 -0.000931886257603764533996582031 0 0 0 0 
