# Version 1.00
#
freq[Hz];re:Trc1_S11;im:Trc1_S11;re:Trc2_S21;im:Trc2_S21;
2.400000000000000E+009;1.730045080184937E-001;4.982028156518936E-002;3.039050381630659E-003;1.977453008294106E-003;
2.400166666666667E+009;1.736525297164917E-001;4.928741231560707E-002;3.300040960311890E-003;1.964932307600975E-003;
2.400333333333334E+009;1.740041375160217E-001;4.856058582663536E-002;3.285113489255309E-003;2.093727700412273E-003;
2.400500000000000E+009;1.742103993892670E-001;4.790148511528969E-002;3.327684244140983E-003;2.034174278378487E-003;
2.400666666666667E+009;1.745164990425110E-001;4.720238968729973E-002;3.616126021370292E-003;2.170303137972951E-003;
2.400833333333334E+009;1.749687641859055E-001;4.688595235347748E-002;3.705506445840001E-003;1.871852786280215E-003;
2.401000000000000E+009;1.751374900341034E-001;4.602869972586632E-002;3.767820540815592E-003;1.994614023715258E-003;
2.401166666666667E+009;1.751377731561661E-001;4.546793177723885E-002;4.130885004997253E-003;1.864859019406140E-003;
2.401333333333334E+009;1.751529723405838E-001;4.481349140405655E-002;4.267451353371143E-003;1.850104890763760E-003;
2.401500000000000E+009;1.754112094640732E-001;4.393401369452477E-002;4.347536712884903E-003;1.666525611653924E-003;
2.401666666666667E+009;1.751855164766312E-001;4.350875690579414E-002;4.542476031929255E-003;1.601151074282825E-003;
2.401833333333334E+009;1.752284318208695E-001;4.240684211254120E-002;4.743029829114676E-003;1.443486544303596E-003;
2.402000000000000E+009;1.748765558004379E-001;4.163097590208054E-002;4.924098029732704E-003;1.309174112975597E-003;
2.402166666666667E+009;1.746490746736527E-001;4.051078855991364E-002;5.047894548624754E-003;1.167242764495313E-003;
2.402333333333334E+009;1.745277494192123E-001;3.968267515301704E-002;5.253158975392580E-003;8.828663849271834E-004;
2.402500000000000E+009;1.745400726795197E-001;3.858242928981781E-002;5.291410256177187E-003;6.215142202563584E-004;
2.402666666666667E+009;1.739644706249237E-001;3.754299879074097E-002;5.224589724093676E-003;3.923438489437103E-004;
2.402833333333334E+009;1.738294214010239E-001;3.633269295096397E-002;5.524896085262299E-003;1.501836813986301E-004;
2.403000000000000E+009;1.735210269689560E-001;3.507783263921738E-002;5.394855514168739E-003;-2.004449925152585E-004;
2.403166666666667E+009;1.733389943838120E-001;3.352323174476624E-002;5.600331816822290E-003;-4.964936524629593E-004;
2.403333333333334E+009;1.730332672595978E-001;3.228773921728134E-002;5.664505530148745E-003;-5.802828236483038E-004;
2.403500000000000E+009;1.723867207765579E-001;3.048506937921047E-002;5.705873016268015E-003;-7.566512795165181E-004;
2.403666666666667E+009;1.722114831209183E-001;2.887768298387528E-002;5.723141599446535E-003;-1.211805269122124E-003;
2.403833333333334E+009;1.719592511653900E-001;2.707475610077381E-002;5.374617874622345E-003;-1.363575807772577E-003;
2.404000000000000E+009;1.716536134481430E-001;2.533461898565292E-002;5.357866175472736E-003;-1.796677475795150E-003;
2.404166666666667E+009;1.710919141769409E-001;2.348887361586094E-002;5.330785177648068E-003;-1.955413492396474E-003;
2.404333333333334E+009;1.709808558225632E-001;2.160445600748062E-002;5.260125733911991E-003;-2.205291995778680E-003;
2.404500000000000E+009;1.705287992954254E-001;1.956276595592499E-002;4.985873121768236E-003;-2.414486138150096E-003;
2.404666666666667E+009;1.706220507621765E-001;1.766844466328621E-002;4.671794828027487E-003;-2.722244709730148E-003;
2.404833333333334E+009;1.700695604085922E-001;1.561085879802704E-002;4.660832695662975E-003;-2.870717784389854E-003;
2.405000000000000E+009;1.700079590082169E-001;1.350258383899927E-002;4.481586627662182E-003;-2.904139459133148E-003;
2.405166666666667E+009;1.700714975595474E-001;1.148654241114855E-002;4.174194764345884E-003;-3.093533450737596E-003;
2.405333333333334E+009;1.699736118316650E-001;9.396698325872421E-003;3.851216053590179E-003;-3.200066508725286E-003;
2.405500000000000E+009;1.701197922229767E-001;7.364800665527582E-003;3.770486917346716E-003;-3.298911498859525E-003;
2.405666666666667E+009;1.702117472887039E-001;5.227798596024513E-003;3.498080186545849E-003;-3.261776873841882E-003;
2.405833333333334E+009;1.703440994024277E-001;3.336161375045776E-003;3.408003365620971E-003;-3.313687862828374E-003;
2.406000000000000E+009;1.707792580127716E-001;1.200060127303004E-003;3.306049155071378E-003;-3.409706987440586E-003;
2.406166666666667E+009;1.709869354963303E-001;-7.735085091553628E-004;3.020610660314560E-003;-3.203798551112413E-003;
2.406333333333334E+009;1.715712249279022E-001;-2.801997121423483E-003;2.887129317969084E-003;-3.167058806866407E-003;
2.406500000000000E+009;1.719478368759155E-001;-4.887374117970467E-003;2.798760076984763E-003;-3.111123340204358E-003;
2.406666666666667E+009;1.723070293664932E-001;-6.850556936115027E-003;2.636935561895371E-003;-3.289602696895599E-003;
2.406833333333334E+009;1.730299293994904E-001;-8.775695227086544E-003;2.741378033533692E-003;-3.147660056129098E-003;
2.407000000000000E+009;1.737176775932312E-001;-1.055743638426065E-002;2.573918784037232E-003;-3.237945958971977E-003;
2.407166666666667E+009;1.744367927312851E-001;-1.234974991530180E-002;2.521317452192307E-003;-3.120356937870383E-003;
2.407333333333334E+009;1.751724183559418E-001;-1.425450574606657E-002;2.457102993503213E-003;-3.121409565210342E-003;
2.407500000000000E+009;1.758163720369339E-001;-1.578430458903313E-002;2.286268165335059E-003;-3.112926846370101E-003;
2.407666666666667E+009;1.767477691173554E-001;-1.761034317314625E-002;2.387963235378265E-003;-3.027474507689476E-003;
2.407833333333334E+009;1.773434877395630E-001;-1.930525526404381E-002;2.395895775407553E-003;-3.095848485827446E-003;
2.408000000000000E+009;1.782299429178238E-001;-2.088698558509350E-002;2.225702162832022E-003;-2.901552012190223E-003;
2.408166666666667E+009;1.788711994886398E-001;-2.225579135119915E-002;2.204747870564461E-003;-3.064086195081472E-003;
2.408333333333334E+009;1.797686517238617E-001;-2.374790422618389E-002;2.401261590421200E-003;-3.208881244063377E-003;
2.408500000000000E+009;1.803388893604279E-001;-2.503587864339352E-002;2.340144943445921E-003;-3.124562324956060E-003;
2.408666666666667E+009;1.809292882680893E-001;-2.622262202203274E-002;2.366169355809689E-003;-3.124365815892816E-003;
2.408833333333334E+009;1.812598705291748E-001;-2.745481953024864E-002;2.238965127617121E-003;-3.109985496848822E-003;
2.409000000000000E+009;1.818906366825104E-001;-2.851376496255398E-002;2.318007638677955E-003;-3.170316806063056E-003;
2.409166666666667E+009;1.823524981737137E-001;-2.937223576009274E-002;2.536202780902386E-003;-3.245256375521421E-003;
2.409333333333334E+009;1.827743947505951E-001;-3.021952509880066E-002;2.399874152615666E-003;-3.420892171561718E-003;
2.409500000000000E+009;1.829945445060730E-001;-3.090284392237663E-002;2.461727941408753E-003;-3.510740585625172E-003;
2.409666666666667E+009;1.832299977540970E-001;-3.137169033288956E-002;2.333944663405418E-003;-3.727174131199718E-003;
2.409833333333334E+009;1.834424138069153E-001;-3.195464611053467E-002;2.306018723174930E-003;-3.831502748653293E-003;
2.410000000000000E+009;1.838811188936234E-001;-3.249315172433853E-002;2.232957165688276E-003;-3.970592282712460E-003;
2.410166666666667E+009;1.836872994899750E-001;-3.270971775054932E-002;2.303895773366094E-003;-4.129053559154272E-003;
2.410333333333334E+009;1.836992204189301E-001;-3.310887888073921E-002;2.297517843544483E-003;-4.237429704517126E-003;
2.410500000000000E+009;1.838911771774292E-001;-3.348075598478317E-002;2.183129545301199E-003;-4.397504497319460E-003;
2.410666666666667E+009;1.837141960859299E-001;-3.391024097800255E-002;2.117635449394584E-003;-4.692228976637125E-003;
2.410833333333334E+009;1.835586577653885E-001;-3.406725823879242E-002;2.136572729796171E-003;-4.844195209443569E-003;
2.411000000000000E+009;1.832013875246048E-001;-3.423399850726128E-002;1.916724490001798E-003;-5.067681893706322E-003;
2.411166666666667E+009;1.828881651163101E-001;-3.466858714818955E-002;1.809734618291259E-003;-5.201861727982760E-003;
2.411333333333334E+009;1.824090778827667E-001;-3.487125039100647E-002;1.540409168228507E-003;-5.261694081127644E-003;
2.411500000000000E+009;1.817932426929474E-001;-3.538776561617851E-002;1.697961473837495E-003;-5.513363983482122E-003;
2.411666666666667E+009;1.812058389186859E-001;-3.569251298904419E-002;1.239597797393799E-003;-5.693429615348578E-003;
2.411833333333334E+009;1.805713921785355E-001;-3.602201864123344E-002;9.659213246777654E-004;-5.855232942849398E-003;
2.412000000000000E+009;1.798931211233139E-001;-3.652304783463478E-002;8.538303663954139E-004;-6.014439277350903E-003;
2.412166666666667E+009;1.788278073072434E-001;-3.695229440927506E-002;6.247534765861929E-004;-6.176049821078777E-003;
2.412333333333334E+009;1.780522465705872E-001;-3.744976967573166E-002;3.716099599841982E-004;-6.365091074258089E-003;
2.412500000000000E+009;1.767176091670990E-001;-3.811051696538925E-002;8.907305891625583E-005;-6.215414963662624E-003;
2.412666666666667E+009;1.758406013250351E-001;-3.885691240429878E-002;-9.900947770802304E-005;-6.440275348722935E-003;
2.412833333333334E+009;1.746181100606918E-001;-3.960727155208588E-002;-3.660566580947489E-004;-6.337182596325874E-003;
2.413000000000000E+009;1.734785735607147E-001;-4.024408757686615E-002;-6.938120932318270E-004;-6.611771415919066E-003;
2.413166666666667E+009;1.721451282501221E-001;-4.121314361691475E-002;-9.012259542942047E-004;-6.568743847310543E-003;
2.413333333333334E+009;1.708751022815704E-001;-4.210720583796501E-002;-1.258075353689492E-003;-6.665874738246203E-003;
2.413500000000000E+009;1.696501374244690E-001;-4.302688688039780E-002;-1.636169967241585E-003;-6.513598840683699E-003;
2.413666666666667E+009;1.682743281126022E-001;-4.424202069640160E-002;-1.939559471793473E-003;-6.637513637542725E-003;
2.413833333333334E+009;1.669882237911224E-001;-4.534327983856201E-002;-2.223672578111291E-003;-6.366617511957884E-003;
2.414000000000000E+009;1.654868870973587E-001;-4.677605256438255E-002;-2.493152162060142E-003;-6.442476063966751E-003;
2.414166666666667E+009;1.644689887762070E-001;-4.787910729646683E-002;-2.817137399688363E-003;-6.339834071695805E-003;
2.414333333333334E+009;1.632279008626938E-001;-4.945898428559303E-002;-3.047535195946693E-003;-6.270169746130705E-003;
2.414500000000000E+009;1.622707098722458E-001;-5.090066790580750E-002;-3.134728875011206E-003;-6.001535337418318E-003;
2.414666666666667E+009;1.610788851976395E-001;-5.231618136167526E-002;-3.613119944930077E-003;-5.998933687806130E-003;
2.414833333333334E+009;1.599363833665848E-001;-5.413122102618218E-002;-3.903439035639167E-003;-5.875673145055771E-003;
2.415000000000000E+009;1.589025110006332E-001;-5.568607896566391E-002;-4.072152078151703E-003;-5.558209959417582E-003;
2.415166666666667E+009;1.580592989921570E-001;-5.756501480937004E-002;-4.269983153790236E-003;-5.479980260133743E-003;
2.415333333333334E+009;1.572418063879013E-001;-5.935897678136826E-002;-4.535835236310959E-003;-5.144603084772825E-003;
2.415500000000000E+009;1.564523577690125E-001;-6.108259409666061E-002;-4.627957940101624E-003;-4.914499353617430E-003;
2.415666666666667E+009;1.557134389877319E-001;-6.308969110250473E-002;-4.939327947795391E-003;-4.696122836321592E-003;
2.415833333333334E+009;1.551144421100617E-001;-6.504090130329132E-002;-5.026687867939472E-003;-4.412631038576365E-003;
2.416000000000000E+009;1.543939709663391E-001;-6.709978729486466E-002;-5.043609533458948E-003;-4.292347002774477E-003;
2.416166666666667E+009;1.540528535842896E-001;-6.894683837890625E-002;-5.276266485452652E-003;-4.121087025851011E-003;
2.416333333333334E+009;1.536619514226914E-001;-7.095994800329208E-002;-5.360925104469061E-003;-3.783736843615770E-003;
2.416500000000000E+009;1.533198654651642E-001;-7.298678159713745E-002;-5.431565921753645E-003;-3.408145625144243E-003;
2.416666666666667E+009;1.528652459383011E-001;-7.492682337760925E-002;-5.443998612463474E-003;-3.174303565174341E-003;
2.416833333333334E+009;1.527860462665558E-001;-7.700509577989578E-002;-5.565473809838295E-003;-3.148057032376528E-003;
2.417000000000000E+009;1.522746533155441E-001;-7.882874459028244E-002;-5.476406309753656E-003;-2.952165203168988E-003;
2.417166666666667E+009;1.522822827100754E-001;-8.062266558408737E-002;-5.657217931002379E-003;-2.731853397563100E-003;
2.417333333333334E+009;1.522704809904099E-001;-8.228368312120438E-002;-5.429182201623917E-003;-2.586171729490161E-003;
2.417500000000000E+009;1.520746648311615E-001;-8.426480740308762E-002;-5.552840884774923E-003;-2.393370261415839E-003;
2.417666666666667E+009;1.523143500089645E-001;-8.552844077348709E-002;-5.584648344665766E-003;-2.274321857839823E-003;
2.417833333333334E+009;1.522643268108368E-001;-8.721488714218140E-002;-5.665736738592386E-003;-2.193167107179761E-003;
2.418000000000000E+009;1.523525267839432E-001;-8.873965591192246E-002;-5.627810023725033E-003;-2.051377901807427E-003;
2.418166666666667E+009;1.523960530757904E-001;-8.993422240018845E-002;-5.632528569549322E-003;-1.813824637793005E-003;
2.418333333333334E+009;1.528278738260269E-001;-9.118074178695679E-002;-5.726029165089130E-003;-1.724411617033184E-003;
2.418500000000000E+009;1.529276520013809E-001;-9.228878468275070E-002;-5.917983129620552E-003;-1.551033114083111E-003;
2.418666666666667E+009;1.532101333141327E-001;-9.331623464822769E-002;-5.814149510115385E-003;-1.573434099555016E-003;
2.418833333333334E+009;1.531604379415512E-001;-9.419645369052887E-002;-5.835035350173712E-003;-1.284355064854026E-003;
2.419000000000000E+009;1.533466279506683E-001;-9.492368996143341E-002;-6.092844530940056E-003;-1.142540830187500E-003;
2.419166666666667E+009;1.535702943801880E-001;-9.556435793638229E-002;-6.046871189028025E-003;-1.032830448821187E-003;
2.419333333333334E+009;1.535760909318924E-001;-9.589432924985886E-002;-6.056909915059805E-003;-9.089185041375458E-004;
2.419500000000000E+009;1.539725214242935E-001;-9.658318758010864E-002;-6.205635145306587E-003;-6.008834461681545E-004;
2.419666666666667E+009;1.541202515363693E-001;-9.679474681615830E-002;-6.182150915265083E-003;-5.512952338904142E-004;
2.419833333333334E+009;1.541665047407150E-001;-9.681958705186844E-002;-6.251275539398193E-003;-4.779684240929782E-004;
2.420000000000000E+009;1.544017940759659E-001;-9.702163189649582E-002;-6.372584030032158E-003;-2.784510725177825E-004;
2.420166666666667E+009;1.544348895549774E-001;-9.688074886798859E-002;-6.476918701082468E-003;1.137536601163447E-004;
2.420333333333334E+009;1.544490307569504E-001;-9.700799733400345E-002;-6.441508419811726E-003;1.038607297232375E-004;
2.420500000000000E+009;1.545680165290833E-001;-9.664171189069748E-002;-6.553588900715113E-003;2.860450185835362E-004;
2.420666666666667E+009;1.544497907161713E-001;-9.636378288269043E-002;-6.623516790568829E-003;6.216294714249671E-004;
2.420833333333334E+009;1.542901545763016E-001;-9.621350467205048E-002;-6.550868041813374E-003;7.893096189945936E-004;
2.421000000000000E+009;1.539832204580307E-001;-9.598782658576965E-002;-6.799702066928148E-003;1.163957756944001E-003;
2.421166666666667E+009;1.540794521570206E-001;-9.571517258882523E-002;-6.765920203179121E-003;1.293335109949112E-003;
2.421333333333334E+009;1.536248475313187E-001;-9.543257206678391E-002;-6.988691631704569E-003;1.612765714526177E-003;
2.421500000000000E+009;1.530818045139313E-001;-9.498315304517746E-002;-6.842180155217648E-003;1.853124122135341E-003;
2.421666666666667E+009;1.526423990726471E-001;-9.465853869915009E-002;-7.002664264291525E-003;2.209072932600975E-003;
2.421833333333334E+009;1.521602123975754E-001;-9.430561959743500E-002;-7.054466754198074E-003;2.462337957695127E-003;
2.422000000000000E+009;1.512120515108109E-001;-9.406734257936478E-002;-6.882388144731522E-003;2.753837965428829E-003;
2.422166666666667E+009;1.505922228097916E-001;-9.397589415311813E-002;-6.870918907225132E-003;2.907297806814313E-003;
2.422333333333334E+009;1.497531235218048E-001;-9.368219226598740E-002;-6.992234382778406E-003;3.419965738430619E-003;
2.422500000000000E+009;1.487308293581009E-001;-9.339934587478638E-002;-6.746002472937107E-003;3.731118282303214E-003;
2.422666666666667E+009;1.473842710256577E-001;-9.324893355369568E-002;-6.556890904903412E-003;4.217263776808977E-003;
2.422833333333334E+009;1.464957445859909E-001;-9.326309710741043E-002;-6.346391513943672E-003;4.563913680613041E-003;
2.423000000000000E+009;1.450544893741608E-001;-9.315416216850281E-002;-6.182909943163395E-003;4.785747732967138E-003;
2.423166666666667E+009;1.438167840242386E-001;-9.325008094310761E-002;-5.854256451129913E-003;5.209258291870356E-003;
2.423333333333334E+009;1.425272971391678E-001;-9.304095804691315E-002;-5.532724782824516E-003;5.471751559525728E-003;
2.423500000000000E+009;1.408507972955704E-001;-9.325780719518662E-002;-5.410231649875641E-003;5.682060960680246E-003;
2.423666666666667E+009;1.393633782863617E-001;-9.352557361125946E-002;-5.034697707742453E-003;5.803244654089212E-003;
2.423833333333334E+009;1.379581540822983E-001;-9.385743737220764E-002;-4.735393449664116E-003;6.092146039009094E-003;
2.424000000000000E+009;1.363979876041412E-001;-9.403936564922333E-002;-4.482003394514322E-003;6.302043795585632E-003;
2.424166666666667E+009;1.347454190254211E-001;-9.447007626295090E-002;-4.161467310041189E-003;6.287550088018179E-003;
2.424333333333334E+009;1.335792094469070E-001;-9.483962506055832E-002;-3.762333188205957E-003;6.534873507916927E-003;
2.424500000000000E+009;1.319451779127121E-001;-9.554361552000046E-002;-3.582102013751864E-003;6.532114464789629E-003;
2.424666666666667E+009;1.307294219732285E-001;-9.607514739036560E-002;-3.242859384045005E-003;6.754854228347540E-003;
2.424833333333334E+009;1.290839463472366E-001;-9.696500748395920E-002;-2.896204125136137E-003;6.745840422809124E-003;
2.425000000000000E+009;1.276366263628006E-001;-9.789860993623734E-002;-2.682431368157268E-003;6.804848089814186E-003;
2.425166666666667E+009;1.263523101806641E-001;-9.880322217941284E-002;-2.042556880041957E-003;6.659130565822125E-003;
2.425333333333334E+009;1.251327097415924E-001;-9.994298219680786E-002;-2.019889885559678E-003;6.671498529613018E-003;
2.425500000000000E+009;1.240646392107010E-001;-1.011289656162262E-001;-1.786625362001360E-003;6.858755368739367E-003;
2.425666666666667E+009;1.227553337812424E-001;-1.023755073547363E-001;-1.309795188717544E-003;6.740440614521503E-003;
2.425833333333334E+009;1.217849031090736E-001;-1.036842539906502E-001;-1.077880850061774E-003;6.745048332959414E-003;
2.426000000000000E+009;1.207138299942017E-001;-1.050437390804291E-001;-8.442747057415545E-004;6.552143953740597E-003;
2.426166666666667E+009;1.199911758303642E-001;-1.065867543220520E-001;-4.779744776897132E-004;6.555284373462200E-003;
2.426333333333334E+009;1.191211938858032E-001;-1.080267354846001E-001;-3.710616438183934E-004;6.384838838130236E-003;
2.426500000000000E+009;1.184448301792145E-001;-1.095225960016251E-001;-4.211726263747551E-005;6.346666719764471E-003;
2.426666666666667E+009;1.179157942533493E-001;-1.110716760158539E-001;-1.836626324802637E-005;6.258508190512657E-003;
2.426833333333334E+009;1.172092407941818E-001;-1.126498952507973E-001;1.695032551651821E-004;6.212131585925818E-003;
2.427000000000000E+009;1.166449561715126E-001;-1.143814027309418E-001;4.128330037929118E-004;6.087474059313536E-003;
2.427166666666667E+009;1.162023097276688E-001;-1.158209666609764E-001;6.281734094955027E-004;6.008151918649674E-003;
2.427333333333334E+009;1.158645078539848E-001;-1.175778955221176E-001;8.468409068882465E-004;5.853759124875069E-003;
2.427500000000000E+009;1.157786175608635E-001;-1.192333027720451E-001;9.508007206022739E-004;5.687261931598187E-003;
2.427666666666667E+009;1.154169589281082E-001;-1.208108812570572E-001;1.083629205822945E-003;5.677603185176849E-003;
