# Hz S RI R 50
2400000000.0000000000 0.167764559388160705566406250000 0.041026219725608832622487653907 -0.000880768755450844764709472656 -0.002724333666265010833740234375 0 0 0 0 
2400166666.6666665077 0.168471887707710293868856865629 0.040418416261672966693918596093 -0.001054882304742932102800678784 -0.002918436890468000931980752100 0 0 0 0 
2400333333.3333334923 0.168811321258544894119424384371 0.039366666227579116821289062500 -0.001038723159581423022626567310 -0.002895276993513106866123818506 0 0 0 0 
2400500000.0000000000 0.169407084584236200530682481258 0.038563620299100882793386091407 -0.001325204153545201041577983325 -0.002758961403742433027980185400 0 0 0 0 
2400666666.6666665077 0.169825389981269808670205634371 0.037512883543968200683593750000 -0.001294708694331347942352294922 -0.003060657763853669166564941406 0 0 0 0 
2400833333.3333334923 0.170091390609741210937500000000 0.036760766059160232543945312500 -0.001370225683785974979400634766 -0.002886966569349170164821005713 0 0 0 0 
2401000000.0000000000 0.170350417494773892501669365629 0.035854808986186981201171875000 -0.001538335229270159981371235425 -0.003075832035392522811889648438 0 0 0 0 
2401166666.6666665077 0.170598313212394686599893134371 0.034768283367156982421875000000 -0.001728120492771268107770610278 -0.003109304932877420945408486475 0 0 0 0 
2401333333.3333334923 0.170799255371093805511151231258 0.034031465649604797363281250000 -0.002056408673524857001063681494 -0.002928108908236027197596884619 0 0 0 0 
2401500000.0000000000 0.171038880944251986404580634371 0.033164087682962417602539062500 -0.002289904747158288955688476562 -0.003044004086405038833618164062 0 0 0 0 
2401666666.6666665077 0.171205386519432095626669365629 0.032133109867572777484934221093 -0.002475838642567396163940429688 -0.003086026990786194801330566406 0 0 0 0 
2401833333.3333334923 0.171409606933593805511151231258 0.031101239845156669616699218750 -0.002845668001100420951843261719 -0.003062608418986200852635048975 0 0 0 0 
2402000000.0000000000 0.171047344803810091873330634371 0.030190654098987579345703125000 -0.002913887146860361099243164062 -0.002968373941257596015930175781 0 0 0 0 
2402166666.6666665077 0.171320989727973910232705634371 0.029180120676755908620814139454 -0.003118750872090458869934082031 -0.002831363584846258163452148438 0 0 0 0 
2402333333.3333334923 0.171087697148323086837606865629 0.028325716033577919006347656250 -0.003453031415119767189025878906 -0.002796700224280356927158974756 0 0 0 0 
2402500000.0000000000 0.171241745352745111663494981258 0.027486070990562438964843750000 -0.003718306310474873022792197119 -0.002430471591651440100428915869 0 0 0 0 
2402666666.6666665077 0.171431675553321810623330634371 0.026411026716232299804687500000 -0.003709799610078334808349609375 -0.002268443116918206214904785156 0 0 0 0 
2402833333.3333334923 0.171245798468589810470419365629 0.025284521281719211233118826954 -0.003897224087268114089965820312 -0.001999315340071917013881064307 0 0 0 0 
2403000000.0000000000 0.171077758073806790450888115629 0.024322513490915298461914062500 -0.003851254703477025032043457031 -0.001861258991993963935254741138 0 0 0 0 
2403166666.6666665077 0.171006888151168795486611884371 0.023106647655367851257324218750 -0.003946887329220771789550781250 -0.001604047953151166005375527490 0 0 0 0 
2403333333.3333334923 0.170993894338607788085937500000 0.022176891565322879446009451954 -0.003845253726467490196228027344 -0.001209463691338896968244243091 0 0 0 0 
2403500000.0000000000 0.170873329043388394454794365629 0.020912626758217811584472656250 -0.004093506373465061187744140625 -0.001040521659888326904894184644 0 0 0 0 
2403666666.6666665077 0.170762851834297207931356865629 0.019653839990496638906458670704 -0.003904197132214903831481933594 -0.001076605054549873092054057544 0 0 0 0 
2403833333.3333334923 0.170775175094604492187500000000 0.018344048410654071462611014454 -0.003999142441898584365844726562 -0.000856609956827014684677124023 0 0 0 0 
2404000000.0000000000 0.170661866664886502364950615629 0.017371574416756629943847656250 -0.003855160670354961915257119287 -0.000594595971051603555679321289 0 0 0 0 
2404166666.6666665077 0.170572176575660705566406250000 0.015870986506342891347864920704 -0.003946652635931968688964843750 -0.000373263406800106222003382550 0 0 0 0 
2404333333.3333334923 0.170327067375183105468750000000 0.014696579426527019845982735546 -0.003833234310150146918055868994 -0.000211785809369757798597058707 0 0 0 0 
2404500000.0000000000 0.170173987746238708496093750000 0.013150936923921109980573085352 -0.003907974343746901425833417676 -0.000043838961573783308267593384 0 0 0 0 
2404666666.6666665077 0.170281246304511996170205634371 0.011791299097239969426165195898 -0.003780375467613338990452431787 -0.000079031080531422048807144165 0 0 0 0 
2404833333.3333334923 0.170222774147987393478231865629 0.010373697616159919393519217579 -0.003638572525233029885532998193 0.000110740649688523303396762987 0 0 0 0 
2405000000.0000000000 0.170293658971786499023437500000 0.009035399183630943298339843750 -0.003584660589694976806640625000 0.000244126757024787393495282584 0 0 0 0 
2405166666.6666665077 0.170273452997207613845986884371 0.007515229750424624356741620801 -0.003665865631774067878723144531 0.000170220257132314199775141583 0 0 0 0 
2405333333.3333334923 0.170393168926239013671875000000 0.005937347654253244400024414062 -0.003736684564501047134399414062 0.000424982688855379819869995117 0 0 0 0 
2405500000.0000000000 0.170267835259437588790731865629 0.004390752408653497695922851562 -0.003527066204696894125697470557 0.000349782174453139305114746094 0 0 0 0 
2405666666.6666665077 0.170146554708480807205361884371 0.002676047151908278898951865088 -0.003530021291226149039027548682 0.000261674285866320078999119891 0 0 0 0 
2405833333.3333334923 0.169959470629692105392294365629 0.001376335625536740043042827075 -0.003581541823223232789280556787 0.000656585034448653459548950195 0 0 0 0 
2406000000.0000000000 0.170033544301986694335937500000 -0.000501863076351583003997802734 -0.003441847860813140869140625000 0.000749129801988601684570312500 0 0 0 0 
2406166666.6666665077 0.169865071773529108245526231258 -0.001944839954376220919965434497 -0.003486230736598372893092490088 0.000787268625572323799133300781 0 0 0 0 
2406333333.3333334923 0.169941231608390808105468750000 -0.003443269757553935050964355469 -0.003534694900736213164088583838 0.001043404568918048901798867334 0 0 0 0 
2406500000.0000000000 0.169776335358619689941406250000 -0.005114316008985042572021484375 -0.003460445906966925101039267432 0.001191096380352973937988281250 0 0 0 0 
2406666666.6666665077 0.169469431042671203613281250000 -0.006523279473185539245605468750 -0.003615720430389047102687216650 0.001063424861058593013166118091 0 0 0 0 
2406833333.3333334923 0.169377222657203702071981865629 -0.008184392936527729034423828125 -0.003308174898847938017604208838 0.001287872670218348936793661963 0 0 0 0 
2407000000.0000000000 0.169318661093711908538494981258 -0.009458055719733238220214843750 -0.003426675219088792800903320312 0.001343058072961867072461772388 0 0 0 0 
2407166666.6666665077 0.169293105602264404296875000000 -0.010854296386241909372349923046 -0.003363269381225109100341796875 0.001554984715767204978345561450 0 0 0 0 
2407333333.3333334923 0.168898448348045404632244981258 -0.012333203107118610036829764454 -0.003256450640037655830383300781 0.001525051309727132103563618237 0 0 0 0 
2407500000.0000000000 0.168773204088211087325888115629 -0.013404183089733120309849923046 -0.003320379415526986122131347656 0.001850191503763199069379496997 0 0 0 0 
2407666666.6666665077 0.168577179312705993652343750000 -0.014721449464559560257881365430 -0.003137311432510613961460732568 0.002021144609898329214808798682 0 0 0 0 
2407833333.3333334923 0.168389275670051602462606865629 -0.015935862436890598642369454296 -0.002990921493619679970982216943 0.001912874868139625029322958838 0 0 0 0 
2408000000.0000000000 0.168155655264854403396768134371 -0.016991641372442248952845389454 -0.003059291746467351913452148438 0.002051576739177107810974121094 0 0 0 0 
2408166666.6666665077 0.168167173862457303146200615629 -0.017880856990814208984375000000 -0.002955862553790212111232138525 0.002365887165069580078125000000 0 0 0 0 
2408333333.3333334923 0.168242707848548889160156250000 -0.018734622746706008911132812500 -0.002796806395053863959071493994 0.002310389885678886933567666162 0 0 0 0 
2408500000.0000000000 0.168191581964492797851562500000 -0.019794046878814700735071951954 -0.002742181532084941864013671875 0.002460551913827658133265829932 0 0 0 0 
2408666666.6666665077 0.168088987469673212249432481258 -0.020631097257137298583984375000 -0.002658353652805089950561523438 0.002418976044282317161560058594 0 0 0 0 
2408833333.3333334923 0.168084695935249300857705634371 -0.021552707999944690359095389454 -0.002530926140025258064270019531 0.002551520243287086920497275244 0 0 0 0 
2409000000.0000000000 0.168200865387916592696981865629 -0.022314034402370449411412423046 -0.002629561815410851998570107568 0.002695531817153096199035644531 0 0 0 0 
2409166666.6666665077 0.168366968631744412521200615629 -0.023117367178201678884486014454 -0.002415430732071400122401572119 0.002723164390772581100463867188 0 0 0 0 
2409333333.3333334923 0.168501958250999506194744981258 -0.024095507338643070566197579296 -0.002309284405782818794250488281 0.002984992694109677834751748193 0 0 0 0 
2409500000.0000000000 0.168631196022033691406250000000 -0.025225266814231869089146798046 -0.002060899278149009184596396338 0.002971566980704665184020996094 0 0 0 0 
2409666666.6666665077 0.168775752186775207519531250000 -0.026026507839560508728027343750 -0.001970518147572875022888183594 0.002890457166358828978297568213 0 0 0 0 
2409833333.3333334923 0.168835416436195401290731865629 -0.026706809177994731557825858204 -0.001876923372037708976148295825 0.002853599144145845933201455225 0 0 0 0 
2410000000.0000000000 0.169012427330017089843750000000 -0.027703640982508659362792968750 -0.001596641493961215019226074219 0.002827604068443179130554199219 0 0 0 0 
2410166666.6666665077 0.168923094868660000900106865629 -0.028383811935782429086705391796 -0.001569450949318706989288330078 0.002990226028487085862400673975 0 0 0 0 
2410333333.3333334923 0.168811455368995694259481865629 -0.029395082965493198740025704296 -0.001517605618573725006700825269 0.002929787384346127943751669775 0 0 0 0 
2410500000.0000000000 0.168884649872779901702557481258 -0.030480658635497089731236641796 -0.001375407213345170021057128906 0.002765533747151494026184082031 0 0 0 0 
2410666666.6666665077 0.168852537870407104492187500000 -0.031507961452007286762277971093 -0.001200312050059437968610454028 0.002983152633532882170436240088 0 0 0 0 
2410833333.3333334923 0.168727412819862393478231865629 -0.032201442867517471313476562500 -0.001267568091861904101130820166 0.002811622107401490211486816406 0 0 0 0 
2411000000.0000000000 0.168507114052772494217080634371 -0.033062428236007690429687500000 -0.001084362040273844978929829175 0.002912261988967657089233398438 0 0 0 0 
2411166666.6666665077 0.168357223272323608398437500000 -0.034151904284954071044921875000 -0.001088668010197580077527690356 0.002896066755056380791905068506 0 0 0 0 
2411333333.3333334923 0.168258786201477106292401231258 -0.034964699298143386840820312500 -0.000922097766306251287460327148 0.002900203224271535873413085938 0 0 0 0 
2411500000.0000000000 0.167992115020752008636151231258 -0.036054246127605438232421875000 -0.000931221293285489082336425781 0.002896077930927277045008993994 0 0 0 0 
2411666666.6666665077 0.167995348572730990310830634371 -0.036822628229856491088867187500 -0.000904836342670023441314697266 0.002878049155697226958033896338 0 0 0 0 
2411833333.3333334923 0.167734205722808810135049384371 -0.037572942674159996723215471093 -0.000695105176419019699096679688 0.002855398226529359817504882812 0 0 0 0 
2412000000.0000000000 0.167412430047988891601562500000 -0.038599453866481781005859375000 -0.000708835723344236612319946289 0.002838020445778965950012207031 0 0 0 0 
2412166666.6666665077 0.166997388005256708343182481258 -0.039608962833881378173828125000 -0.000600167142692953348159790039 0.002947497414425015015843056787 0 0 0 0 
2412333333.3333334923 0.167046844959259005447549384371 -0.040417544543743126606027971093 -0.000423389516072347814410609113 0.002782922703772782845738076318 0 0 0 0 
2412500000.0000000000 0.166456520557403592208700615629 -0.041284710168838500976562500000 -0.000451923813670873587757664813 0.002926049521192907853367470850 0 0 0 0 
2412666666.6666665077 0.166120976209640502929687500000 -0.042379666119813919067382812500 -0.000262698187725618481636047363 0.002793048275634645982029580225 0 0 0 0 
2412833333.3333334923 0.165657177567481994628906250000 -0.043395914137363426898996721093 -0.000192468171007931205347338266 0.002953695133328437805175781250 0 0 0 0 
2413000000.0000000000 0.165433362126350402832031250000 -0.044378958642482757568359375000 0.000079323035606648772954940796 0.002910054055973887009861611475 0 0 0 0 
2413166666.6666665077 0.164806351065635708907919365629 -0.045454807579517371440847028907 0.000192164254258386790752410889 0.002790182363241910934448242188 0 0 0 0 
2413333333.3333334923 0.164441108703613309005575615629 -0.046463541686534881591796875000 0.000248164113145321607589721680 0.002530958503484725952148437500 0 0 0 0 
2413500000.0000000000 0.164014309644699096679687500000 -0.047471780329942703247070312500 0.000347260560374706983566284180 0.002371869282796978950500488281 0 0 0 0 
2413666666.6666665077 0.163707002997398404220419365629 -0.048567719757556922222097028907 0.000377319258404895717471522198 0.002351545030251144929173134912 0 0 0 0 
2413833333.3333334923 0.163078382611274691482705634371 -0.049383986741304397583007812500 0.000315264362143352573544102802 0.002177294343709946112391806494 0 0 0 0 
2414000000.0000000000 0.162519589066505404373330634371 -0.050683841109275817871093750000 0.000370731955626979524463099347 0.002021881984546781019923544775 0 0 0 0 
2414166666.6666665077 0.162302896380424499511718750000 -0.051435943692922592163085937500 0.000262077228398993611335754395 0.001839905628003180027008056641 0 0 0 0 
2414333333.3333334923 0.161941364407539395431356865629 -0.052462223917245871807057966407 0.000121076918730977895572939462 0.001784325926564634063123393481 0 0 0 0 
2414500000.0000000000 0.161879852414131192306356865629 -0.053458515554666519165039062500 0.000238760476349853006288251334 0.001821289304643868966343545068 0 0 0 0 
2414666666.6666665077 0.161472022533416803558026231258 -0.054478973150253302837331403907 -0.000035876328183803707361221313 0.001821236684918404059169150244 0 0 0 0 
2414833333.3333334923 0.161190330982208307464276231258 -0.055499281734228127216379533593 -0.000120184260595124201335091862 0.001988211646676063971278525244 0 0 0 0 
2415000000.0000000000 0.161012828350067110916299384371 -0.056487035006284706806223283593 -0.000148902210639789700508117676 0.002036996651440858840942382812 0 0 0 0 
2415166666.6666665077 0.160743266344070406814736884371 -0.057611491531133651733398437500 -0.000125416423543356413215082990 0.002084844047203660011291503906 0 0 0 0 
2415333333.3333334923 0.160655438899993896484375000000 -0.058714225888252258300781250000 -0.000230838544666767093256273813 0.002135279355570673942565917969 0 0 0 0 
2415500000.0000000000 0.160573989152908297439736884371 -0.059747055172920227050781250000 -0.000226096395635977387428283691 0.002319994848221540884730673682 0 0 0 0 
2415666666.6666665077 0.160361275076866205413494981258 -0.060952991247177117084543596093 -0.000204300537006929489687243051 0.002324073109775782065150595557 0 0 0 0 
2415833333.3333334923 0.160203948616981506347656250000 -0.062026493251323699951171875000 -0.000071699629188515245914459229 0.002659024437889457182643271338 0 0 0 0 
2416000000.0000000000 0.159893736243248013595419365629 -0.063375204801559448242187500000 -0.000166523110237903892993927002 0.002624949207529426054713583838 0 0 0 0 
2416166666.6666665077 0.159871175885200500488281250000 -0.064511701464653015136718750000 -0.000046570243284804753284861906 0.002631071722134948210475302588 0 0 0 0 
2416333333.3333334923 0.159742951393127413650674384371 -0.065671607851982116699218750000 0.000039310391002800322394778593 0.002980988705530763106105185400 0 0 0 0 
2416500000.0000000000 0.159475266933441189864950615629 -0.066948018968105316162109375000 0.000286713824607431888580322266 0.002897175960242747826817177881 0 0 0 0 
2416666666.6666665077 0.159042358398437500000000000000 -0.068163201212882995605468750000 0.000497407047078013420104980469 0.002868573181331158118007040869 0 0 0 0 
2416833333.3333334923 0.158833548426628112792968750000 -0.069335147738456726074218750000 0.000454035092843696475028991699 0.002740639494732021851780556787 0 0 0 0 
2417000000.0000000000 0.158320650458335904220419365629 -0.070492066442966461181640625000 0.000640006735920906066894531250 0.002823477843776344819309853662 0 0 0 0 
2417166666.6666665077 0.158036574721336392501669365629 -0.071481712162494659423828125000 0.000747077341657131910324096680 0.002812279388308525085449218750 0 0 0 0 
2417333333.3333334923 0.157665982842445401290731865629 -0.072396107017993927001953125000 0.000669083092361688613891601562 0.002560294931754469871520996094 0 0 0 0 
2417500000.0000000000 0.157446399331092806717080634371 -0.073624774813652038574218750000 0.000826776027679443359375000000 0.002694584429264069037196493994 0 0 0 0 
2417666666.6666665077 0.157181099057197598556356865629 -0.074242390692234039306640625000 0.000782821851316839456558227539 0.002452193526551127000095986475 0 0 0 0 
2417833333.3333334923 0.156738370656967190841513115629 -0.075245112180709838867187500000 0.000755440036300569772720336914 0.002517853630706667900085449219 0 0 0 0 
2418000000.0000000000 0.156356588006019592285156250000 -0.076070763170719146728515625000 0.000831309123896062374114990234 0.002514089224860072135925292969 0 0 0 0 
2418166666.6666665077 0.155992224812507601638955634371 -0.076626807451248168945312500000 0.000894363853149116039276123047 0.002435632748529314994812011719 0 0 0 0 
2418333333.3333334923 0.155995935201644897460937500000 -0.077647060155868530273437500000 0.000725279678590595722198486328 0.002503245137631893157958984375 0 0 0 0 
2418500000.0000000000 0.155713334679603604415731865629 -0.078405112028121948242187500000 0.000810820201877504587173461914 0.002544745104387402968165732275 0 0 0 0 
2418666666.6666665077 0.155379042029380798339843750000 -0.079197324812412261962890625000 0.000800505047664046287536621094 0.002692593960091472105738974463 0 0 0 0 
2418833333.3333334923 0.155024021863937405685263115629 -0.079880267381668090820312500000 0.000793960178270936012268066406 0.002707902574911714033839560400 0 0 0 0 
2419000000.0000000000 0.154659166932105990310830634371 -0.080549597740173339843750000000 0.000950937566813081502914428711 0.003002599580213427977321005713 0 0 0 0 
2419166666.6666665077 0.154427379369735690017861884371 -0.081292726099491119384765625000 0.001058486639522016048431396484 0.003099765628576279120204306494 0 0 0 0 
2419333333.3333334923 0.153920322656631497482138115629 -0.081754647195339202880859375000 0.001049102866090833923937153394 0.003176239086315035820007324219 0 0 0 0 
2419500000.0000000000 0.153534099459648104568643134371 -0.082639500498771667480468750000 0.001400652108713984923121786963 0.003199954284355043931248330225 0 0 0 0 
2419666666.6666665077 0.153286576271057101150674384371 -0.083420038223266601562500000000 0.001431369339115917899488139575 0.003288413165137172178981161963 0 0 0 0 
2419833333.3333334923 0.152853593230247497558593750000 -0.083744987845420837402343750000 0.001649219891987740993499755859 0.003539304248988627953770302881 0 0 0 0 
