# Hz S RI R 50
2400000000.0000000000 0.167807281017303494552450615629 0.041122809052467353130300153907 -0.000920970574952661991119384766 -0.002745087957009673118591308594 0 0 0 0 
2400166666.6666665077 0.168686911463737487792968750000 0.040322206914424903179128278907 -0.001004088320769370035884238135 -0.002863924717530608177185058594 0 0 0 0 
2400333333.3333334923 0.169026240706443786621093750000 0.039167489856481552124023437500 -0.001103075454011559920070029150 -0.002942134859040379957911826025 0 0 0 0 
2400500000.0000000000 0.169474512338638305664062500000 0.038388602435588836669921875000 -0.001232209033332765102386474609 -0.002900498686358333067653036963 0 0 0 0 
2400666666.6666665077 0.169658482074737604339276231258 0.037345405668020248413085937500 -0.001285141217522322914720844800 -0.003085111966356635093688964844 0 0 0 0 
2400833333.3333334923 0.170231252908706692794638115629 0.036508459597825997089426408593 -0.001561620621941983916639018481 -0.002988676074892282919642783057 0 0 0 0 
2401000000.0000000000 0.170341387391090393066406250000 0.035598576068878166889231096093 -0.001678680418990551991703652490 -0.003032979555428028106689453125 0 0 0 0 
2401166666.6666665077 0.170607969164848299881143134371 0.034695781767368316650390625000 -0.001709782052785157940508198315 -0.003014374990016222000122070312 0 0 0 0 
2401333333.3333334923 0.170666173100471496582031250000 0.033809125423431403423268903907 -0.001920297159813344912288046729 -0.003104487201198935942408896338 0 0 0 0 
2401500000.0000000000 0.171112582087516812423544365629 0.032953768968582153320312500000 -0.002089137444272636933567666162 -0.003054751083254814147949218750 0 0 0 0 
2401666666.6666665077 0.171309411525726290603799384371 0.032222539186477661132812500000 -0.002393728587776422934291220557 -0.003155160229653120040893554688 0 0 0 0 
2401833333.3333334923 0.171274334192276000976562500000 0.031179096549749370920201485546 -0.002617104444652795791625976562 -0.003042349359020591215846396338 0 0 0 0 
2402000000.0000000000 0.171129658818244906326455634371 0.030434723943471908569335937500 -0.003069434314966202215907431494 -0.003093657549470663070678710938 0 0 0 0 
2402166666.6666665077 0.171250715851783807952557481258 0.029248036444187160837193673046 -0.003119114087894558906555175781 -0.003049505176022648811340332031 0 0 0 0 
2402333333.3333334923 0.171153455972671508789062500000 0.028369015082716938364049141796 -0.003300323849543929100036621094 -0.002790287602692842917201376807 0 0 0 0 
2402500000.0000000000 0.171430885791778592208700615629 0.027581267058849341655690778907 -0.003691684687510132789611816406 -0.002394703682512044906616210938 0 0 0 0 
2402666666.6666665077 0.171337157487869290450888115629 0.026401562616229060781458670704 -0.003791867522522807121276855469 -0.002339877188205718994140625000 0 0 0 0 
2402833333.3333334923 0.171155780553817804534588731258 0.025420947000384330749511718750 -0.003996641840785741806030273438 -0.002151551656424998803379677881 0 0 0 0 
2403000000.0000000000 0.171310096979141207595986884371 0.024431550875306129455566406250 -0.003966107964515686035156250000 -0.001839989097788929939270019531 0 0 0 0 
2403166666.6666665077 0.171005383133888189117755018742 0.023196183145046230661412423046 -0.003944233525544404983520507812 -0.001543498481623827977421425928 0 0 0 0 
2403333333.3333334923 0.171048566699027987381143134371 0.022241292521357539785364920704 -0.004057417158037424087524414062 -0.001410218188539146943333291162 0 0 0 0 
2403500000.0000000000 0.171056300401687594314736884371 0.020968161523342129098912423046 -0.004086551256477832794189453125 -0.001243545440956949970842670972 0 0 0 0 
2403666666.6666665077 0.170811161398887606521768134371 0.019712029024958610534667968750 -0.004127572756260634335989667676 -0.001038839109241961999180459131 0 0 0 0 
2403833333.3333334923 0.170962050557136507888955634371 0.018326699733734130859375000000 -0.004049818497151136398315429688 -0.000681342731695622205734252930 0 0 0 0 
2404000000.0000000000 0.170741662383079501053018134371 0.017111865803599361074427420704 -0.003899285104125738143920898438 -0.000591293093748390674591064453 0 0 0 0 
2404166666.6666665077 0.170592769980430603027343750000 0.015897329896688461303710937500 -0.004070865456014871597290039062 -0.000525421986822038888931274414 0 0 0 0 
2404333333.3333334923 0.170539990067481994628906250000 0.014532415196299549448033516796 -0.003827617969363927841186523438 -0.000324894383084029013484400616 0 0 0 0 
2404500000.0000000000 0.170328915119171087066973768742 0.013123937882483010727852068555 -0.003847857005894184112548828125 -0.000132545697852037901252192365 0 0 0 0 
2404666666.6666665077 0.170310482382774408538494981258 0.011853395029902459925641444727 -0.003565107006579637961146689307 -0.000230486140935681787416181021 0 0 0 0 
2404833333.3333334923 0.170266076922416687011718750000 0.010438144207000730687151524023 -0.003818561090156435966491699219 -0.000200916227186098694801330566 0 0 0 0 
2405000000.0000000000 0.170333668589592007736044365629 0.008858537301421165466308593750 -0.003745379624888300895690917969 0.000007431564426951808854937553 0 0 0 0 
2405166666.6666665077 0.170251384377479608733807481258 0.007483304478228092193603515625 -0.003749000141397119002101279150 0.000324100954458117485046386719 0 0 0 0 
2405333333.3333334923 0.170271456241607693771200615629 0.005737869068980216979980468750 -0.003848574822768568992614746094 0.000301726046018302386433201923 0 0 0 0 
2405500000.0000000000 0.170338690280914306640625000000 0.004287746734917163848876953125 -0.003765662200748920006992959131 0.000270194752374664003222864972 0 0 0 0 
2405666666.6666665077 0.170210942625999506194744981258 0.002762016374617815017700195312 -0.003789973678067326979396201025 0.000674440234433859586715698242 0 0 0 0 
2405833333.3333334923 0.170032873749732998946981865629 0.001289512496441602923749614185 -0.003738795639947057204005576025 0.000568421441130340099334716797 0 0 0 0 
2406000000.0000000000 0.170144468545913696289062500000 -0.000510055047925561666488647461 -0.003653298830613493919372558594 0.000654130766633898019790649414 0 0 0 0 
2406166666.6666665077 0.169919446110725402832031250000 -0.001900914940051734013798379053 -0.003645045449957251982447958838 0.000806906668003648519515991211 0 0 0 0 
2406333333.3333334923 0.169889688491821289062500000000 -0.003515556454658507867100381006 -0.003691251855343579812290810693 0.000922962615732103586196899414 0 0 0 0 
2406500000.0000000000 0.169799268245696993728799384371 -0.005054725799709559354300214551 -0.003751913085579872131347656250 0.001264708116650580926182412256 0 0 0 0 
2406666666.6666665077 0.169363409280777005294638115629 -0.006455041933804749575143144824 -0.003554967464879155158996582031 0.001181890605948864979984902490 0 0 0 0 
2406833333.3333334923 0.169378265738487188141192518742 -0.008056718856096267700195312500 -0.003651624778285623030421591650 0.001404890441335737922071147388 0 0 0 0 
2407000000.0000000000 0.169199705123901394943075615629 -0.009523199871182441711425781250 -0.003573259804397820992710732568 0.001460642437450587966321635669 0 0 0 0 
2407166666.6666665077 0.169204741716384887695312500000 -0.010836961679160600144355974805 -0.003494837088510394096374511719 0.001548102707602083899854350513 0 0 0 0 
2407333333.3333334923 0.168792203068733187576455634371 -0.012292217463254930323590663477 -0.003469284391030669212341308594 0.001746002468280493996263813550 0 0 0 0 
2407500000.0000000000 0.168587073683738708496093750000 -0.013380538672208789480189139454 -0.003337535774335265159606933594 0.001821650075726211071014404297 0 0 0 0 
2407666666.6666665077 0.168579548597335787674111884371 -0.014641949906945230311383632227 -0.003247795160859822793247841943 0.001894024666398764090297079932 0 0 0 0 
2407833333.3333334923 0.168272331357002313811932481258 -0.015873556956648830068568045704 -0.003322909353300929069519042969 0.002058821963146328926086425781 0 0 0 0 
2408000000.0000000000 0.168184340000152587890625000000 -0.017013784497976299631138985546 -0.003133501159027218818664550781 0.002123754471540451049804687500 0 0 0 0 
2408166666.6666665077 0.168052434921264703948651231258 -0.017714813351631171489675153907 -0.003018307499587535858154296875 0.002316514262929559187648154150 0 0 0 0 
2408333333.3333334923 0.168238222599029513260049384371 -0.018692988902330398559570312500 -0.002928556175902485847473144531 0.002466398524120450019836425781 0 0 0 0 
2408500000.0000000000 0.168159887194633511642294365629 -0.019580712541937831533411795704 -0.002799195470288395881652832031 0.002596741076558827920200966943 0 0 0 0 
2408666666.6666665077 0.168234437704086303710937500000 -0.020645391196012500417689139454 -0.002673857146874070167541503906 0.002597409533336759047267294775 0 0 0 0 
2408833333.3333334923 0.168104246258735712249432481258 -0.021440843120217319833775704296 -0.002546779578551650047302246094 0.002624071203172206878662109375 0 0 0 0 
2409000000.0000000000 0.168339565396308898925781250000 -0.022281778976321220397949218750 -0.002483645919710398154017783057 0.002776623936370015144348144531 0 0 0 0 
2409166666.6666665077 0.168513253331184387207031250000 -0.023247214034199721599538435157 -0.002350783441215753988978720557 0.002702730940654873847961425781 0 0 0 0 
2409333333.3333334923 0.168661296367645291427450615629 -0.024025190621614459646204764454 -0.002176211215555667877197265625 0.002856295090168714956996298682 0 0 0 0 
2409500000.0000000000 0.168654605746269198318643134371 -0.025086194276809688913365548046 -0.002041866304352879957911826025 0.003049780614674090905430459131 0 0 0 0 
2409666666.6666665077 0.168751850724220303634481865629 -0.025820357725024219858189766796 -0.002078819554299116134643554688 0.002876735059544444084167480469 0 0 0 0 
2409833333.3333334923 0.168912068009376498123330634371 -0.026630267500877380371093750000 -0.001730481162667274908778525244 0.003003414487466216087341308594 0 0 0 0 
2410000000.0000000000 0.169002890586852999588174384371 -0.027732314541935920715332031250 -0.001640229485929012081743549878 0.002921541919931768937351845850 0 0 0 0 
2410166666.6666665077 0.169026926159858703613281250000 -0.028488049283623698842982108204 -0.001615259679965675094007182544 0.003017711918801068825962685693 0 0 0 0 
2410333333.3333334923 0.169000372290611294845419365629 -0.029562802985310561443288435157 -0.001401846529915929057477641528 0.002754879649728537039515829932 0 0 0 0 
2410500000.0000000000 0.168906837701797513107138115629 -0.030464559793472290039062500000 -0.001261103199794888930079794775 0.002921489765867590904235839844 0 0 0 0 
2410666666.6666665077 0.168838709592819213867187500000 -0.031329672783613211894948591407 -0.001283707795664668083190917969 0.002761680632829666137695312500 0 0 0 0 
2410833333.3333334923 0.168783962726592989822549384371 -0.032155506312847137451171875000 -0.001163885463029145977617573315 0.002793397288769483999965048682 0 0 0 0 
2411000000.0000000000 0.168529182672500610351562500000 -0.033099245280027389526367187500 -0.001159410225227474949480366284 0.002911193063482642173767089844 0 0 0 0 
2411166666.6666665077 0.168508455157279996017294365629 -0.034114535897970199584960937500 -0.000984375248663127422332763672 0.002917062258347868919372558594 0 0 0 0 
2411333333.3333334923 0.168250352144241305252236884371 -0.034927658736705780029296875000 -0.001033295062370598099352192456 0.002874625613912940025329589844 0 0 0 0 
2411500000.0000000000 0.168077796697616604904013115629 -0.035872638225555419921875000000 -0.000861568085383623838424682617 0.003038237569853663010838173975 0 0 0 0 
2411666666.6666665077 0.167868494987487792968750000000 -0.036794703453779220581054687500 -0.000841640110593289136886596680 0.002972228918224573135375976562 0 0 0 0 
2411833333.3333334923 0.167567193508148193359375000000 -0.037503302097320556640625000000 -0.000654877047054469585418701172 0.002911817049607634978053427588 0 0 0 0 
2412000000.0000000000 0.167440548539161709884481865629 -0.038492970168590552593190778907 -0.000645079882815480232238769531 0.002811324549838900999781943213 0 0 0 0 
2412166666.6666665077 0.166994661092758206466513115629 -0.039448212832212448120117187500 -0.000628389243502169847488403320 0.002962264465168118910548544775 0 0 0 0 
2412333333.3333334923 0.166971847414970397949218750000 -0.040210921317338936542551408593 -0.000591378193348646163940429688 0.003033646149560809135437011719 0 0 0 0 
2412500000.0000000000 0.166339248418808011154013115629 -0.041367456316947937011718750000 -0.000410041568102315122455042706 0.003061457304283976988551474463 0 0 0 0 
2412666666.6666665077 0.166150599718093899825888115629 -0.042387492954730987548828125000 -0.000132869652588851804107111798 0.003064928809180856184718466650 0 0 0 0 
2412833333.3333334923 0.165861263871192904373330634371 -0.043583184480667107318918596093 -0.000124976955703459707185468130 0.002848756965249776840209960938 0 0 0 0 
2413000000.0000000000 0.165446087718010004241619981258 -0.044391211122274398803710937500 -0.000102183315902948406621655875 0.002913687843829392953159951318 0 0 0 0 
2413166666.6666665077 0.164848715066909790039062500000 -0.045360285788774490356445312500 0.000180473027285188409403124399 0.002794974716380238966700888525 0 0 0 0 
2413333333.3333334923 0.164226338267326410491619981258 -0.046372078359127051616628278907 0.000282802007859572822421473370 0.002729553496465086936950683594 0 0 0 0 
2413500000.0000000000 0.164042845368385287185830634371 -0.047451242804527282714843750000 0.000308915536152198910713195801 0.002531865146011114120483398438 0 0 0 0 
2413666666.6666665077 0.163573741912841796875000000000 -0.048487871885299682617187500000 0.000376719835912808775901794434 0.002439527073875070051905966650 0 0 0 0 
2413833333.3333334923 0.163228332996368408203125000000 -0.049470197409391403198242187500 0.000419411342591047286987304688 0.002175470581278204917907714844 0 0 0 0 
2414000000.0000000000 0.162548348307609613616619981258 -0.050512667745351791381835937500 0.000474629225209355408519190656 0.002089079236611723899841308594 0 0 0 0 
2414166666.6666665077 0.162455752491950988769531250000 -0.051526363939046859741210937500 0.000457483751233667081028538837 0.001977454172447323799133300781 0 0 0 0 
2414333333.3333334923 0.162025615572929410079794365629 -0.052567157894372940063476562500 0.000218453409615904092788696289 0.001828300068154931068420410156 0 0 0 0 
2414500000.0000000000 0.161858424544334411621093750000 -0.053436394780874252319335937500 0.000065699408878572285175323486 0.001864266931079328060150146484 0 0 0 0 
2414666666.6666665077 0.161486983299255398849325615629 -0.054349839687347412109375000000 0.000046353448851732537150382996 0.001886353362351655960083007812 0 0 0 0 
2414833333.3333334923 0.161248490214347811599893134371 -0.055577762424945831298828125000 -0.000242797381361015086800175800 0.002005872549489140944239951025 0 0 0 0 
2415000000.0000000000 0.161081433296203613281250000000 -0.056426580995321266864817033593 -0.000189819606021046611383715219 0.002000514417886734008789062500 0 0 0 0 
2415166666.6666665077 0.160799503326415987869424384371 -0.057447206228971481323242187500 0.000054881766118342056870460510 0.002140586730092763900756835938 0 0 0 0 
2415333333.3333334923 0.160773307085037203689736884371 -0.058826625347137451171875000000 -0.000376727577531710321277064191 0.002181453164666891098022460938 0 0 0 0 
2415500000.0000000000 0.160635992884635897537393134371 -0.059875037521123893047292341407 -0.000112388057459611499875468121 0.002150045009329915046691894531 0 0 0 0 
2415666666.6666665077 0.160366609692573602874432481258 -0.060987684875726699829101562500 -0.000175493114511482390478411264 0.002531095640733838081359863281 0 0 0 0 
2415833333.3333334923 0.160327330231666592696981865629 -0.062229711562395102764089216407 -0.000233209240832366103499811993 0.002626787172630428834202431787 0 0 0 0 
2416000000.0000000000 0.159899652004241887848223768742 -0.063466370105743408203125000000 0.000194523337995633510038098746 0.002735787071287631988525390625 0 0 0 0 
2416166666.6666665077 0.159924447536468505859375000000 -0.064594298601150512695312500000 0.000073843082645907998085021973 0.002873042598366736932041787256 0 0 0 0 
2416333333.3333334923 0.159527495503425598144531250000 -0.065875358879566192626953125000 0.000199473244720138609409332275 0.002888742601498961014988564600 0 0 0 0 
2416500000.0000000000 0.159405261278152493575888115629 -0.067149549722671508789062500000 0.000252048135735094601481837140 0.002965172287076712088343954932 0 0 0 0 
2416666666.6666665077 0.159053415060043307205361884371 -0.068355873227119445800781250000 0.000335212447680532878071385516 0.002749874256551266150233603369 0 0 0 0 
2416833333.3333334923 0.158795073628425598144531250000 -0.069543644785881042480468750000 0.000558092258870601654052734375 0.002769832499325274987461709131 0 0 0 0 
2417000000.0000000000 0.158334940671920804122763115629 -0.070533186197280883789062500000 0.000680891389492899179458618164 0.002793491119518876075744628906 0 0 0 0 
2417166666.6666665077 0.158023819327354403396768134371 -0.071562334895133972167968750000 0.000895677716471254825592041016 0.002771858358755708174464560400 0 0 0 0 
2417333333.3333334923 0.157721057534217806717080634371 -0.072479650378227233886718750000 0.000888287671841681003570556641 0.002705757971853017807006835938 0 0 0 0 
2417500000.0000000000 0.157468736171722412109375000000 -0.073629140853881835937500000000 0.000946087820921093225479125977 0.002566187642514706091639853369 0 0 0 0 
2417666666.6666665077 0.157229483127593994140625000000 -0.074368469417095184326171875000 0.001043051364831625981571816553 0.002456912305206059975865029443 0 0 0 0 
2417833333.3333334923 0.156750723719596890548544365629 -0.075263403356075286865234375000 0.000898316211532801389694213867 0.002330244053155183792114257812 0 0 0 0 
2418000000.0000000000 0.156437024474144009689169365629 -0.076198570430278778076171875000 0.000976171577349305152893066406 0.002235090825706719918491982568 0 0 0 0 
2418166666.6666665077 0.156112357974052401443643134371 -0.076857581734657287597656250000 0.000806965399533510208129882812 0.002537721768021583990809775244 0 0 0 0 
2418333333.3333334923 0.156144753098487909515057481258 -0.077746756374835968017578125000 0.000900577637366950511932373047 0.002317709848284720940830849756 0 0 0 0 
2418500000.0000000000 0.155809268355369595626669365629 -0.078562073409557342529296875000 0.000854544108733534812927246094 0.002397724660113453865051269531 0 0 0 0 
2418666666.6666665077 0.155505269765853909591513115629 -0.079305946826934814453125000000 0.000778727233409881591796875000 0.002524082316085695786717080225 0 0 0 0 
2418833333.3333334923 0.155159547924995394607705634371 -0.080059096217155456542968750000 0.000953362963628023862838745117 0.002735109301283956007716513525 0 0 0 0 
2419000000.0000000000 0.154669672250747708419638115629 -0.080790705978870391845703125000 0.001011510030366479916813515771 0.002917842473834753036499023438 0 0 0 0 
2419166666.6666665077 0.154366418719291687011718750000 -0.081397421658039093017578125000 0.001111719524487853050231933594 0.003054697299376130104064941406 0 0 0 0 
2419333333.3333334923 0.153851866722106905838174384371 -0.081846036016941070556640625000 0.001201780629344284968135214697 0.003059100825339556174037314307 0 0 0 0 
2419500000.0000000000 0.153596207499504089355468750000 -0.082756519317626953125000000000 0.001311811502091587023494101416 0.003230254165828227996826171875 0 0 0 0 
2419666666.6666665077 0.153339043259620694259481865629 -0.083354547619819641113281250000 0.001617111964151263020159077222 0.003248128807172178788426064600 0 0 0 0 
2419833333.3333334923 0.152860939502716092208700615629 -0.083682753145694732666015625000 0.001701379194855690002441406250 0.003281239653006196022033691406 0 0 0 0 
