# Hz S RI R 
2400000000.0000000000 0.157304048538208007812500000000 0.112343028187751797775106865629 0.006347049027681350708007812500 0.001313882181420922062517475659 0 0 0 0 
2400166666.6666665077 0.156738311052322387695312500000 0.110363073647022302825604356258 0.006455282215029001235961914062 0.001055075204931199984309531104 0 0 0 0 
2400333333.3333334923 0.156365171074867304046307481258 0.108139254152774796913227817186 0.006406019907444716367239667676 0.000755250395741313695907592773 0 0 0 0 
2400500000.0000000000 0.156125411391258211990518134371 0.105737976729869800895933451557 0.006262635346502065658569335938 0.000387771549867466092109680176 0 0 0 0 
2400666666.6666665077 0.155712604522705105880575615629 0.103312313556671100944761576557 0.006206847727298736572265625000 -0.000139753276016563204213818961 0 0 0 0 
2400833333.3333334923 0.155285432934761102874432481258 0.100379034876823397537393134371 0.005989019293338060379028320312 -0.000430067564593628103106898175 0 0 0 0 
2401000000.0000000000 0.155320450663566589355468750000 0.097664691507816314697265625000 0.005796108860522508621215820312 -0.000738615461159497499465942383 0 0 0 0 
2401166666.6666665077 0.154955372214317294021768134371 0.094808168709278106689453125000 0.005635252688080072402954101562 -0.000889351009391248226165771484 0 0 0 0 
2401333333.3333334923 0.154939755797386197189169365629 0.091730393469333648681640625000 0.005256601143628358840942382812 -0.001126499497331679084180522388 0 0 0 0 
2401500000.0000000000 0.155093953013420104980468750000 0.088844411075115203857421875000 0.004796226043254137039184570312 -0.001350373495370150046107626807 0 0 0 0 
2401666666.6666665077 0.155164942145347595214843750000 0.085716038942337036132812500000 0.004659489728510379791259765625 -0.001406675204634666009190224756 0 0 0 0 
2401833333.3333334923 0.155408218502998407561932481258 0.082793205976486206054687500000 0.004539553541690111160278320312 -0.001408420503139496066449809497 0 0 0 0 
2402000000.0000000000 0.155832156538963290115518134371 0.079864934086799621582031250000 0.004191733896732330322265625000 -0.001258861273527144952061318506 0 0 0 0 
2402166666.6666665077 0.156325101852416992187500000000 0.076979205012321472167968750000 0.003938219510018826398367597363 -0.001519308309070765972137451172 0 0 0 0 
2402333333.3333334923 0.157126069068908691406250000000 0.073892399668693542480468750000 0.003855149960145353837254189600 -0.001402149209752679087995219653 0 0 0 0 
2402500000.0000000000 0.158093348145484896560830634371 0.071329846978187561035156250000 0.003613426815718411965611123193 -0.001355779939331114075304340894 0 0 0 0 
2402666666.6666665077 0.158945471048355102539062500000 0.068663246929645538330078125000 0.003607373451814055009129189600 -0.001304885139688849015476845850 0 0 0 0 
2402833333.3333334923 0.160097718238830594161825615629 0.065732255578041076660156250000 0.003577673109248280958888388525 -0.001259608194231986999511718750 0 0 0 0 
2403000000.0000000000 0.161477074027061490157919365629 0.062983021140098571777343750000 0.003392485901713370843174599756 -0.001338865491561592058894492041 0 0 0 0 
2403166666.6666665077 0.163166001439094487945880018742 0.060416847467422492290456403907 0.003439143765717744827270507812 -0.001161687076091765923741006006 0 0 0 0 
2403333333.3333334923 0.164435312151908902267294365629 0.057837624102830886840820312500 0.003219139296561480002162314307 -0.001076677464880049011827778394 0 0 0 0 
2403500000.0000000000 0.166304081678390502929687500000 0.055602949112653732299804687500 0.003381800372153521017787314307 -0.001122203888371587016462016528 0 0 0 0 
2403666666.6666665077 0.167853206396102905273437500000 0.053092271089553833007812500000 0.003357274923473597006556845557 -0.000996995833702385425567626953 0 0 0 0 
2403833333.3333334923 0.169550240039825411697549384371 0.050826609134674072265625000000 0.003409189870581030845642089844 -0.000958197575528174638748168945 0 0 0 0 
2404000000.0000000000 0.171306788921356201171875000000 0.048706486821174621582031250000 0.003353348234668374061584472656 -0.001090224250219761891605996240 0 0 0 0 
2404166666.6666665077 0.173287466168403597732705634371 0.046824064105749130249023437500 0.003504868829622865156886435400 -0.000957910728175193071365356445 0 0 0 0 
2404333333.3333334923 0.174926757812500000000000000000 0.044917456805706017231027971093 0.003440128872171043915989541162 -0.001102253212593496062635112231 0 0 0 0 
2404500000.0000000000 0.176728248596191406250000000000 0.043171413242816931987722028907 0.003505442757159471945521689307 -0.001066612778231502012965536963 0 0 0 0 
2404666666.6666665077 0.178562164306640597244424384371 0.041727714240551001811940778907 0.003605746198445558981654501807 -0.001168408081866801001905131763 0 0 0 0 
2404833333.3333334923 0.180473089218139703948651231258 0.040435180068016052246093750000 0.003683252260088921026942587744 -0.001282283919863403060315776294 0 0 0 0 
2405000000.0000000000 0.182091459631919888595419365629 0.039562828838825232768972028907 0.003568031126633286909816122900 -0.001397087355144321918487548828 0 0 0 0 
2405166666.6666665077 0.183686733245849609375000000000 0.038445334881544113159179687500 0.003610814455896615982055664062 -0.001564626698382199027417827075 0 0 0 0 
2405333333.3333334923 0.185516312718391390701455634371 0.037804208695888519287109375000 0.003730066819116473197937011719 -0.001527172396890819072723388672 0 0 0 0 
2405500000.0000000000 0.187128528952598599532919365629 0.037160798907279968261718750000 0.003701787907630205154418945312 -0.001841078279539942958234477466 0 0 0 0 
2405666666.6666665077 0.188795015215873690506143134371 0.036584291607141501689870466407 0.003520502941682935194728232275 -0.001777997822500765106798481519 0 0 0 0 
2405833333.3333334923 0.190290063619613702972088731258 0.036311931908130652690847028907 0.003537378506734966798069619287 -0.001917919726110995032666850513 0 0 0 0 
2406000000.0000000000 0.191771611571312006194744981258 0.036053370684385299682617187500 0.003472267417237163023707724463 -0.002257719868794084028956747900 0 0 0 0 
2406166666.6666665077 0.193137660622596712967080634371 0.035880152136087417602539062500 0.003312896704301238059997558594 -0.002063569147139788107631064307 0 0 0 0 
2406333333.3333334923 0.194350630044937106033486884371 0.035915520042181021953542341407 0.003370007732883096174952841650 -0.002184428973123431205749511719 0 0 0 0 
2406500000.0000000000 0.195558220148086603362713731258 0.036126196384429931640625000000 0.003255276009440422058105468750 -0.002155999420210719108581542969 0 0 0 0 
2406666666.6666665077 0.196609601378440912444744981258 0.036096431314945220947265625000 0.003426352981477975845336914062 -0.002048057038336991830113076318 0 0 0 0 
2406833333.3333334923 0.197553247213363702972088731258 0.036367550492286682128906250000 0.003368707606568932966945029150 -0.002274794504046440124511718750 0 0 0 0 
2407000000.0000000000 0.198131665587425204178018134371 0.036730173975229263305664062500 0.003512644674628973007202148438 -0.002312310039997100830078125000 0 0 0 0 
2407166666.6666665077 0.198849365115165710449218750000 0.036599639803171157836914062500 0.003449835116043686866760253906 -0.002451335079967976050135947119 0 0 0 0 
2407333333.3333334923 0.199217632412910489181356865629 0.037033811211585998535156250000 0.003328448394313455061671591650 -0.002522465772926806969883584131 0 0 0 0 
2407500000.0000000000 0.199513450264930697342080634371 0.037551596760749816894531250000 0.003567117732018231911900185693 -0.002506005344912410216090536963 0 0 0 0 
2407666666.6666665077 0.199632078409195001800213731258 0.037595834583044052124023437500 0.003499018028378487066981650244 -0.002700977958738803863525390625 0 0 0 0 
2407833333.3333334923 0.199406102299690302093182481258 0.037951815873384482646901716407 0.003480256767943501906154013525 -0.002841161796823143959045410156 0 0 0 0 
2408000000.0000000000 0.199782550334930392166299384371 0.037961706519126892089843750000 0.003369519021362065835240029443 -0.003064107149839400811436318506 0 0 0 0 
2408166666.6666665077 0.199216157197952298263388115629 0.038096424192190170288085937500 0.003484496148303151130676269531 -0.003278215415775775909423828125 0 0 0 0 
2408333333.3333334923 0.199086800217628506759481865629 0.037982251495122909545898437500 0.003420851426199078993556357275 -0.003414621809497476057765341650 0 0 0 0 
2408500000.0000000000 0.198627397418022211272869981258 0.038138333708047866821289062500 0.003302979748696088790893554688 -0.003640142269432545141932822119 0 0 0 0 
2408666666.6666665077 0.198048919439315795898437500000 0.037942104041576392436940778907 0.003203174797818065123317099463 -0.003880362957715988159179687500 0 0 0 0 
2408833333.3333334923 0.197383165359497098068075615629 0.037707015872001647949218750000 0.003133826656267046928405761719 -0.004004443529993295669555664062 0 0 0 0 
2409000000.0000000000 0.196377515792846707443075615629 0.037076819688081741333007812500 0.003048961516469717025756835938 -0.004089245572686195373535156250 0 0 0 0 
2409166666.6666665077 0.195603922009468106368856865629 0.036396309733390808105468750000 0.002995932241901754899265908350 -0.004377856850624085340017987988 0 0 0 0 
2409333333.3333334923 0.194522351026535006424111884371 0.035997439175844192504882812500 0.002823450369760394096374511719 -0.004409581422805786132812500000 0 0 0 0 
2409500000.0000000000 0.193450540304183987716513115629 0.035055559128522872924804687500 0.002654694020748137994053506006 -0.004501084331423044204711914062 0 0 0 0 
2409666666.6666665077 0.192271381616592407226562500000 0.034086477011442177509348283593 0.002553106518462299866917275537 -0.004747753497213125228881835938 0 0 0 0 
2409833333.3333334923 0.191109046339988708496093750000 0.032831709831953048706054687500 0.002375319134443997903111123193 -0.004888851661235094070434570312 0 0 0 0 
2410000000.0000000000 0.189989417791366604904013115629 0.031424447894096381450612653907 0.002126601058989762826206826318 -0.005125387571752071380615234375 0 0 0 0 
2410166666.6666665077 0.188812777400016812423544365629 0.029962701722979549062708670704 0.001917930319905281066894531250 -0.005132569931447505950927734375 0 0 0 0 
2410333333.3333334923 0.187497317790985107421875000000 0.028519321233034130441685860546 0.001709920354187488989589072119 -0.005392037332057952880859375000 0 0 0 0 
2410500000.0000000000 0.186324492096900912185830634371 0.026748023927211761474609375000 0.001588051556609570980072021484 -0.005387418903410434722900390625 0 0 0 0 
2410666666.6666665077 0.185169801115989712814169365629 0.024654019623994830739954764454 0.001245002262294292016270302881 -0.005563485436141490936279296875 0 0 0 0 
2410833333.3333334923 0.184096500277519198318643134371 0.022604471072554588317871093750 0.001098915934562683105468750000 -0.005460911430418491363525390625 0 0 0 0 
2411000000.0000000000 0.183045774698257501800213731258 0.020339675247669219970703125000 0.000826005416456609964370727539 -0.005399313755333423614501953125 0 0 0 0 
2411166666.6666665077 0.182157561182975796798544365629 0.018306355923414230346679687500 0.000547802657820284366607666016 -0.005495352204889059066772460938 0 0 0 0 
2411333333.3333334923 0.181197330355644198318643134371 0.015851417556405070913294608204 0.000392335263313725590705871582 -0.005622847937047482404226972363 0 0 0 0 
2411500000.0000000000 0.180429905652999905685263115629 0.013456777669489380228062813671 0.000147935686982236802577972412 -0.005507578141987323760986328125 0 0 0 0 
2411666666.6666665077 0.179822102189063998123330634371 0.011116460897028449666956717579 -0.000131268199766054803698939191 -0.005483542103320360183715820312 0 0 0 0 
2411833333.3333334923 0.179312333464622497558593750000 0.008617210201919078826904296875 -0.000262146000750362873077392578 -0.005413884762674570083618164062 0 0 0 0 
2412000000.0000000000 0.179022982716560391525106865629 0.005912181921303272247314453125 -0.000565070426091551780700683594 -0.005417541600763797760009765625 0 0 0 0 
2412166666.6666665077 0.178832843899726895431356865629 0.003214433556422591209411621094 -0.000799169065430760383605957031 -0.005149716045707464218139648438 0 0 0 0 
2412333333.3333334923 0.178601548075675992111044365629 0.000792241131421178579330444336 -0.000973906135186553001403808594 -0.005146788433194161328787519238 0 0 0 0 
2412500000.0000000000 0.178855031728744506835937500000 -0.002028603339567780928370810400 -0.001198842655867337963701557690 -0.005023213103413581848144531250 0 0 0 0 
2412666666.6666665077 0.179112970829010009765625000000 -0.004687887616455554962158203125 -0.001454481622204184965846396338 -0.005029781721532344818115234375 0 0 0 0 
2412833333.3333334923 0.179415971040725708007812500000 -0.007342565339058637619018554688 -0.001625850913114845969556498950 -0.004817312117666006088256835938 0 0 0 0 
2413000000.0000000000 0.180032372474670410156250000000 -0.010024489834904670715332031250 -0.001727292430587112903594970703 -0.004806927405297756195068359375 0 0 0 0 
2413166666.6666665077 0.180537745356559808929119981258 -0.012584725394845010584821132227 -0.001787774148397148089167929541 -0.004707606509327889356131269238 0 0 0 0 
2413333333.3333334923 0.181529566645622308929119981258 -0.015142596326768400019635585352 -0.002040537074208260016200400244 -0.004550779704004526138305664062 0 0 0 0 
2413500000.0000000000 0.182192400097847012618856865629 -0.017724880948662761342982108204 -0.002313452307134867148158408057 -0.004332449752837420377249433301 0 0 0 0 
2413666666.6666665077 0.183152213692665100097656250000 -0.020166022703051570547083670704 -0.002391423564404249191284179688 -0.004198830574750900268554687500 0 0 0 0 
2413833333.3333334923 0.184350326657295199295205634371 -0.022620122879743579519251639454 -0.002594758057966827912571572412 -0.003797658486291766166687011719 0 0 0 0 
2414000000.0000000000 0.185319080948829706390057481258 -0.024925932288169860839843750000 -0.002475422574207187132594443213 -0.003593436675146222114562988281 0 0 0 0 
2414166666.6666665077 0.186563342809677096267861884371 -0.027075456455349918710728829296 -0.002492329571396112008335732568 -0.003644956275820732116699218750 0 0 0 0 
2414333333.3333334923 0.187577933073043795486611884371 -0.029381221160292628896693045704 -0.002531665377318859100341796875 -0.003392257727682590918300009619 0 0 0 0 
2414500000.0000000000 0.189098313450813293457031250000 -0.031102146953344348562220389454 -0.002589815761893988089320517432 -0.003216644749045372009277343750 0 0 0 0 
2414666666.6666665077 0.190169885754585293868856865629 -0.032962393015623092651367187500 -0.002658640500158071951625204932 -0.003223542589694261984584189307 0 0 0 0 
2414833333.3333334923 0.191613867878913907150106865629 -0.034685146063566207885742187500 -0.002699940698221325874328613281 -0.003030076622962952093837118994 0 0 0 0 
2415000000.0000000000 0.192790344357490511795205634371 -0.036299794912338256835937500000 -0.002617503749206662178039550781 -0.003015381284058094024658203125 0 0 0 0 
2415166666.6666665077 0.194176092743873596191406250000 -0.037669241428375237201731096093 -0.002799027366563677787780761719 -0.002891457406803966002223349463 0 0 0 0 
2415333333.3333334923 0.195493698120117187500000000000 -0.038869597017765052104909528907 -0.002683175727725028991699218750 -0.002737519564107059998753213037 0 0 0 0 
2415500000.0000000000 0.196916878223419189453125000000 -0.039722830057144171977956403907 -0.002713854191824793815612792969 -0.002667151857167481942417763818 0 0 0 0 
2415666666.6666665077 0.198184192180633489410723768742 -0.040763817727565772319753278907 -0.002767184050753713087794638525 -0.002616747282445431189296103369 0 0 0 0 
2415833333.3333334923 0.199373617768287686446981865629 -0.041515465825796127319335937500 -0.002897402737289667129516601562 -0.002421844983473420143127441406 0 0 0 0 
2416000000.0000000000 0.200443342328071594238281250000 -0.042261183261871337890625000000 -0.002673307433724402947666787256 -0.002210991457104682922363281250 0 0 0 0 
2416166666.6666665077 0.201519697904586791992187500000 -0.042988307774066931987722028907 -0.002968033077195287184474326025 -0.002162449061870574951171875000 0 0 0 0 
2416333333.3333334923 0.202368855476379394531250000000 -0.043386247009038932109792341407 -0.002759623574092984199523925781 -0.002171447966247797012329101562 0 0 0 0 
2416500000.0000000000 0.203267157077789306640625000000 -0.043712005019187927246093750000 -0.002800160087645053863525390625 -0.001958003267645835876464843750 0 0 0 0 
2416666666.6666665077 0.203831806778907803634481865629 -0.043894477188587188720703125000 -0.002636000281199812889099121094 -0.001902624964714050076128315503 0 0 0 0 
2416833333.3333334923 0.204185396432876586914062500000 -0.044090386480093002319335937500 -0.002455871086567639870884560693 -0.001888829399831593036651611328 0 0 0 0 
2417000000.0000000000 0.204746469855308504959268134371 -0.044165212661027908325195312500 -0.002450442407280207113978720557 -0.001748563488945364952087402344 0 0 0 0 
2417166666.6666665077 0.204922124743461608886718750000 -0.044022981077432632446289062500 -0.002451519249007105827331542969 -0.001760314917191863059997558594 0 0 0 0 
2417333333.3333334923 0.205094799399375887771768134371 -0.043696407228708267211914062500 -0.002374767325818539099452353369 -0.001747146365232766108271933447 0 0 0 0 
2417500000.0000000000 0.205032557249069213867187500000 -0.043575283139944076538085937500 -0.002469890983775258064270019531 -0.001845280174165963909746479565 0 0 0 0 
2417666666.6666665077 0.204890266060829190353231865629 -0.043359939008951187133789062500 -0.002348165959119797186610556494 -0.002002867870032786889317177881 0 0 0 0 
2417833333.3333334923 0.204689353704452486892861884371 -0.042872488498687737201731096093 -0.002260197885334492163417197119 -0.002203999087214469909667968750 0 0 0 0 
2418000000.0000000000 0.204353660345077486892861884371 -0.042517930269241333007812500000 -0.002342520281672478155848837744 -0.002103201579302548928501748193 0 0 0 0 
2418166666.6666665077 0.203852623701095608810263115629 -0.042234558612108230590820312500 -0.002520070411264895959141396631 -0.002190616913139820098876953125 0 0 0 0 
2418333333.3333334923 0.202979132533073397537393134371 -0.041685234755277626728098283593 -0.002778884721919893784763955225 -0.002467431360855699019191122900 0 0 0 0 
2418500000.0000000000 0.202280864119529696365518134371 -0.041517417877912521362304687500 -0.002912012161687016920802451025 -0.002276388695463538169860839844 0 0 0 0 
2418666666.6666665077 0.201462686061859103103799384371 -0.041156157851219177246093750000 -0.002870388329029082818272256006 -0.002392607741057873205897665869 0 0 0 0 
2418833333.3333334923 0.200378566980361910720986884371 -0.041021782904863357543945312500 -0.003264252329245210127589560400 -0.002321606036275624795200966943 0 0 0 0 
2419000000.0000000000 0.199089914560317993164062500000 -0.040961097925901412963867187500 -0.003317312104627490043640136719 -0.002255066065117716789245605469 0 0 0 0 
2419166666.6666665077 0.197855994105339105804119981258 -0.041014760732650756835937500000 -0.003608249127864838080165243994 -0.002062163082882761955261230469 0 0 0 0 
2419333333.3333334923 0.196451738476753207107705634371 -0.041203785687685012817382812500 -0.003716760082170366807224892725 -0.002073373878374696211573935400 0 0 0 0 
2419500000.0000000000 0.195021167397499112228231865629 -0.041147593408823013305664062500 -0.003858221694827080206630087744 -0.001939979265443980910657573169 0 0 0 0 
2419666666.6666665077 0.193324431777000399490518134371 -0.041670337319374077533762346093 -0.003813707036897540092468261719 -0.001629984239116311073303222656 0 0 0 0 
2419833333.3333334923 0.191519975662231500823651231258 -0.042059008032083511352539062500 -0.003917789086699485778808593750 -0.001489472808316349983215332031 0 0 0 0 
