# Version 1.00
#
freq[Hz];re:Trc1_S11;im:Trc1_S11;re:Trc2_S21;im:Trc2_S21;
2.400000000000000E+009;1.713938117027283E-001;4.022837057709694E-002;1.800689846277237E-003;2.723307698033750E-004;
2.400166666666667E+009;1.722509413957596E-001;3.967932239174843E-002;1.619946560822427E-003;2.047325106104836E-004;
2.400333333333334E+009;1.725398898124695E-001;3.905691578984261E-002;1.614091102965176E-003;4.313217359595001E-004;
2.400500000000000E+009;1.730175465345383E-001;3.845095261931419E-002;1.594772213138640E-003;3.043839242309332E-004;
2.400666666666667E+009;1.731808483600617E-001;3.760129958391190E-002;1.534921117126942E-003;3.955878783017397E-004;
2.400833333333334E+009;1.735257208347321E-001;3.734526783227921E-002;1.471227966248989E-003;5.023045814596117E-004;
2.401000000000000E+009;1.737165302038193E-001;3.646600246429443E-002;1.543956459499896E-003;6.031978409737349E-004;
2.401166666666667E+009;1.737562119960785E-001;3.595083951950073E-002;1.707414397969842E-003;7.488026749342680E-004;
2.401333333333334E+009;1.737174540758133E-001;3.526400774717331E-002;1.515637151896954E-003;6.966412183828652E-004;
2.401500000000000E+009;1.737052947282791E-001;3.467612341046333E-002;1.476557808928192E-003;6.928397924639285E-004;
2.401666666666667E+009;1.736180633306503E-001;3.406003490090370E-002;1.859482959844172E-003;6.740304525010288E-004;
2.401833333333334E+009;1.735126972198486E-001;3.321675956249237E-002;1.749400165863335E-003;7.239106926135719E-004;
2.402000000000000E+009;1.731610894203186E-001;3.267874196171761E-002;1.972383353859186E-003;8.984539308585227E-004;
2.402166666666667E+009;1.729359924793243E-001;3.181352838873863E-002;2.010490978136659E-003;1.018027076497674E-003;
2.402333333333334E+009;1.728181838989258E-001;3.087033517658711E-002;2.231349702924490E-003;1.044517266564071E-003;
2.402500000000000E+009;1.727682650089264E-001;3.004776872694492E-002;2.373647876083851E-003;1.006000209599733E-003;
2.402666666666667E+009;1.721212863922119E-001;2.898632176220417E-002;2.639023819938302E-003;1.098210574127734E-003;
2.402833333333334E+009;1.718258857727051E-001;2.807915955781937E-002;2.637298544868827E-003;1.047036494128406E-003;
2.403000000000000E+009;1.715940088033676E-001;2.707463130354881E-002;2.867202507331967E-003;9.098063455894589E-004;
2.403166666666667E+009;1.711910516023636E-001;2.588719129562378E-002;3.085915464907885E-003;6.249793805181980E-004;
2.403333333333334E+009;1.708845049142838E-001;2.479433082044125E-002;3.160477383062244E-003;6.411214126273990E-004;
2.403500000000000E+009;1.705168187618256E-001;2.353985607624054E-002;3.315355861559510E-003;6.161117344163358E-004;
2.403666666666667E+009;1.698337495326996E-001;2.205724269151688E-002;3.458699444308877E-003;5.106070311740041E-004;
2.403833333333334E+009;1.696495860815048E-001;2.068020217120647E-002;3.562476951628923E-003;5.958213296253234E-005;
2.404000000000000E+009;1.693111658096314E-001;1.914897374808788E-002;3.631086321547627E-003;6.367382593452931E-005;
2.404166666666667E+009;1.689709275960922E-001;1.764858886599541E-002;3.524239175021648E-003;-1.494813768658787E-004;
2.404333333333334E+009;1.687077879905701E-001;1.626687683165073E-002;3.716379869729281E-003;-3.008232743013650E-004;
2.404500000000000E+009;1.684235632419586E-001;1.443061977624893E-002;3.627573838457465E-003;-5.865368293598294E-004;
2.404666666666667E+009;1.681739836931229E-001;1.279846206307411E-002;3.737852210178971E-003;-5.523597355931997E-004;
2.404833333333334E+009;1.679902970790863E-001;1.125169545412064E-002;3.681219415739179E-003;-7.254894007928670E-004;
2.405000000000000E+009;1.680065095424652E-001;9.449715726077557E-003;3.790090326219797E-003;-8.987984620034695E-004;
2.405166666666667E+009;1.678223311901093E-001;7.757025770843029E-003;3.723062574863434E-003;-1.166548579931259E-003;
2.405333333333334E+009;1.677918732166290E-001;5.665400531142950E-003;3.925332799553871E-003;-1.456982688978314E-003;
2.405500000000000E+009;1.678893268108368E-001;4.034433513879776E-003;3.624010598286986E-003;-1.552708679810166E-003;
2.405666666666667E+009;1.678062528371811E-001;2.112265909090638E-003;3.775548189878464E-003;-1.861853525042534E-003;
2.405833333333334E+009;1.677211821079254E-001;2.712627465371043E-004;3.641965799033642E-003;-1.962827751412988E-003;
2.406000000000000E+009;1.678589135408402E-001;-1.671067788265646E-003;3.750352188944817E-003;-1.991129014641047E-003;
2.406166666666667E+009;1.676649302244186E-001;-3.409418510273099E-003;3.509500296786428E-003;-2.294000005349517E-003;
2.406333333333334E+009;1.679383069276810E-001;-5.260431207716465E-003;3.639768343418837E-003;-2.411537803709507E-003;
2.406500000000000E+009;1.678385287523270E-001;-7.204376161098480E-003;3.354695392772555E-003;-2.530796453356743E-003;
2.406666666666667E+009;1.676653921604157E-001;-8.880303241312504E-003;3.411435289308429E-003;-2.693027257919312E-003;
2.406833333333334E+009;1.679443567991257E-001;-1.070130988955498E-002;3.336129477247596E-003;-3.005490405485034E-003;
2.407000000000000E+009;1.680175065994263E-001;-1.226219348609448E-002;3.310634521767497E-003;-2.890316536650062E-003;
2.407166666666667E+009;1.681254208087921E-001;-1.380183547735214E-002;3.057869616895914E-003;-3.240304067730904E-003;
2.407333333333334E+009;1.680655330419540E-001;-1.536861993372440E-002;3.035933244973421E-003;-3.453294048085809E-003;
2.407500000000000E+009;1.681543141603470E-001;-1.669802516698837E-002;2.920834347605705E-003;-3.707620548084378E-003;
2.407666666666667E+009;1.681730002164841E-001;-1.783585548400879E-002;2.512167207896709E-003;-3.835081588476896E-003;
2.407833333333334E+009;1.683089286088944E-001;-1.923724077641964E-002;2.563667250797153E-003;-4.043436609208584E-003;
2.408000000000000E+009;1.685043126344681E-001;-2.025314047932625E-002;2.312099328264594E-003;-4.144659265875816E-003;
2.408166666666667E+009;1.686084270477295E-001;-2.115157246589661E-002;2.077923156321049E-003;-4.256699234247208E-003;
2.408333333333334E+009;1.690431833267212E-001;-2.222391031682491E-002;1.717421691864729E-003;-4.371759016066790E-003;
2.408500000000000E+009;1.691625416278839E-001;-2.315922453999519E-002;1.451936899684370E-003;-4.440649878233671E-003;
2.408666666666667E+009;1.692637354135513E-001;-2.391802705824375E-002;1.461478066630662E-003;-4.557583946734667E-003;
2.408833333333334E+009;1.695993095636368E-001;-2.464812435209751E-002;1.172596239484847E-003;-4.502599127590656E-003;
2.409000000000000E+009;1.700265109539032E-001;-2.520385570824146E-002;7.959773647598922E-004;-4.678857512772083E-003;
2.409166666666667E+009;1.704831570386887E-001;-2.595563046634197E-002;5.580032011494041E-004;-4.607747308909893E-003;
2.409333333333334E+009;1.708639115095139E-001;-2.668518573045731E-002;2.267497475259006E-004;-4.544392228126526E-003;
2.409500000000000E+009;1.711337119340897E-001;-2.756775729358196E-002;-1.021946809487417E-004;-4.510106984525919E-003;
2.409666666666667E+009;1.715223789215088E-001;-2.828153967857361E-002;-2.108438347931951E-004;-4.506268072873354E-003;
2.409833333333334E+009;1.715020388364792E-001;-2.875516191124916E-002;-4.917036858387291E-004;-4.380527883768082E-003;
2.410000000000000E+009;1.717953830957413E-001;-2.940782159566879E-002;-7.583283586427569E-004;-4.365583881735802E-003;
2.410166666666667E+009;1.719785630702972E-001;-3.011791408061981E-002;-7.191316690295935E-004;-4.053364973515272E-003;
2.410333333333334E+009;1.718779057264328E-001;-3.066631592810154E-002;-8.353798766620457E-004;-3.945380449295044E-003;
2.410500000000000E+009;1.720262467861176E-001;-3.125469386577606E-002;-1.103798625990748E-003;-3.862130921334028E-003;
2.410666666666667E+009;1.718792170286179E-001;-3.204875811934471E-002;-1.202330575324595E-003;-3.532947972416878E-003;
2.410833333333334E+009;1.716229170560837E-001;-3.259056061506271E-002;-1.223186380229890E-003;-3.364074509590864E-003;
2.411000000000000E+009;1.717878282070160E-001;-3.318695351481438E-002;-1.438671024516225E-003;-3.309573279693723E-003;
2.411166666666667E+009;1.713761836290360E-001;-3.381938114762306E-002;-1.357454457320273E-003;-3.084341296926141E-003;
2.411333333333334E+009;1.710837185382843E-001;-3.436795622110367E-002;-1.467271125875413E-003;-3.118693362921476E-003;
2.411500000000000E+009;1.706678867340088E-001;-3.527981415390968E-002;-1.525609754025936E-003;-2.918558428063989E-003;
2.411666666666667E+009;1.704444736242294E-001;-3.579587861895561E-002;-1.349056838080287E-003;-2.758885500952601E-003;
2.411833333333334E+009;1.699903756380081E-001;-3.641529008746147E-002;-1.523197395727038E-003;-2.693889662623406E-003;
2.412000000000000E+009;1.696282476186752E-001;-3.729220852255821E-002;-1.402697875164449E-003;-2.512515988200903E-003;
2.412166666666667E+009;1.689204573631287E-001;-3.813761472702026E-002;-1.461922191083431E-003;-2.479629358276725E-003;
2.412333333333334E+009;1.685912311077118E-001;-3.866470232605934E-002;-1.418830244801939E-003;-2.502648392692208E-003;
2.412500000000000E+009;1.679493933916092E-001;-3.944034501910210E-002;-1.451843068934977E-003;-2.485206117853522E-003;
2.412666666666667E+009;1.675438135862351E-001;-4.049747437238693E-002;-1.392855308949947E-003;-2.447971608489752E-003;
2.412833333333334E+009;1.668491810560226E-001;-4.146460071206093E-002;-1.375350053422153E-003;-2.435596194118261E-003;
2.413000000000000E+009;1.662188768386841E-001;-4.235349595546722E-002;-1.526450156234205E-003;-2.450639614835382E-003;
2.413166666666667E+009;1.654967516660690E-001;-4.345445707440376E-002;-1.570191932842135E-003;-2.365317428484559E-003;
2.413333333333334E+009;1.646225005388260E-001;-4.436810314655304E-002;-1.472480362281203E-003;-2.441350137814879E-003;
2.413500000000000E+009;1.640872657299042E-001;-4.526221379637718E-002;-1.573438639752567E-003;-2.357047749683261E-003;
2.413666666666667E+009;1.634756028652191E-001;-4.649536684155464E-002;-1.711457269266248E-003;-2.282867906615138E-003;
2.413833333333334E+009;1.626171916723251E-001;-4.750484973192215E-002;-1.817673910409212E-003;-2.205509692430496E-003;
2.414000000000000E+009;1.618315279483795E-001;-4.862519726157188E-002;-1.743050874210894E-003;-2.126228995621204E-003;
2.414166666666667E+009;1.613593399524689E-001;-4.983468726277351E-002;-1.829674467444420E-003;-1.937862485647202E-003;
2.414333333333334E+009;1.606277972459793E-001;-5.092326551675797E-002;-1.996874809265137E-003;-1.916044508107007E-003;
2.414500000000000E+009;1.603073477745056E-001;-5.217830836772919E-002;-1.798694254830480E-003;-1.995691331103444E-003;
2.414666666666667E+009;1.597743928432465E-001;-5.321884155273438E-002;-2.029405673965812E-003;-1.750717172399163E-003;
2.414833333333334E+009;1.592225581407547E-001;-5.456747114658356E-002;-1.888407394289970E-003;-1.703585032373667E-003;
2.415000000000000E+009;1.587529480457306E-001;-5.574919655919075E-002;-1.909393467940390E-003;-1.702935900539160E-003;
2.415166666666667E+009;1.585570424795151E-001;-5.698226764798164E-002;-1.788440393283963E-003;-1.753744785673916E-003;
2.415333333333334E+009;1.583401858806610E-001;-5.845081433653832E-002;-1.821474405005574E-003;-1.637134351767600E-003;
2.415500000000000E+009;1.580333411693573E-001;-5.975626036524773E-002;-1.834311988204718E-003;-1.684005721472204E-003;
2.415666666666667E+009;1.578494012355804E-001;-6.116765737533569E-002;-1.844553393311799E-003;-1.638867659494281E-003;
2.415833333333334E+009;1.576524823904038E-001;-6.266817450523377E-002;-2.040100516751409E-003;-1.660627895034850E-003;
2.416000000000000E+009;1.573115885257721E-001;-6.402947753667831E-002;-2.115990966558456E-003;-1.541726756840944E-003;
2.416166666666667E+009;1.573643684387207E-001;-6.547671556472778E-002;-2.116351621225476E-003;-1.479376689530909E-003;
2.416333333333334E+009;1.571706533432007E-001;-6.692353636026382E-002;-2.188379177823663E-003;-1.387601485475898E-003;
2.416500000000000E+009;1.570002585649490E-001;-6.846208870410919E-002;-2.276447135955095E-003;-1.387460157275200E-003;
2.416666666666667E+009;1.566924899816513E-001;-6.967318803071976E-002;-2.136636525392532E-003;-1.321218442171812E-003;
2.416833333333334E+009;1.566716730594635E-001;-7.129287719726563E-002;-2.267134841531515E-003;-1.168288988992572E-003;
2.417000000000000E+009;1.563676744699478E-001;-7.249052822589874E-002;-2.389131346717477E-003;-1.168384682387114E-003;
2.417166666666667E+009;1.562750190496445E-001;-7.353752851486206E-002;-2.224194351583719E-003;-9.908053325489163E-004;
2.417333333333334E+009;1.561062484979630E-001;-7.490176707506180E-002;-2.357834484428167E-003;-8.590801735408604E-004;
2.417500000000000E+009;1.559967696666718E-001;-7.613136619329453E-002;-2.242139074951410E-003;-7.553109317086637E-004;
2.417666666666667E+009;1.559447199106216E-001;-7.705233246088028E-002;-2.195421839132905E-003;-5.869192536920309E-004;
2.417833333333334E+009;1.557992845773697E-001;-7.803004235029221E-002;-2.153318142518401E-003;-5.637890426442027E-004;
2.418000000000000E+009;1.556341499090195E-001;-7.913046330213547E-002;-2.182556781917810E-003;-4.830981197301298E-004;
2.418166666666667E+009;1.556223779916763E-001;-7.976584881544113E-002;-2.126415958628058E-003;-4.858300671912730E-004;
2.418333333333334E+009;1.557891666889191E-001;-8.070269972085953E-002;-1.920609152875841E-003;-3.582140780054033E-004;
2.418500000000000E+009;1.556905508041382E-001;-8.146993815898895E-002;-1.900572096928954E-003;-2.105629682773724E-004;
2.418666666666667E+009;1.558125168085098E-001;-8.225762099027634E-002;-1.871388405561447E-003;-2.776984474621713E-004;
2.418833333333334E+009;1.554746776819229E-001;-8.293063938617706E-002;-1.784083666279912E-003;-2.241022884845734E-004;
2.419000000000000E+009;1.553213149309158E-001;-8.361934125423431E-002;-1.460083643905819E-003;-3.125237417407334E-004;
2.419166666666667E+009;1.553848683834076E-001;-8.425212651491165E-002;-1.522766076959670E-003;-3.201135259587318E-004;
2.419333333333334E+009;1.550143510103226E-001;-8.463818579912186E-002;-1.371043501421809E-003;-4.934450262226164E-004;
2.419500000000000E+009;1.549375802278519E-001;-8.516085147857666E-002;-1.190811628475785E-003;-4.579422820825130E-004;
2.419666666666667E+009;1.549170166254044E-001;-8.572059869766235E-002;-1.271434477530420E-003;-7.909620180726051E-004;
2.419833333333334E+009;1.545631438493729E-001;-8.598881214857101E-002;-1.209460664540529E-003;-9.173636790364981E-004;
2.420000000000000E+009;1.546297073364258E-001;-8.636465668678284E-002;-1.315192901529372E-003;-9.551683906465769E-004;
2.420166666666667E+009;1.543059051036835E-001;-8.670888096094132E-002;-1.193389180116355E-003;-1.194610726088285E-003;
2.420333333333334E+009;1.540398746728897E-001;-8.715812116861343E-002;-1.196564058773220E-003;-1.381913432851434E-003;
2.420500000000000E+009;1.539094150066376E-001;-8.743758499622345E-002;-1.395242521539331E-003;-1.507829641923308E-003;
2.420666666666667E+009;1.533221900463104E-001;-8.757916837930679E-002;-1.391437370330095E-003;-1.681302790530026E-003;
2.420833333333334E+009;1.531241536140442E-001;-8.799172937870026E-002;-1.648887991905212E-003;-1.813263399526477E-003;
2.421000000000000E+009;1.527768075466156E-001;-8.858056366443634E-002;-1.885828678496182E-003;-1.902784104458988E-003;
2.421166666666667E+009;1.523590683937073E-001;-8.899039775133133E-002;-2.090784953907132E-003;-2.088583773002029E-003;
2.421333333333334E+009;1.518811881542206E-001;-8.940868079662323E-002;-2.292618853971362E-003;-2.204502234235406E-003;
2.421500000000000E+009;1.511057764291763E-001;-8.993984758853912E-002;-2.565983217209578E-003;-2.088043838739395E-003;
2.421666666666667E+009;1.505457609891892E-001;-9.045451134443283E-002;-2.919837832450867E-003;-2.140944823622704E-003;
2.421833333333334E+009;1.500415652990341E-001;-9.093067795038223E-002;-3.161331871524453E-003;-2.181014278903604E-003;
2.422000000000000E+009;1.492533981800079E-001;-9.136738628149033E-002;-3.378318855538964E-003;-2.033960074186325E-003;
2.422166666666667E+009;1.484006792306900E-001;-9.217916429042816E-002;-3.660029731690884E-003;-1.976552652195096E-003;
2.422333333333334E+009;1.476172208786011E-001;-9.268531948328018E-002;-4.084562882781029E-003;-1.687657437287271E-003;
2.422500000000000E+009;1.468044817447662E-001;-9.299293905496597E-002;-4.286753945052624E-003;-1.591765321791172E-003;
2.422666666666667E+009;1.458923518657684E-001;-9.382969141006470E-002;-4.535915330052376E-003;-1.363257644698024E-003;
2.422833333333334E+009;1.452465057373047E-001;-9.463933110237122E-002;-4.616078920662403E-003;-1.122526708059013E-003;
2.423000000000000E+009;1.442515105009079E-001;-9.550640732049942E-002;-5.137073341757059E-003;-8.685862412676215E-004;
2.423166666666667E+009;1.433868855237961E-001;-9.620990604162216E-002;-5.195634439587593E-003;-6.286391289904714E-004;
2.423333333333334E+009;1.426804065704346E-001;-9.692357480525971E-002;-5.449853837490082E-003;-2.189318474847823E-004;
2.423500000000000E+009;1.416580975055695E-001;-9.804127365350723E-002;-5.474264733493328E-003;-7.765572809148580E-005;
2.423666666666667E+009;1.405586153268814E-001;-9.890876710414887E-002;-5.679559428244829E-003;4.715066752396524E-004;
2.423833333333334E+009;1.397730708122253E-001;-9.987781941890717E-002;-5.821793340146542E-003;8.126485045067966E-004;
2.424000000000000E+009;1.388382166624069E-001;-1.007475554943085E-001;-5.786769557744265E-003;1.233295188285410E-003;
2.424166666666667E+009;1.379478424787521E-001;-1.017883419990540E-001;-5.699094850569964E-003;1.669728546403348E-003;
2.424333333333334E+009;1.371120512485504E-001;-1.027420610189438E-001;-5.719827953726053E-003;2.059672027826309E-003;
2.424500000000000E+009;1.362660974264145E-001;-1.039273738861084E-001;-5.602680612355471E-003;2.417766256257892E-003;
2.424666666666667E+009;1.356638371944428E-001;-1.048485189676285E-001;-5.420323926955462E-003;2.815669868141413E-003;
2.424833333333334E+009;1.348728388547897E-001;-1.060564294457436E-001;-5.189977120608091E-003;3.303233068436384E-003;
2.425000000000000E+009;1.341148614883423E-001;-1.072729155421257E-001;-4.955218173563480E-003;3.686772892251611E-003;
2.425166666666667E+009;1.333942264318466E-001;-1.083457991480827E-001;-4.690685309469700E-003;3.998282831162214E-003;
2.425333333333334E+009;1.328194737434387E-001;-1.094681322574616E-001;-4.496259614825249E-003;4.280620720237494E-003;
2.425500000000000E+009;1.324323415756226E-001;-1.107667312026024E-001;-4.095654003322125E-003;4.609476309269667E-003;
2.425666666666667E+009;1.315832436084747E-001;-1.119767501950264E-001;-3.749432507902384E-003;4.773622844368219E-003;
2.425833333333334E+009;1.311136037111282E-001;-1.132282391190529E-001;-3.314623143523932E-003;4.954125732183456E-003;
2.426000000000000E+009;1.307049691677094E-001;-1.145191639661789E-001;-2.952750306576490E-003;5.324957426637411E-003;
2.426166666666667E+009;1.304778009653091E-001;-1.156097054481506E-001;-2.440254436805844E-003;5.393681116402149E-003;
2.426333333333334E+009;1.298305243253708E-001;-1.168176382780075E-001;-1.881843549199402E-003;5.464464426040649E-003;
2.426500000000000E+009;1.295548230409622E-001;-1.179662793874741E-001;-1.630563987419009E-003;5.370797123759985E-003;
2.426666666666667E+009;1.293241083621979E-001;-1.189077123999596E-001;-1.249812077730894E-003;5.355277098715305E-003;
2.426833333333334E+009;1.288541108369827E-001;-1.199846863746643E-001;-8.516546222381294E-004;5.118872039020062E-003;
2.427000000000000E+009;1.285748481750488E-001;-1.211072281002998E-001;-5.066425073891878E-004;5.141442175954580E-003;
2.427166666666667E+009;1.282752901315689E-001;-1.219666153192520E-001;-2.219379239249975E-004;4.998724907636643E-003;
2.427333333333334E+009;1.280778050422669E-001;-1.229670494794846E-001;4.819020614377223E-005;4.879536572843790E-003;
2.427500000000000E+009;1.280041337013245E-001;-1.238695234060288E-001;4.032115102745593E-004;4.510706756263971E-003;
2.427666666666667E+009;1.278064101934433E-001;-1.247311159968376E-001;7.163981208577752E-004;4.489105660468340E-003;
