# Hz S RI R 50
2400000000.0000000000 0.155901312828063992599325615629 0.111332923173904405067524692186 -0.003191879019141197204589843750 0.005010385997593402862548828125 0 0 0 0 
2400166666.6666665077 0.155541449785232488434161268742 0.109148956835269900222940009371 -0.003025825601071118874790810693 0.005180891603231430053710937500 0 0 0 0 
2400333333.3333334923 0.155149802565574701507244981258 0.106806606054306002517861884371 -0.002725766273215413093566894531 0.005269422661513090133666992188 0 0 0 0 
2400500000.0000000000 0.154859662055969210525674384371 0.104145348072052001953125000000 -0.002558202948421239852905273438 0.005559359211474657058715820312 0 0 0 0 
2400666666.6666665077 0.154587015509605407714843750000 0.101696416735649095008930942186 -0.002474979031831026077270507812 0.005601932760328054428100585938 0 0 0 0 
2400833333.3333334923 0.154375910758972195724325615629 0.098694846034049987792968750000 -0.002120602875947951836826943506 0.005777683109045028686523437500 0 0 0 0 
2401000000.0000000000 0.154210180044174194335937500000 0.095830999314785003662109375000 -0.001796529628336430029628134619 0.005842181388288736343383789062 0 0 0 0 
2401166666.6666665077 0.154066339135170010665731865629 0.093106187880039215087890625000 -0.001729823765344917991040873950 0.005861460231244564056396484375 0 0 0 0 
2401333333.3333334923 0.153976738452911404708700615629 0.090013936161994934082031250000 -0.001516948919743299917933798682 0.005938163492828608426565839551 0 0 0 0 
2401500000.0000000000 0.154219537973403902908486884371 0.087072066962718963623046875000 -0.001415418228134512901306152344 0.005988950375467538833618164062 0 0 0 0 
2401666666.6666665077 0.154432505369186401367187500000 0.084056437015533447265625000000 -0.001144550391472876071929931641 0.006072353105992078781127929688 0 0 0 0 
2401833333.3333334923 0.154617115855217007736044365629 0.081279002130031585693359375000 -0.000845729024149477481842041016 0.006160680204629898071289062500 0 0 0 0 
2402000000.0000000000 0.155313655734062194824218750000 0.078193835914134979248046875000 -0.000920273480005562305450439453 0.005999246146529912948608398438 0 0 0 0 
2402166666.6666665077 0.155846044421196011642294365629 0.075524620711803436279296875000 -0.000618678925093263387680053711 0.006158873904496431350708007812 0 0 0 0 
2402333333.3333334923 0.156799301505088806152343750000 0.072504423558712005615234375000 -0.000574622943531721830368041992 0.006284433882683516416067792676 0 0 0 0 
2402500000.0000000000 0.157761707901954706390057481258 0.069758899509906768798828125000 -0.000223426497541368007659912109 0.006437670905143023404593183301 0 0 0 0 
2402666666.6666665077 0.158887758851051302810830634371 0.067168280482292175292968750000 -0.000218468121602199998780927115 0.006634995806962251663208007812 0 0 0 0 
2402833333.3333334923 0.160016447305679293533486884371 0.064496688544750213623046875000 0.000021977930373395789751802751 0.006600740831345319747924804688 0 0 0 0 
2403000000.0000000000 0.161473453044891412933026231258 0.061925351619720458984375000000 0.000364720006473362500041407452 0.006905795540660619735717773438 0 0 0 0 
2403166666.6666665077 0.163082137703895596603231865629 0.059499744325876242900807966407 0.000719150877557694911956787109 0.006964366883039475354666425488 0 0 0 0 
2403333333.3333334923 0.164727061986923190017861884371 0.057019364088773727416992187500 0.000960825069341808557510375977 0.006996535230427980422973632812 0 0 0 0 
2403500000.0000000000 0.166508421301841708084268134371 0.054648090153932571411132812500 0.001269792672246694998500204932 0.007067811675369740399832441113 0 0 0 0 
2403666666.6666665077 0.168321400880813598632812500000 0.052449654787778847431223283593 0.001645671902224421934840536963 0.006888693664222955703735351562 0 0 0 0 
2403833333.3333334923 0.169885665178299005706463731258 0.050365790724754326557199846093 0.001913093030452728054643940503 0.007116971071809530258178710938 0 0 0 0 
2404000000.0000000000 0.171624764800071688553018134371 0.048479173332452767108957658593 0.002424270845949649810791015625 0.006939491257071495056152343750 0 0 0 0 
2404166666.6666665077 0.173513591289520291427450615629 0.046754937618970870971679687500 0.002647051122039556936976767432 0.006999113596975803375244140625 0 0 0 0 
2404333333.3333334923 0.175416991114616394042968750000 0.044821310788393020629882812500 0.003263536840677260918858193506 0.006979368627071380615234375000 0 0 0 0 
2404500000.0000000000 0.177149504423141507247763115629 0.043326161801815032958984375000 0.003577614435926080183741904150 0.006890300195664167404174804688 0 0 0 0 
2404666666.6666665077 0.179010018706321688553018134371 0.042108591645956039428710937500 0.003779340302571653886082314600 0.006483736447989940643310546875 0 0 0 0 
2404833333.3333334923 0.180909469723701504806356865629 0.040765110403299331665039062500 0.004152160137891769409179687500 0.006417744792997837066650390625 0 0 0 0 
2405000000.0000000000 0.182386875152587890625000000000 0.039940401911735541606862653907 0.004385978449136018753051757812 0.006216875277459621429443359375 0 0 0 0 
2405166666.6666665077 0.184183552861213711837606865629 0.039048247039318091655690778907 0.004786791279911994934082031250 0.005869778338819742202758789062 0 0 0 0 
2405333333.3333334923 0.185854926705360412597656250000 0.038654223084449768066406250000 0.004957702476531267166137695312 0.005632091313600540161132812500 0 0 0 0 
2405500000.0000000000 0.187485083937644986251669365629 0.037954654544591896747629533593 0.005302113480865955352783203125 0.005534465424716472625732421875 0 0 0 0 
2405666666.6666665077 0.188943237066268893142861884371 0.037691622972488403320312500000 0.005412616766989231109619140625 0.005207598209381104382986737988 0 0 0 0 
2405833333.3333334923 0.190446719527244595626669365629 0.037433739751577377319335937500 0.005743123590946198377127362988 0.004897876176983118057250976562 0 0 0 0 
2406000000.0000000000 0.191701978445053100585937500000 0.037248782813549041748046875000 0.005916426423937082290649414062 0.004454209469258785247802734375 0 0 0 0 
2406166666.6666665077 0.193053588271141107757244981258 0.037162598222494132305104841407 0.005975801963359118375296308301 0.004377884324640035629272460938 0 0 0 0 
2406333333.3333334923 0.194122537970542907714843750000 0.037290923297405242919921875000 0.006171362940222024917602539062 0.003892502281814814047572470557 0 0 0 0 
2406500000.0000000000 0.195241004228591891189736884371 0.037548247724771499633789062500 0.006403187289834023389334394238 0.003685715142637490792515420068 0 0 0 0 
2406666666.6666665077 0.195988044142723111251669365629 0.037646502256393432617187500000 0.006466143764555454254150390625 0.003280976554378867149353027344 0 0 0 0 
2406833333.3333334923 0.196883693337440490722656250000 0.037962555885314941406250000000 0.006554437335580587387084960938 0.003063420765101910071132040869 0 0 0 0 
2407000000.0000000000 0.197293907403945895095986884371 0.038392383605241782451589216407 0.006488134153187274932861328125 0.002705031773075460953953408350 0 0 0 0 
2407166666.6666665077 0.198109045624732998946981865629 0.038477532565593719482421875000 0.006447695661336184415335370801 0.002514014253392816023585654150 0 0 0 0 
2407333333.3333334923 0.198253408074378995040731865629 0.038958270102739327167551408593 0.006636377424001693725585937500 0.002261681249365210966822958838 0 0 0 0 
2407500000.0000000000 0.198406338691711398025674384371 0.039336934685707092285156250000 0.006694476120173931121826171875 0.001910628401674330017687153394 0 0 0 0 
2407666666.6666665077 0.198609113693237304687500000000 0.039557147771120071411132812500 0.006856427993625403317923261426 0.001651472412049769921543740381 0 0 0 0 
2407833333.3333334923 0.198207035660743713378906250000 0.039754461497068412090261091407 0.006634445860981941223144531250 0.001525545609183609919307089697 0 0 0 0 
2408000000.0000000000 0.198432728648185702224893134371 0.040010727941989898681640625000 0.006604604888707399368286132812 0.001129154581576585986493754810 0 0 0 0 
2408166666.6666665077 0.197887599468231201171875000000 0.039905883371829986572265625000 0.006851652171462774276733398438 0.001035693334415555000305175781 0 0 0 0 
2408333333.3333334923 0.197628781199455288986044365629 0.039694156497716896747629533593 0.006697908509522677335257245801 0.000743972719646990299224853516 0 0 0 0 
2408500000.0000000000 0.196873471140861511230468750000 0.039803847670555121684987653907 0.006773451808840036392211914062 0.000450052524683996980816441669 0 0 0 0 
2408666666.6666665077 0.196329891681671087066973768742 0.039566583931446082378347028907 0.006518790032714605331420898438 0.000090141402324661612510681152 0 0 0 0 
2408833333.3333334923 0.195538148283958407303018134371 0.039100039750337600708007812500 0.006396897137165069580078125000 0.000004041259671794250607490540 0 0 0 0 
2409000000.0000000000 0.194678232073783902267294365629 0.038561422377824783325195312500 0.006445942446589469909667968750 -0.000278388353763148188591003418 0 0 0 0 
2409166666.6666665077 0.193614766001701410491619981258 0.037794146686792366718332658593 0.006321634165942668914794921875 -0.000627653906121850013732910156 0 0 0 0 
2409333333.3333334923 0.192654564976692199707031250000 0.037088312208652503276784528907 0.006170143838971853256225585938 -0.000641289283521473407745361328 0 0 0 0 
2409500000.0000000000 0.191418066620826693435830634371 0.036102239042520523071289062500 0.006054305471479892730712890625 -0.000870322983246296644210815430 0 0 0 0 
2409666666.6666665077 0.190301135182380704025106865629 0.034897610545158393169362653907 0.005987998098134995374197675488 -0.001113347476348280906677246094 0 0 0 0 
2409833333.3333334923 0.189044579863548306564169365629 0.033744204789400100708007812500 0.005868470296263694763183593750 -0.001142215449362993023516010815 0 0 0 0 
2410000000.0000000000 0.187952056527137811858807481258 0.032148741185665130615234375000 0.005744943860918284329886152051 -0.001274926704354584000231098706 0 0 0 0 
2410166666.6666665077 0.186734646558761596679687500000 0.030595069751143458974818045704 0.005579538177698850631713867188 -0.001425283495336771011352539062 0 0 0 0 
2410333333.3333334923 0.185435056686401394943075615629 0.028994334861636158334752266796 0.005520564969629049301147460938 -0.001488213543780148029327392578 0 0 0 0 
2410500000.0000000000 0.184305906295776394943075615629 0.027123697102069861675222028907 0.005479916464537382125854492188 -0.001427256618626415946363139575 0 0 0 0 
2410666666.6666665077 0.183113336563110407073651231258 0.024942789226770401000976562500 0.005312035791575908660888671875 -0.001658901572227478027343750000 0 0 0 0 
2410833333.3333334923 0.182198747992515591720419365629 0.022698692977428439748743826954 0.005354810506105422973632812500 -0.001799729187041521072387695312 0 0 0 0 
2411000000.0000000000 0.181339561939239501953125000000 0.020528035238385200500488281250 0.005206006579101085662841796875 -0.001908316975459456010105752100 0 0 0 0 
2411166666.6666665077 0.180261135101318387130575615629 0.018492789939045909536341483204 0.005292650777846574783325195312 -0.001891526393592358069178915869 0 0 0 0 
2411333333.3333334923 0.179490610957145690917968750000 0.015849146991968158376673514454 0.005173053126782178878784179688 -0.002014763187617063956019736182 0 0 0 0 
2411500000.0000000000 0.178932189941406305511151231258 0.013379700481891630345354649023 0.005078149493783712387084960938 -0.002121370285749434991123818506 0 0 0 0 
2411666666.6666665077 0.178532719612121609786825615629 0.010957605205476280557652657421 0.004994403570890426635742187500 -0.002216808032244443893432617188 0 0 0 0 
2411833333.3333334923 0.177994370460510309417401231258 0.008385416120290756225585937500 0.005052778404206038388724042676 -0.002343134954571723937988281250 0 0 0 0 
2412000000.0000000000 0.177806288003921508789062500000 0.005722108297049999237060546875 0.004841501358896493911743164062 -0.002397883683443069891688681494 0 0 0 0 
2412166666.6666665077 0.177701339125633211990518134371 0.003253831295296549797058105469 0.004842490889132022857666015625 -0.002560531254857778982875204932 0 0 0 0 
2412333333.3333334923 0.177665963768959100921307481258 0.000619481201283633708953857422 0.004837431013584136962890625000 -0.002524099079892038865330361475 0 0 0 0 
2412500000.0000000000 0.178010687232017489334268134371 -0.002159156836569308800938271631 0.004765621386468411359305097363 -0.002611743984743953184840536963 0 0 0 0 
2412666666.6666665077 0.178544655442237909515057481258 -0.004762061405926942825317382812 0.004730942193418741226196289062 -0.002555953338742256164550781250 0 0 0 0 
2412833333.3333334923 0.178991034626960809905682481258 -0.007364858873188495635986328125 0.004737657960504292574410722949 -0.002866577822715044021606445312 0 0 0 0 
2413000000.0000000000 0.179621636867523193359375000000 -0.010101696476340290414830391796 0.004676491487771272659301757812 -0.002984232036396861076354980469 0 0 0 0 
2413166666.6666665077 0.180263847112655611892861884371 -0.012504576705396180588691912305 0.004775566048920154571533203125 -0.002993456553667784170863486182 0 0 0 0 
2413333333.3333334923 0.181357532739639309982138115629 -0.015152233652770519256591796875 0.004642409272491931915283203125 -0.003179240971803665161132812500 0 0 0 0 
2413500000.0000000000 0.182127326726913507659588731258 -0.017580635845661159860631173046 0.004572504200041294097900390625 -0.003410923061892389817478798975 0 0 0 0 
2413666666.6666665077 0.183360412716865511795205634371 -0.020107619464397430419921875000 0.004625140223652124404907226562 -0.003416188759729266166687011719 0 0 0 0 
2413833333.3333334923 0.184440031647682189941406250000 -0.022272417321801189077357108204 0.004488249775022268295288085938 -0.003872383385896683172938681494 0 0 0 0 
2414000000.0000000000 0.185561403632164001464843750000 -0.024481272324919700622558593750 0.004536379128694534301757812500 -0.003998708911240100860595703125 0 0 0 0 
2414166666.6666665077 0.186788976192474392989950615629 -0.026611192151904109609583670704 0.004539401270449162396902753613 -0.004125319421291351318359375000 0 0 0 0 
2414333333.3333334923 0.188055694103240994552450615629 -0.028886547312140471721608747657 0.004181976430118083953857421875 -0.004213323816657066345214843750 0 0 0 0 
2414500000.0000000000 0.189381614327430697342080634371 -0.030585760250687599182128906250 0.004118932411074638366699218750 -0.004542447160929442319388105176 0 0 0 0 
2414666666.6666665077 0.190806448459625188629473768742 -0.032374087721109390258789062500 0.004069346934556961059570312500 -0.004728515166789293289184570312 0 0 0 0 
2414833333.3333334923 0.192086070775985690017861884371 -0.033938307315111160278320312500 0.003878094721585512161254882812 -0.005012125242501497268676757812 0 0 0 0 
2415000000.0000000000 0.193400859832763699630575615629 -0.035367384552955627441406250000 0.003848218359053134918212890625 -0.005050555802881717681884765625 0 0 0 0 
2415166666.6666665077 0.194820851087570190429687500000 -0.036631952971220023418386091407 0.003611750202253460884094238281 -0.005305065307766199111938476562 0 0 0 0 
2415333333.3333334923 0.196175009012222290039062500000 -0.037786401808261871337890625000 0.003296423936262726783752441406 -0.005403968505561351776123046875 0 0 0 0 
2415500000.0000000000 0.197506934404373196700888115629 -0.038750149309635162353515625000 0.003140670014545321898219443213 -0.005510367453098297119140625000 0 0 0 0 
2415666666.6666665077 0.198719710111617986481036268742 -0.039687607437372207641601562500 0.002975926036015152931213378906 -0.005656933877617120742797851562 0 0 0 0 
2415833333.3333334923 0.199953138828277587890625000000 -0.040342181921005249023437500000 0.002894600620493292808532714844 -0.005839332006871700286865234375 0 0 0 0 
2416000000.0000000000 0.201039567589759798904580634371 -0.041055202484130859375000000000 0.002531906124204397201538085938 -0.005945368669927120208740234375 0 0 0 0 
2416166666.6666665077 0.202002719044685391525106865629 -0.041677452623844146728515625000 0.002468221122398972944972372900 -0.006037741899490355577950762012 0 0 0 0 
2416333333.3333334923 0.202913120388984707931356865629 -0.042022053152322769165039062500 0.002154675778001546859741210938 -0.006339212413877248764038085938 0 0 0 0 
2416500000.0000000000 0.203608751296997098068075615629 -0.042272042483091347431223283593 0.001830019522458314895629882812 -0.006378050427883862581734941699 0 0 0 0 
2416666666.6666665077 0.204098001122474698165731865629 -0.042505037039518363262136091407 0.001686297939158976078033447266 -0.006347710732370615005493164062 0 0 0 0 
2416833333.3333334923 0.204656243324279812911825615629 -0.042540062218904502178151716407 0.001367772580124438025830913013 -0.006510018371045588579659746387 0 0 0 0 
2417000000.0000000000 0.205067679286003112792968750000 -0.042642690241336822509765625000 0.001161891850642859935760498047 -0.006536350585520268353934003613 0 0 0 0 
2417166666.6666665077 0.204966261982917813400106865629 -0.042454186826944351196289062500 0.000795032305177301168441772461 -0.006509808357805013656616210938 0 0 0 0 
2417333333.3333334923 0.205032527446746798416299384371 -0.042167168110609061504323591407 0.000677753938362002372741699219 -0.006638168357312679290771484375 0 0 0 0 
2417500000.0000000000 0.205044731497764587402343750000 -0.042034514248371117328684221093 0.000369135203072801178127843036 -0.006427366752177476882934570312 0 0 0 0 
2417666666.6666665077 0.204639747738838195800781250000 -0.041592244058847427368164062500 0.000285176880424842184216099872 -0.006469751708209514617919921875 0 0 0 0 
2417833333.3333334923 0.204409793019294711013955634371 -0.041214544326066970825195312500 0.000037931167753413319587707520 -0.006448261439800263318533612988 0 0 0 0 
2418000000.0000000000 0.203933015465736389160156250000 -0.040935460478067398071289062500 -0.000093972303147893399000167847 -0.006483307573944330215454101562 0 0 0 0 
2418166666.6666665077 0.203336179256439208984375000000 -0.040636293590068817138671875000 -0.000276202190434560179710388184 -0.006501711905002593994140625000 0 0 0 0 
2418333333.3333334923 0.202447727322578402420205634371 -0.040165416896343231201171875000 -0.000488755817059427499771118164 -0.006480181124061346054077148438 0 0 0 0 
2418500000.0000000000 0.201547533273696899414062500000 -0.039862979203462600708007812500 -0.000676400959491729736328125000 -0.006472367793321610364432050488 0 0 0 0 
2418666666.6666665077 0.200684159994125393966513115629 -0.039595041424036032939870466407 -0.000801784975919872522354125977 -0.006512628868222236633300781250 0 0 0 0 
2418833333.3333334923 0.199531346559524508377236884371 -0.039530031383037567138671875000 -0.000947756401728838682174682617 -0.006532276514917612075805664062 0 0 0 0 
2419000000.0000000000 0.198234826326370211502236884371 -0.039597198367118842388112653907 -0.001290083630010486082789755713 -0.006488230079412460327148437500 0 0 0 0 
2419166666.6666665077 0.196844100952148409744424384371 -0.039522845298051827167551408593 -0.001429524389095603986027382959 -0.006454850081354379653930664062 0 0 0 0 
2419333333.3333334923 0.195513352751731900314169365629 -0.039856716990470893169362653907 -0.001626277342438698031781840747 -0.006560758687555789947509765625 0 0 0 0 
2419500000.0000000000 0.193980410695075988769531250000 -0.039938259869813919067382812500 -0.001867973944172262928606342847 -0.006515578832477331161499023438 0 0 0 0 
2419666666.6666665077 0.192428201436996487716513115629 -0.040598690509796142578125000000 -0.001988507341593503952026367188 -0.006546763237565755844116210938 0 0 0 0 
2419833333.3333334923 0.190618127584457397460937500000 -0.040973443537950522685964216407 -0.002354829339310526847839355469 -0.006423090118914842605590820312 0 0 0 0 
