# Hz S RI R 50
2400000000.0000000000 0.168061479926109286209268134371 0.047164816409349441528320312500 -0.006124958395957946777343750000 0.002655504969879984855651855469 0 0 0 0 
2400166666.6666665077 0.169099509716033907791299384371 0.046095922589302062988281250000 -0.006083449348807334899902343750 0.002943244762718677954432822119 0 0 0 0 
2400333333.3333334923 0.169971674680709811111611884371 0.044861149042844772338867187500 -0.006020778324455022811889648438 0.003057827241718769073486328125 0 0 0 0 
2400500000.0000000000 0.170989707112312289138955634371 0.043985467404127120971679687500 -0.005879408214241266250610351562 0.003301086369901895956752158057 0 0 0 0 
2400666666.6666665077 0.171698957681655911544638115629 0.042759750038385391235351562500 -0.005911219399422407150268554688 0.003514710115268826918361044775 0 0 0 0 
2400833333.3333334923 0.172581791877746609786825615629 0.041927602142095572734792341407 -0.005928978789597749710083007812 0.003560245502740145163295126807 0 0 0 0 
2401000000.0000000000 0.173311844468116788009481865629 0.041060183197259902954101562500 -0.005658324807882308959960937500 0.004086346365511417388916015625 0 0 0 0 
2401166666.6666665077 0.174117907881736810882244981258 0.040256574749946587299387346093 -0.005516358185559511184692382812 0.004162231460213661193847656250 0 0 0 0 
2401333333.3333334923 0.174779653549194308181924384371 0.039414092898368842388112653907 -0.005621978081762790679931640625 0.004410747438669204711914062500 0 0 0 0 
2401500000.0000000000 0.175616770982742309570312500000 0.038805052638053887104074846093 -0.005387758836150169372558593750 0.004479349125176668167114257812 0 0 0 0 
2401666666.6666665077 0.176236644387245205978231865629 0.038315095007419593120534528907 -0.005101928953081369400024414062 0.004739606287330389022827148438 0 0 0 0 
2401833333.3333334923 0.176686584949493408203125000000 0.037311557680368423461914062500 -0.005056054331362248334402753613 0.005150465294718742370605468750 0 0 0 0 
2402000000.0000000000 0.177096351981162997146768134371 0.036733344197273247455637346093 -0.004798724781721830368041992188 0.005092604551464319229125976562 0 0 0 0 
2402166666.6666665077 0.177650094032287597656250000000 0.035995930433273322368581403907 -0.004935493227094411849975585938 0.005299704615026712417602539062 0 0 0 0 
2402333333.3333334923 0.177940487861633300781250000000 0.035373762249946587299387346093 -0.004829438403248786926269531250 0.005597070325165987014770507812 0 0 0 0 
2402500000.0000000000 0.178525641560554504394531250000 0.034876246005296707153320312500 -0.004450115840882062911987304688 0.005800994578748941421508789062 0 0 0 0 
2402666666.6666665077 0.178646758198738098144531250000 0.034104932099580771709401716407 -0.004401005338877440366263105176 0.006134493742138147354125976562 0 0 0 0 
2402833333.3333334923 0.178810149431228609939736884371 0.033340066671371459960937500000 -0.004038620740175247192382812500 0.006340233609080314636230468750 0 0 0 0 
2403000000.0000000000 0.178946688771247891525106865629 0.032623227685689933086354841407 -0.003947367426007986068725585938 0.006578027270734310150146484375 0 0 0 0 
2403166666.6666665077 0.179109647870063809493856865629 0.031722564250230789184570312500 -0.003667945042252541022059775244 0.006545712240040302276611328125 0 0 0 0 
2403333333.3333334923 0.178960382938385009765625000000 0.030889889225363731384277343750 -0.003477873280644416809082031250 0.007040567696094512939453125000 0 0 0 0 
2403500000.0000000000 0.178903549909591702560263115629 0.029879804700613018381138985546 -0.003286975668743253187892294775 0.007101562339812517166137695312 0 0 0 0 
2403666666.6666665077 0.178857937455177307128906250000 0.028820244595408439636230468750 -0.003090112237259746031520224463 0.007303732447326183319091796875 0 0 0 0 
2403833333.3333334923 0.178727641701698303222656250000 0.027854908257722861553151716407 -0.002802869305014609856846474756 0.007510520052164793014526367188 0 0 0 0 
2404000000.0000000000 0.178504064679145812988281250000 0.026694145053625110280970389454 -0.002409700071439146995544433594 0.007767489179968833923339843750 0 0 0 0 
2404166666.6666665077 0.178127050399780301193075615629 0.025476122274994850158691406250 -0.002217753790318965911865234375 0.007818548940122127532958984375 0 0 0 0 
2404333333.3333334923 0.177697420120239313323651231258 0.024336729198694229125976562500 -0.001862793695181607983232807690 0.007942831143736839294433593750 0 0 0 0 
2404500000.0000000000 0.177255883812904413421307481258 0.022910811007022861135462576954 -0.001475903205573559024213481372 0.008104223757982254028320312500 0 0 0 0 
2404666666.6666665077 0.177034318447113009353799384371 0.021661933511495590209960937500 -0.000884134788066148757934570312 0.008280572481453418731689453125 0 0 0 0 
2404833333.3333334923 0.176578268408775301834268134371 0.020084278658032420766810233204 -0.000696454255376011133193969727 0.008164466358721256256103515625 0 0 0 0 
2405000000.0000000000 0.176161617040634210784588731258 0.018669063225388530385950858204 -0.000199521367903798791483202524 0.008161242119967937469482421875 0 0 0 0 
2405166666.6666665077 0.175764828920364407638388115629 0.017191037535667419433593750000 0.000110488690552301704883575439 0.008230915293097496032714843750 0 0 0 0 
2405333333.3333334923 0.175466433167457608321981865629 0.015318280085921289271344569727 0.000437001493992283886105137958 0.008088666945695877075195312500 0 0 0 0 
2405500000.0000000000 0.174943327903747586349325615629 0.013864539563655849802037423046 0.000763825024478137493133544922 0.008158136159181594848632812500 0 0 0 0 
2405666666.6666665077 0.174613669514656094650106865629 0.012143758125603200739850429102 0.001441745669580996036529541016 0.008072765544056892395019531250 0 0 0 0 
2405833333.3333334923 0.174211010336875887771768134371 0.010454401373863220214843750000 0.001646280754357575936558388818 0.007924064062535762786865234375 0 0 0 0 
2406000000.0000000000 0.173976644873619107345419365629 0.008423254825174808502197265625 0.002045704051852225823643349756 0.007767014671117067337036132812 0 0 0 0 
2406166666.6666665077 0.173626899719238309005575615629 0.006697357166558504104614257812 0.002322873799130320982692099463 0.007495034951716662320608808301 0 0 0 0 
2406333333.3333334923 0.173540681600570706466513115629 0.004850536119192838668823242188 0.002753487089648842811584472656 0.007261734455823898315429687500 0 0 0 0 
2406500000.0000000000 0.173374786972999600509481865629 0.002875360194593667984008789062 0.003066909266635775999781943213 0.007099511101841926574707031250 0 0 0 0 
2406666666.6666665077 0.173122778534889193435830634371 0.000963391561526805162429809570 0.003183437744155526161193847656 0.007007363252341747283935546875 0 0 0 0 
2406833333.3333334923 0.173135697841644287109375000000 -0.001031810534186661026598286206 0.003628846956416964964625693213 0.006723298225551843643188476562 0 0 0 0 
2407000000.0000000000 0.173362433910369900802450615629 -0.003093574196100234985351562500 0.003619227791205048994777060400 0.006594282109290361404418945312 0 0 0 0 
2407166666.6666665077 0.173365399241447504241619981258 -0.005085879936814308166503906250 0.003939805086702108383178710938 0.006317559629678726196289062500 0 0 0 0 
2407333333.3333334923 0.173484057188034113128338731258 -0.007232466712594032287597656250 0.004122500307857990264892578125 0.006085432600229979428763105176 0 0 0 0 
2407500000.0000000000 0.173686236143112210372763115629 -0.009281170554459095001220703125 0.004177207592874765396118164062 0.005874730180948972702026367188 0 0 0 0 
2407666666.6666665077 0.173895090818405206878338731258 -0.010985951870679860550850115430 0.004397946409881114959716796875 0.005536570679396390914916992188 0 0 0 0 
2407833333.3333334923 0.174021154642105102539062500000 -0.013302667997777460270891758398 0.004467512946575880050659179688 0.005341043695807456970214843750 0 0 0 0 
2408000000.0000000000 0.174392148852348299881143134371 -0.015297553502023220062255859375 0.004489274229854345321655273438 0.005058625712990760803222656250 0 0 0 0 
2408166666.6666665077 0.174663633108139010330361884371 -0.017145344987511638296107108204 0.004570108372718095779418945312 0.004920788574963808059692382812 0 0 0 0 
2408333333.3333334923 0.175295293331146212478799384371 -0.019101163372397419321080391796 0.004502555821090936660766601562 0.004796707071363925933837890625 0 0 0 0 
2408500000.0000000000 0.175573810935020502288494981258 -0.021020472049713141704518903907 0.004719369113445281982421875000 0.004415467381477355957031250000 0 0 0 0 
2408666666.6666665077 0.175893783569335909744424384371 -0.022793656215071681631068045704 0.004678951576352118578439043262 0.004209061618894338607788085938 0 0 0 0 
2408833333.3333334923 0.176102384924888610839843750000 -0.024362167343497279775599295704 0.004820776171982288360595703125 0.004145062528550624847412109375 0 0 0 0 
2409000000.0000000000 0.176512166857719393631143134371 -0.026022277772426608694056326954 0.004844305571168661117553710938 0.003988359123468399047851562500 0 0 0 0 
2409166666.6666665077 0.176709026098251287262286268742 -0.027629291638731959951380545704 0.004916808567941188812255859375 0.003899682080373167991638183594 0 0 0 0 
2409333333.3333334923 0.177371010184287997146768134371 -0.029033495113253589975377266796 0.005047280341386795043945312500 0.003842640900984406904933310400 0 0 0 0 
2409500000.0000000000 0.177591964602470397949218750000 -0.030351564288139339792271798046 0.004973629023879767331595136426 0.003685645759105681939366006006 0 0 0 0 
2409666666.6666665077 0.177970618009567288497763115629 -0.031650837510824196552317033593 0.005075388588011264801025390625 0.003663415554910898208618164062 0 0 0 0 
2409833333.3333334923 0.178368553519248990157919365629 -0.032703034579753882671315778907 0.005195058882236480712890625000 0.003425675909966229958775185693 0 0 0 0 
2410000000.0000000000 0.178936332464218111892861884371 -0.033507984131574630737304687500 0.005295425187796354293823242188 0.003442035987973213195800781250 0 0 0 0 
2410166666.6666665077 0.179222598671913202483807481258 -0.034391388297080986713449846093 0.005430249031633138656616210938 0.003261861857026814980747841943 0 0 0 0 
2410333333.3333334923 0.179569408297538812835369981258 -0.035247910767793662334401716407 0.005372146610170602798461914062 0.003224678337574005126953125000 0 0 0 0 
2410500000.0000000000 0.179933637380600003341513115629 -0.036167278885841369628906250000 0.005723713431507349014282226562 0.003197173355147242979762411963 0 0 0 0 
2410666666.6666665077 0.180196419358253506759481865629 -0.037026006728410720825195312500 0.005609109066426753997802734375 0.003052826970815659003016806494 0 0 0 0 
2410833333.3333334923 0.180624991655349703689736884371 -0.037584573030471801757812500000 0.005888361483812332153320312500 0.002872368786484003067016601562 0 0 0 0 
2411000000.0000000000 0.180830746889114407638388115629 -0.038039255887269966815988908593 0.005888067651540040969848632812 0.002745706588029861883876181494 0 0 0 0 
2411166666.6666665077 0.180926129221916198730468750000 -0.038535304367542266845703125000 0.006131185684353113174438476562 0.002454045228660107092616415869 0 0 0 0 
2411333333.3333334923 0.181137785315513610839843750000 -0.039106115698814392089843750000 0.006297712679952383041381835938 0.002378786215558648109436035156 0 0 0 0 
2411500000.0000000000 0.181117817759513910491619981258 -0.039725258946418762207031250000 0.006386104971170425415039062500 0.002083872212097049193141318213 0 0 0 0 
2411666666.6666665077 0.181265056133270291427450615629 -0.040033951401710510253906250000 0.006408669054508209228515625000 0.001960253342986106872558593750 0 0 0 0 
2411833333.3333334923 0.181242033839225796798544365629 -0.040385771542787551879882812500 0.006759213749319314956665039062 0.001765298657119273922563862378 0 0 0 0 
2412000000.0000000000 0.181195288896560696700888115629 -0.040743272751569747924804687500 0.006719124969094991683959960938 0.001559965428896247906925820459 0 0 0 0 
2412166666.6666665077 0.180722475051879910568075615629 -0.041357576847076422954518903907 0.006828807294368743896484375000 0.001379419350996613936183310400 0 0 0 0 
2412333333.3333334923 0.180580645799636813064736884371 -0.041638601571321487426757812500 0.006939862854778766632080078125 0.000991489854641258716583251953 0 0 0 0 
2412500000.0000000000 0.179878026247024508377236884371 -0.042165059596300132060964216407 0.007022179663181304931640625000 0.000764645694289356470108032227 0 0 0 0 
2412666666.6666665077 0.179657176136970492263955634371 -0.042630810290575027465820312500 0.007149888668209314346313476562 0.000551266013644635677337646484 0 0 0 0 
2412833333.3333334923 0.178900420665740994552450615629 -0.043027624487876892089843750000 0.007107723038643599423880292676 0.000222906426643021404743194580 0 0 0 0 
2413000000.0000000000 0.178083345293998690506143134371 -0.043476268649101257324218750000 0.007153059355914592742919921875 -0.000138540635816752910614013672 0 0 0 0 
2413166666.6666665077 0.177493065595626803299111884371 -0.043641831725835800170898437500 0.007201247382909060391897870801 -0.000426236656494438702433985577 0 0 0 0 
2413333333.3333334923 0.176540359854698208907919365629 -0.044226765632629401470143903907 0.007224399130791425704956054688 -0.000622304680291563272476196289 0 0 0 0 
2413500000.0000000000 0.175609946250915499588174384371 -0.044794484972953803325612653907 0.007280960679054260253906250000 -0.001023814431391655965092324365 0 0 0 0 
2413666666.6666665077 0.174794986844062805175781250000 -0.045433674007654190063476562500 0.007400473579764366149902343750 -0.001148965209722518920898437500 0 0 0 0 
2413833333.3333334923 0.173734828829765292068643134371 -0.045967962592840201641042341407 0.007120330352336168289184570312 -0.001583816949278116009355854565 0 0 0 0 
2414000000.0000000000 0.172554552555084200760049384371 -0.046699974685907356952707658593 0.007124326191842555999755859375 -0.001871125074103475050685263525 0 0 0 0 
2414166666.6666665077 0.171533197164535494705361884371 -0.047518346458673477172851562500 0.007104422897100448608398437500 -0.002224236028268932862522744287 0 0 0 0 
2414333333.3333334923 0.170438200235366793533486884371 -0.048337511718273162841796875000 0.006890479475259780883789062500 -0.002527718665078281922581338037 0 0 0 0 
2414500000.0000000000 0.169338077306747408767861884371 -0.049124572426080696796457658593 0.006870790850371122360229492188 -0.002719734329730271859409951318 0 0 0 0 
2414666666.6666665077 0.168141916394233703613281250000 -0.050076995044946670532226562500 0.006623859051614999771118164062 -0.003050420666113495826721191406 0 0 0 0 
2414833333.3333334923 0.166872665286064203460369981258 -0.051292240619659416889231096093 0.006464240606874228391165448926 -0.003286859020590782165527343750 0 0 0 0 
2415000000.0000000000 0.165693670511245699783486884371 -0.052271902561187737201731096093 0.006350121460855007171630859375 -0.003428190713748335838317871094 0 0 0 0 
2415166666.6666665077 0.164567902684211703201455634371 -0.053601425141096122051198591407 0.006201791577041149139404296875 -0.003832808230072259902954101562 0 0 0 0 
2415333333.3333334923 0.163533762097358703613281250000 -0.055012803524732589721679687500 0.006050553172826766967773437500 -0.004133134149014949798583984375 0 0 0 0 
2415500000.0000000000 0.162366896867752102950888115629 -0.056344807147979743267018903907 0.005772492848336696624755859375 -0.004150906112045049667358398438 0 0 0 0 
2415666666.6666665077 0.161252349615097101409588731258 -0.057789638638496398925781250000 0.005635357461869716644287109375 -0.004408984445035457611083984375 0 0 0 0 
2415833333.3333334923 0.160347834229469299316406250000 -0.059450052678585052490234375000 0.005384348798543214797973632812 -0.004601368680596351623535156250 0 0 0 0 
2416000000.0000000000 0.159143686294555691818075615629 -0.061111431568861007690429687500 0.004962236620485782623291015625 -0.004885033704340457916259765625 0 0 0 0 
2416166666.6666665077 0.158315628767013605315838731258 -0.062802501022815704345703125000 0.004973595496267080307006835938 -0.005239064339548349380493164062 0 0 0 0 
2416333333.3333334923 0.157281935214996310135049384371 -0.064465202391147613525390625000 0.004398392979055643081665039062 -0.005177438724786043167114257812 0 0 0 0 
2416500000.0000000000 0.156347155570983886718750000000 -0.066333793103694915771484375000 0.004201855976134538650512695312 -0.005389007274061441421508789062 0 0 0 0 
2416666666.6666665077 0.155505537986755398849325615629 -0.068100221455097198486328125000 0.003921948838979005813598632812 -0.005362084601074457168579101562 0 0 0 0 
2416833333.3333334923 0.154741704463958712478799384371 -0.070054933428764343261718750000 0.003681477159261703924891806494 -0.005495858378708362579345703125 0 0 0 0 
2417000000.0000000000 0.153692916035652188400106865629 -0.072042942047119140625000000000 0.003236277960240840911865234375 -0.005446279887109994888305664062 0 0 0 0 
2417166666.6666665077 0.153049051761627197265625000000 -0.073775023221969604492187500000 0.003022690303623675866367959131 -0.005587770137935876846313476562 0 0 0 0 
2417333333.3333334923 0.152483463287353487869424384371 -0.075702279806137084960937500000 0.002785855904221535162684775244 -0.005463986191898584365844726562 0 0 0 0 
2417500000.0000000000 0.151797294616699190994424384371 -0.077826067805290222167968750000 0.002553158206865191893336630713 -0.005544834770262241363525390625 0 0 0 0 
2417666666.6666665077 0.151424661278724698165731865629 -0.079412199556827545166015625000 0.002467983169481157822849892725 -0.005441237241029739379882812500 0 0 0 0 
2417833333.3333334923 0.150874257087707491775674384371 -0.081172607839107513427734375000 0.002067726571112871170043945312 -0.005390230566263198852539062500 0 0 0 0 
2418000000.0000000000 0.150406971573829706390057481258 -0.082991801202297210693359375000 0.002042412990704178810119628906 -0.005256603937596082687377929688 0 0 0 0 
2418166666.6666665077 0.150131821632385309417401231258 -0.084508806467056274414062500000 0.001875584828667343096492148291 -0.005243785679340363416189862988 0 0 0 0 
2418333333.3333334923 0.150110587477683993240518134371 -0.086369737982749938964843750000 0.001919580623507499911664653247 -0.005124284885823726654052734375 0 0 0 0 
2418500000.0000000000 0.149866342544555691818075615629 -0.087836459279060363769531250000 0.001693101366981863975524902344 -0.005157440435141324996948242188 0 0 0 0 
2418666666.6666665077 0.149821683764457702636718750000 -0.089434795081615447998046875000 0.001575454021804034926770854419 -0.005105369258671998977661132812 0 0 0 0 
2418833333.3333334923 0.149628385901451110839843750000 -0.090781107544898986816406250000 0.001425078371539711952209472656 -0.005027418024837970733642578125 0 0 0 0 
2419000000.0000000000 0.149489402770996093750000000000 -0.092131160199642181396484375000 0.001349587808363140063044882666 -0.005083967000246047973632812500 0 0 0 0 
2419166666.6666665077 0.149673536419868496993856865629 -0.093326546251773834228515625000 0.001272408873774111054064106519 -0.005164668895304203033447265625 0 0 0 0 
2419333333.3333334923 0.149546250700950594803018134371 -0.094279356300830841064453125000 0.001193023519590497016906738281 -0.005072909872978925704956054688 0 0 0 0 
2419500000.0000000000 0.149835318326950100997763115629 -0.095618575811386108398437500000 0.001123877824284136078478169019 -0.005202135071158409118652343750 0 0 0 0 
2419666666.6666665077 0.150147750973701504806356865629 -0.096347779035568237304687500000 0.000937740260269492864608764648 -0.005167393479496240615844726562 0 0 0 0 
2419833333.3333334923 0.150073811411857604980468750000 -0.097002387046813964843750000000 0.000808761920779943466186523438 -0.005235478281974793347830487988 0 0 0 0 
