# Version 1.00
#
freq[Hz];re:Trc1_S11;im:Trc1_S11;re:Trc2_S21;im:Trc2_S21;
2.400000000000000E+009;1.631508618593216E-001;5.161045119166374E-002;5.096338223665953E-003;4.267050884664059E-003;
2.400166666666667E+009;1.631287336349487E-001;5.014476552605629E-002;5.224332679063082E-003;4.163657780736685E-003;
2.400333333333334E+009;1.628969460725784E-001;4.810282960534096E-002;5.323267076164484E-003;4.036847036331892E-003;
2.400500000000000E+009;1.628808379173279E-001;4.632650315761566E-002;5.353170447051525E-003;3.934244159609079E-003;
2.400666666666667E+009;1.628886610269547E-001;4.447975754737854E-002;5.538293160498142E-003;3.851577406749129E-003;
2.400833333333334E+009;1.629099249839783E-001;4.277386888861656E-002;5.967915058135986E-003;3.795956494286656E-003;
2.401000000000000E+009;1.630409806966782E-001;4.062620177865028E-002;6.015147548168898E-003;3.546433057636023E-003;
2.401166666666667E+009;1.630960255861282E-001;3.867504373192787E-002;6.120582576841116E-003;3.396062878891826E-003;
2.401333333333334E+009;1.630154103040695E-001;3.699331730604172E-002;6.506316363811493E-003;3.307483391836286E-003;
2.401500000000000E+009;1.634062230587006E-001;3.507222235202789E-002;6.498475559055805E-003;2.975232200697064E-003;
2.401666666666667E+009;1.636437475681305E-001;3.305873274803162E-002;6.796705070883036E-003;2.812634455040097E-003;
2.401833333333334E+009;1.638413518667221E-001;3.098271973431110E-002;6.986010354012251E-003;2.670722315087915E-003;
2.402000000000000E+009;1.641235351562500E-001;2.913659997284412E-002;6.922926288098097E-003;2.469193888828158E-003;
2.402166666666667E+009;1.643901020288467E-001;2.734399028122425E-002;7.174341008067131E-003;2.152755390852690E-003;
2.402333333333334E+009;1.647723168134689E-001;2.546803839504719E-002;7.556157652288675E-003;2.096108160912991E-003;
2.402500000000000E+009;1.655450910329819E-001;2.350160107016563E-002;7.419407367706299E-003;1.592459040693939E-003;
2.402666666666667E+009;1.659529060125351E-001;2.181003242731094E-002;7.656249683350325E-003;1.298392307944596E-003;
2.402833333333334E+009;1.664248257875443E-001;2.017451450228691E-002;7.661829702556133E-003;1.048650825396180E-003;
2.403000000000000E+009;1.672819852828980E-001;1.854320056736469E-002;7.689047139137983E-003;6.768327439203858E-004;
2.403166666666667E+009;1.678603887557983E-001;1.715327426791191E-002;7.846882566809654E-003;2.700640761759132E-004;
2.403333333333334E+009;1.686250120401382E-001;1.562453713268042E-002;8.175593800842762E-003;-1.033208318403922E-004;
2.403500000000000E+009;1.691444367170334E-001;1.416999660432339E-002;8.128329180181027E-003;-4.541696689557284E-004;
2.403666666666667E+009;1.699858307838440E-001;1.279083359986544E-002;8.106537163257599E-003;-8.036665967665613E-004;
2.403833333333334E+009;1.706453710794449E-001;1.154418010264635E-002;8.096999488770962E-003;-1.269717118702829E-003;
2.404000000000000E+009;1.715898811817169E-001;1.033677905797958E-002;8.134458214044571E-003;-1.645946991629899E-003;
2.404166666666667E+009;1.721372157335281E-001;8.957680314779282E-003;8.064826019108295E-003;-1.959828892722726E-003;
2.404333333333334E+009;1.728918403387070E-001;8.104446344077587E-003;8.027429692447186E-003;-2.330590039491653E-003;
2.404500000000000E+009;1.736576706171036E-001;7.052413653582335E-003;7.763495203107595E-003;-2.774274209514260E-003;
2.404666666666667E+009;1.743736416101456E-001;6.042267661541700E-003;7.660382427275181E-003;-3.176390193402767E-003;
2.404833333333334E+009;1.750831604003906E-001;5.378691013902426E-003;7.475337944924831E-003;-3.578137373551726E-003;
2.405000000000000E+009;1.757852882146835E-001;4.544073715806007E-003;7.180124521255493E-003;-3.862501587718725E-003;
2.405166666666667E+009;1.764941960573196E-001;3.713688347488642E-003;6.945432163774967E-003;-4.216567147523165E-003;
2.405333333333334E+009;1.771892756223679E-001;3.091190941631794E-003;6.750533822923899E-003;-4.391492344439030E-003;
2.405500000000000E+009;1.776230931282044E-001;2.547998912632465E-003;6.486936472356319E-003;-4.805412143468857E-003;
2.405666666666667E+009;1.783115416765213E-001;2.199888927862048E-003;6.017022300511599E-003;-4.948872607201338E-003;
2.405833333333334E+009;1.784681826829910E-001;1.778087462298572E-003;5.955271422863007E-003;-5.010264925658703E-003;
2.406000000000000E+009;1.791481524705887E-001;1.181534491479397E-003;5.419940222054720E-003;-5.407077725976706E-003;
2.406166666666667E+009;1.792506128549576E-001;8.382813539355993E-004;5.265392363071442E-003;-5.544718354940414E-003;
2.406333333333334E+009;1.798234730958939E-001;5.520483246073127E-004;4.842319525778294E-003;-5.617298185825348E-003;
2.406500000000000E+009;1.799683272838593E-001;2.582568267825991E-004;4.794218577444553E-003;-5.681151058524847E-003;
2.406666666666667E+009;1.799242496490479E-001;-1.383719645673409E-004;4.357397556304932E-003;-5.877550691366196E-003;
2.406833333333334E+009;1.802133917808533E-001;-3.960378526244313E-004;4.141306038945913E-003;-6.036309991031885E-003;
2.407000000000000E+009;1.802485734224320E-001;-8.149586501531303E-004;3.919421229511499E-003;-6.063038017600775E-003;
2.407166666666667E+009;1.803099215030670E-001;-1.177094294689596E-003;3.647000063210726E-003;-5.984744522720575E-003;
2.407333333333334E+009;1.801027655601502E-001;-1.618897193111479E-003;3.360383678227663E-003;-6.280430126935244E-003;
2.407500000000000E+009;1.799248009920120E-001;-2.020026557147503E-003;3.188974922522903E-003;-6.239240989089012E-003;
2.407666666666667E+009;1.796846985816956E-001;-2.449228195473552E-003;2.853451529517770E-003;-6.327804177999497E-003;
2.407833333333334E+009;1.794075667858124E-001;-3.097991691902280E-003;2.682665130123496E-003;-6.304950453341007E-003;
2.408000000000000E+009;1.789724379777908E-001;-3.546976717188954E-003;2.569976495578885E-003;-6.472066510468721E-003;
2.408166666666667E+009;1.784652620553970E-001;-3.948264289647341E-003;2.071160124614835E-003;-6.334990262985230E-003;
2.408333333333334E+009;1.781814843416214E-001;-4.714698530733585E-003;1.885081175714731E-003;-6.306363269686699E-003;
2.408500000000000E+009;1.776172369718552E-001;-5.721043795347214E-003;1.605588709935546E-003;-6.355853751301765E-003;
2.408666666666667E+009;1.770115941762924E-001;-6.513883825391531E-003;1.484555308707058E-003;-6.259943358600140E-003;
2.408833333333334E+009;1.762891411781311E-001;-7.298148702830076E-003;1.250334549695253E-003;-6.232699379324913E-003;
2.409000000000000E+009;1.756018996238709E-001;-8.225051686167717E-003;1.004610792733729E-003;-6.233576219528914E-003;
2.409166666666667E+009;1.750271171331406E-001;-9.435345418751240E-003;7.046974496915937E-004;-6.195852067321539E-003;
2.409333333333334E+009;1.743700802326202E-001;-1.055904664099217E-002;6.148540414869785E-004;-6.195965688675642E-003;
2.409500000000000E+009;1.735975891351700E-001;-1.197368931025267E-002;3.886003978550434E-004;-6.150620058178902E-003;
2.409666666666667E+009;1.729095280170441E-001;-1.312971767038107E-002;2.875919162761420E-004;-6.127724424004555E-003;
2.409833333333334E+009;1.722459048032761E-001;-1.428406219929457E-002;1.457637608837104E-005;-5.884025245904923E-003;
2.410000000000000E+009;1.716746836900711E-001;-1.576135493814945E-002;-6.101988765294664E-005;-5.955555010586977E-003;
2.410166666666667E+009;1.709759384393692E-001;-1.737766154110432E-002;-2.586790651548654E-004;-5.899314768612385E-003;
2.410333333333334E+009;1.702821105718613E-001;-1.892898790538311E-002;-4.315262194722891E-004;-5.863443482667208E-003;
2.410500000000000E+009;1.696609556674957E-001;-2.057905122637749E-002;-6.014293758198619E-004;-5.767912138253450E-003;
2.410666666666667E+009;1.691326498985291E-001;-2.239044755697250E-002;-6.951020332053304E-004;-5.599586758762598E-003;
2.410833333333334E+009;1.686526685953140E-001;-2.390190400183201E-002;-8.230381645262241E-004;-5.663398653268814E-003;
2.411000000000000E+009;1.680767238140106E-001;-2.570238150656223E-002;-9.315388160757721E-004;-5.511287599802017E-003;
2.411166666666667E+009;1.676131188869476E-001;-2.752397023141384E-002;-1.120126806199551E-003;-5.328372120857239E-003;
2.411333333333334E+009;1.672645658254623E-001;-2.937662042677403E-002;-1.236653421074152E-003;-5.411913618445396E-003;
2.411500000000000E+009;1.668825000524521E-001;-3.139373287558556E-002;-1.376913627609611E-003;-5.338286515325308E-003;
2.411666666666667E+009;1.668550521135330E-001;-3.329354524612427E-002;-1.492918934673071E-003;-5.340924486517906E-003;
2.411833333333334E+009;1.666485518217087E-001;-3.503471240401268E-002;-1.548007479868829E-003;-5.233169533312321E-003;
2.412000000000000E+009;1.665277779102325E-001;-3.728245198726654E-002;-1.828006701543927E-003;-5.105973221361637E-003;
2.412166666666667E+009;1.663993448019028E-001;-3.902478516101837E-002;-2.010434633120894E-003;-5.214860662817955E-003;
2.412333333333334E+009;1.667145192623138E-001;-4.076200351119041E-002;-1.939151785336435E-003;-5.102660506963730E-003;
2.412500000000000E+009;1.665041893720627E-001;-4.270001128315926E-002;-2.173973014578223E-003;-5.115436390042305E-003;
2.412666666666667E+009;1.666302382946014E-001;-4.484349489212036E-002;-2.291034441441298E-003;-4.978536162525415E-003;
2.412833333333334E+009;1.667944192886353E-001;-4.656504839658737E-002;-2.603625878691673E-003;-4.852225538343191E-003;
2.413000000000000E+009;1.671135723590851E-001;-4.826329648494721E-002;-2.534244675189257E-003;-4.691519308835268E-003;
2.413166666666667E+009;1.672670245170593E-001;-5.018969252705574E-002;-2.871374599635601E-003;-4.834337159991264E-003;
2.413333333333334E+009;1.675164848566055E-001;-5.188801884651184E-002;-3.096908330917358E-003;-4.797485657036305E-003;
2.413500000000000E+009;1.678926646709442E-001;-5.340733006596565E-002;-3.186379093676806E-003;-4.639325197786093E-003;
2.413666666666667E+009;1.684047877788544E-001;-5.499508231878281E-002;-3.409117460250855E-003;-4.515777807682753E-003;
2.413833333333334E+009;1.687012612819672E-001;-5.658234283328056E-002;-3.546595573425293E-003;-4.381024278700352E-003;
2.414000000000000E+009;1.688542813062668E-001;-5.809004232287407E-002;-3.828935092315078E-003;-4.129654727876186E-003;
2.414166666666667E+009;1.695884615182877E-001;-5.932461097836494E-002;-3.844990860670805E-003;-4.061258397996426E-003;
2.414333333333334E+009;1.700361520051956E-001;-6.044052913784981E-002;-4.068773705512285E-003;-3.887114115059376E-003;
2.414500000000000E+009;1.706344783306122E-001;-6.164384633302689E-002;-4.091546870768070E-003;-3.715850180014968E-003;
2.414666666666667E+009;1.708737015724182E-001;-6.265109777450562E-002;-4.251385573297739E-003;-3.595291171222925E-003;
2.414833333333334E+009;1.712009608745575E-001;-6.376785039901733E-002;-4.375329706817865E-003;-3.401282476261258E-003;
2.415000000000000E+009;1.716969311237335E-001;-6.457675993442535E-002;-4.422126803547144E-003;-3.144231624901295E-003;
2.415166666666667E+009;1.721158474683762E-001;-6.536032259464264E-002;-4.592121578752995E-003;-3.012102562934160E-003;
2.415333333333334E+009;1.724316328763962E-001;-6.624770164489746E-002;-4.623733460903168E-003;-2.865452319383621E-003;
2.415500000000000E+009;1.726542860269547E-001;-6.672304868698120E-002;-4.559400025755167E-003;-2.642423612996936E-003;
2.415666666666667E+009;1.729319691658020E-001;-6.724328547716141E-002;-4.773710388690233E-003;-2.426297403872013E-003;
2.415833333333334E+009;1.731689274311066E-001;-6.784916669130325E-002;-4.841628950089216E-003;-2.316744998097420E-003;
2.416000000000000E+009;1.731569021940231E-001;-6.826841831207275E-002;-4.870556760579348E-003;-2.025139750912786E-003;
2.416166666666667E+009;1.734745055437088E-001;-6.868766248226166E-002;-4.865723196417093E-003;-1.726142130792141E-003;
2.416333333333334E+009;1.733850985765457E-001;-6.902024894952774E-002;-4.922836553305388E-003;-1.592134241946042E-003;
2.416500000000000E+009;1.733517944812775E-001;-6.945028901100159E-002;-4.907576367259026E-003;-1.520615536719561E-003;
2.416666666666667E+009;1.731298267841339E-001;-6.965071707963944E-002;-5.013361107558012E-003;-1.392352045513690E-003;
2.416833333333334E+009;1.728177815675736E-001;-7.003242522478104E-002;-4.914104938507080E-003;-1.195388031192124E-003;
2.417000000000000E+009;1.724602878093720E-001;-7.020775973796845E-002;-4.934133030474186E-003;-8.119849371723831E-004;
2.417166666666667E+009;1.720458865165710E-001;-7.029042392969132E-002;-4.853516351431608E-003;-7.238236721605063E-004;
2.417333333333334E+009;1.715749949216843E-001;-7.052557170391083E-002;-4.901363980025053E-003;-5.747694522142410E-004;
2.417500000000000E+009;1.708481758832932E-001;-7.081270217895508E-002;-4.921513143926859E-003;-4.752615932375193E-004;
2.417666666666667E+009;1.703219264745712E-001;-7.098693400621414E-002;-4.817727487534285E-003;-1.149327581515536E-004;
2.417833333333334E+009;1.695426255464554E-001;-7.105933129787445E-002;-4.785358440130949E-003;-2.439109812257811E-005;
2.418000000000000E+009;1.688259392976761E-001;-7.147768884897232E-002;-4.636490717530251E-003;-1.672006146691274E-005;
2.418166666666667E+009;1.677553653717041E-001;-7.162731140851975E-002;-4.725466016680002E-003;3.472118987701833E-004;
2.418333333333334E+009;1.670272499322891E-001;-7.203059643507004E-002;-4.780148621648550E-003;4.954260075464845E-004;
2.418500000000000E+009;1.658477485179901E-001;-7.241038978099823E-002;-4.586007446050644E-003;5.723358481191099E-004;
2.418666666666667E+009;1.649378389120102E-001;-7.290565967559815E-002;-4.658342804759741E-003;7.631290354765952E-004;
2.418833333333334E+009;1.636794656515122E-001;-7.334854453802109E-002;-4.497043322771788E-003;8.965303422883153E-004;
2.419000000000000E+009;1.624052971601486E-001;-7.383412122726440E-002;-4.514293279498816E-003;9.513398399576545E-004;
2.419166666666667E+009;1.613768637180328E-001;-7.443925738334656E-002;-4.374138079583645E-003;1.103607704862952E-003;
2.419333333333334E+009;1.598953455686569E-001;-7.488409429788590E-002;-4.223942290991545E-003;1.201949547976255E-003;
2.419500000000000E+009;1.588454395532608E-001;-7.594732940196991E-002;-4.269511438906193E-003;1.522338832728565E-003;
2.419666666666667E+009;1.576666682958603E-001;-7.667406648397446E-002;-4.208642523735762E-003;1.535962219350040E-003;
2.419833333333334E+009;1.563757061958313E-001;-7.736807316541672E-002;-4.129673354327679E-003;1.652772887609899E-003;
2.420000000000000E+009;1.552676856517792E-001;-7.845115661621094E-002;-3.828336019068956E-003;1.818176358938217E-003;
2.420166666666667E+009;1.540037542581558E-001;-7.954471558332443E-002;-3.678602864965797E-003;2.002508612349629E-003;
2.420333333333334E+009;1.529401093721390E-001;-8.063025027513504E-002;-3.752453485503793E-003;1.857106108218432E-003;
2.420500000000000E+009;1.517888456583023E-001;-8.156790584325790E-002;-3.624025033786893E-003;2.010996453464031E-003;
2.420666666666667E+009;1.506558358669281E-001;-8.280854672193527E-002;-3.397263353690505E-003;2.230232348665595E-003;
2.420833333333334E+009;1.495484262704849E-001;-8.428679406642914E-002;-3.382236231118441E-003;2.174714114516974E-003;
2.421000000000000E+009;1.486610174179077E-001;-8.565632998943329E-002;-3.160688327625394E-003;2.416149945929647E-003;
2.421166666666667E+009;1.478464156389237E-001;-8.711151033639908E-002;-3.121081274002791E-003;2.534453524276614E-003;
2.421333333333334E+009;1.468398272991180E-001;-8.874534070491791E-002;-2.873186022043228E-003;2.453309949487448E-003;
2.421500000000000E+009;1.461960971355438E-001;-9.019690006971359E-002;-2.888272516429424E-003;2.592734294012189E-003;
2.421666666666667E+009;1.454980671405792E-001;-9.178597480058670E-002;-2.776964334771037E-003;2.563710557296872E-003;
2.421833333333334E+009;1.448934823274612E-001;-9.341049194335938E-002;-2.696971409022808E-003;2.473219530656934E-003;
2.422000000000000E+009;1.443097293376923E-001;-9.492327272891998E-002;-2.476632362231612E-003;2.616322599351406E-003;
2.422166666666667E+009;1.438867896795273E-001;-9.686397016048431E-002;-2.462408505380154E-003;2.804702380672097E-003;
2.422333333333334E+009;1.435408443212509E-001;-9.842767566442490E-002;-2.274026861414313E-003;2.618904458358884E-003;
2.422500000000000E+009;1.432317793369293E-001;-1.000387445092201E-001;-2.309377770870924E-003;2.715453272685409E-003;
2.422666666666667E+009;1.429767906665802E-001;-1.017044782638550E-001;-2.121145138517022E-003;2.553234575316310E-003;
2.422833333333334E+009;1.428381949663162E-001;-1.034918725490570E-001;-1.903780386783183E-003;2.651513554155827E-003;
2.423000000000000E+009;1.429779231548309E-001;-1.052342280745506E-001;-1.811868976801634E-003;2.609106944873929E-003;
2.423166666666667E+009;1.431052535772324E-001;-1.068808212876320E-001;-1.736014266498387E-003;2.701190300285816E-003;
2.423333333333334E+009;1.431165039539337E-001;-1.083949208259583E-001;-1.605248427949846E-003;2.687614643946290E-003;
2.423500000000000E+009;1.434201747179031E-001;-1.100995689630508E-001;-1.407254603691399E-003;2.792630344629288E-003;
2.423666666666667E+009;1.433085054159164E-001;-1.116887703537941E-001;-1.459079678170383E-003;2.765310462564230E-003;
2.423833333333334E+009;1.437074989080429E-001;-1.130848899483681E-001;-1.458522747270763E-003;2.589982468634844E-003;
2.424000000000000E+009;1.437576264142990E-001;-1.145008131861687E-001;-1.283819903619587E-003;2.565901493653655E-003;
2.424166666666667E+009;1.441427618265152E-001;-1.158921420574188E-001;-1.373595907352865E-003;2.490050625056028E-003;
2.424333333333334E+009;1.446077376604080E-001;-1.170749291777611E-001;-1.306693302467465E-003;2.396556781604886E-003;
2.424500000000000E+009;1.451118588447571E-001;-1.185367330908775E-001;-1.238748664036393E-003;2.538778819143772E-003;
2.424666666666667E+009;1.455741077661514E-001;-1.192848831415176E-001;-1.067155739292502E-003;2.247884869575501E-003;
2.424833333333334E+009;1.457287371158600E-001;-1.204734072089195E-001;-1.067004632204771E-003;2.471867715939879E-003;
2.425000000000000E+009;1.461925804615021E-001;-1.213927939534187E-001;-9.427057229913771E-004;2.504462376236916E-003;
2.425166666666667E+009;1.463654339313507E-001;-1.223741248250008E-001;-8.666513604111970E-004;2.487690187990665E-003;
2.425333333333334E+009;1.469057202339172E-001;-1.230442598462105E-001;-1.021392294205725E-003;2.438671886920929E-003;
2.425500000000000E+009;1.472231596708298E-001;-1.238522082567215E-001;-9.045923361554742E-004;2.350548049435020E-003;
2.425666666666667E+009;1.473275721073151E-001;-1.244383379817009E-001;-8.257704321295023E-004;2.330177929252386E-003;
2.425833333333334E+009;1.475901752710342E-001;-1.250616163015366E-001;-7.716892287135124E-004;2.445811871439219E-003;
2.426000000000000E+009;1.478216648101807E-001;-1.255117803812027E-001;-8.127404726110399E-004;2.339790342375636E-003;
2.426166666666667E+009;1.480772197246552E-001;-1.257468611001968E-001;-7.260950515046716E-004;2.384200692176819E-003;
2.426333333333334E+009;1.480825394392014E-001;-1.261674463748932E-001;-7.220730767585337E-004;2.426399849355221E-003;
2.426500000000000E+009;1.482187360525131E-001;-1.263591498136520E-001;-6.652982556261122E-004;2.383508253842592E-003;
2.426666666666667E+009;1.481282860040665E-001;-1.263735145330429E-001;-7.226151647046208E-004;2.331682946532965E-003;
2.426833333333334E+009;1.478831171989441E-001;-1.265722811222076E-001;-5.464154528453946E-004;2.363855019211769E-003;
2.427000000000000E+009;1.475819945335388E-001;-1.268634349107742E-001;-5.009080632589757E-004;2.315565012395382E-003;
2.427166666666667E+009;1.474509388208389E-001;-1.267371922731400E-001;-4.912148579023778E-004;2.386311301961541E-003;
2.427333333333334E+009;1.468764096498489E-001;-1.267708092927933E-001;-4.947012639604509E-004;2.446610946208239E-003;
2.427500000000000E+009;1.464588493108749E-001;-1.266831308603287E-001;-2.534095547161996E-004;2.324710600078106E-003;
2.427666666666667E+009;1.458321660757065E-001;-1.266966760158539E-001;-3.470594820100814E-004;2.403886988759041E-003;
