# Hz S RI R 50
2400000000.0000000000 0.163246750831604003906250000000 0.051771663129329681396484375000 0.005153886508196592330932617188 0.004145896062254905700683593750 0 0 0 0 
2400166666.6666665077 0.163148552179336603362713731258 0.050014480948448181152343750000 0.005363472737371922406668378613 0.004109726287424564361572265625 0 0 0 0 
2400333333.3333334923 0.163037821650505093673544365629 0.048147697001695632934570312500 0.005406968295574188232421875000 0.003835135372355579896214150537 0 0 0 0 
2400500000.0000000000 0.163121119141578702071981865629 0.046440958976745612407643903907 0.005709538701921701431274414062 0.003806483000516891913173056494 0 0 0 0 
2400666666.6666665077 0.162877053022384588043536268742 0.044524990022182471538503278907 0.005814939271658658981323242188 0.003761775325983763174769736182 0 0 0 0 
2400833333.3333334923 0.163221940398216303069744981258 0.042829245328903198242187500000 0.006007915828377007570748613574 0.003713673679158091978785849463 0 0 0 0 
2401000000.0000000000 0.163087099790573092361611884371 0.040704913437366492534597028907 0.006079394370317459106445312500 0.003501788014546037153956747900 0 0 0 0 
2401166666.6666665077 0.163274794816970797439736884371 0.038683973252773291851003278907 0.006315446924418210983276367188 0.003220520447939633889439248193 0 0 0 0 
2401333333.3333334923 0.163233593106269808670205634371 0.036774143576622009277343750000 0.006382436957210302352905273438 0.003192669479176402091979980469 0 0 0 0 
2401500000.0000000000 0.163620382547378512283486884371 0.034901186823844909667968750000 0.006671798881143332395071698926 0.002968917367979884147644042969 0 0 0 0 
2401666666.6666665077 0.163760378956794711013955634371 0.032960269600152969360351562500 0.006857033818960189819335937500 0.002908588852733374075648642432 0 0 0 0 
2401833333.3333334923 0.163959950208663912674111884371 0.030927818268537521362304687500 0.007109143305569887161254882812 0.002595916623249650001525878906 0 0 0 0 
2402000000.0000000000 0.164289698004722595214843750000 0.029077317565679550170898437500 0.007277383003383874893188476562 0.002147385384887456893920898438 0 0 0 0 
2402166666.6666665077 0.164659053087234497070312500000 0.027035878971219059335728829296 0.007450329605489969253540039062 0.001992621924728155136108398438 0 0 0 0 
2402333333.3333334923 0.164893820881843594650106865629 0.025289271026849750173548514454 0.007546136621385812759399414062 0.001694181119091809012769389575 0 0 0 0 
2402500000.0000000000 0.165700867772102411468182481258 0.023486025631427768362025076954 0.007473356090486049652099609375 0.001498435507528484084485698169 0 0 0 0 
2402666666.6666665077 0.166023731231689508636151231258 0.021800322458147999155064766796 0.007723051588982343673706054688 0.001180195715278387069702148438 0 0 0 0 
2402833333.3333334923 0.166660249233245905120526231258 0.020158452913165088998814766796 0.007945713587105274200439453125 0.000955421885009855031967163086 0 0 0 0 
2403000000.0000000000 0.167302101850509588043536268742 0.018724558874964710580846016796 0.007910059764981269836425781250 0.000574297911953181028366088867 0 0 0 0 
2403166666.6666665077 0.167971402406692504882812500000 0.017214745283126831054687500000 0.008104870095849037170410156250 0.000129811945953406393527984619 0 0 0 0 
2403333333.3333334923 0.168613210320472689529580634371 0.015356915071606639516810233204 0.008134774863719940185546875000 -0.000302769884001463705867213116 0 0 0 0 
2403500000.0000000000 0.169224888086318997482138115629 0.014141201972961429250696951954 0.008000516332685947418212890625 -0.000496450287755578756332397461 0 0 0 0 
2403666666.6666665077 0.170219287276268005371093750000 0.012874025851488109933873360546 0.007950104773044586181640625000 -0.001126875984482466957689594800 0 0 0 0 
2403833333.3333334923 0.170893758535385104080361884371 0.011683840304613109933873360546 0.008071348071098327636718750000 -0.001293525332584976933122944409 0 0 0 0 
2404000000.0000000000 0.171653002500534113128338731258 0.010352785699069499969482421875 0.007953016087412834167480468750 -0.002009695628657937049865722656 0 0 0 0 
2404166666.6666665077 0.172245442867279108245526231258 0.009008521214127540588378906250 0.007983248680830001831054687500 -0.002058477140963077978846884619 0 0 0 0 
2404333333.3333334923 0.173002228140830993652343750000 0.007969271391630172729492187500 0.007758183404803276062011718750 -0.002605796093121170997619628906 0 0 0 0 
2404500000.0000000000 0.173515304923057611663494981258 0.006861881352961063385009765625 0.007850194349884986877441406250 -0.002975058974698185920715332031 0 0 0 0 
2404666666.6666665077 0.174447804689407404143963731258 0.006005794275552034378051757812 0.007614064496010541915893554688 -0.003342887386679648919346474756 0 0 0 0 
2404833333.3333334923 0.175105810165405301193075615629 0.005306102801114320755004882812 0.007348100189119577407836914062 -0.003814740572124720053431845557 0 0 0 0 
2405000000.0000000000 0.175790578126907404143963731258 0.004577619023621082305908203125 0.007058124989271163940429687500 -0.004233150277286767959594726562 0 0 0 0 
2405166666.6666665077 0.176502808928489712814169365629 0.003732810029760003089904785156 0.006916476413607597351074218750 -0.004398243501782417297363281250 0 0 0 0 
2405333333.3333334923 0.177121698856353787521200615629 0.003029462881386280059814453125 0.006589161697775126370901777051 -0.004652862902730703353881835938 0 0 0 0 
2405500000.0000000000 0.177592962980270413497763115629 0.002561016706749796867370605469 0.006357866339385510358328534863 -0.004752026405185461044311523438 0 0 0 0 
2405666666.6666665077 0.178273007273674011230468750000 0.002149595413357018990757607568 0.006039751693606376647949218750 -0.005265194457024335861206054688 0 0 0 0 
2405833333.3333334923 0.178482547402381896972656250000 0.001699105137959123091456747900 0.005889877676963806152343750000 -0.005540001206099987030029296875 0 0 0 0 
2406000000.0000000000 0.179125726222991887848223768742 0.001127411262132226987126015771 0.005383077077567577362060546875 -0.005679254885762929916381835938 0 0 0 0 
2406166666.6666665077 0.179461658000945989410723768742 0.000860550673678517341613769531 0.004981882870197296142578125000 -0.005453902296721935272216796875 0 0 0 0 
2406333333.3333334923 0.179803028702735900878906250000 0.000656245741993188858032226562 0.004892176482826471328735351562 -0.005953912623226642608642578125 0 0 0 0 
2406500000.0000000000 0.180088549852371188064736884371 0.000184845441253855797365465707 0.004646487999707460403442382812 -0.006055889651179313659667968750 0 0 0 0 
2406666666.6666665077 0.180102542042732211013955634371 -0.000177760113729164004325866699 0.004321586806327104568481445312 -0.006114550400525332364554120801 0 0 0 0 
2406833333.3333334923 0.180271491408348111251669365629 -0.000644439016468822956085205078 0.004061410203576087951660156250 -0.006149894557893276214599609375 0 0 0 0 
2407000000.0000000000 0.180272266268730191329794365629 -0.000920926628168672323226928711 0.003836423391476273970362997900 -0.006197065580636262893676757812 0 0 0 0 
2407166666.6666665077 0.180433437228202792068643134371 -0.001235753064975142912623740088 0.003559716511517763137817382812 -0.006323882844299077987670898438 0 0 0 0 
2407333333.3333334923 0.180180221796035794357138115629 -0.001688818330876528999925922925 0.003250102745369077162501669775 -0.006259987130761147412771894238 0 0 0 0 
2407500000.0000000000 0.179937630891799899002236884371 -0.002191220177337526841404580225 0.002934918273240327835083007812 -0.006360244471579790115356445312 0 0 0 0 
2407666666.6666665077 0.179755195975303705413494981258 -0.002488760510459541840794228662 0.002711290959268807931187295068 -0.006443698890507221221923828125 0 0 0 0 
2407833333.3333334923 0.179233938455581692794638115629 -0.003065544879063963890075683594 0.002352945273742080168483115088 -0.006486872211098670959472656250 0 0 0 0 
2408000000.0000000000 0.179057061672210693359375000000 -0.003672018414363265037536621094 0.002131113316863774819615029443 -0.006478966213762760162353515625 0 0 0 0 
2408166666.6666665077 0.178542703390121487716513115629 -0.004131717141717672348022460938 0.001914471620693803050397563403 -0.006557594519108533859252929688 0 0 0 0 
2408333333.3333334923 0.178189769387245205978231865629 -0.004830597899854183197021484375 0.001719549880363046906114887769 -0.006446508225053548812866210938 0 0 0 0 
2408500000.0000000000 0.177578076720237704178018134371 -0.005604588426649571332449628613 0.001440438441932200951817177881 -0.006376174278557300567626953125 0 0 0 0 
2408666666.6666665077 0.177021980285644503494424384371 -0.006502670235931873321533203125 0.001193583710119128010393452222 -0.006326992996037006378173828125 0 0 0 0 
2408833333.3333334923 0.176344200968742398361044365629 -0.007405130192637444409842206738 0.001041005947627126953722309644 -0.006332112010568380355834960938 0 0 0 0 
2409000000.0000000000 0.175655379891395596603231865629 -0.008290264755487442016601562500 0.000733638589736074209213256836 -0.006211196072399616241455078125 0 0 0 0 
2409166666.6666665077 0.174983456730842590332031250000 -0.009385536424815654754638671875 0.000688601401634514331817626953 -0.006252613849937915802001953125 0 0 0 0 
2409333333.3333334923 0.174406155943870488922442518742 -0.010610072873532770329485508398 0.000305227702483534812927246094 -0.006174340378493070602416992188 0 0 0 0 
2409500000.0000000000 0.173664376139640808105468750000 -0.011773102916777130472203438671 0.000262699904851615374714451923 -0.006100207567214965820312500000 0 0 0 0 
2409666666.6666665077 0.172989010810852106292401231258 -0.013218950480222700291643711523 0.000097808420832734555006027222 -0.006137256976217032346243573926 0 0 0 0 
2409833333.3333334923 0.172142878174781799316406250000 -0.014437331818044190842598162305 -0.000250844983384013175964355469 -0.006096544675529003143310546875 0 0 0 0 
2410000000.0000000000 0.171500951051712008377236884371 -0.015820007771253589284876639454 -0.000481940893223509192466735840 -0.005884075537323951721191406250 0 0 0 0 
2410166666.6666665077 0.170904323458671597579794365629 -0.017250310629606250417689139454 -0.000650867761578410863876342773 -0.005864314734935761365408612988 0 0 0 0 
2410333333.3333334923 0.170321658253669711013955634371 -0.018915709108114239084263985546 -0.000745971628930419683456420898 -0.005714037921279668807983398438 0 0 0 0 
2410500000.0000000000 0.169674620032310513595419365629 -0.020666768774390220642089843750 -0.000702376186382025480270385742 -0.005767238792032003402709960938 0 0 0 0 
2410666666.6666665077 0.169025301933288601974325615629 -0.022379700094461441040039062500 -0.001010826323181390979169536060 -0.005511525552719832334036542676 0 0 0 0 
2410833333.3333334923 0.168599009513855008224325615629 -0.024032000452280051494557966407 -0.000909147434867918491363525391 -0.005447292234748601913452148438 0 0 0 0 
2411000000.0000000000 0.167990848422050503829794365629 -0.025690995156764980661412423046 -0.001331962645053863959071493994 -0.005475140642374753952026367188 0 0 0 0 
2411166666.6666665077 0.167653456330299405196981865629 -0.027621416375041011465052420704 -0.001081473776139318943023681641 -0.005337825044989585876464843750 0 0 0 0 
2411333333.3333334923 0.167300283908843994140625000000 -0.029623908922076228750208670704 -0.001332544023171067021013569409 -0.005333110224455595016479492188 0 0 0 0 
2411500000.0000000000 0.167011737823486300369424384371 -0.031450595706701278686523437500 -0.001538509503006934902788471753 -0.005262681283056735992431640625 0 0 0 0 
2411666666.6666665077 0.166646435856819208343182481258 -0.033413589000701897357981096093 -0.001535185961984097957611083984 -0.005145873874425888061523437500 0 0 0 0 
2411833333.3333334923 0.166684687137603787521200615629 -0.035271182656288146972656250000 -0.001724082161672412915470742334 -0.005203416571021080017089843750 0 0 0 0 
2412000000.0000000000 0.166621923446655301193075615629 -0.037178825587034232402761091407 -0.001906362827867269949672079932 -0.005014207679778338345999433301 0 0 0 0 
2412166666.6666665077 0.166436746716499300857705634371 -0.039172936230897903442382812500 -0.001996385632082819938659667969 -0.005178337451070547103881835938 0 0 0 0 
2412333333.3333334923 0.166558578610420199295205634371 -0.040984526276588439941406250000 -0.002162785967811942100524902344 -0.004952586721628904342651367188 0 0 0 0 
2412500000.0000000000 0.166362941265106201171875000000 -0.042848922312259667133371721093 -0.002293673343956470923182822119 -0.004744049161672592163085937500 0 0 0 0 
2412666666.6666665077 0.166719868779182406326455634371 -0.044871456921100623393972028907 -0.002412096131592988967895507812 -0.004837280139327049255371093750 0 0 0 0 
2412833333.3333334923 0.166907802224159212967080634371 -0.046541169285774230957031250000 -0.002606635680422186851501464844 -0.004758406430482864379882812500 0 0 0 0 
2413000000.0000000000 0.167211890220642089843750000000 -0.048384491354227072978932966407 -0.002707462990656495094299316406 -0.004970527254045009613037109375 0 0 0 0 
2413166666.6666665077 0.167396262288093594650106865629 -0.050026126205921173095703125000 -0.002833094447851181030273437500 -0.004596900660544633865356445312 0 0 0 0 
2413333333.3333334923 0.167483180761337308029013115629 -0.051769528537988662719726562500 -0.002944973530247807936427451025 -0.004551371093839406967163085938 0 0 0 0 
2413500000.0000000000 0.167887568473815890213174384371 -0.053521215915679931640625000000 -0.003163787769153714179992675781 -0.004569532815366983413696289062 0 0 0 0 
2413666666.6666665077 0.168389260768890408614950615629 -0.055141627788543701171875000000 -0.003358802758157252831699990381 -0.004363392945379018783569335938 0 0 0 0 
2413833333.3333334923 0.168646305799484308440838731258 -0.056589379906654357910156250000 -0.003479880280792713165283203125 -0.004388874862343072891235351562 0 0 0 0 
2414000000.0000000000 0.169025048613548306564169365629 -0.057980615645647048950195312500 -0.003646225435659288926365517725 -0.004169678781181573867797851562 0 0 0 0 
2414166666.6666665077 0.169561117887497003753338731258 -0.059213947504758841777761091407 -0.003841107245534657998325966943 -0.003902935655787587165832519531 0 0 0 0 
2414333333.3333334923 0.170015901327133206466513115629 -0.060559645295143127441406250000 -0.003909734543412923812866210938 -0.003884500358253716988804482568 0 0 0 0 
2414500000.0000000000 0.170632734894752502441406250000 -0.061649695038795471191406250000 -0.004069132730364800366873456738 -0.003570080269128084182739257812 0 0 0 0 
2414666666.6666665077 0.170923948287963894943075615629 -0.062699928879737854003906250000 -0.004121815320104360580444335938 -0.003571822540834546089172363281 0 0 0 0 
2414833333.3333334923 0.171236068010330200195312500000 -0.063696429133415222167968750000 -0.004246857482939958572387695312 -0.003316388698294758796691894531 0 0 0 0 
2415000000.0000000000 0.171780943870544405838174384371 -0.064569123089313507080078125000 -0.004434006288647651672363281250 -0.003205008106306194825413369287 0 0 0 0 
2415166666.6666665077 0.172047168016433688064736884371 -0.065431639552116394042968750000 -0.004443467129021883010864257812 -0.003072746098041533990147256006 0 0 0 0 
2415333333.3333334923 0.172432154417037991622763115629 -0.066137753427028656005859375000 -0.004622510168701410293579101562 -0.002923409687355161146876669775 0 0 0 0 
2415500000.0000000000 0.172765597701072692871093750000 -0.066886946558952331542968750000 -0.004647119436413049697875976562 -0.002744882600381969971897744287 0 0 0 0 
2415666666.6666665077 0.172956272959709195236044365629 -0.067399345338344573974609375000 -0.004852489102631807327270507812 -0.002505879383534193038940429688 0 0 0 0 
2415833333.3333334923 0.173162192106247003753338731258 -0.067935474216938018798828125000 -0.004833453334867954254150390625 -0.002349395304918289184570312500 0 0 0 0 
2416000000.0000000000 0.173191532492637606521768134371 -0.068409584462642669677734375000 -0.004938541911542415618896484375 -0.002207473386079072952270507812 0 0 0 0 
2416166666.6666665077 0.173577696084976196289062500000 -0.068784072995185852050781250000 -0.005106278229504823684692382812 -0.001724058296531439044355082935 0 0 0 0 
2416333333.3333334923 0.173403009772300692459268134371 -0.069067366421222686767578125000 -0.004951247945427894592285156250 -0.001744953682646154923679970850 0 0 0 0 
2416500000.0000000000 0.173340633511543301681356865629 -0.069503329694271087646484375000 -0.005135279614478349685668945312 -0.001506814383901656107661581885 0 0 0 0 
2416666666.6666665077 0.173045650124549893478231865629 -0.069652222096920013427734375000 -0.004926589317619800567626953125 -0.001356899039819837050196982275 0 0 0 0 
2416833333.3333334923 0.172971546649932889083700615629 -0.069959811866283416748046875000 -0.005008506588637828826904296875 -0.001131918863393365903141640771 0 0 0 0 
2417000000.0000000000 0.172416895627975491622763115629 -0.070244491100311279296875000000 -0.005168105941265822324270917676 -0.000863706052768975496292114258 0 0 0 0 
2417166666.6666665077 0.172042325139045687576455634371 -0.070416018366813659667968750000 -0.005077570676803588867187500000 -0.000696605537086725234985351562 0 0 0 0 
2417333333.3333334923 0.171660453081131009200888115629 -0.070508405566215515136718750000 -0.005032464861869812011718750000 -0.000478399277199059724807739258 0 0 0 0 
2417500000.0000000000 0.170991197228431701660156250000 -0.070968873798847198486328125000 -0.005179784260690212249755859375 -0.000412171502830460721820277081 0 0 0 0 
2417666666.6666665077 0.170438468456268310546875000000 -0.070952355861663818359375000000 -0.004942985251545906066894531250 -0.000071555761678609997034072876 0 0 0 0 
2417833333.3333334923 0.169458255171775790115518134371 -0.071243338286876678466796875000 -0.004902077373117209348196698926 -0.000010454638868395709858246344 0 0 0 0 
2418000000.0000000000 0.168778941035270690917968750000 -0.071635022759437561035156250000 -0.004830924328416585922241210938 0.000197250090423040091991424561 0 0 0 0 
2418166666.6666665077 0.167761147022247286697549384371 -0.071690544486045837402343750000 -0.004713774193078280362600995801 0.000400853401515632922023218976 0 0 0 0 
2418333333.3333334923 0.167089432477951105315838731258 -0.072133533656597137451171875000 -0.004757103044539690017700195312 0.000506663171108812093734741211 0 0 0 0 
2418500000.0000000000 0.165895536541938809493856865629 -0.072405159473419189453125000000 -0.004607069771736860275268554688 0.000720624637324362993240356445 0 0 0 0 
2418666666.6666665077 0.164976775646209689041299384371 -0.073057986795902252197265625000 -0.004633025266230106353759765625 0.000751330459024757146835327148 0 0 0 0 
2418833333.3333334923 0.163625851273536709884481865629 -0.073408924043178558349609375000 -0.004533350002020598325247480176 0.000975468836259096860885620117 0 0 0 0 
2419000000.0000000000 0.162455931305885287185830634371 -0.073920175433158874511718750000 -0.004498463124036788940429687500 0.001043799915350974039790488135 0 0 0 0 
2419166666.6666665077 0.161312565207481412032919365629 -0.074537821114063262939453125000 -0.004210425540804862976074218750 0.001188839320093392892124795068 0 0 0 0 
2419333333.3333334923 0.159926891326904296875000000000 -0.075033158063888549804687500000 -0.004292431287467479705810546875 0.001300224335864186070085835034 0 0 0 0 
2419500000.0000000000 0.158812418580055209060830634371 -0.075937360525131225585937500000 -0.004190396517515183362478925488 0.001429441617801785902736044775 0 0 0 0 
2419666666.6666665077 0.157672360539436312576455634371 -0.076794870197772979736328125000 -0.004020263440907002362723066113 0.001640294096432626030565571362 0 0 0 0 
2419833333.3333334923 0.156362429261207608321981865629 -0.077523440122604370117187500000 -0.004000059794634580612182617188 0.001646291464567184014561318506 0 0 0 0 
