# Version 1.00
#
freq[Hz];re:Trc1_S11;im:Trc1_S11;re:Trc2_S21;im:Trc2_S21;
2.400000000000000E+009;1.735845804214478E-001;4.932300373911858E-002;2.639243146404624E-003;3.512459574267268E-003;
2.400166666666667E+009;1.741987615823746E-001;4.889013618230820E-002;2.590901684015989E-003;3.377471817657352E-003;
2.400333333333334E+009;1.744883507490158E-001;4.798015207052231E-002;2.872677752748132E-003;3.349313279613853E-003;
2.400500000000000E+009;1.748134791851044E-001;4.727269336581230E-002;2.835527295246720E-003;3.274900838732719E-003;
2.400666666666667E+009;1.751669198274612E-001;4.665153846144676E-002;2.987662563100457E-003;3.124975832179189E-003;
2.400833333333334E+009;1.753254383802414E-001;4.619738832116127E-002;2.855867380276322E-003;2.891805255785584E-003;
2.401000000000000E+009;1.755441427230835E-001;4.550940915942192E-002;2.943621948361397E-003;2.861315850168467E-003;
2.401166666666667E+009;1.754751950502396E-001;4.489323124289513E-002;3.112370846793056E-003;2.817615633830428E-003;
2.401333333333334E+009;1.755315363407135E-001;4.421690106391907E-002;3.033177927136421E-003;2.735045040026307E-003;
2.401500000000000E+009;1.756755411624908E-001;4.346458613872528E-002;3.188255475834012E-003;2.500199712812901E-003;
2.401666666666667E+009;1.757327616214752E-001;4.283444583415985E-002;3.154225880280137E-003;2.426001010462642E-003;
2.401833333333334E+009;1.755968481302261E-001;4.185893759131432E-002;3.233796916902065E-003;2.379674231633544E-003;
2.402000000000000E+009;1.752760112285614E-001;4.116019234061241E-002;3.371340455487371E-003;2.196559915319085E-003;
2.402166666666667E+009;1.750723868608475E-001;4.018655419349670E-002;3.457916434854269E-003;2.138657728210092E-003;
2.402333333333334E+009;1.747375726699829E-001;3.918278589844704E-002;3.471299773082137E-003;2.075392520055175E-003;
2.402500000000000E+009;1.747138798236847E-001;3.822006657719612E-002;3.287346102297306E-003;1.846190425567329E-003;
2.402666666666667E+009;1.743567138910294E-001;3.699970990419388E-002;3.547843312844634E-003;1.943182316608727E-003;
2.402833333333334E+009;1.738345474004746E-001;3.592478483915329E-002;3.472338430583477E-003;1.450400450266898E-003;
2.403000000000000E+009;1.736459732055664E-001;3.452117368578911E-002;3.494818462058902E-003;1.472374075092375E-003;
2.403166666666667E+009;1.735464781522751E-001;3.303258493542671E-002;3.509693313390017E-003;1.301908632740378E-003;
2.403333333333334E+009;1.730117797851563E-001;3.182750567793846E-002;3.421087283641100E-003;1.226700725965202E-003;
2.403500000000000E+009;1.725766509771347E-001;3.015149012207985E-002;3.434568643569946E-003;9.912246605381370E-004;
2.403666666666667E+009;1.721129715442658E-001;2.847000211477280E-002;3.520400496199727E-003;9.137193555943668E-004;
2.403833333333334E+009;1.717527806758881E-001;2.688387595117092E-002;3.441555192694068E-003;7.884577498771250E-004;
2.404000000000000E+009;1.713912636041641E-001;2.510059811174870E-002;3.456510370597243E-003;5.606867489404976E-004;
2.404166666666667E+009;1.710713356733322E-001;2.310479246079922E-002;3.502974053844810E-003;4.929584101773799E-004;
2.404333333333334E+009;1.707551181316376E-001;2.138315699994564E-002;3.385541494935751E-003;4.091416776645929E-004;
2.404500000000000E+009;1.703426241874695E-001;1.937217265367508E-002;3.322127507999539E-003;3.301672986708581E-004;
2.404666666666667E+009;1.701089888811112E-001;1.732826419174671E-002;3.221717197448015E-003;1.362682232866064E-004;
2.404833333333334E+009;1.700373739004135E-001;1.536841411143541E-002;3.130941418930888E-003;1.324061013292521E-004;
2.405000000000000E+009;1.699264198541641E-001;1.318765152245760E-002;3.043232718482614E-003;1.203863066621125E-004;
2.405166666666667E+009;1.697992980480194E-001;1.120180357247591E-002;3.055489156395197E-003;-4.057658770761918E-006;
2.405333333333334E+009;1.698267906904221E-001;9.074309840798378E-003;2.952520502731204E-003;6.145305815152824E-005;
2.405500000000000E+009;1.698992699384689E-001;7.180955260992050E-003;2.649370348080993E-003;8.324680675286800E-005;
2.405666666666667E+009;1.699916422367096E-001;5.090697668492794E-003;2.699419623240829E-003;7.138428190955892E-005;
2.405833333333334E+009;1.700983643531799E-001;3.150063334032893E-003;2.814417006447911E-003;-1.664224510022905E-005;
2.406000000000000E+009;1.704325675964356E-001;8.123065927065909E-004;2.526169642806053E-003;2.495486696716398E-004;
2.406166666666667E+009;1.706936657428742E-001;-1.028084778226912E-003;2.647818531841040E-003;7.209704199340195E-005;
2.406333333333334E+009;1.714163124561310E-001;-3.045879537239671E-003;2.556153573095799E-003;1.349057856714353E-005;
2.406500000000000E+009;1.718065440654755E-001;-5.092379171401262E-003;2.605365356430411E-003;1.749216462485492E-004;
2.406666666666667E+009;1.722418814897537E-001;-7.119847927242518E-003;2.552860416471958E-003;2.839128137566149E-004;
2.406833333333334E+009;1.728416383266449E-001;-9.029569104313850E-003;2.843329682946205E-003;2.050801995210350E-004;
2.407000000000000E+009;1.735218465328217E-001;-1.098443288356066E-002;2.768276026472449E-003;3.636197652667761E-004;
2.407166666666667E+009;1.743809878826141E-001;-1.270182617008686E-002;3.024745965376496E-003;7.395056309178472E-005;
2.407333333333334E+009;1.750272959470749E-001;-1.458433736115694E-002;3.096220549196005E-003;4.314204124966636E-005;
2.407500000000000E+009;1.757617443799973E-001;-1.630765199661255E-002;3.296173643320799E-003;5.656458597513847E-005;
2.407666666666667E+009;1.766513139009476E-001;-1.790207810699940E-002;3.530769143253565E-003;-1.504380197729915E-004;
2.407833333333334E+009;1.773019433021545E-001;-1.970315352082253E-002;3.370784688740969E-003;-2.473020576871932E-004;
2.408000000000000E+009;1.781077980995178E-001;-2.135333977639675E-002;3.439745167270303E-003;-4.900420899502933E-004;
2.408166666666667E+009;1.788039952516556E-001;-2.263060398399830E-002;3.601803677156568E-003;-5.472467164508998E-004;
2.408333333333334E+009;1.796717792749405E-001;-2.412829734385014E-002;3.611446358263493E-003;-8.012616308405995E-004;
2.408500000000000E+009;1.802718937397003E-001;-2.544667571783066E-002;3.565009450539947E-003;-9.539658203721046E-004;
2.408666666666667E+009;1.808483153581619E-001;-2.681389078497887E-002;3.471314441412687E-003;-1.224627601914108E-003;
2.408833333333334E+009;1.812964677810669E-001;-2.776071988046169E-002;3.558381227776408E-003;-1.304880832321942E-003;
2.409000000000000E+009;1.818569302558899E-001;-2.870348095893860E-002;3.499570302665234E-003;-1.628261175937951E-003;
2.409166666666667E+009;1.823416650295258E-001;-2.965035289525986E-002;3.402278292924166E-003;-1.789079164154828E-003;
2.409333333333334E+009;1.828406006097794E-001;-3.055459819734097E-002;3.188113216310740E-003;-1.952023245394230E-003;
2.409500000000000E+009;1.830020099878311E-001;-3.140698000788689E-002;3.166465321555734E-003;-1.877951086498797E-003;
2.409666666666667E+009;1.832569986581802E-001;-3.192034736275673E-002;3.064144868403673E-003;-2.160995732992888E-003;
2.409833333333334E+009;1.834831535816193E-001;-3.243331983685494E-002;2.909393748268485E-003;-2.179894130676985E-003;
2.410000000000000E+009;1.836417764425278E-001;-3.275308385491371E-002;2.886032219976187E-003;-2.376229967921972E-003;
2.410166666666667E+009;1.838625669479370E-001;-3.320091590285301E-002;2.797598019242287E-003;-2.347913337871432E-003;
2.410333333333334E+009;1.837679296731949E-001;-3.336083516478539E-002;2.684694016352296E-003;-2.537141088396311E-003;
2.410500000000000E+009;1.839631944894791E-001;-3.381071239709854E-002;2.487264340743423E-003;-2.556176623329520E-003;
2.410666666666667E+009;1.836953014135361E-001;-3.420824930071831E-002;2.443794161081314E-003;-2.596494508907199E-003;
2.410833333333334E+009;1.835857480764389E-001;-3.428720682859421E-002;2.458216156810522E-003;-2.664753003045917E-003;
2.411000000000000E+009;1.833479106426239E-001;-3.456553071737289E-002;2.274942118674517E-003;-2.806460717692971E-003;
2.411166666666667E+009;1.829129308462143E-001;-3.501757979393005E-002;2.275150502100587E-003;-2.990122651681304E-003;
2.411333333333334E+009;1.826411932706833E-001;-3.538578376173973E-002;1.997836166992784E-003;-3.041709074750543E-003;
2.411500000000000E+009;1.819227784872055E-001;-3.546364232897759E-002;1.798951765522361E-003;-3.095057094469667E-003;
2.411666666666667E+009;1.814986616373062E-001;-3.596445173025131E-002;1.791467540897429E-003;-3.020676318556070E-003;
2.411833333333334E+009;1.807175427675247E-001;-3.641422465443611E-002;1.679914188571274E-003;-3.230859758332372E-003;
2.412000000000000E+009;1.798396855592728E-001;-3.688093274831772E-002;1.528140390291810E-003;-3.304949961602688E-003;
2.412166666666667E+009;1.789843738079071E-001;-3.729259222745895E-002;1.405895221978426E-003;-3.451684257015586E-003;
2.412333333333334E+009;1.782272011041641E-001;-3.779130429029465E-002;1.148681156337261E-003;-3.386891679838300E-003;
2.412500000000000E+009;1.767797172069550E-001;-3.813417628407478E-002;8.346157264895737E-004;-3.440210130065680E-003;
2.412666666666667E+009;1.759691536426544E-001;-3.908002004027367E-002;8.392426534555852E-004;-3.456200938671827E-003;
2.412833333333334E+009;1.749267131090164E-001;-3.968667984008789E-002;5.674666608683765E-004;-3.497549798339605E-003;
2.413000000000000E+009;1.735064685344696E-001;-4.042449966073036E-002;4.367989604361355E-004;-3.385780612006784E-003;
2.413166666666667E+009;1.720893979072571E-001;-4.128199070692062E-002;2.858539228327572E-004;-3.324734047055244E-003;
2.413333333333334E+009;1.708371490240097E-001;-4.232871904969215E-002;8.826972043607384E-005;-3.183840308338404E-003;
2.413500000000000E+009;1.695406138896942E-001;-4.325444623827934E-002;-1.430287520634010E-004;-3.223367035388947E-003;
2.413666666666667E+009;1.682965755462647E-001;-4.431860148906708E-002;-3.013590176124126E-004;-3.036900889128447E-003;
2.413833333333334E+009;1.668740808963776E-001;-4.575578495860100E-002;-3.501842438708991E-004;-2.973664551973343E-003;
2.414000000000000E+009;1.655220538377762E-001;-4.684856534004211E-002;-4.661938583012670E-004;-2.939580474048853E-003;
2.414166666666667E+009;1.644407212734222E-001;-4.821804165840149E-002;-6.547243683598936E-004;-2.577979350462556E-003;
2.414333333333334E+009;1.632498055696487E-001;-4.965651780366898E-002;-6.838279659859836E-004;-2.632819814607501E-003;
2.414500000000000E+009;1.620839685201645E-001;-5.114074796438217E-002;-7.461537024937570E-004;-2.320961793884635E-003;
2.414666666666667E+009;1.609500795602799E-001;-5.264192819595337E-002;-7.418814348056912E-004;-2.357739955186844E-003;
2.414833333333334E+009;1.597872078418732E-001;-5.420776829123497E-002;-8.418022771365941E-004;-2.126808278262615E-003;
2.415000000000000E+009;1.587227135896683E-001;-5.591690912842751E-002;-8.746902458369732E-004;-1.989939250051975E-003;
2.415166666666667E+009;1.577848494052887E-001;-5.760555714368820E-002;-7.106031989678741E-004;-1.787483692169190E-003;
2.415333333333334E+009;1.570333689451218E-001;-5.959807708859444E-002;-6.265787524171174E-004;-1.835705945268273E-003;
2.415500000000000E+009;1.561592072248459E-001;-6.133102253079414E-002;-6.646108813583851E-004;-1.634060172364116E-003;
2.415666666666667E+009;1.554104536771774E-001;-6.324128061532974E-002;-5.310881533659995E-004;-1.501070568338037E-003;
2.415833333333334E+009;1.546868085861206E-001;-6.517343223094940E-002;-6.708697765134275E-004;-1.459626364521682E-003;
2.416000000000000E+009;1.540504097938538E-001;-6.723830848932266E-002;-5.577707779593766E-004;-1.575587899424136E-003;
2.416166666666667E+009;1.537681370973587E-001;-6.913617998361588E-002;-4.914260935038328E-004;-1.391795929521322E-003;
2.416333333333334E+009;1.532345563173294E-001;-7.108474522829056E-002;-3.702050016727299E-004;-1.425147987902165E-003;
2.416500000000000E+009;1.528753191232681E-001;-7.318117469549179E-002;-1.238318363903090E-004;-1.516756834462285E-003;
2.416666666666667E+009;1.525320857763290E-001;-7.506752014160156E-002;-2.249497629236430E-004;-1.240802695974708E-003;
2.416833333333334E+009;1.522882580757141E-001;-7.704383879899979E-002;-1.031620922731236E-004;-1.444961410015822E-003;
2.417000000000000E+009;1.520171910524368E-001;-7.902129739522934E-002;-1.810195535654202E-004;-1.491773873567581E-003;
2.417166666666667E+009;1.519303619861603E-001;-8.071970939636231E-002;1.639049150981009E-005;-1.513641560450196E-003;
2.417333333333334E+009;1.518262773752213E-001;-8.242551982402802E-002;-2.581222906883340E-005;-1.515377894975245E-003;
2.417500000000000E+009;1.518266946077347E-001;-8.429946005344391E-002;-1.598754897713661E-004;-1.707988674752414E-003;
2.417666666666667E+009;1.518826782703400E-001;-8.576223254203796E-002;-1.136369537562132E-004;-1.662895665504038E-003;
2.417833333333334E+009;1.520041972398758E-001;-8.721497654914856E-002;-4.748015635414049E-005;-1.598972128704190E-003;
2.418000000000000E+009;1.519340127706528E-001;-8.879829198122025E-002;-1.031023857649416E-004;-1.658183056861162E-003;
2.418166666666667E+009;1.521263271570206E-001;-8.989232033491135E-002;-2.591909651528113E-005;-1.825447659939528E-003;
2.418333333333334E+009;1.525626331567764E-001;-9.128262847661972E-002;-1.142580294981599E-004;-1.792445429600775E-003;
2.418500000000000E+009;1.526343077421188E-001;-9.219223260879517E-002;-1.790163369150832E-004;-1.861904864199460E-003;
2.418666666666667E+009;1.530122607946396E-001;-9.333113580942154E-002;-2.207170036854222E-004;-1.832484500482678E-003;
2.418833333333334E+009;1.530461460351944E-001;-9.429813176393509E-002;-2.220759342890233E-004;-1.998675521463156E-003;
2.419000000000000E+009;1.532258987426758E-001;-9.493682533502579E-002;-2.353466261411086E-004;-1.896018278785050E-003;
2.419166666666667E+009;1.534083336591721E-001;-9.548181295394898E-002;-1.940565998665988E-004;-2.028433606028557E-003;
2.419333333333334E+009;1.536121964454651E-001;-9.575741738080978E-002;-3.289368178229779E-004;-1.844740589149296E-003;
2.419500000000000E+009;1.538145691156387E-001;-9.658081829547882E-002;-3.311772597953677E-004;-2.044496126472950E-003;
2.419666666666667E+009;1.541339308023453E-001;-9.682980924844742E-002;-2.981516299769282E-004;-2.154359128326178E-003;
2.419833333333334E+009;1.540615111589432E-001;-9.699436277151108E-002;-3.575084556359798E-004;-2.100420184433460E-003;
2.420000000000000E+009;1.545441895723343E-001;-9.700680524110794E-002;-4.296513507142663E-004;-2.174590248614550E-003;
2.420166666666667E+009;1.545690894126892E-001;-9.712579101324081E-002;-4.997955402359366E-004;-2.398591255769134E-003;
2.420333333333334E+009;1.545601040124893E-001;-9.717117995023727E-002;-5.265094223432243E-004;-2.247761469334364E-003;
2.420500000000000E+009;1.547102183103561E-001;-9.677811712026596E-002;-7.100758375599980E-004;-2.402472775429487E-003;
2.420666666666667E+009;1.545632630586624E-001;-9.660430997610092E-002;-7.090210565365851E-004;-2.490517683327198E-003;
2.420833333333334E+009;1.545841693878174E-001;-9.645546227693558E-002;-8.594855316914618E-004;-2.487475983798504E-003;
2.421000000000000E+009;1.542472392320633E-001;-9.606642276048660E-002;-9.117934387177229E-004;-2.566799521446228E-003;
2.421166666666667E+009;1.541171520948410E-001;-9.574785828590393E-002;-1.024132245220244E-003;-2.604859415441752E-003;
2.421333333333334E+009;1.540494412183762E-001;-9.557957202196121E-002;-1.261638593859971E-003;-2.662012120708823E-003;
2.421500000000000E+009;1.533900052309036E-001;-9.499315172433853E-002;-1.509026740677655E-003;-2.708462998270989E-003;
2.421666666666667E+009;1.530043780803680E-001;-9.493421763181686E-002;-1.706439419649541E-003;-2.684419509023428E-003;
2.421833333333334E+009;1.524234116077423E-001;-9.455350041389465E-002;-1.879095681942999E-003;-2.439633943140507E-003;
2.422000000000000E+009;1.515474319458008E-001;-9.436646848917007E-002;-2.081174869090319E-003;-2.544357441365719E-003;
2.422166666666667E+009;1.508368551731110E-001;-9.424554556608200E-002;-2.388283843174577E-003;-2.507188357412815E-003;
2.422333333333334E+009;1.499161869287491E-001;-9.384195506572723E-002;-2.549780765548348E-003;-2.253697486594319E-003;
2.422500000000000E+009;1.488637626171112E-001;-9.380783885717392E-002;-2.646112814545631E-003;-2.044427441433072E-003;
2.422666666666667E+009;1.476513296365738E-001;-9.366013854742050E-002;-2.662642626091838E-003;-1.982386223971844E-003;
2.422833333333334E+009;1.467071026563644E-001;-9.371890872716904E-002;-2.812803955748677E-003;-1.766501343809068E-003;
2.423000000000000E+009;1.452050805091858E-001;-9.353490173816681E-002;-2.783561823889613E-003;-1.598799135535955E-003;
2.423166666666667E+009;1.438734680414200E-001;-9.357686340808868E-002;-2.776442561298609E-003;-1.451203366741538E-003;
2.423333333333334E+009;1.426571458578110E-001;-9.337411075830460E-002;-2.969915280118585E-003;-1.260702032595873E-003;
2.423500000000000E+009;1.410424709320068E-001;-9.369411319494247E-002;-2.776758978143334E-003;-1.007777871564031E-003;
2.423666666666667E+009;1.393105685710907E-001;-9.383072704076767E-002;-2.826061565428972E-003;-1.077689579688013E-003;
2.423833333333334E+009;1.379878669977188E-001;-9.409921616315842E-002;-2.905915724113584E-003;-9.266678825952113E-004;
2.424000000000000E+009;1.363126188516617E-001;-9.425114095211029E-002;-2.739598974585533E-003;-8.549094782210887E-004;
2.424166666666667E+009;1.347822993993759E-001;-9.480229765176773E-002;-2.678861841559410E-003;-8.093171054497361E-004;
2.424333333333334E+009;1.333781927824020E-001;-9.522876888513565E-002;-2.696309005841613E-003;-6.579711334779859E-004;
2.424500000000000E+009;1.319567263126373E-001;-9.583076089620590E-002;-2.652333350852132E-003;-7.624435238540173E-004;
2.424666666666667E+009;1.305361092090607E-001;-9.631962329149246E-002;-2.825169824063778E-003;-5.493919597938657E-004;
2.424833333333334E+009;1.290392279624939E-001;-9.728569537401199E-002;-2.899062586948276E-003;-5.910004256293178E-004;
2.425000000000000E+009;1.276344805955887E-001;-9.813813865184784E-002;-2.760502044111490E-003;-4.707835905719549E-004;
2.425166666666667E+009;1.260551214218140E-001;-9.904015809297562E-002;-2.796122338622809E-003;-5.810154834762216E-004;
2.425333333333334E+009;1.249201446771622E-001;-1.001752465963364E-001;-2.832173602655530E-003;-4.764719633385539E-004;
2.425500000000000E+009;1.238060221076012E-001;-1.013633608818054E-001;-3.060874063521624E-003;-2.854155900422484E-004;
2.425666666666667E+009;1.224557980895042E-001;-1.026287376880646E-001;-2.945282962173224E-003;-2.206455974373967E-004;
2.425833333333334E+009;1.213695481419563E-001;-1.038898900151253E-001;-3.087650751695037E-003;-7.378363807220012E-005;
2.426000000000000E+009;1.204348802566528E-001;-1.054309085011482E-001;-3.152227262035012E-003;-1.592926673765760E-005;
2.426166666666667E+009;1.196254566311836E-001;-1.068091541528702E-001;-2.956300741061568E-003;2.223452029284090E-004;
2.426333333333334E+009;1.185991913080216E-001;-1.082415059208870E-001;-3.074822248890996E-003;2.924457076005638E-004;
2.426500000000000E+009;1.179827824234963E-001;-1.098267808556557E-001;-2.926043001934886E-003;3.973896091338247E-004;
2.426666666666667E+009;1.174163147807121E-001;-1.113234311342239E-001;-2.697274554520845E-003;6.591871497221291E-004;
2.426833333333334E+009;1.167521104216576E-001;-1.129493117332459E-001;-2.832826692610979E-003;7.633392815478146E-004;
2.427000000000000E+009;1.160646900534630E-001;-1.146682500839233E-001;-2.776614390313625E-003;8.762794896028936E-004;
2.427166666666667E+009;1.157616451382637E-001;-1.160375624895096E-001;-2.626677509397268E-003;8.070839685387909E-004;
2.427333333333334E+009;1.153275445103645E-001;-1.177515834569931E-001;-2.630356699228287E-003;9.159728651866317E-004;
2.427500000000000E+009;1.151323169469833E-001;-1.194176748394966E-001;-2.429228043183684E-003;9.531062096357346E-004;
2.427666666666667E+009;1.149811446666718E-001;-1.209687590599060E-001;-2.412212779745460E-003;1.062616123817861E-003;
