# Version 1.00
#
freq[Hz];re:Trc1_S11;im:Trc1_S11;re:Trc2_S21;im:Trc2_S21;
2.400000000000000E+009;1.554815918207169E-001;1.063764691352844E-001;1.806409680284560E-003;-8.071410469710827E-003;
2.400166666666667E+009;1.551816463470459E-001;1.038549095392227E-001;1.373491017147899E-003;-7.848910987377167E-003;
2.400333333333334E+009;1.550823897123337E-001;1.016523540019989E-001;1.068687066435814E-003;-7.613110356032848E-003;
2.400500000000000E+009;1.551208496093750E-001;9.897699952125549E-002;9.767876472324133E-004;-7.421267684549093E-003;
2.400666666666667E+009;1.550951600074768E-001;9.639263153076172E-002;6.931726238690317E-004;-7.145326118916273E-003;
2.400833333333334E+009;1.551705300807953E-001;9.364605695009232E-002;6.357576930895448E-004;-6.775893270969391E-003;
2.401000000000000E+009;1.555237770080566E-001;9.081429988145828E-002;4.699216806329787E-004;-6.772310938686132E-003;
2.401166666666667E+009;1.554706245660782E-001;8.787703514099121E-002;4.449400003068149E-004;-6.673617288470268E-003;
2.401333333333334E+009;1.556186527013779E-001;8.513151109218597E-002;6.475377012975514E-004;-6.487664766609669E-003;
2.401500000000000E+009;1.561645120382309E-001;8.237223327159882E-002;5.467527662403882E-004;-6.343664601445198E-003;
2.401666666666667E+009;1.565545499324799E-001;7.925719022750855E-002;5.509372567757964E-004;-6.290576886385679E-003;
2.401833333333334E+009;1.570973247289658E-001;7.654070109128952E-002;5.941584822721779E-004;-6.285015027970076E-003;
2.402000000000000E+009;1.578840613365173E-001;7.385317981243134E-002;7.289963541552424E-004;-6.443814840167761E-003;
2.402166666666667E+009;1.587202697992325E-001;7.116539031267166E-002;5.735511076636612E-004;-6.429171655327082E-003;
2.402333333333334E+009;1.597543507814407E-001;6.860741972923279E-002;7.388470112346113E-004;-6.471585948020220E-003;
2.402500000000000E+009;1.608559638261795E-001;6.581591814756393E-002;5.301878554746509E-004;-6.504755001515150E-003;
2.402666666666667E+009;1.618572771549225E-001;6.342251598834992E-002;3.009681822732091E-004;-6.638949271291494E-003;
2.402833333333334E+009;1.633048653602600E-001;6.085509061813355E-002;2.175500121666119E-004;-6.939420942217112E-003;
2.403000000000000E+009;1.646120995283127E-001;5.854996666312218E-002;3.599793490138836E-005;-6.956416647881270E-003;
2.403166666666667E+009;1.663495749235153E-001;5.648017674684525E-002;-6.476902490248904E-005;-6.986748892813921E-003;
2.403333333333334E+009;1.678995192050934E-001;5.417041853070259E-002;-3.847611078526825E-004;-7.174276281148195E-003;
2.403500000000000E+009;1.694599688053131E-001;5.216436833143234E-002;-6.212517037056387E-004;-7.165199145674706E-003;
2.403666666666667E+009;1.713446974754334E-001;5.018953233957291E-002;-9.555784054100514E-004;-7.182472385466099E-003;
2.403833333333334E+009;1.729982495307922E-001;4.843321070075035E-002;-1.020959694869816E-003;-7.051349151879549E-003;
2.404000000000000E+009;1.742162406444550E-001;4.658349975943565E-002;-1.318446476943791E-003;-7.113802246749401E-003;
2.404166666666667E+009;1.762670874595642E-001;4.500836879014969E-002;-1.699272193945944E-003;-6.994397379457951E-003;
2.404333333333334E+009;1.777767837047577E-001;4.359387233853340E-002;-1.754844794049859E-003;-6.904703564941883E-003;
2.404500000000000E+009;1.793415695428848E-001;4.224007576704025E-002;-1.897561945952475E-003;-6.935266777873039E-003;
2.404666666666667E+009;1.809825450181961E-001;4.109726101160049E-002;-2.105856547132134E-003;-6.938027683645487E-003;
2.404833333333334E+009;1.827319413423538E-001;4.014695063233376E-002;-2.293805824592710E-003;-6.840444635599852E-003;
2.405000000000000E+009;1.840415298938751E-001;3.938485682010651E-002;-2.432161243632436E-003;-6.703892257064581E-003;
2.405166666666667E+009;1.853670179843903E-001;3.874615579843521E-002;-2.677304670214653E-003;-6.663723848760128E-003;
2.405333333333334E+009;1.869795173406601E-001;3.812799975275993E-002;-2.768181264400482E-003;-6.624846719205380E-003;
2.405500000000000E+009;1.883593648672104E-001;3.758843988180161E-002;-3.055946435779333E-003;-6.531380582600832E-003;
2.405666666666667E+009;1.894781291484833E-001;3.726611658930779E-002;-3.245876170694828E-003;-6.448279600590468E-003;
2.405833333333334E+009;1.908496022224426E-001;3.712004795670509E-002;-3.400670364499092E-003;-6.238997448235750E-003;
2.406000000000000E+009;1.917766481637955E-001;3.695131465792656E-002;-3.718010149896145E-003;-6.195721682161093E-003;
2.406166666666667E+009;1.927380561828613E-001;3.672546148300171E-002;-3.899397328495979E-003;-6.218509748578072E-003;
2.406333333333334E+009;1.936352699995041E-001;3.667749091982842E-002;-3.969636280089617E-003;-6.061925087124109E-003;
2.406500000000000E+009;1.942895352840424E-001;3.670584037899971E-002;-4.269186872988939E-003;-6.009710486978293E-003;
2.406666666666667E+009;1.950373798608780E-001;3.680905699729919E-002;-4.230568185448647E-003;-5.715073551982641E-003;
2.406833333333334E+009;1.954986900091171E-001;3.677484765648842E-002;-4.491334781050682E-003;-5.734849721193314E-003;
2.407000000000000E+009;1.957166641950607E-001;3.704122453927994E-002;-4.568306263536215E-003;-5.653207190334797E-003;
2.407166666666667E+009;1.960941702127457E-001;3.680406510829926E-002;-4.818076733499765E-003;-5.458201281726360E-003;
2.407333333333334E+009;1.958849728107452E-001;3.706521913409233E-002;-4.894048441201448E-003;-5.530091002583504E-003;
2.407500000000000E+009;1.959244757890701E-001;3.716992586851120E-002;-5.019825417548418E-003;-5.235719494521618E-003;
2.407666666666667E+009;1.959176063537598E-001;3.714938089251518E-002;-5.205292254686356E-003;-5.129626020789146E-003;
2.407833333333334E+009;1.952954679727554E-001;3.694168850779533E-002;-5.359565373510122E-003;-5.062920507043600E-003;
2.408000000000000E+009;1.952422708272934E-001;3.685439005494118E-002;-5.248203407973051E-003;-4.856464918702841E-003;
2.408166666666667E+009;1.945571899414063E-001;3.672206029295921E-002;-5.564677529036999E-003;-4.671020898967981E-003;
2.408333333333334E+009;1.940219551324844E-001;3.621286898851395E-002;-5.468832794576883E-003;-4.552452359348536E-003;
2.408500000000000E+009;1.933457553386688E-001;3.592524304986000E-002;-5.711259320378304E-003;-4.393220413476229E-003;
2.408666666666667E+009;1.926399618387222E-001;3.541724383831024E-002;-5.955316592007875E-003;-4.380436148494482E-003;
2.408833333333334E+009;1.919879019260407E-001;3.474164381623268E-002;-5.959645379334688E-003;-4.173020366579294E-003;
2.409000000000000E+009;1.909212619066238E-001;3.393955901265144E-002;-6.002059206366539E-003;-4.001405090093613E-003;
2.409166666666667E+009;1.899402141571045E-001;3.299871832132340E-002;-6.179919466376305E-003;-3.964576870203018E-003;
2.409333333333334E+009;1.889995634555817E-001;3.204155713319778E-002;-6.420387420803309E-003;-3.853030968457460E-003;
2.409500000000000E+009;1.879565119743347E-001;3.087535873055458E-002;-6.537064909934998E-003;-3.622555639594793E-003;
2.409666666666667E+009;1.868325024843216E-001;2.934161573648453E-002;-6.617976352572441E-003;-3.526265965774655E-003;
2.409833333333334E+009;1.858006566762924E-001;2.796116285026074E-002;-6.724018137902021E-003;-3.199796192348003E-003;
2.410000000000000E+009;1.847288608551025E-001;2.633125707507134E-002;-6.880119908601046E-003;-3.111406695097685E-003;
2.410166666666667E+009;1.837963014841080E-001;2.454661391675472E-002;-6.866300944238901E-003;-2.984266960993409E-003;
2.410333333333334E+009;1.828030347824097E-001;2.271714061498642E-002;-7.121952250599861E-003;-2.809720113873482E-003;
2.410500000000000E+009;1.817766577005386E-001;2.087455987930298E-002;-7.060448173433542E-003;-2.382075646892190E-003;
2.410666666666667E+009;1.809169352054596E-001;1.859464496374130E-002;-7.247173227369785E-003;-2.292779739946127E-003;
2.410833333333334E+009;1.802528798580170E-001;1.637236960232258E-002;-7.422614842653275E-003;-1.986322226002812E-003;
2.411000000000000E+009;1.795315593481064E-001;1.416048593819141E-002;-7.306043989956379E-003;-1.975161023437977E-003;
2.411166666666667E+009;1.788517683744431E-001;1.216144394129515E-002;-7.450851146131754E-003;-1.573600340634584E-003;
2.411333333333334E+009;1.784868389368057E-001;9.515586309134960E-003;-7.357460912317038E-003;-1.302583958022296E-003;
2.411500000000000E+009;1.777962744235992E-001;7.150415796786547E-003;-7.514280267059803E-003;-1.234336639754474E-003;
2.411666666666667E+009;1.777051389217377E-001;4.781359340995550E-003;-7.420464884489775E-003;-1.045189099386334E-003;
2.411833333333334E+009;1.774049252271652E-001;2.548138843849301E-003;-7.431792560964823E-003;-7.186453440226615E-004;
2.412000000000000E+009;1.774015277624130E-001;-9.530812531011179E-005;-7.278600707650185E-003;-6.734529160894454E-004;
2.412166666666667E+009;1.776183545589447E-001;-2.367994049564004E-003;-7.640704978257418E-003;-5.247245426289737E-004;
2.412333333333334E+009;1.775064617395401E-001;-4.932136274874210E-003;-7.613216526806355E-003;-3.936015709768981E-004;
2.412500000000000E+009;1.782590001821518E-001;-7.254267111420631E-003;-7.762718945741653E-003;-2.145824255421758E-004;
2.412666666666667E+009;1.787094175815582E-001;-9.668837301433086E-003;-7.729743141680956E-003;-5.516851888387464E-005;
2.412833333333334E+009;1.793852150440216E-001;-1.198305375874043E-002;-7.906356826424599E-003;2.128305932274088E-004;
2.413000000000000E+009;1.800812482833862E-001;-1.451140828430653E-002;-7.977051660418510E-003;3.559084725566208E-004;
2.413166666666667E+009;1.811024993658066E-001;-1.674987562000752E-002;-8.087934926152229E-003;6.888123461976647E-004;
2.413333333333334E+009;1.820573955774307E-001;-1.900724694132805E-002;-8.078901097178459E-003;9.729264420457184E-004;
2.413500000000000E+009;1.831911653280258E-001;-2.125828154385090E-002;-8.141052909195423E-003;1.320762094110251E-003;
2.413666666666667E+009;1.842263340950012E-001;-2.342653647065163E-002;-8.176002651453018E-003;1.689995173364878E-003;
2.413833333333334E+009;1.854292899370194E-001;-2.547198347747326E-002;-8.094796910881996E-003;2.088346285745502E-003;
2.414000000000000E+009;1.866053938865662E-001;-2.727843634784222E-002;-8.114534430205822E-003;2.440190175548196E-003;
2.414166666666667E+009;1.880878806114197E-001;-2.914149127900600E-002;-8.043314330279827E-003;2.857920248061419E-003;
2.414333333333334E+009;1.890290826559067E-001;-3.109379112720490E-002;-7.914892397820950E-003;3.263193415477872E-003;
2.414500000000000E+009;1.902820467948914E-001;-3.251463547348976E-002;-8.096795529127121E-003;3.677630797028542E-003;
2.414666666666667E+009;1.915396749973297E-001;-3.398061543703079E-002;-7.459991145879030E-003;4.010112490504980E-003;
2.414833333333334E+009;1.927992105484009E-001;-3.537328541278839E-002;-7.258418016135693E-003;4.287553485482931E-003;
2.415000000000000E+009;1.938248574733734E-001;-3.669763728976250E-002;-6.911386735737324E-003;4.646643996238709E-003;
2.415166666666667E+009;1.951721161603928E-001;-3.782047331333160E-002;-6.794769316911697E-003;4.976452793926001E-003;
2.415333333333334E+009;1.963047534227371E-001;-3.895452991127968E-002;-6.371437106281519E-003;5.110314581543207E-003;
2.415500000000000E+009;1.975714117288590E-001;-3.944693133234978E-002;-6.110166665166616E-003;5.497017875313759E-003;
2.415666666666667E+009;1.984837800264359E-001;-4.032205045223236E-002;-5.725303199142218E-003;5.633875261992216E-003;
2.415833333333334E+009;1.993953734636307E-001;-4.091278091073036E-002;-5.335799884051085E-003;5.850716959685087E-003;
2.416000000000000E+009;2.001627087593079E-001;-4.151167720556259E-002;-5.174093414098024E-003;5.972120445221663E-003;
2.416166666666667E+009;2.008741796016693E-001;-4.205993562936783E-002;-4.721481353044510E-003;5.941964220255613E-003;
2.416333333333334E+009;2.016361951828003E-001;-4.239880293607712E-002;-4.556127823889256E-003;6.017433013767004E-003;
2.416500000000000E+009;2.020033746957779E-001;-4.254645481705666E-002;-4.057570826262236E-003;6.069604307413101E-003;
2.416666666666667E+009;2.023210078477860E-001;-4.287989437580109E-002;-3.940617199987173E-003;5.996555089950562E-003;
2.416833333333334E+009;2.024739533662796E-001;-4.277228564023972E-002;-3.687003394588828E-003;6.072453223168850E-003;
2.417000000000000E+009;2.025385797023773E-001;-4.294947534799576E-002;-3.473566612228751E-003;5.984771996736527E-003;
2.417166666666667E+009;2.022916674613953E-001;-4.282556846737862E-002;-3.317730734124780E-003;6.213318090885878E-003;
2.417333333333334E+009;2.021212875843048E-001;-4.257278144359589E-002;-2.939631696790457E-003;5.972022656351328E-003;
2.417500000000000E+009;2.019290924072266E-001;-4.254383966326714E-002;-2.826231298968196E-003;5.944158416241407E-003;
2.417666666666667E+009;2.013436704874039E-001;-4.223606735467911E-002;-2.742628101259470E-003;6.041840184479952E-003;
2.417833333333334E+009;2.008341103792191E-001;-4.216363653540611E-002;-2.498382935300469E-003;5.956795997917652E-003;
2.418000000000000E+009;2.001948207616806E-001;-4.178453609347343E-002;-2.190684434026480E-003;5.924385040998459E-003;
2.418166666666667E+009;1.994221061468124E-001;-4.172899574041367E-002;-2.125161932781339E-003;5.999202374368906E-003;
2.418333333333334E+009;1.985197216272354E-001;-4.157876595854759E-002;-1.922392868436873E-003;6.028097122907639E-003;
2.418500000000000E+009;1.975309103727341E-001;-4.154413193464279E-002;-1.664606039412320E-003;5.949952173978090E-003;
2.418666666666667E+009;1.966418325901032E-001;-4.145505651831627E-002;-1.403874834068120E-003;5.739217158406973E-003;
2.418833333333334E+009;1.953711062669754E-001;-4.163021966814995E-002;-1.279031857848167E-003;5.788930226117373E-003;
2.419000000000000E+009;1.941298097372055E-001;-4.178158566355705E-002;-1.167313777841628E-003;5.620963871479034E-003;
2.419166666666667E+009;1.928771883249283E-001;-4.222190752625465E-002;-1.014900510199368E-003;5.476080346852541E-003;
2.419333333333334E+009;1.913745552301407E-001;-4.260933026671410E-002;-7.744586328044534E-004;5.315818358212709E-003;
2.419500000000000E+009;1.900338083505631E-001;-4.310266673564911E-002;-6.400718120858073E-004;5.178755149245262E-003;
2.419666666666667E+009;1.883704960346222E-001;-4.390631988644600E-002;-6.306899595074356E-004;4.981108475476503E-003;
2.419833333333334E+009;1.866839677095413E-001;-4.455744475126267E-002;-5.120349233038724E-004;4.912794101983309E-003;
2.420000000000000E+009;1.851794123649597E-001;-4.541262984275818E-002;-4.702688020188361E-004;4.685636609792709E-003;
2.420166666666667E+009;1.834524869918823E-001;-4.640429466962814E-002;-5.757315666414797E-004;4.589605145156384E-003;
2.420333333333334E+009;1.820529848337174E-001;-4.765300452709198E-002;-5.410758894868195E-004;4.480043426156044E-003;
2.420500000000000E+009;1.801675409078598E-001;-4.891368001699448E-002;-6.963864434510469E-004;4.350269213318825E-003;
2.420666666666667E+009;1.784729659557343E-001;-5.015601962804794E-002;-8.547811885364354E-004;4.387231543660164E-003;
2.420833333333334E+009;1.769949495792389E-001;-5.157433822751045E-002;-1.036595669575036E-003;4.308396019041538E-003;
2.421000000000000E+009;1.755494028329849E-001;-5.314903706312180E-002;-1.067842706106603E-003;4.321513231843710E-003;
2.421166666666667E+009;1.741362959146500E-001;-5.480652302503586E-002;-1.160558895207942E-003;4.400888923555613E-003;
2.421333333333334E+009;1.722975224256516E-001;-5.632322281599045E-002;-1.413134159520268E-003;4.621741361916065E-003;
2.421500000000000E+009;1.712491363286972E-001;-5.833055078983307E-002;-1.448776689358056E-003;4.600972868502140E-003;
2.421666666666667E+009;1.699207723140717E-001;-6.011529266834259E-002;-1.565496902912855E-003;4.813691135495901E-003;
2.421833333333334E+009;1.688410937786102E-001;-6.201332062482834E-002;-1.576009788550437E-003;4.992909729480743E-003;
2.422000000000000E+009;1.676813811063767E-001;-6.403277814388275E-002;-1.557117211632431E-003;5.277343094348908E-003;
2.422166666666667E+009;1.670315414667130E-001;-6.605816632509232E-002;-1.495729433372617E-003;5.564063787460327E-003;
2.422333333333334E+009;1.659162789583206E-001;-6.819641590118408E-002;-1.427787588909268E-003;5.765400826931000E-003;
2.422500000000000E+009;1.652557700872421E-001;-7.002799212932587E-002;-1.205264125019312E-003;5.908189341425896E-003;
2.422666666666667E+009;1.644649803638458E-001;-7.215942442417145E-002;-9.781921980902553E-004;6.121384445577860E-003;
2.422833333333334E+009;1.641295254230499E-001;-7.422440499067307E-002;-8.542779833078384E-004;6.290477700531483E-003;
2.423000000000000E+009;1.634902656078339E-001;-7.625426352024078E-002;-4.815873980987817E-004;6.586143746972084E-003;
2.423166666666667E+009;1.633061468601227E-001;-7.845727354288101E-002;-3.426010080147535E-004;6.622863002121449E-003;
2.423333333333334E+009;1.629718840122223E-001;-8.045235276222229E-002;-1.812977570807561E-004;6.679948884993792E-003;
2.423500000000000E+009;1.630254387855530E-001;-8.224821090698242E-002;1.203967549372464E-004;7.001448422670364E-003;
2.423666666666667E+009;1.630273312330246E-001;-8.433299511671066E-002;4.491198924370110E-004;6.970382295548916E-003;
2.423833333333334E+009;1.630234420299530E-001;-8.602175116539002E-002;5.557526019401848E-004;7.043565157800913E-003;
2.424000000000000E+009;1.631974428892136E-001;-8.785148710012436E-002;8.444265695288777E-004;7.049242500215769E-003;
2.424166666666667E+009;1.631536483764648E-001;-8.944258838891983E-002;1.084691728465259E-003;7.203156594187021E-003;
2.424333333333334E+009;1.633787900209427E-001;-9.113278985023499E-002;1.467337249778211E-003;7.201092783361673E-003;
2.424500000000000E+009;1.638051122426987E-001;-9.284413605928421E-002;1.499853911809623E-003;7.285399828106165E-003;
2.424666666666667E+009;1.640005707740784E-001;-9.418340772390366E-002;1.977483043447137E-003;7.317672017961741E-003;
2.424833333333334E+009;1.647977679967880E-001;-9.538292139768601E-002;2.423186320811510E-003;7.323892787098885E-003;
2.425000000000000E+009;1.651102900505066E-001;-9.664336591959000E-002;2.558026462793350E-003;7.297979667782784E-003;
2.425166666666667E+009;1.653183996677399E-001;-9.786825627088547E-002;3.046453464776278E-003;7.314459886401892E-003;
2.425333333333334E+009;1.657291501760483E-001;-9.891473501920700E-002;3.469012212008238E-003;7.170893251895905E-003;
2.425500000000000E+009;1.662211716175079E-001;-9.987537562847138E-002;3.812831360846758E-003;7.172098383307457E-003;
2.425666666666667E+009;1.666339933872223E-001;-1.005411520600319E-001;4.234991967678070E-003;6.977434270083904E-003;
2.425833333333334E+009;1.668771207332611E-001;-1.014026999473572E-001;4.607074894011021E-003;6.588727235794067E-003;
2.426000000000000E+009;1.673634201288223E-001;-1.017985120415688E-001;4.875210113823414E-003;6.684422958642244E-003;
2.426166666666667E+009;1.677923798561096E-001;-1.022380143404007E-001;5.249721463769674E-003;6.407077424228191E-003;
2.426333333333334E+009;1.677493304014206E-001;-1.028280183672905E-001;5.520040635019541E-003;6.041097920387983E-003;
2.426500000000000E+009;1.681517958641052E-001;-1.030110195279121E-001;5.776866804808378E-003;5.829397123306990E-003;
2.426666666666667E+009;1.683398038148880E-001;-1.034496277570725E-001;6.123236846178770E-003;5.395110696554184E-003;
2.426833333333334E+009;1.686820536851883E-001;-1.036155596375465E-001;6.238504312932491E-003;5.071889609098434E-003;
2.427000000000000E+009;1.685500741004944E-001;-1.038461774587631E-001;6.305304821580648E-003;4.706563428044319E-003;
2.427166666666667E+009;1.686393171548843E-001;-1.038830131292343E-001;6.504764314740896E-003;4.502150695770979E-003;
2.427333333333334E+009;1.684391796588898E-001;-1.041784808039665E-001;6.598283071070910E-003;4.245921969413757E-003;
2.427500000000000E+009;1.681579053401947E-001;-1.042134240269661E-001;6.665851920843124E-003;3.910399042069912E-003;
2.427666666666667E+009;1.679018586874008E-001;-1.043136864900589E-001;6.807705387473106E-003;3.634248860180378E-003;
