# Hz S RI R 50
2400000000.0000000000 0.155121177434921292404013115629 0.106605567038059206863565009371 -0.004367401357740163803100585938 -0.006824873853474855422973632812 0 0 0 0 
2400166666.6666665077 0.154903247952461187164630018742 0.103967688977718394904847798443 -0.004489398095756769180297851562 -0.006598487030714750289916992188 0 0 0 0 
2400333333.3333334923 0.154832497239112909515057481258 0.101703733205795301963725307814 -0.004496318753808736801147460938 -0.006309132557362318038940429688 0 0 0 0 
2400500000.0000000000 0.154908731579780606368856865629 0.098940081894397735595703125000 -0.004741073120385408401489257812 -0.006172819528728724393362714551 0 0 0 0 
2400666666.6666665077 0.154940471053123501876669365629 0.096554100513458251953125000000 -0.004768014885485172271728515625 -0.005871003028005362424368573926 0 0 0 0 
2400833333.3333334923 0.154853358864784212967080634371 0.093618705868721008300781250000 -0.004789828322827816009521484375 -0.005619929637759923934936523438 0 0 0 0 
2401000000.0000000000 0.154991924762725802322549384371 0.090953305363655090332031250000 -0.004787991289049386978149414062 -0.005348359234631062421316816113 0 0 0 0 
2401166666.6666665077 0.155116319656372098068075615629 0.088075160980224609375000000000 -0.004752681124955415725708007812 -0.005218636244535446166992187500 0 0 0 0 
2401333333.3333334923 0.155508786439895602127236884371 0.085179783403873443603515625000 -0.004708970896899700164794921875 -0.005052865948528051376342773438 0 0 0 0 
2401500000.0000000000 0.155771851539611788650674384371 0.082313366234302520751953125000 -0.004631387069821357727050781250 -0.004959933459758759412283612988 0 0 0 0 
2401666666.6666665077 0.156158164143562289138955634371 0.079430863261222839355468750000 -0.004630583804100751876831054688 -0.004924113862216472625732421875 0 0 0 0 
2401833333.3333334923 0.156794428825378390213174384371 0.076801717281341552734375000000 -0.004692088346928358078002929688 -0.005030643660575150576119707324 0 0 0 0 
2402000000.0000000000 0.157559722661972101409588731258 0.074015006422996520996093750000 -0.004659157246351242065429687500 -0.004866280127316713333129882812 0 0 0 0 
2402166666.6666665077 0.158156424760818509200888115629 0.071357846260070800781250000000 -0.004722169134765863418579101562 -0.004897249396890401840209960938 0 0 0 0 
2402333333.3333334923 0.159282997250557001311932481258 0.068694449961185455322265625000 -0.004949959926307201385498046875 -0.004783194512128829956054687500 0 0 0 0 
2402500000.0000000000 0.160462051630020113845986884371 0.065991193056106567382812500000 -0.005030535627156496047973632812 -0.004877185914665460586547851562 0 0 0 0 
2402666666.6666665077 0.161517858505248995681924384371 0.063684754073619842529296875000 -0.005182057619094848632812500000 -0.004760571289807558059692382812 0 0 0 0 
2402833333.3333334923 0.162684410810470608810263115629 0.061365377157926559448242187500 -0.005268397275358439359183027051 -0.004742094315588474273681640625 0 0 0 0 
2403000000.0000000000 0.164465904235839788238848768742 0.058965723961591720581054687500 -0.005538946017622947692871093750 -0.004677542485296726226806640625 0 0 0 0 
2403166666.6666665077 0.166047900915145901779013115629 0.056653555482625961303710937500 -0.005862668622285127639770507812 -0.004535596817731857299804687500 0 0 0 0 
2403333333.3333334923 0.167512595653533907791299384371 0.054493844509124762798268903907 -0.006036304868757724761962890625 -0.004340400919318199157714843750 0 0 0 0 
2403500000.0000000000 0.169233128428459195236044365629 0.052643787115812301635742187500 -0.006188022438436746597290039062 -0.004225899465382099151611328125 0 0 0 0 
2403666666.6666665077 0.170865148305892888824786268742 0.050696752965450286865234375000 -0.006385861430317164334768964551 -0.003974870312958955764770507812 0 0 0 0 
2403833333.3333334923 0.172543093562126187423544365629 0.048796277493238449096679687500 -0.006477145478129386901855468750 -0.003632614156231284141540527344 0 0 0 0 
2404000000.0000000000 0.174135312438011197189169365629 0.047019362449646003032643903907 -0.006574066355824471387381269238 -0.003435958176851273016688681494 0 0 0 0 
2404166666.6666665077 0.175784945487976101974325615629 0.045599035918712622905690778907 -0.006750078406184911727905273438 -0.003061206545680760903599404443 0 0 0 0 
2404333333.3333334923 0.177402704954147311111611884371 0.043999820947647101665456403907 -0.006827097851783037185668945312 -0.002999792108312249183654785156 0 0 0 0 
2404500000.0000000000 0.179196655750274713714276231258 0.042655296623706817626953125000 -0.006674632430076599121093750000 -0.002598820952698587937595986475 0 0 0 0 
2404666666.6666665077 0.180906862020492609222088731258 0.041522271931171417236328125000 -0.006838358473032712936401367188 -0.002378976903855801062342978369 0 0 0 0 
2404833333.3333334923 0.182496100664138793945312500000 0.040415391325950622558593750000 -0.006906909402459859848022460938 -0.002254161983728408813476562500 0 0 0 0 
2405000000.0000000000 0.183879420161247308929119981258 0.039934445172548287128488908593 -0.006819612812250852584838867188 -0.002014634199440478844883584131 0 0 0 0 
2405166666.6666665077 0.185357555747032193282919365629 0.039177570492029190063476562500 -0.006984437815845012664794921875 -0.001821058802306652069091796875 0 0 0 0 
2405333333.3333334923 0.186680406332015991210937500000 0.038759306073188781738281250000 -0.006959119811654090881347656250 -0.001634173211641610102412558447 0 0 0 0 
2405500000.0000000000 0.188126370310783386230468750000 0.038130760192871086811106096093 -0.006910630036145448684692382812 -0.001556792878545820929883647388 0 0 0 0 
2405666666.6666665077 0.189429655671119689941406250000 0.037839666008949279785156250000 -0.007165336981415748596191406250 -0.001365300850011407895329140771 0 0 0 0 
2405833333.3333334923 0.190766260027885409256143134371 0.037526406347751617431640625000 -0.007159068249166011810302734375 -0.001122103189118206934687949072 0 0 0 0 
2406000000.0000000000 0.191806167364120511154013115629 0.037483822554349899291992187500 -0.007193290162831544876098632812 -0.000798932509496808052062988281 0 0 0 0 
2406166666.6666665077 0.192658483982086209396200615629 0.037343997508287429809570312500 -0.007112691178917884826660156250 -0.000622972904238849878311157227 0 0 0 0 
2406333333.3333334923 0.193662315607070895095986884371 0.037336777895689010620117187500 -0.007261640392243862152099609375 -0.000515941588673740625381469727 0 0 0 0 
2406500000.0000000000 0.194436326622963007171307481258 0.037415482103824622417409528907 -0.007289786357432603836059570312 -0.000268300878815352916717529297 0 0 0 0 
2406666666.6666665077 0.195014148950576809982138115629 0.037434797734022140502929687500 -0.007190339267253875732421875000 -0.000020225787011440839955602952 0 0 0 0 
2406833333.3333334923 0.195507362484932001311932481258 0.037611328065395362163503278907 -0.007189674302935600280761718750 0.000183641546755097806453704834 0 0 0 0 
2407000000.0000000000 0.195795893669128390213174384371 0.037776138633489608764648437500 -0.007111134007573127746582031250 0.000608495145570486783981323242 0 0 0 0 
2407166666.6666665077 0.196176841855049105545205634371 0.037634707987308502197265625000 -0.007083782460540533065795898438 0.000654260860756039619445800781 0 0 0 0 
2407333333.3333334923 0.196127116680145291427450615629 0.037856668233871459960937500000 -0.006866375450044870376586914062 0.000904463871847838163375854492 0 0 0 0 
2407500000.0000000000 0.195955798029899597167968750000 0.037863258272409439086914062500 -0.006909830030053853988647460938 0.001157541410066186948063515771 0 0 0 0 
2407666666.6666665077 0.196142628788948086837606865629 0.037844993174076080322265625000 -0.006809528451412916183471679688 0.001422630506567656993865966797 0 0 0 0 
2407833333.3333334923 0.195547327399253900725994981258 0.037741560488939292217214216407 -0.006885427515953779220581054688 0.001571681350469589016558003003 0 0 0 0 
2408000000.0000000000 0.195475667715072604080361884371 0.037583671510219567035715471093 -0.006616332102566958341116620801 0.001723596360534429983851767432 0 0 0 0 
2408166666.6666665077 0.194873794913291903396768134371 0.037374418228864669799804687500 -0.006425190251320601377005292676 0.001805934472940861961962055737 0 0 0 0 
2408333333.3333334923 0.194375991821289090255575615629 0.036960478872060782695729841407 -0.006367646623402833938598632812 0.001820716890506445927860879053 0 0 0 0 
2408500000.0000000000 0.193635359406471307952557481258 0.036670673638582229614257812500 -0.006168736610561609268188476562 0.002101970370858908133265829932 0 0 0 0 
2408666666.6666665077 0.193054050207138089279013115629 0.036117803305387496948242187500 -0.006226282101124525070190429688 0.002298150211572647094726562500 0 0 0 0 
2408833333.3333334923 0.192276433110237093826455634371 0.035475879907608032226562500000 -0.006088033318519592285156250000 0.002348672598600388006923056494 0 0 0 0 
2409000000.0000000000 0.191364929080009488204794365629 0.034559998661279678344726562500 -0.005802677944302558898925781250 0.002428705804049969153163290869 0 0 0 0 
2409166666.6666665077 0.190454661846160888671875000000 0.033588327467441558837890625000 -0.005909208673983812332153320312 0.002547188661992549896240234375 0 0 0 0 
2409333333.3333334923 0.189450219273567199707031250000 0.032717905938625342632253278907 -0.005842762067914009094238281250 0.002704890910536050796508789062 0 0 0 0 
2409500000.0000000000 0.188390105962753295898437500000 0.031330592930316931987722028907 -0.005689299665391445159912109375 0.002747578313574194908142089844 0 0 0 0 
2409666666.6666665077 0.187365233898162786285723768742 0.029989259317517280578613281250 -0.005655762739479541778564453125 0.002644348423928021950962685693 0 0 0 0 
2409833333.3333334923 0.186138510704040499588174384371 0.028487242758274078369140625000 -0.005603513680398464202880859375 0.002836806001141666932346963037 0 0 0 0 
2410000000.0000000000 0.185295298695564297775106865629 0.027000071480870250356653983204 -0.005518107675015926361083984375 0.002989026019349693818333291162 0 0 0 0 
2410166666.6666665077 0.184270560741424588302450615629 0.025143008679151538503626639454 -0.005640535149723291397094726562 0.003093181177973746819737099756 0 0 0 0 
2410333333.3333334923 0.183303907513618496993856865629 0.023234810680150989187220389454 -0.005451531149446964263916015625 0.003207143396139144897460937500 0 0 0 0 
2410500000.0000000000 0.182215124368667602539062500000 0.021439937874674800527552420704 -0.005383752286434173583984375000 0.003243010491132736206054687500 0 0 0 0 
2410666666.6666665077 0.181479424238205011565838731258 0.019077997654676440847376639454 -0.005395193118602037429809570312 0.003359489841386675834655761719 0 0 0 0 
2410833333.3333334923 0.180685967206955011565838731258 0.017104217782616618764857108204 -0.005302814301103354367727948926 0.003514556679874659018275595557 0 0 0 0 
2411000000.0000000000 0.179956883192062405685263115629 0.014904508367180820810338204296 -0.005208450369536876678466796875 0.003673384664580225944519042969 0 0 0 0 
2411166666.6666665077 0.179294019937515286544638115629 0.012715491466224190103551094921 -0.005277465563267469406127929688 0.003790640505030750794651650537 0 0 0 0 
2411333333.3333334923 0.178991660475730895996093750000 0.010043572634458540135393711523 -0.005059977062046527862548828125 0.004010253120213747024536132812 0 0 0 0 
2411500000.0000000000 0.178478837013244601150674384371 0.007711924612522125244140625000 -0.004992067348212003707885742188 0.004161330871284008026123046875 0 0 0 0 
2411666666.6666665077 0.178152546286583002288494981258 0.005369127262383699417114257812 -0.004795893561094999313354492188 0.004091607872396708402151777051 0 0 0 0 
2411833333.3333334923 0.177850276231765802581463731258 0.002874776721000670953037881006 -0.004762203432619571685791015625 0.004142147023230791091918945312 0 0 0 0 
2412000000.0000000000 0.178027048707008389571981865629 0.000348586530890315825313013898 -0.004739983938634395599365234375 0.004409875255078077316284179688 0 0 0 0 
2412166666.6666665077 0.178185090422630310058593750000 -0.002058807760477066040039062500 -0.004699887242168188095092773438 0.004516327288001775741577148438 0 0 0 0 
2412333333.3333334923 0.178281486034393310546875000000 -0.004606177564710378646850585938 -0.004537854809314013394827558301 0.004621918778866530332083417676 0 0 0 0 
2412500000.0000000000 0.178856462240219088455361884371 -0.006950010545551776885986328125 -0.004533292725682258605957031250 0.004695630632340908050537109375 0 0 0 0 
2412666666.6666665077 0.179246485233306912521200615629 -0.009463390335440635681152343750 -0.004386614542454481124877929688 0.004765460267663002014160156250 0 0 0 0 
2412833333.3333334923 0.180111125111579895019531250000 -0.011830829083919530350654802930 -0.004527598619461059570312500000 0.004843177739530801773071289062 0 0 0 0 
2413000000.0000000000 0.180957376956939697265625000000 -0.014226429164409639185895350977 -0.004299127496778964996337890625 0.005106561817228794097900390625 0 0 0 0 
2413166666.6666665077 0.181607380509376498123330634371 -0.016534537076950069772740548046 -0.004352748394012451171875000000 0.005163234658539295196533203125 0 0 0 0 
2413333333.3333334923 0.182718813419342013260049384371 -0.018821870908141139638880545704 -0.004246662370860576629638671875 0.005279275123029947280883789062 0 0 0 0 
2413500000.0000000000 0.183552429080009488204794365629 -0.021154612302780151367187500000 -0.003910246770828962326049804688 0.005554656032472848892211914062 0 0 0 0 
2413666666.6666665077 0.184708759188652010818643134371 -0.023257203400135040283203125000 -0.003845683531835674805882119287 0.005805263295769692334646894238 0 0 0 0 
2413833333.3333334923 0.185925528407096890548544365629 -0.025338469073176380502721016796 -0.003822308732196689085719443213 0.005859330762177705764770507812 0 0 0 0 
2414000000.0000000000 0.186988711357116699218750000000 -0.027153577655553821218470389454 -0.003615165362134575843811035156 0.006312577053904533386230468750 0 0 0 0 
2414166666.6666665077 0.188390657305717496017294365629 -0.029029591009020808828333670704 -0.003436082974076271057128906250 0.006425886414945125579833984375 0 0 0 0 
2414333333.3333334923 0.189318329095840509612713731258 -0.030976494774222370492955391796 -0.003241118276491761207580566406 0.006632627919316291809082031250 0 0 0 0 
2414500000.0000000000 0.190593466162681607345419365629 -0.032531347125768661499023437500 -0.003095001447945833206176757812 0.006749071646481752395629882812 0 0 0 0 
2414666666.6666665077 0.191784948110580388824786268742 -0.034077707678079612041432966407 -0.002796889049932361082789755713 0.006984279491007328033447265625 0 0 0 0 
2414833333.3333334923 0.193089455366134588043536268742 -0.035579729825258261943776716407 -0.002523154020309447808506631006 0.007196180522441864013671875000 0 0 0 0 
2415000000.0000000000 0.194218531250953702071981865629 -0.036591570824384689331054687500 -0.002201248658820987181422568213 0.007220850326120853424072265625 0 0 0 0 
2415166666.6666665077 0.195335611701011713225994981258 -0.037740360945463180541992187500 -0.001978152198716998100280761719 0.007382553536444902420043945312 0 0 0 0 
2415333333.3333334923 0.196480751037597711761151231258 -0.038607411086559302593190778907 -0.001579816453158855004551552881 0.007361637428402900695800781250 0 0 0 0 
2415500000.0000000000 0.197635427117347689529580634371 -0.039385147392749793315847028907 -0.001296865288168191909790039062 0.007363371551036834716796875000 0 0 0 0 
2415666666.6666665077 0.198659136891365106780682481258 -0.040285762399435043334960937500 -0.000969586253631860017776489258 0.007419387809932231903076171875 0 0 0 0 
2415833333.3333334923 0.199567213654518099685830634371 -0.040862388908863067626953125000 -0.000652389251627027988433837891 0.007731793913990259170532226562 0 0 0 0 
2416000000.0000000000 0.200309306383132906814736884371 -0.041471883654594421386718750000 -0.000428513070801272988319396973 0.007675732951611279573922441699 0 0 0 0 
2416166666.6666665077 0.201124638319015502929687500000 -0.041965235024690628051757812500 -0.000159665505634620812818250113 0.007549147587269544601440429688 0 0 0 0 
2416333333.3333334923 0.201674625277519198318643134371 -0.042278151959180831909179687500 0.000200123526155948611810961313 0.007698676083236932754516601562 0 0 0 0 
2416500000.0000000000 0.202285334467887906173544365629 -0.042356852442026138305664062500 0.000401091732783243114322108136 0.007550263777375221252441406250 0 0 0 0 
2416666666.6666665077 0.202508389949798611739950615629 -0.042729869484901428222656250000 0.000801550690084695816040039062 0.007509772665798664093017578125 0 0 0 0 
2416833333.3333334923 0.202728673815727206131143134371 -0.042684618383646011352539062500 0.001137998187914490916608500903 0.007407286204397678375244140625 0 0 0 0 
2417000000.0000000000 0.202904492616653386871661268742 -0.042838983237743377685546875000 0.001474841148592531897901225513 0.007483639288693667325491620801 0 0 0 0 
2417166666.6666665077 0.202590495347976712325888115629 -0.042766589671373367309570312500 0.001653016195632516904118203271 0.007187402341514825820922851562 0 0 0 0 
2417333333.3333334923 0.202240988612174987792968750000 -0.042574539780616760253906250000 0.002100988058373332023620605469 0.007033006288111209869384765625 0 0 0 0 
2417500000.0000000000 0.202080681920051602462606865629 -0.042596627026796340942382812500 0.002301767235621809959411621094 0.006929786410182715329642011426 0 0 0 0 
2417666666.6666665077 0.201545760035514803787393134371 -0.042383994907140731811523437500 0.002549029188230634169337607275 0.006922236643731594085693359375 0 0 0 0 
2417833333.3333334923 0.200986877083778409103231865629 -0.042124740779399871826171875000 0.002803076757118105888366699219 0.006780649535357952117919921875 0 0 0 0 
2418000000.0000000000 0.200507327914238003829794365629 -0.042021051049232482910156250000 0.002962324768304824829101562500 0.006382869090884923934936523438 0 0 0 0 
2418166666.6666665077 0.199592649936675997635049384371 -0.041780821979045867919921875000 0.003260002704337238831761025537 0.006366984918713569641113281250 0 0 0 0 
2418333333.3333334923 0.198710307478904696365518134371 -0.041624505072832107543945312500 0.003399930195882916884181357275 0.006058395374566316604614257812 0 0 0 0 
2418500000.0000000000 0.197748214006424005706463731258 -0.041651196777820587158203125000 0.003637603949755429787876748193 0.006054535973817110061645507812 0 0 0 0 
2418666666.6666665077 0.196658581495285006424111884371 -0.041546937078237526630442033593 0.003743266453966497941258095850 0.005678971298038960370535566113 0 0 0 0 
2418833333.3333334923 0.195501342415809603592080634371 -0.041739523410797119140625000000 0.003864268306642771200892783057 0.005515242461115121841430664062 0 0 0 0 
2419000000.0000000000 0.194030910730361910720986884371 -0.041924715042114257812500000000 0.003973177634179592132568359375 0.005309111438691616058349609375 0 0 0 0 
2419166666.6666665077 0.192816525697708102127236884371 -0.042244412004947662353515625000 0.003973520360887050628662109375 0.004970777779817581176757812500 0 0 0 0 
2419333333.3333334923 0.191299408674240112304687500000 -0.042728502303361892700195312500 0.004159066826105117797851562500 0.004834564868360757827758789062 0 0 0 0 
2419500000.0000000000 0.189942553639411898513955634371 -0.043217886239290237426757812500 0.004221519455313683423514081738 0.004501143004745244979858398438 0 0 0 0 
2419666666.6666665077 0.188323080539703396896200615629 -0.043845061212778091430664062500 0.004229038022458553314208984375 0.004278670530766248703002929688 0 0 0 0 
2419833333.3333334923 0.186585456132888793945312500000 -0.044546291232109069824218750000 0.004259442910552024841308593750 0.004054451826959848403930664062 0 0 0 0 
