# Version 1.00
#
freq[Hz];re:Trc1_S11;im:Trc1_S11;re:Trc2_S21;im:Trc2_S21;
2.400000000000000E+009;1.575323790311813E-001;1.124605238437653E-001;-7.375658024102449E-004;-2.410615095868707E-003;
2.400166666666667E+009;1.569272726774216E-001;1.104153618216515E-001;-6.764017161913216E-004;-2.301181200891733E-003;
2.400333333333334E+009;1.567764878273010E-001;1.083036214113236E-001;-6.561437039636076E-004;-2.324880566447973E-003;
2.400500000000000E+009;1.561643183231354E-001;1.056046113371849E-001;-5.943177966400981E-004;-2.412175759673119E-003;
2.400666666666667E+009;1.561270058155060E-001;1.033499091863632E-001;-5.370674189180136E-004;-2.308139111846685E-003;
2.400833333333334E+009;1.556214988231659E-001;1.004201769828796E-001;-4.354385018814355E-004;-2.361152786761522E-003;
2.401000000000000E+009;1.556112319231033E-001;9.761533886194229E-002;-5.362055380828679E-004;-2.331862458959222E-003;
2.401166666666667E+009;1.552665382623673E-001;9.484225511550903E-002;-3.393678052816540E-004;-2.651412272825837E-003;
2.401333333333334E+009;1.554385721683502E-001;9.194116294384003E-002;-5.918850074522197E-004;-2.487922087311745E-003;
2.401500000000000E+009;1.553727984428406E-001;8.897029608488083E-002;-5.295614828355610E-004;-2.633748576045036E-003;
2.401666666666667E+009;1.556272655725479E-001;8.602567762136459E-002;-6.903926259838045E-004;-2.619936130940914E-003;
2.401833333333334E+009;1.556988954544067E-001;8.307640254497528E-002;-8.287333184853196E-004;-2.785075921565294E-003;
2.402000000000000E+009;1.562654674053192E-001;8.005969971418381E-002;-1.055279280990362E-003;-2.877356251701713E-003;
2.402166666666667E+009;1.567857861518860E-001;7.718551903963089E-002;-1.216791220940650E-003;-2.750774379819632E-003;
2.402333333333334E+009;1.575012952089310E-001;7.424670457839966E-002;-1.135262427851558E-003;-2.729559084400535E-003;
2.402500000000000E+009;1.583901792764664E-001;7.134708017110825E-002;-1.373409177176654E-003;-2.646897919476032E-003;
2.402666666666667E+009;1.595474034547806E-001;6.867745518684387E-002;-1.410405733622611E-003;-2.602811669930816E-003;
2.402833333333334E+009;1.604071408510208E-001;6.587016582489014E-002;-1.385226263664663E-003;-2.669263631105423E-003;
2.403000000000000E+009;1.618718653917313E-001;6.313464045524597E-002;-1.499251229688525E-003;-2.618970582261682E-003;
2.403166666666667E+009;1.635278016328812E-001;6.065126508474350E-002;-1.790991285815835E-003;-2.597247948870063E-003;
2.403333333333334E+009;1.649964004755020E-001;5.803364142775536E-002;-1.853328431025147E-003;-2.715275157243013E-003;
2.403500000000000E+009;1.667466461658478E-001;5.542545020580292E-002;-1.810553716495633E-003;-2.562053734436631E-003;
2.403666666666667E+009;1.685144603252411E-001;5.323623865842819E-002;-2.037554280832410E-003;-2.460563788190484E-003;
2.403833333333334E+009;1.701303124427795E-001;5.092809349298477E-002;-2.142014447599649E-003;-2.543417736887932E-003;
2.404000000000000E+009;1.716805249452591E-001;4.868926480412483E-002;-2.251393394544721E-003;-2.362953964620829E-003;
2.404166666666667E+009;1.735447943210602E-001;4.690929874777794E-002;-2.206000732257962E-003;-2.291433047503233E-003;
2.404333333333334E+009;1.753310263156891E-001;4.507641494274139E-002;-2.369144931435585E-003;-2.331489464268088E-003;
2.404500000000000E+009;1.771675944328308E-001;4.319780692458153E-002;-2.419033320620656E-003;-2.255577826872468E-003;
2.404666666666667E+009;1.789642274379730E-001;4.180617257952690E-002;-2.418477321043611E-003;-2.207750221714377E-003;
2.404833333333334E+009;1.809820085763931E-001;4.039430245757103E-002;-2.390240319073200E-003;-2.128759399056435E-003;
2.405000000000000E+009;1.825211942195892E-001;3.953120857477188E-002;-2.505449112504721E-003;-2.113139256834984E-003;
2.405166666666667E+009;1.842323392629623E-001;3.849653899669647E-002;-2.648228546604514E-003;-1.969949575141072E-003;
2.405333333333334E+009;1.859443485736847E-001;3.780985996127129E-002;-2.660073339939117E-003;-1.684786519035697E-003;
2.405500000000000E+009;1.877208352088928E-001;3.722062334418297E-002;-2.667476655915380E-003;-1.779233105480671E-003;
2.405666666666667E+009;1.892312169075012E-001;3.645996004343033E-002;-2.701974939554930E-003;-1.752085168845952E-003;
2.405833333333334E+009;1.908201277256012E-001;3.624929487705231E-002;-2.950865309685469E-003;-1.767882029525936E-003;
2.406000000000000E+009;1.921676546335220E-001;3.603691607713699E-002;-2.949672285467386E-003;-1.782155828550458E-003;
2.406166666666667E+009;1.933833062648773E-001;3.582819178700447E-002;-2.982742851600051E-003;-1.673950697295368E-003;
2.406333333333334E+009;1.947569400072098E-001;3.588716313242912E-002;-3.160635475069284E-003;-1.651510014198721E-003;
2.406500000000000E+009;1.959319710731506E-001;3.587331250309944E-002;-3.368209581822157E-003;-1.578833791427314E-003;
2.406666666666667E+009;1.970402747392654E-001;3.597976267337799E-002;-3.417760832235217E-003;-1.446597743779421E-003;
2.406833333333334E+009;1.977959573268890E-001;3.604471683502197E-002;-3.356293775141239E-003;-1.455668592825532E-003;
2.407000000000000E+009;1.984393894672394E-001;3.643595799803734E-002;-3.441841341555119E-003;-1.334199216216803E-003;
2.407166666666667E+009;1.990962922573090E-001;3.642689436674118E-002;-3.647893900051713E-003;-1.132298493757844E-003;
2.407333333333334E+009;1.995071321725845E-001;3.686318174004555E-002;-3.694162005558610E-003;-1.152083161287010E-003;
2.407500000000000E+009;1.997833549976349E-001;3.704452887177467E-002;-3.823843551799655E-003;-1.000056741759181E-003;
2.407666666666667E+009;2.000703066587448E-001;3.735034912824631E-002;-3.927162382751703E-003;-7.821964682079852E-004;
2.407833333333334E+009;1.997674703598023E-001;3.749776631593704E-002;-4.091655835509300E-003;-8.277709712274373E-004;
2.408000000000000E+009;1.999262571334839E-001;3.779460862278938E-002;-4.107066430151463E-003;-6.087902002036572E-004;
2.408166666666667E+009;1.995685547590256E-001;3.779013454914093E-002;-4.120020195841789E-003;-5.553556839004159E-004;
2.408333333333334E+009;1.993608772754669E-001;3.765291348099709E-002;-4.141802433878183E-003;-5.062569398432970E-004;
2.408500000000000E+009;1.986715793609619E-001;3.755630180239677E-002;-4.326757509261370E-003;-1.262860168935731E-004;
2.408666666666667E+009;1.981089264154434E-001;3.756526485085487E-002;-4.174199886620045E-003;3.206855762982741E-005;
2.408833333333334E+009;1.974857449531555E-001;3.724938258528709E-002;-4.480842035263777E-003;6.614273297600448E-005;
2.409000000000000E+009;1.965136677026749E-001;3.660127520561218E-002;-4.447058308869600E-003;2.143459132639691E-004;
2.409166666666667E+009;1.955999732017517E-001;3.611228987574577E-002;-4.611655604094267E-003;4.310494987294078E-004;
2.409333333333334E+009;1.947187483310700E-001;3.533685207366943E-002;-4.526691511273384E-003;5.960621056146920E-004;
2.409500000000000E+009;1.935272067785263E-001;3.443314507603645E-002;-4.806088749319315E-003;7.634465582668781E-004;
2.409666666666667E+009;1.924674808979034E-001;3.336803242564201E-002;-4.770867060869932E-003;9.004289750009775E-004;
2.409833333333334E+009;1.911112368106842E-001;3.231487050652504E-002;-4.752391017973423E-003;1.350924023427069E-003;
2.410000000000000E+009;1.898747384548187E-001;3.097977116703987E-002;-4.775905515998602E-003;1.615789835341275E-003;
2.410166666666667E+009;1.887167245149612E-001;2.935991808772087E-002;-4.651068244129419E-003;1.862921169959009E-003;
2.410333333333334E+009;1.875552833080292E-001;2.797845378518105E-002;-4.565997514873743E-003;1.868115854449570E-003;
2.410500000000000E+009;1.861553043127060E-001;2.613152563571930E-002;-4.416185896843672E-003;2.280066488310695E-003;
2.410666666666667E+009;1.851186752319336E-001;2.419355325400829E-002;-4.339987412095070E-003;2.550005447119474E-003;
2.410833333333334E+009;1.841436773538590E-001;2.219306305050850E-002;-4.086966160684824E-003;2.689131535589695E-003;
2.411000000000000E+009;1.829308122396469E-001;1.989849843084812E-002;-4.082093480974436E-003;2.791749313473702E-003;
2.411166666666667E+009;1.819907724857330E-001;1.775490678846836E-002;-3.935771994292736E-003;2.858200808987021E-003;
2.411333333333334E+009;1.811811923980713E-001;1.541194878518581E-002;-3.836579155176878E-003;3.029630053788424E-003;
2.411500000000000E+009;1.802808642387390E-001;1.297986786812544E-002;-3.603516379371285E-003;3.167251590639353E-003;
2.411666666666667E+009;1.797972023487091E-001;1.075808890163899E-002;-3.568438813090324E-003;3.408157732337713E-003;
2.411833333333334E+009;1.791132837533951E-001;8.337409235537052E-003;-3.310008207336068E-003;3.449637908488512E-003;
2.412000000000000E+009;1.789183765649796E-001;5.464985501021147E-003;-3.099359106272459E-003;3.514665178954601E-003;
2.412166666666667E+009;1.785648167133331E-001;3.046709811314941E-003;-2.902411390095949E-003;3.671616315841675E-003;
2.412333333333334E+009;1.784947067499161E-001;4.445545200724155E-004;-2.828723518177867E-003;3.712361911311746E-003;
2.412500000000000E+009;1.786137521266937E-001;-2.318729180842638E-003;-2.569810487329960E-003;3.801961429417133E-003;
2.412666666666667E+009;1.788444817066193E-001;-4.860549699515104E-003;-2.434524940326810E-003;3.721537301316857E-003;
2.412833333333334E+009;1.792770922183991E-001;-7.646266371011734E-003;-2.408768516033888E-003;3.960153553634882E-003;
2.413000000000000E+009;1.798779517412186E-001;-1.038523577153683E-002;-2.287636511027813E-003;3.853991860523820E-003;
2.413166666666667E+009;1.803306788206101E-001;-1.270555332303047E-002;-2.093465998768807E-003;3.901386400684714E-003;
2.413333333333334E+009;1.812980622053146E-001;-1.534227840602398E-002;-1.888548489660025E-003;3.891430795192719E-003;
2.413500000000000E+009;1.819505244493485E-001;-1.810220815241337E-002;-1.816922565922141E-003;4.036420490592718E-003;
2.413666666666667E+009;1.830776333808899E-001;-2.048779465258122E-002;-1.807083841413260E-003;4.031707067042589E-003;
2.413833333333334E+009;1.841009259223938E-001;-2.278084494173527E-002;-1.637068111449480E-003;4.097658209502697E-003;
2.414000000000000E+009;1.851864755153656E-001;-2.509839646518230E-002;-1.483762287534773E-003;4.285807255655527E-003;
2.414166666666667E+009;1.863931715488434E-001;-2.720896899700165E-002;-1.389837241731584E-003;4.284460097551346E-003;
2.414333333333334E+009;1.874565780162811E-001;-2.945317141711712E-002;-1.304822624661028E-003;4.282105248421431E-003;
2.414500000000000E+009;1.888182014226914E-001;-3.122553229331970E-002;-1.021457253955305E-003;4.390310030430555E-003;
2.414666666666667E+009;1.900811493396759E-001;-3.311051055788994E-002;-1.086952746845782E-003;4.323300439864397E-003;
2.414833333333334E+009;1.914171427488327E-001;-3.486576303839684E-002;-6.402755971066654E-004;4.497106187045574E-003;
2.415000000000000E+009;1.926898509263992E-001;-3.629529476165772E-002;-6.242140079848468E-004;4.525420255959034E-003;
2.415166666666667E+009;1.941471397876740E-001;-3.764908760786057E-002;-4.474522720556706E-004;4.492586012929678E-003;
2.415333333333334E+009;1.953542381525040E-001;-3.895321488380432E-002;-2.770342107396573E-004;4.532577935606241E-003;
2.415500000000000E+009;1.967543512582779E-001;-3.991157934069634E-002;-2.863389090634883E-005;4.484405741095543E-003;
2.415666666666667E+009;1.980341374874115E-001;-4.096970334649086E-002;-1.983694528462365E-005;4.492827225476503E-003;
2.415833333333334E+009;1.990945041179657E-001;-4.174650833010674E-002;1.850393455242738E-004;4.518077243119478E-003;
2.416000000000000E+009;2.001752555370331E-001;-4.247013852000237E-002;5.114452796988189E-004;4.578610882163048E-003;
2.416166666666667E+009;2.013065218925476E-001;-4.326143115758896E-002;4.077973717357963E-004;4.451610613614321E-003;
2.416333333333334E+009;2.020602971315384E-001;-4.355071112513542E-002;7.005051593296230E-004;4.567286465317011E-003;
2.416500000000000E+009;2.029871493577957E-001;-4.393757134675980E-002;7.763860630802810E-004;4.480654839426279E-003;
2.416666666666667E+009;2.035315632820129E-001;-4.419202357530594E-002;8.893443737179041E-004;4.376903176307678E-003;
2.416833333333334E+009;2.038908749818802E-001;-4.435641318559647E-002;1.156133483164012E-003;4.439929965883493E-003;
2.417000000000000E+009;2.044351398944855E-001;-4.435428977012634E-002;1.329950871877372E-003;4.408895038068295E-003;
2.417166666666667E+009;2.043714970350266E-001;-4.432015120983124E-002;1.542156562209129E-003;4.343910142779350E-003;
2.417333333333334E+009;2.045464664697647E-001;-4.396705701947212E-002;1.605700235813856E-003;4.237657412886620E-003;
2.417500000000000E+009;2.046227753162384E-001;-4.388248920440674E-002;1.793696312233806E-003;4.327072761952877E-003;
2.417666666666667E+009;2.042937874794006E-001;-4.351105168461800E-002;1.998648513108492E-003;4.277883097529411E-003;
2.417833333333334E+009;2.040537744760513E-001;-4.315669834613800E-002;2.287094714120030E-003;4.061410203576088E-003;
2.418000000000000E+009;2.037252932786942E-001;-4.250657185912132E-002;2.349646296352148E-003;4.085946828126907E-003;
2.418166666666667E+009;2.030729651451111E-001;-4.224411025643349E-002;2.542384201660752E-003;3.787904512137175E-003;
2.418333333333334E+009;2.024130672216415E-001;-4.191991314291954E-002;2.600666601210833E-003;3.755133366212249E-003;
2.418500000000000E+009;2.015155255794525E-001;-4.162919521331787E-002;2.770565450191498E-003;3.555011004209518E-003;
2.418666666666667E+009;2.008317112922669E-001;-4.124317690730095E-002;2.934433752670884E-003;3.357508452609181E-003;
2.418833333333334E+009;1.996628493070602E-001;-4.112591966986656E-002;2.965447027236223E-003;3.185102483257651E-003;
2.419000000000000E+009;1.983668506145477E-001;-4.090544581413269E-002;3.054284723475575E-003;3.065539756789804E-003;
2.419166666666667E+009;1.972688436508179E-001;-4.078124091029167E-002;3.069379366934300E-003;2.914338838309050E-003;
2.419333333333334E+009;1.958167254924774E-001;-4.101198911666870E-002;3.190427087247372E-003;2.802771050482988E-003;
2.419500000000000E+009;1.944017112255096E-001;-4.107883945107460E-002;3.110767807811499E-003;2.622241852805018E-003;
2.419666666666667E+009;1.927622705698013E-001;-4.145055264234543E-002;3.149129450321198E-003;2.623017178848386E-003;
2.419833333333334E+009;1.910875141620636E-001;-4.184339940547943E-002;3.200941486284137E-003;2.508450997993350E-003;
2.420000000000000E+009;1.893980056047440E-001;-4.243159294128418E-002;3.125146962702274E-003;2.250283025205135E-003;
2.420166666666667E+009;1.876118630170822E-001;-4.312598705291748E-002;3.139531239867210E-003;2.392359077930450E-003;
2.420333333333334E+009;1.858669221401215E-001;-4.396382346749306E-002;3.172339871525765E-003;2.366520697250962E-003;
2.420500000000000E+009;1.840636432170868E-001;-4.509172588586807E-002;3.181466832756996E-003;2.318700309842825E-003;
2.420666666666667E+009;1.821348667144775E-001;-4.593666270375252E-002;3.358635585755110E-003;2.227824646979570E-003;
2.420833333333334E+009;1.803892403841019E-001;-4.728681221604347E-002;3.381329122930765E-003;2.303079236298800E-003;
2.421000000000000E+009;1.787108629941940E-001;-4.868674278259277E-002;3.524631028994918E-003;2.179404953494668E-003;
2.421166666666667E+009;1.770611703395844E-001;-5.023705959320068E-002;3.514807438477874E-003;1.944129238836467E-003;
2.421333333333334E+009;1.750423014163971E-001;-5.163786932826042E-002;3.573914058506489E-003;1.774513395503163E-003;
2.421500000000000E+009;1.734388917684555E-001;-5.352915078401566E-002;3.621092531830072E-003;1.892518484964967E-003;
2.421666666666667E+009;1.718546897172928E-001;-5.523741617798805E-002;3.794022835791111E-003;1.727908034808934E-003;
2.421833333333334E+009;1.704998761415482E-001;-5.708809942007065E-002;3.935989923775196E-003;1.703368499875069E-003;
2.422000000000000E+009;1.690969765186310E-001;-5.902772024273872E-002;3.916387446224690E-003;1.492510549724102E-003;
2.422166666666667E+009;1.678307354450226E-001;-6.134667992591858E-002;3.885497339069843E-003;1.305471058003604E-003;
2.422333333333334E+009;1.664323508739471E-001;-6.329039484262466E-002;3.847694257274270E-003;1.133899204432964E-003;
2.422500000000000E+009;1.655555814504623E-001;-6.527444720268250E-002;3.853410715237260E-003;1.037490670569241E-003;
2.422666666666667E+009;1.646054536104202E-001;-6.748984009027481E-002;3.906343597918749E-003;8.982011349871755E-004;
2.422833333333334E+009;1.638876646757126E-001;-6.980295479297638E-002;3.871715627610683E-003;8.331554709002376E-004;
2.423000000000000E+009;1.631850302219391E-001;-7.213418185710907E-002;3.975278232246637E-003;6.564559298567474E-004;
2.423166666666667E+009;1.625764071941376E-001;-7.420028001070023E-002;3.776766592636704E-003;5.326502723619342E-004;
2.423333333333334E+009;1.621603816747665E-001;-7.658013701438904E-002;3.852040041238070E-003;3.040639567188919E-004;
2.423500000000000E+009;1.619126647710800E-001;-7.846852391958237E-002;3.864119527861476E-003;1.436609018128365E-004;
2.423666666666667E+009;1.618822813034058E-001;-8.068700134754181E-002;3.728569718077779E-003;1.672735670581460E-004;
2.423833333333334E+009;1.616174131631851E-001;-8.281046897172928E-002;3.698316868394613E-003;-2.460501127643511E-005;
2.424000000000000E+009;1.617750078439713E-001;-8.492415398359299E-002;3.818098921328783E-003;-3.596457099774852E-005;
2.424166666666667E+009;1.618509739637375E-001;-8.684232085943222E-002;3.789018606767058E-003;-2.225342905148864E-004;
2.424333333333334E+009;1.620884984731674E-001;-8.869624882936478E-002;3.849562956020236E-003;-2.585583424661309E-004;
2.424500000000000E+009;1.623423844575882E-001;-9.076867997646332E-002;3.586738603189588E-003;-2.735999296419323E-004;
2.424666666666667E+009;1.627044826745987E-001;-9.235116094350815E-002;3.864975180476904E-003;-4.130355955567211E-004;
2.424833333333334E+009;1.634124815464020E-001;-9.402824193239212E-002;3.732709679752588E-003;-4.285666800569743E-004;
2.425000000000000E+009;1.637472510337830E-001;-9.543442726135254E-002;3.826128318905830E-003;-5.662633921019733E-004;
2.425166666666667E+009;1.643490195274353E-001;-9.693104028701782E-002;3.866274375468493E-003;-7.376693538390100E-004;
2.425333333333334E+009;1.648298501968384E-001;-9.804187715053558E-002;3.710580756887794E-003;-6.005469476804137E-004;
2.425500000000000E+009;1.655531823635101E-001;-9.937792271375656E-002;3.822461701929569E-003;-8.735802839510143E-004;
2.425666666666667E+009;1.661729514598846E-001;-1.002355664968491E-001;3.889136714860797E-003;-1.158842467702925E-003;
2.425833333333334E+009;1.666527241468430E-001;-1.014083027839661E-001;3.677048254758120E-003;-1.132402336224914E-003;
2.426000000000000E+009;1.674301475286484E-001;-1.020323932170868E-001;3.624527482315898E-003;-1.278122304938734E-003;
2.426166666666667E+009;1.681766808032990E-001;-1.026829034090042E-001;3.687817603349686E-003;-1.486372319050133E-003;
2.426333333333334E+009;1.684671342372894E-001;-1.034105122089386E-001;3.593911882489920E-003;-1.489069778472185E-003;
2.426500000000000E+009;1.692964136600494E-001;-1.037466004490852E-001;3.582538804039359E-003;-1.723378663882613E-003;
2.426666666666667E+009;1.699099689722061E-001;-1.042027547955513E-001;3.586912294849753E-003;-1.773061812855303E-003;
2.426833333333334E+009;1.705139428377152E-001;-1.045125722885132E-001;3.429350443184376E-003;-1.889879582449794E-003;
2.427000000000000E+009;1.707734018564224E-001;-1.048022806644440E-001;3.451278666034341E-003;-1.987794879823923E-003;
2.427166666666667E+009;1.711824238300324E-001;-1.048690974712372E-001;3.343179821968079E-003;-2.211074344813824E-003;
2.427333333333334E+009;1.714169681072235E-001;-1.051084548234940E-001;3.424674039706588E-003;-2.374778036028147E-003;
2.427500000000000E+009;1.715974062681198E-001;-1.052137836813927E-001;3.261021338403225E-003;-2.391547663137317E-003;
2.427666666666667E+009;1.716348230838776E-001;-1.052757799625397E-001;3.277463372796774E-003;-2.433589426800609E-003;
2.427833333333334E+009;1.715872734785080E-001;-1.053447127342224E-001;3.125294577330351E-003;-2.506999298930168E-003;
