# Hz S RI R 
2400000000.0000000000 0.173745140433311490157919365629 0.049078818410635001445729841407 0.002892556833103299140930175781 0.008839260786771774291992187500 0 0 0 0 
2400166666.6666665077 0.174259379506111200530682481258 0.048531353473663330078125000000 0.003022117074579000906703329932 0.008810692466795444488525390625 0 0 0 0 
2400333333.3333334923 0.174630612134933499435263115629 0.047646772116422653198242187500 0.003172751981765031814575195312 0.008643853478133678436279296875 0 0 0 0 
2400500000.0000000000 0.174911305308342007736044365629 0.046873882412910461425781250000 0.003409582655876874923706054688 0.008443465456366539001464843750 0 0 0 0 
2400666666.6666665077 0.175384566187858609298544365629 0.046236015856266021728515625000 0.003593661589547992186305380713 0.008574837818741798400878906250 0 0 0 0 
2400833333.3333334923 0.175641819834709195236044365629 0.045656591653823852539062500000 0.003747080918401480154750204932 0.008459690958261489868164062500 0 0 0 0 
2401000000.0000000000 0.175624296069145202636718750000 0.044946745038032531738281250000 0.004070183727890253067016601562 0.008321238681674003601074218750 0 0 0 0 
2401166666.6666665077 0.175708949565887506683026231258 0.044301331043243408203125000000 0.004108299501240252581124590137 0.008215092122554779052734375000 0 0 0 0 
2401333333.3333334923 0.175584688782692011077557481258 0.043609935790300369262695312500 0.004640099592506886395926191113 0.008110706694424152374267578125 0 0 0 0 
2401500000.0000000000 0.175800934433937100509481865629 0.042971443384885787963867187500 0.004931639414280652999877929688 0.008007301017642021179199218750 0 0 0 0 
2401666666.6666665077 0.175811380147933987716513115629 0.042283929884433753276784528907 0.005098249297589063644409179688 0.007958489470183849334716796875 0 0 0 0 
2401833333.3333334923 0.175741210579872103592080634371 0.041416995227336876606027971093 0.005399888847023248672485351562 0.007724836468696594238281250000 0 0 0 0 
2402000000.0000000000 0.175419121980667086502236884371 0.040535449981689453125000000000 0.005753714125603437423706054688 0.007561087142676115036010742188 0 0 0 0 
2402166666.6666665077 0.175303354859352111816406250000 0.039557926356792449951171875000 0.006195791065692901611328125000 0.007269386667758226394653320312 0 0 0 0 
2402333333.3333334923 0.175059705972671508789062500000 0.038671124726533889770507812500 0.006560640409588813781738281250 0.007188545539975166320800781250 0 0 0 0 
2402500000.0000000000 0.174931406974792508224325615629 0.037749782204627990722656250000 0.006596040446311235427856445312 0.007013700436800718307495117188 0 0 0 0 
2402666666.6666665077 0.174741014838218688964843750000 0.036515451967716217041015625000 0.006962928455322980880737304688 0.006616453640162944793701171875 0 0 0 0 
2402833333.3333334923 0.174268826842307988922442518742 0.035336054861545562744140625000 0.007128863129764795303344726562 0.006357201840728521347045898438 0 0 0 0 
2403000000.0000000000 0.173983216285705594161825615629 0.034266304224729537963867187500 0.007197404280304908752441406250 0.005906231701374053955078125000 0 0 0 0 
2403166666.6666665077 0.173632994294166592696981865629 0.032818723469972610473632812500 0.007534858305007219314575195312 0.005744007881730794906616210938 0 0 0 0 
2403333333.3333334923 0.173241287469863891601562500000 0.031447358429431922222097028907 0.007743636146187782287597656250 0.005285191349685192108154296875 0 0 0 0 
2403500000.0000000000 0.172854796051979092696981865629 0.029811223968863490713099295704 0.008005557581782341003417968750 0.004831356462091208371634198926 0 0 0 0 
2403666666.6666665077 0.172353759407997103592080634371 0.028175828978419300424596016796 0.008057322353124618530273437500 0.004652342759072780609130859375 0 0 0 0 
2403833333.3333334923 0.172198802232742309570312500000 0.026584539562463760375976562500 0.008159977383911609649658203125 0.004291151650249958038330078125 0 0 0 0 
2404000000.0000000000 0.171745136380195589920205634371 0.024968206882476810110071951954 0.008306127041578292846679687500 0.003747065784409641785862588037 0 0 0 0 
2404166666.6666665077 0.171292334794998196700888115629 0.022956859320402148855189139454 0.008188047446310520172119140625 0.003592650173231958909275673975 0 0 0 0 
2404333333.3333334923 0.170971736311912508865518134371 0.021130571141839030874232108204 0.008294762112200260162353515625 0.003092675004154444174525595557 0 0 0 0 
2404500000.0000000000 0.170529946684837313553018134371 0.019274527207016948354700858204 0.008178858086466789245605468750 0.002850493183359504179713583838 0 0 0 0 
2404666666.6666665077 0.170420840382575988769531250000 0.017419353127479549753209298046 0.008295029401779174804687500000 0.002621142892166972160339355469 0 0 0 0 
2404833333.3333334923 0.170130893588066101074218750000 0.015484945848584180314033709180 0.008228814229369163513183593750 0.002239547669887543158290243994 0 0 0 0 
2405000000.0000000000 0.169990330934524508377236884371 0.013501768931746479379674141796 0.008030785247683525085449218750 0.002102925209328531785252236475 0 0 0 0 
2405166666.6666665077 0.169983625411987304687500000000 0.011503899469971660268763358204 0.008142516948282718658447265625 0.001622428302653134086011577075 0 0 0 0 
2405333333.3333334923 0.170002266764640808105468750000 0.009323290549218654632568359375 0.007953989319503307342529296875 0.001433415804058312936070107568 0 0 0 0 
2405500000.0000000000 0.169995054602623013595419365629 0.007476485799998044967651367188 0.007973458617925643920898437500 0.001133820158429444053052592700 0 0 0 0 
2405666666.6666665077 0.170137450098991394042968750000 0.005549305118620395660400390625 0.008050330914556980133056640625 0.001089938567019999027252197266 0 0 0 0 
2405833333.3333334923 0.170150846242904690841513115629 0.003509104484692215919494628906 0.007877496071159839630126953125 0.000665024621412158012390136719 0 0 0 0 
2406000000.0000000000 0.170552730560302706619424384371 0.001404380192980170033098530347 0.007757604587823153409475995801 0.000406459002988412976264953613 0 0 0 0 
2406166666.6666665077 0.170721575617790194412393134371 -0.000411785556934773921966552734 0.007822324521839618682861328125 0.000351773342117667198181152344 0 0 0 0 
2406333333.3333334923 0.171237185597419711013955634371 -0.002420944394543766975402832031 0.007805049419403076171875000000 0.000199103480554185807704925537 0 0 0 0 
2406500000.0000000000 0.171620056033134488204794365629 -0.004492630250751972198486328125 0.007696406450122594833374023438 -0.000045113472879165776748249667 0 0 0 0 
2406666666.6666665077 0.171894997358322088043536268742 -0.006378212478011847409720136426 0.007658882997930049896240234375 -0.000290780444629490375518798828 0 0 0 0 
2406833333.3333334923 0.172669544816017206390057481258 -0.008317071013152599334716796875 0.007662579882889986038208007812 -0.000421536271460354273945408954 0 0 0 0 
2407000000.0000000000 0.173280462622642489334268134371 -0.010164880193769930058489414648 0.007519444450736045837402343750 -0.000443350465502589886814671649 0 0 0 0 
2407166666.6666665077 0.174033895134925786774005018742 -0.011985299177467819559117501171 0.007529070135205984115600585938 -0.000921403057873249053955078125 0 0 0 0 
2407333333.3333334923 0.174792155623436001876669365629 -0.013839817605912690598457537305 0.007515329401940107345581054688 -0.001033272361382842063903808594 0 0 0 0 
2407500000.0000000000 0.175368636846542386154013115629 -0.015529182739555839193323905079 0.007436623796820641431326581738 -0.001178407459519803957698202979 0 0 0 0 
2407666666.6666665077 0.176142215728759793380575615629 -0.017100343480706218374232108204 0.007513800170272588729858398438 -0.001547051360830665068385458838 0 0 0 0 
2407833333.3333334923 0.176837593317031888107138115629 -0.018776662647724151611328125000 0.007314400281757116317749023438 -0.001784780761227011897443461841 0 0 0 0 
2408000000.0000000000 0.177728697657585088531817518742 -0.020400457084178931499440778907 0.007346025668084621429443359375 -0.002053659874945878982543945312 0 0 0 0 
2408166666.6666665077 0.178423240780830411056356865629 -0.021667931228876110422154610546 0.007240999955683946609497070312 -0.002499944996088743209838867188 0 0 0 0 
2408333333.3333334923 0.179217681288719205001669365629 -0.023192161694169041025181954296 0.007231716532260180387015058301 -0.002541796071454883055446005713 0 0 0 0 
2408500000.0000000000 0.179818272590637207031250000000 -0.024611333385109901428222656250 0.007104713935405015945434570312 -0.003015760565176606178283691406 0 0 0 0 
2408666666.6666665077 0.180479258298873901367187500000 -0.025885416194796558725377266796 0.006872970610857009887695312500 -0.003306049155071378187892294775 0 0 0 0 
2408833333.3333334923 0.181040033698081997970419365629 -0.026962177827954288827916329296 0.006662852130830287933349609375 -0.003509081667289137840270996094 0 0 0 0 
2409000000.0000000000 0.181557804346084594726562500000 -0.028046337887644771230677420704 0.006496406160295009613037109375 -0.003744992194697260856628417969 0 0 0 0 
2409166666.6666665077 0.182172015309333801269531250000 -0.029191831126809120178222656250 0.006306848023086786270141601562 -0.004025971051305533322806073926 0 0 0 0 
2409333333.3333334923 0.182617843151092501541299384371 -0.029966806992888450622558593750 0.006057540420442819595336914062 -0.004237065091729164123535156250 0 0 0 0 
2409500000.0000000000 0.182769134640693692306356865629 -0.030814720317721370351771170704 0.005815628916025161743164062500 -0.004352922551333904266357421875 0 0 0 0 
2409666666.6666665077 0.183167278766632107833700615629 -0.031326465308666229248046875000 0.005487923976033926010131835938 -0.004600072745233774185180664062 0 0 0 0 
2409833333.3333334923 0.183333083987235995193643134371 -0.031911712139844887470285783593 0.005239640828222036361694335938 -0.004611736163496971130371093750 0 0 0 0 
2410000000.0000000000 0.183740854263305691818075615629 -0.032342258840799331665039062500 0.004932438954710960388183593750 -0.004862325731664896011352539062 0 0 0 0 
2410166666.6666665077 0.183803558349609402755575615629 -0.032804548740386962890625000000 0.004695042502135038375854492188 -0.004772109445184469223022460938 0 0 0 0 
2410333333.3333334923 0.184018403291702298263388115629 -0.033293183892965316772460937500 0.004396812524646520614624023438 -0.005024236626923084259033203125 0 0 0 0 
2410500000.0000000000 0.183982953429222106933593750000 -0.033599387854337692260742187500 0.004102800041437149047851562500 -0.005071286577731370925903320312 0 0 0 0 
2410666666.6666665077 0.183766990900039700607138115629 -0.034046176820993423461914062500 0.003891237080097198920008993994 -0.005005021579563617706298828125 0 0 0 0 
2410833333.3333334923 0.183651432394981412032919365629 -0.034220218658447272563893903907 0.003568079788237810134887695312 -0.005057954229414463043212890625 0 0 0 0 
2411000000.0000000000 0.183408141136169405838174384371 -0.034556183964014053344726562500 0.003409110940992832183837890625 -0.005206339992582798004150390625 0 0 0 0 
2411166666.6666665077 0.183022037148475702483807481258 -0.035012327134609222412109375000 0.003133762627840042114257812500 -0.005174391437321901321411132812 0 0 0 0 
2411333333.3333334923 0.182589337229728698730468750000 -0.035277467221021652221679687500 0.003055208362638949914219521631 -0.005138586275279521942138671875 0 0 0 0 
2411500000.0000000000 0.182033404707908602615518134371 -0.035827010869979858398437500000 0.002761397510766983032226562500 -0.005213882308453322324270917676 0 0 0 0 
2411666666.6666665077 0.181648403406143188476562500000 -0.036055725067853927612304687500 0.002407410414889454841613769531 -0.005137585569173097610473632812 0 0 0 0 
2411833333.3333334923 0.180927231907844487945880018742 -0.036336731165647506713867187500 0.002319411141797900199890136719 -0.005165036302059888839721679688 0 0 0 0 
2412000000.0000000000 0.180140674114227294921875000000 -0.036881759762763977050781250000 0.001944368239492177963256835938 -0.005011031404137611389160156250 0 0 0 0 
2412166666.6666665077 0.179210603237152099609375000000 -0.037444882094860076904296875000 0.001863970886915921948076557690 -0.004873858299106360349173261426 0 0 0 0 
2412333333.3333334923 0.178518831729888888260049384371 -0.037827514111995697021484375000 0.001497560762800276062609028394 -0.004970771726220846176147460938 0 0 0 0 
2412500000.0000000000 0.177246838808059692382812500000 -0.038361154496669769287109375000 0.001372189843095839023590087891 -0.004762829281389713287353515625 0 0 0 0 
2412666666.6666665077 0.176219910383224487304687500000 -0.039214465767145156860351562500 0.001212388859130441925646137769 -0.004640126135200262069702148438 0 0 0 0 
2412833333.3333334923 0.175229176878929110428018134371 -0.039911571890115737915039062500 0.000916173623409122228622436523 -0.004403279162943363189697265625 0 0 0 0 
2413000000.0000000000 0.173949763178825406173544365629 -0.040582884103059768676757812500 0.000783174356911331415176391602 -0.004305106122046709060668945312 0 0 0 0 
2413166666.6666665077 0.172571569681167602539062500000 -0.041449636220932006835937500000 0.000688964559230953454971313477 -0.004196496214717626571655273438 0 0 0 0 
2413333333.3333334923 0.171160355210304288009481865629 -0.042400792241096496582031250000 0.000464190175989642685085850848 -0.004058879334479570388793945312 0 0 0 0 
2413500000.0000000000 0.169952780008316012283486884371 -0.043291270732879638671875000000 0.000564154936000704765319824219 -0.003794924821704626083374023438 0 0 0 0 
2413666666.6666665077 0.168941810727119501311932481258 -0.044363323599100112915039062500 0.000466892030090093612670898438 -0.003501913510262966156005859375 0 0 0 0 
2413833333.3333334923 0.167371794581413296798544365629 -0.045358348637819290161132812500 0.000613391050137579441070556641 -0.003235772252082825140712118994 0 0 0 0 
2414000000.0000000000 0.165959477424621609786825615629 -0.046677466481924057006835937500 0.000487077049911022186279296875 -0.003168543567880988121032714844 0 0 0 0 
2414166666.6666665077 0.164733096957206698318643134371 -0.048097655177116387104074846093 0.000525353127159178256988525391 -0.003035694127902389006373740088 0 0 0 0 
2414333333.3333334923 0.163655206561088589767294365629 -0.049580380320549011230468750000 0.000563935900572687387466430664 -0.002887400798499584197998046875 0 0 0 0 
2414500000.0000000000 0.162627562880516107757244981258 -0.050839766860008239746093750000 0.000524089322425425052642822266 -0.002739666029810905890223837744 0 0 0 0 
2414666666.6666665077 0.161417290568351801116619981258 -0.052343644201755516742746721093 0.000764842669013887643814086914 -0.002624737797304987907409667969 0 0 0 0 
2414833333.3333334923 0.160240113735199002364950615629 -0.053882382810115807270090471093 0.000999529147520661354064941406 -0.002546877833083271980285644531 0 0 0 0 
2415000000.0000000000 0.159208431839942904373330634371 -0.055495914071798331523854841407 0.001077359193004667975782084888 -0.002471101935952901840209960938 0 0 0 0 
2415166666.6666665077 0.158371910452842712402343750000 -0.057299934327602393413503278907 0.001386446761898695988896035303 -0.002462597563862801031825400244 0 0 0 0 
2415333333.3333334923 0.157562896609306307693643134371 -0.059143874794244773174245466407 0.001476484350860119082807231372 -0.002591434167698026137111044775 0 0 0 0 
2415500000.0000000000 0.156773418188095092773437500000 -0.060929808765649802471120466407 0.001601177616976201967952109229 -0.002644899999722837968113564600 0 0 0 0 
2415666666.6666665077 0.155916512012481689453125000000 -0.062732629477977752685546875000 0.001609165337868035056470561450 -0.002654957585036755041835165869 0 0 0 0 
2415833333.3333334923 0.155325770378112792968750000000 -0.064706958830356597900390625000 0.001845979946665466048597026294 -0.002620856044813991026637411963 0 0 0 0 
2416000000.0000000000 0.154563233256339999099893134371 -0.066658452153205871582031250000 0.001926403841935097954393696362 -0.002852762816473842100856161963 0 0 0 0 
2416166666.6666665077 0.154144585132598904708700615629 -0.068569056689739227294921875000 0.001900142873637377998949360425 -0.003063792362809181213378906250 0 0 0 0 
2416333333.3333334923 0.153668984770774813553018134371 -0.070493683218955993652343750000 0.002075447235256433920619345557 -0.003110962454229592843296670068 0 0 0 0 
2416500000.0000000000 0.153380572795867892166299384371 -0.072524175047874450683593750000 0.002112516434863210158107138525 -0.003391691716387867927551269531 0 0 0 0 
2416666666.6666665077 0.152937769889831487457598768742 -0.074393413960933685302734375000 0.002193688880652188821079873193 -0.003486417932435870170593261719 0 0 0 0 
2416833333.3333334923 0.152848586440086392501669365629 -0.076539270579814910888671875000 0.002182618016377090974095009912 -0.003696308704093099074122763525 0 0 0 0 
2417000000.0000000000 0.152340903878212002853231865629 -0.078366495668888092041015625000 0.002077005337923765182495117188 -0.003782263258472084999084472656 0 0 0 0 
2417166666.6666665077 0.152293220162391690353231865629 -0.080012612044811248779296875000 0.001975677441805601119995117188 -0.004031219054013490676879882812 0 0 0 0 
2417333333.3333334923 0.152241140604019192794638115629 -0.081792935729026794433593750000 0.002051998162642120881321572412 -0.004183575976639986038208007812 0 0 0 0 
2417500000.0000000000 0.152092859148979187011718750000 -0.083625853061676025390625000000 0.001983733847737311883213662256 -0.004320019856095314025878906250 0 0 0 0 
2417666666.6666665077 0.152237236499786404708700615629 -0.085063673555850982666015625000 0.001804265193641185977338481372 -0.004566112067550420761108398438 0 0 0 0 
2417833333.3333334923 0.152255550026893587967080634371 -0.086656160652637481689453125000 0.001743798144161700985552143628 -0.004592464771121740341186523438 0 0 0 0 
2418000000.0000000000 0.152300029993057306487713731258 -0.088252358138561248779296875000 0.001564949634484946944593120044 -0.004865119233727455139160156250 0 0 0 0 
2418166666.6666665077 0.152375146746635409256143134371 -0.089506492018699645996093750000 0.001487143570557237105128622900 -0.005077383946627379331106855176 0 0 0 0 
2418333333.3333334923 0.152882441878318786621093750000 -0.090689219534397125244140625000 0.001372358412481843991520547021 -0.005135963205248116579537676074 0 0 0 0 
2418500000.0000000000 0.152887538075447110275106865629 -0.091880932450294494628906250000 0.001218812773004174015642475659 -0.005437389947474002838134765625 0 0 0 0 
2418666666.6666665077 0.153242304921150207519531250000 -0.092916339635848999023437500000 0.000935483782086521387100219727 -0.005582015030086041364187909863 0 0 0 0 
2418833333.3333334923 0.153321415185928289215411268742 -0.094010323286056518554687500000 0.000840768334455788135528564453 -0.005548172630369663238525390625 0 0 0 0 
2419000000.0000000000 0.153496325016021700760049384371 -0.094684347510337829589843750000 0.000417145114624872803688049316 -0.005703486967831850051879882812 0 0 0 0 
2419166666.6666665077 0.153777182102203396896200615629 -0.095480531454086303710937500000 0.000259627500781789422035217285 -0.005822328384965658187866210938 0 0 0 0 
2419333333.3333334923 0.153729557991027804275674384371 -0.095886334776878356933593750000 0.000028288424800848588347434998 -0.005768390838056802749633789062 0 0 0 0 
2419500000.0000000000 0.154023274779319790939169365629 -0.096511572599411010742187500000 -0.000329244707245379686355590820 -0.005896339192986488342285156250 0 0 0 0 
2419666666.6666665077 0.154331952333450289627236884371 -0.096905604004859924316406250000 -0.000649682071525603532791137695 -0.005902573000639677047729492188 0 0 0 0 
2419833333.3333334923 0.154378399252891512771768134371 -0.096896730363368988037109375000 -0.000889181566890329122543334961 -0.005819093436002731323242187500 0 0 0 0 
