# Hz S RI R 50
2400000000.0000000000 0.167842447757721002776776231258 0.041131455451250083232839216407 0.004024041816592217359060956738 0.000660308869555592536926269531 0 0 0 0 
2400166666.6666665077 0.168448090553283691406250000000 0.040347080677747733379323591407 0.004248023033142089843750000000 0.000686529208905994892120361328 0 0 0 0 
2400333333.3333334923 0.168879494071006802657919365629 0.039443716406822211528737653907 0.004423757549375295639038085938 0.000530531513504683971405029297 0 0 0 0 
2400500000.0000000000 0.169307485222816495040731865629 0.038427084684371948242187500000 0.004621205385774374008178710938 0.000290691852569580078125000000 0 0 0 0 
2400666666.6666665077 0.169738218188285799881143134371 0.037633679807186126708984375000 0.004914622288197278976440429688 0.000038186644815141341906001432 0 0 0 0 
2400833333.3333334923 0.170068234205245999435263115629 0.036991108208894729614257812500 0.004959870129823684692382812500 -0.000038176309317350387573242188 0 0 0 0 
2401000000.0000000000 0.170411154627799987792968750000 0.035773672163486480712890625000 0.005152801517397165298461914062 -0.000363265891792252714007777081 0 0 0 0 
2401166666.6666665077 0.170671761035919189453125000000 0.035020895302295691753347028907 0.005306483246386051177978515625 -0.000611381081398576498031616211 0 0 0 0 
2401333333.3333334923 0.170785814523696899414062500000 0.033937707543373107910156250000 0.005441514775156974792480468750 -0.001001307507976890043971396338 0 0 0 0 
2401500000.0000000000 0.171254366636276300628338731258 0.033196635544300079345703125000 0.005551484879106283187866210938 -0.001141230692155658981920551831 0 0 0 0 
2401666666.6666665077 0.171235680580139187911825615629 0.032530497759580612182617187500 0.005533616524189710617065429688 -0.001574728987179696993586874854 0 0 0 0 
2401833333.3333334923 0.171252712607383700271768134371 0.031497716903686523437500000000 0.005388439632952213287353515625 -0.001959799556061625914332724463 0 0 0 0 
2402000000.0000000000 0.171240836381912203689736884371 0.030686181038618091238001639454 0.005505617242306470870971679688 -0.002396826399490236802342080225 0 0 0 0 
2402166666.6666665077 0.171557784080505398849325615629 0.029640603810548778879185860546 0.005375362001359462738037109375 -0.002700205426663159890415810693 0 0 0 0 
2402333333.3333334923 0.171380147337913513183593750000 0.028709521517157561565358747657 0.005332866217941045761108398438 -0.003084544790908693833592080225 0 0 0 0 
2402500000.0000000000 0.171713322401046808440838731258 0.027852049097418788564661795704 0.005270928144454956054687500000 -0.003318274626508355140686035156 0 0 0 0 
2402666666.6666665077 0.171594038605690002441406250000 0.026948619633913040161132812500 0.005021877121180295944213867188 -0.003520296886563301086425781250 0 0 0 0 
2402833333.3333334923 0.171457663178443908691406250000 0.025803906843066218984583670704 0.004749029409140347567086504199 -0.003984841983765363693237304688 0 0 0 0 
2403000000.0000000000 0.171494498848915100097656250000 0.024530794471502300607701485546 0.004703882150352001190185546875 -0.004090060945600271224975585938 0 0 0 0 
2403166666.6666665077 0.171629831194877596756143134371 0.023555641993880268442174141796 0.004288005642592906951904296875 -0.004532930906862021359915448926 0 0 0 0 
2403333333.3333334923 0.171532601118087796310263115629 0.022367082536220550537109375000 0.004108803346753120422363281250 -0.004727777559310197830200195312 0 0 0 0 
2403500000.0000000000 0.171175450086593600174111884371 0.021288219839334491384486014454 0.003647200064733624891993857275 -0.005162480752915143966674804688 0 0 0 0 
2403666666.6666665077 0.171126648783683804611044365629 0.019830502569675449026087576954 0.003470655297860503196716308594 -0.005234958138316869735717773438 0 0 0 0 
2403833333.3333334923 0.171068608760833712478799384371 0.018705546855926510202428048046 0.003062207484617828889134072412 -0.005531871691346169385428144238 0 0 0 0 
2404000000.0000000000 0.171075463294982910156250000000 0.017296193167567249643346016796 0.002887326292693614959716796875 -0.005633712280541658401489257812 0 0 0 0 
2404166666.6666665077 0.170874848961830111404580634371 0.015897421166300770151158516796 0.002363824285566806793212890625 -0.005698943510651587572579668262 0 0 0 0 
2404333333.3333334923 0.170680344104766901214276231258 0.014777459204196929931640625000 0.002116826595738530158996582031 -0.005843564867973327636718750000 0 0 0 0 
2404500000.0000000000 0.170597851276397705078125000000 0.013118117116391660517682460352 0.001582850352860986969591450269 -0.005788787733763456344604492188 0 0 0 0 
2404666666.6666665077 0.170534804463386507888955634371 0.011971442960202690469762032421 0.001346738892607391097425151294 -0.005839191377162933349609375000 0 0 0 0 
2404833333.3333334923 0.170481160283088711837606865629 0.010220553725957870483398437500 0.001045275595970452048658061450 -0.005773573648184537887573242188 0 0 0 0 
2405000000.0000000000 0.170444846153259305099325615629 0.008873554877936840057373046875 0.000688895990606397390365600586 -0.005728005897253751754760742188 0 0 0 0 
2405166666.6666665077 0.170337691903114291092080634371 0.007444025482982397079467773438 0.000399213313357904607623499738 -0.005489988252520561218261718750 0 0 0 0 
2405333333.3333334923 0.170362234115600613693075615629 0.005696946289390326413626386426 -0.000040676448406884446740150452 -0.005292415153235197067260742188 0 0 0 0 
2405500000.0000000000 0.170390561223030090332031250000 0.004310279153287410736083984375 -0.000344787200447171926498413086 -0.005378175992518663406372070312 0 0 0 0 
2405666666.6666665077 0.170338615775108309646768134371 0.002759805647656321959254599463 -0.000510803831275552511215209961 -0.004959983285516501340384198926 0 0 0 0 
2405833333.3333334923 0.170004442334175109863281250000 0.001213395036756991906407021631 -0.000713578308932483196258544922 -0.004886143375188112258911132812 0 0 0 0 
2406000000.0000000000 0.170077785849571200271768134371 -0.000494706269819289445877075195 -0.000801128044258803129196166992 -0.004484110511839389801025390625 0 0 0 0 
2406166666.6666665077 0.169739067554473904708700615629 -0.001898485119454563097712851416 -0.000987439532764256000518798828 -0.004389966838061810407156659863 0 0 0 0 
2406333333.3333334923 0.169946372509002713302450615629 -0.003462687600404024124145507812 -0.001117289764806628010393452222 -0.004159139934927225112915039062 0 0 0 0 
2406500000.0000000000 0.169685527682304410079794365629 -0.004999000579118728637695312500 -0.001248247455805540084838867188 -0.003959610126912593841552734375 0 0 0 0 
2406666666.6666665077 0.169423684477806091308593750000 -0.006450892426073551177978515625 -0.001147584640420973084093403394 -0.003605949925258756117579794775 0 0 0 0 
2406833333.3333334923 0.169274061918258694747763115629 -0.008072463795542716979980468750 -0.001134069520048796913744282300 -0.003441098844632505936863564600 0 0 0 0 
2407000000.0000000000 0.169264093041420010665731865629 -0.009517671540379524230957031250 -0.000968125939834862947463989258 -0.003385399468243122100830078125 0 0 0 0 
2407166666.6666665077 0.169177517294883700271768134371 -0.010718347504734989511510079296 -0.001037031761370599053026508862 -0.003120735287666320800781250000 0 0 0 0 
2407333333.3333334923 0.168867588043212890625000000000 -0.012232339940965180832832537305 -0.001033714273944496891619038159 -0.002981645986437797980067587744 0 0 0 0 
2407500000.0000000000 0.168648675084114102462606865629 -0.013399127870798109227190586523 -0.000914658477995544672012329102 -0.002902805805206298828125000000 0 0 0 0 
2407666666.6666665077 0.168628484010696411132812500000 -0.014640465378761289769182774023 -0.000729448278434574604034423828 -0.002985181286931037902832031250 0 0 0 0 
2407833333.3333334923 0.168403103947639493087606865629 -0.015752961859107020986536795704 -0.000658928009215742349624633789 -0.002976425224915146827697753906 0 0 0 0 
2408000000.0000000000 0.168351829051971407791299384371 -0.016910849139094349252721016796 -0.000485299475258216316073817120 -0.002930835355073214010951376807 0 0 0 0 
2408166666.6666665077 0.168234482407569913009481865629 -0.017796244472265240060826485546 -0.000897746940609067678451538086 -0.003157447557896376089808798682 0 0 0 0 
2408333333.3333334923 0.168289944529533386230468750000 -0.018913324922323230398157889454 -0.000671675952617079019546508789 -0.003309588879346847967860556494 0 0 0 0 
2408500000.0000000000 0.168341994285583496093750000000 -0.019891951233148578298548514454 -0.000766255892813205718994140625 -0.003392077283933759169337607275 0 0 0 0 
2408666666.6666665077 0.168387010693550109863281250000 -0.020745703950524330139160156250 -0.000812606711406260728836059570 -0.003302558558061718940734863281 0 0 0 0 
2408833333.3333334923 0.168276980519294711013955634371 -0.021619055420160290109654610546 -0.000966961786616593599319458008 -0.003431696211919188933131552588 0 0 0 0 
2409000000.0000000000 0.168421149253845187088174384371 -0.022400571033358570444127266796 -0.001145032583735883019090961987 -0.003532189643010497093200683594 0 0 0 0 
2409166666.6666665077 0.168406009674072293380575615629 -0.023334501311182979238489920704 -0.001135220518335700035095214844 -0.003499963087961078123805380713 0 0 0 0 
2409333333.3333334923 0.168661117553710909744424384371 -0.024387760087847709655761718750 -0.001485117012634872956516884912 -0.003362551564350723786595009912 0 0 0 0 
2409500000.0000000000 0.168709129095077486892861884371 -0.025308422744274139404296875000 -0.001487564528360963084577250903 -0.003529307665303349928614951025 0 0 0 0 
2409666666.6666665077 0.168726533651351900955361884371 -0.026163365691900249826451485546 -0.001691932324320077896118164062 -0.003273246111348270936253213037 0 0 0 0 
2409833333.3333334923 0.168843701481819208343182481258 -0.026938188821077350271204764454 -0.001813654904253781058667827075 -0.003166205948218702836277627100 0 0 0 0 
2410000000.0000000000 0.169011965394020108321981865629 -0.027820641174912449228306954296 -0.001905438024550675912144326318 -0.002915110671892762184143066406 0 0 0 0 
2410166666.6666665077 0.169230774044990511795205634371 -0.028832580894231799734095389454 -0.002004439244046806855442666162 -0.002889938885346055030822753906 0 0 0 0 
2410333333.3333334923 0.169016063213348388671875000000 -0.029795054346323009836217110546 -0.002243146067485212846043252100 -0.002855914412066340012791298975 0 0 0 0 
2410500000.0000000000 0.168948099017143305022869981258 -0.030663963407278060913085937500 -0.002259425586089491844177246094 -0.002588412724435329003574990381 0 0 0 0 
2410666666.6666665077 0.168880552053451510330361884371 -0.031828053295612342143972028907 -0.002255282364785670800449990381 -0.002535368781536817984340048682 0 0 0 0 
2410833333.3333334923 0.168838337063789395431356865629 -0.032410934567451477050781250000 -0.002315228572115302085876464844 -0.002416427945718169212341308594 0 0 0 0 
2411000000.0000000000 0.168633744120597811599893134371 -0.033223640173673629760742187500 -0.002295830752700566811802529443 -0.002226498909294604821446084131 0 0 0 0 
2411166666.6666665077 0.168503448367118807693643134371 -0.034352183341979980468750000000 -0.002109684050083159966709756006 -0.002154968678951262994053506006 0 0 0 0 
2411333333.3333334923 0.168103277683258112151776231258 -0.035218235105276107788085937500 -0.002100260695442556901219033350 -0.001919007161632179997087788159 0 0 0 0 
2411500000.0000000000 0.167866438627242986481036268742 -0.036044273525476462627370466407 -0.002010330790653824806213378906 -0.001941526308655739047406840747 0 0 0 0 
2411666666.6666665077 0.167923912405967712402343750000 -0.036917049437761306762695312500 -0.001958393957465887069702148438 -0.002003417583182454109191894531 0 0 0 0 
2411833333.3333334923 0.167643353343010004241619981258 -0.037744417786598212505300153907 -0.002066278830170630975010537256 -0.001918541151098906993865966797 0 0 0 0 
2412000000.0000000000 0.167348802089691189864950615629 -0.038679152727127082134206403907 -0.002069295849651097817661904443 -0.001964191440492867989781045068 0 0 0 0 
2412166666.6666665077 0.166958212852477999588174384371 -0.039614204317331307148020158593 -0.001872989349067210934282612378 -0.001870788983069360039354633862 0 0 0 0 
2412333333.3333334923 0.166967079043388394454794365629 -0.040488731116056442260742187500 -0.001843423000536859035491943359 -0.001941632945090532086016010815 0 0 0 0 
2412500000.0000000000 0.166442677378654507736044365629 -0.041563242673873901367187500000 -0.001819719676859677054761577075 -0.001870679901912807984593056787 0 0 0 0 
2412666666.6666665077 0.166170895099639892578125000000 -0.042547341436147689819335937500 -0.001855682348832488059997558594 -0.002064821543172001838684082031 0 0 0 0 
2412833333.3333334923 0.165734067559242304046307481258 -0.043408595025539398193359375000 -0.001779459184035659053205180591 -0.002012755954638123945948935400 0 0 0 0 
2413000000.0000000000 0.165293619036674499511718750000 -0.044379238039255142211914062500 -0.002051769522950053215026855469 -0.001917013083584607081172324072 0 0 0 0 
2413166666.6666665077 0.164762973785400390625000000000 -0.045477729290723800659179687500 -0.002067289780825376944300986182 -0.002100078854709864096400595557 0 0 0 0 
2413333333.3333334923 0.164301171898841913421307481258 -0.046584647148847579956054687500 -0.002019925741478801207301474463 -0.002065406879410148100612021338 0 0 0 0 
2413500000.0000000000 0.164053753018379211425781250000 -0.047582581639289862895925153907 -0.002084136940538883209228515625 -0.002114919247105718092677451025 0 0 0 0 
2413666666.6666665077 0.163579806685447692871093750000 -0.048541456460952758789062500000 -0.002298348816111683845520019531 -0.002066465327516198158264160156 0 0 0 0 
2413833333.3333334923 0.162975132465362604339276231258 -0.049507893621921539306640625000 -0.002199453534558414979221963037 -0.001943737850524484894396137769 0 0 0 0 
2414000000.0000000000 0.162365734577179010589276231258 -0.050492685288190841674804687500 -0.002351982053369284109828329932 -0.001934476080350578048108745044 0 0 0 0 
2414166666.6666665077 0.162246838212013189117755018742 -0.051401969045400619506835937500 -0.002467143349349499182460165869 -0.002063893014565110206604003906 0 0 0 0 
2414333333.3333334923 0.161732539534568786621093750000 -0.052407778799533837055246721093 -0.002454457338899374008178710938 -0.002034912584349513053894042969 0 0 0 0 
2414500000.0000000000 0.161692842841148404220419365629 -0.053298719227314002300222028907 -0.002429648768156766891479492188 -0.001984809525310993194580078125 0 0 0 0 
2414666666.6666665077 0.161267280578613309005575615629 -0.054171714931726462627370466407 -0.002567006275057793097255087744 -0.001884578028693794987322163159 0 0 0 0 
2414833333.3333334923 0.161055520176887512207031250000 -0.055249109864234917377512346093 -0.002576127881184219880345009912 -0.001733064884319901900050497900 0 0 0 0 
2415000000.0000000000 0.160815969109535189529580634371 -0.056367155164480209350585937500 -0.002690760884433985190150595557 -0.002008223207667469978332519531 0 0 0 0 
2415166666.6666665077 0.160727813839912386795205634371 -0.057348895817995071411132812500 -0.002675881842151283784153603662 -0.002056713216006755828857421875 0 0 0 0 
2415333333.3333334923 0.160630136728286687652911268742 -0.058512739837169647216796875000 -0.002802223432809114889857626807 -0.002038754289969801902770996094 0 0 0 0 
2415500000.0000000000 0.160463243722915704925213731258 -0.059672947973012917255442033593 -0.002867075847461820082423544775 -0.002023664070293306870701455225 0 0 0 0 
2415666666.6666665077 0.160253405570983886718750000000 -0.060632873326539993286132812500 -0.002938323887065052986145019531 -0.002072294009849429130554199219 0 0 0 0 
2415833333.3333334923 0.160221770405769403655682481258 -0.062025249004364006732981096093 -0.003079409012570977210998535156 -0.001943225041031837897059775244 0 0 0 0 
2416000000.0000000000 0.159887731075286892989950615629 -0.063141182065010070800781250000 -0.003214661031961441040039062500 -0.001940433634445071003557514722 0 0 0 0 
2416166666.6666665077 0.159907683730125399490518134371 -0.064402557909488677978515625000 -0.003616753034293652014491415869 -0.001855698763392866091487265479 0 0 0 0 
2416333333.3333334923 0.159608677029609707931356865629 -0.065467365086078643798828125000 -0.003577159717679024176356650244 -0.001849174383096396923065185547 0 0 0 0 
2416500000.0000000000 0.159221053123474093338174384371 -0.066870346665382385253906250000 -0.003714850405231118202209472656 -0.001714153680950402996660542065 0 0 0 0 
2416666666.6666665077 0.158989772200584411621093750000 -0.067979916930198669433593750000 -0.003982774447649717330932617188 -0.001656432636082171960117959131 0 0 0 0 
2416833333.3333334923 0.158700034022331210037393134371 -0.069206833839416503906250000000 -0.003993818536400794982910156250 -0.001387419179081917025922465747 0 0 0 0 
2417000000.0000000000 0.158245399594307001311932481258 -0.070416085422039031982421875000 -0.004223070107400417327880859375 -0.001222752034664154052734375000 0 0 0 0 
2417166666.6666665077 0.157950133085250910003338731258 -0.071318089962005615234375000000 -0.004395279102027416229248046875 -0.001094810315407813029048300635 0 0 0 0 
2417333333.3333334923 0.157659813761711092849893134371 -0.072408683598041534423828125000 -0.004387237597256898880004882812 -0.000875977624673396348953247070 0 0 0 0 
2417500000.0000000000 0.157246410846710205078125000000 -0.073398783802986145019531250000 -0.004436338320374488830566406250 -0.000692800269462168216705322266 0 0 0 0 
2417666666.6666665077 0.156992182135581997970419365629 -0.074253045022487640380859375000 -0.004509761929512023925781250000 -0.000572811986785382032394409180 0 0 0 0 
2417833333.3333334923 0.156623035669326809982138115629 -0.075125731527805328369140625000 -0.004521832335740327835083007812 -0.000273409241344779675633031024 0 0 0 0 
2418000000.0000000000 0.156334146857261713225994981258 -0.076095126569271087646484375000 -0.004515461158007383346557617188 -0.000151641477714292705059051514 0 0 0 0 
2418166666.6666665077 0.155973300337791387359942518742 -0.076769523322582244873046875000 -0.004614041652530431747436523438 0.000100802302767988294363021851 0 0 0 0 
2418333333.3333334923 0.155911952257156399825888115629 -0.077693924307823181152343750000 -0.004540204070508480072021484375 0.000247704010689631104469299316 0 0 0 0 
2418500000.0000000000 0.155569091439247103592080634371 -0.078407205641269683837890625000 -0.004592942073941230773925781250 0.000529594311956316232681274414 0 0 0 0 
2418666666.6666665077 0.155378609895706204513388115629 -0.079198472201824188232421875000 -0.004468794446438550949096679688 0.000635840930044651031494140625 0 0 0 0 
2418833333.3333334923 0.154877290129661587814169365629 -0.080058224499225616455078125000 -0.004433687776327133178710937500 0.000864466011989861726760864258 0 0 0 0 
2419000000.0000000000 0.154564768075942993164062500000 -0.080631226301193237304687500000 -0.004510739352554082870483398438 0.000919719226658344268798828125 0 0 0 0 
2419166666.6666665077 0.154404073953628512283486884371 -0.081304244697093963623046875000 -0.004211574327200651168823242188 0.001139088999480009078979492188 0 0 0 0 
2419333333.3333334923 0.153798550367355402190838731258 -0.081733129918575286865234375000 -0.004289543256163597106933593750 0.001317794783972203948377299731 0 0 0 0 
2419500000.0000000000 0.153584316372871398925781250000 -0.082510545849800109863281250000 -0.004081269726157188415527343750 0.001481663319282233931897807544 0 0 0 0 
2419666666.6666665077 0.153244435787200899978799384371 -0.083253167569637298583984375000 -0.004186500795185565948486328125 0.001600563875399529933929443359 0 0 0 0 
2419833333.3333334923 0.152809247374534606933593750000 -0.083747893571853637695312500000 -0.003882794175297021865844726562 0.001744117354974151091334677588 0 0 0 0 
