# Hz S RI R 
2400000000.0000000000 0.173355713486671503265057481258 0.048505343496799468994140625000 -0.002121054800227283997776650537 0.004173947498202323913574218750 0 0 0 0 
2400166666.6666665077 0.173539012670516995529013115629 0.048151589930057532573659528907 -0.002268995624035596847534179688 0.003923402167856693267822265625 0 0 0 0 
2400333333.3333334923 0.174359798431396512130575615629 0.047496803104877471923828125000 -0.002256464678794146017787314307 0.004199546296149492263793945312 0 0 0 0 
2400500000.0000000000 0.174870938062667902190838731258 0.046968113631010062480886091407 -0.002223460003733634948730468750 0.004235868342220783233642578125 0 0 0 0 
2400666666.6666665077 0.175250723958015386383380018742 0.046084664762020111083984375000 -0.002314982470124959945678710938 0.004389575682580471038818359375 0 0 0 0 
2400833333.3333334923 0.175434917211532592773437500000 0.045687530189752578735351562500 -0.002258466091006993813755654443 0.004429639782756567001342773438 0 0 0 0 
2401000000.0000000000 0.175824895501136807540731865629 0.044819947332143776630442033593 -0.002250954275950789885279990088 0.004506533034145832061767578125 0 0 0 0 
2401166666.6666665077 0.175896748900413513183593750000 0.044000461697578430175781250000 -0.002304423600435256958007812500 0.004814428742974996566772460938 0 0 0 0 
2401333333.3333334923 0.176149770617485101897869981258 0.043761961162090301513671875000 -0.002088696463033556938171386719 0.005007209256291390332693769238 0 0 0 0 
2401500000.0000000000 0.176301747560501098632812500000 0.042989946901798248291015625000 -0.002137641189619898796081542969 0.005233511328697204589843750000 0 0 0 0 
2401666666.6666665077 0.176291063427925109863281250000 0.042286973446607589721679687500 -0.001886341022327542088152241284 0.005462429020553827285766601562 0 0 0 0 
2401833333.3333334923 0.176138535141944913009481865629 0.041466396301984786987304687500 -0.001763251144438982009887695312 0.005593924783170223236083984375 0 0 0 0 
2402000000.0000000000 0.176149100065231295486611884371 0.040658026933670037006418596093 -0.001353794592432677962659526294 0.005831573624163866043090820312 0 0 0 0 
2402166666.6666665077 0.176065221428871210296307481258 0.039800651371479027484934221093 -0.001074463012628257057787251050 0.005786904133856297406668378613 0 0 0 0 
2402333333.3333334923 0.175831109285354586502236884371 0.038831688463687896728515625000 -0.000887640402652323246002197266 0.006108388770371676358694745801 0 0 0 0 
2402500000.0000000000 0.175847262144088800628338731258 0.037805367261171340942382812500 -0.000721195014193654060363769531 0.006153523921966552734375000000 0 0 0 0 
2402666666.6666665077 0.175543561577796908279580634371 0.036830857396125793457031250000 -0.000569827272556722164154052734 0.006147253792732954025268554688 0 0 0 0 
2402833333.3333334923 0.175242274999618502517861884371 0.035604137927293777465820312500 -0.000351331225829199010699671613 0.006225356832146644592285156250 0 0 0 0 
2403000000.0000000000 0.174827158451080294510049384371 0.034461326897144317626953125000 -0.000017008245777105909178053209 0.006286499090492725372314453125 0 0 0 0 
2403166666.6666665077 0.174698531627655001541299384371 0.032982382923364639282226562500 0.000378410331904888207286280499 0.006233931053429841995239257812 0 0 0 0 
2403333333.3333334923 0.174327701330184908767861884371 0.031734973192214972759206403907 0.000639288569800555706024169922 0.006180237978696823120117187500 0 0 0 0 
2403500000.0000000000 0.173844799399375887771768134371 0.030113913118839260446568673046 0.000788109435234218835830688477 0.006299574393779039382934570312 0 0 0 0 
2403666666.6666665077 0.173439592123031588455361884371 0.028409728780388828622838204296 0.001117621432058512947679829175 0.006289064884185791015625000000 0 0 0 0 
2403833333.3333334923 0.173141747713088989257812500000 0.026968652382493019104003906250 0.001248472020961344025255512769 0.006101600825786590576171875000 0 0 0 0 
2404000000.0000000000 0.172938182950019808670205634371 0.025277616456151008605957031250 0.001652842853218317031860351562 0.006097581237554550170898437500 0 0 0 0 
2404166666.6666665077 0.172413423657417297363281250000 0.023313982412219051015833670704 0.001913994434289634010912251050 0.006027480587363243103027343750 0 0 0 0 
2404333333.3333334923 0.172251060605049105545205634371 0.021472277119755748403528983204 0.001931473147124052047729492188 0.005778585094958543777465820312 0 0 0 0 
2404500000.0000000000 0.171519562602043207366619981258 0.019602667540311809885045235546 0.002163229743018745942356728662 0.005752404220402240753173828125 0 0 0 0 
2404666666.6666665077 0.171445637941360501388388115629 0.017720466479659080505371093750 0.002437073504552245140075683594 0.005598103627562522888183593750 0 0 0 0 
2404833333.3333334923 0.171182215213775607010049384371 0.015590806491672989236851876171 0.002565552247688173814060830225 0.005346902180463075637817382812 0 0 0 0 
2405000000.0000000000 0.171071112155914306640625000000 0.013787990435957910365094569727 0.002735136542469263076782226562 0.005391986109316349029541015625 0 0 0 0 
2405166666.6666665077 0.170876204967498807052450615629 0.011686218902468679600725742773 0.002875569509342312812805175781 0.005395767278969287872314453125 0 0 0 0 
2405333333.3333334923 0.170854359865188598632812500000 0.009436272084712982177734375000 0.003078473033383489088771201025 0.005067364778369665145874023438 0 0 0 0 
2405500000.0000000000 0.170849129557609613616619981258 0.007568884175270795822143554688 0.003153669647872447967529296875 0.004960764665156602859497070312 0 0 0 0 
2405666666.6666665077 0.171039998531341608245526231258 0.005586043000221251574044512012 0.003206934314221144156215048682 0.004949022550135850906372070312 0 0 0 0 
2405833333.3333334923 0.171048328280448913574218750000 0.003565910039469600157496786963 0.003386496100574731826782226562 0.004913979675620794296264648438 0 0 0 0 
2406000000.0000000000 0.171292394399642888824786268742 0.001373911276459693908691406250 0.003526525106281042098999023438 0.004959261510521174344534589551 0 0 0 0 
2406166666.6666665077 0.171372100710868807693643134371 -0.000480870687169954180717468262 0.003773979377001523971557617188 0.004805250093340873718261718750 0 0 0 0 
2406333333.3333334923 0.171996384859085110763388115629 -0.002601995598524808883666992188 0.003961960319429636001586914062 0.004762953612953425321097089551 0 0 0 0 
2406500000.0000000000 0.172291442751884488204794365629 -0.004660562146455050382132245801 0.004012804944068192568307207324 0.004687020555138587951660156250 0 0 0 0 
2406666666.6666665077 0.172639012336731012542401231258 -0.006647058296948671340942382812 0.004294346086680889129638671875 0.004624137189239264401907636426 0 0 0 0 
2406833333.3333334923 0.173210933804511996170205634371 -0.008713597431778907775878906250 0.004408437293022871017456054688 0.004433482885360717773437500000 0 0 0 0 
2407000000.0000000000 0.173727273941040011306924384371 -0.010661475360393520700474923046 0.004733408335596323013305664062 0.004350040107965469360351562500 0 0 0 0 
2407166666.6666665077 0.174632236361503601074218750000 -0.012541696429252629715889177930 0.004984831437468528747558593750 0.004117386881262063980102539062 0 0 0 0 
2407333333.3333334923 0.175024688243865994552450615629 -0.014411512762308120727539062500 0.005229988135397434234619140625 0.003975007217377424240112304688 0 0 0 0 
2407500000.0000000000 0.175673693418502807617187500000 -0.016162170097231868398646170704 0.005253683310002089414114667676 0.003834745381027460098266601562 0 0 0 0 
2407666666.6666665077 0.176393076777458190917968750000 -0.017817612737417221069335937500 0.005531618837267160415649414062 0.003605742007493973212001181494 0 0 0 0 
2407833333.3333334923 0.177026748657226590255575615629 -0.019721945747733119619349295704 0.005567284766584634780883789062 0.003454977646470069885253906250 0 0 0 0 
2408000000.0000000000 0.177758187055587796310263115629 -0.021250277757644649850865548046 0.005987266544252634048461914062 0.002999429358169436888453818213 0 0 0 0 
2408166666.6666665077 0.178518995642662103850994981258 -0.022877098992466930044153983204 0.006029696669429540634155273438 0.002845526672899723052978515625 0 0 0 0 
2408333333.3333334923 0.179110020399093600174111884371 -0.024269772693514820444127266796 0.006100083701312541961669921875 0.002446265192702413038966513525 0 0 0 0 
2408500000.0000000000 0.179712086915969904143963731258 -0.025739161297678950918177420704 0.006211880128830671310424804688 0.002075778320431708855869912256 0 0 0 0 
2408666666.6666665077 0.180236876010894803146200615629 -0.026922700926661491394042968750 0.006320228800177574157714843750 0.001717212959192693016649555737 0 0 0 0 
2408833333.3333334923 0.180683344602584811111611884371 -0.028205465525388721120814139454 0.006179868709295988082885742188 0.001474523451179265975952148438 0 0 0 0 
2409000000.0000000000 0.181121766567230196853799384371 -0.029257960617542270315150076954 0.006211124360561370849609375000 0.001054467866197227998020791162 0 0 0 0 
2409166666.6666665077 0.181780844926834106445312500000 -0.030368877574801448476771170704 0.006240820512175559997558593750 0.000974756723735481500625610352 0 0 0 0 
2409333333.3333334923 0.182048201560974093338174384371 -0.031246898695826530456542968750 0.006206738762557507428641034863 0.000692798406817018985748291016 0 0 0 0 
2409500000.0000000000 0.182428658008575411697549384371 -0.032018482685089111328125000000 0.006059957202523946762084960938 0.000359184108674526214599609375 0 0 0 0 
2409666666.6666665077 0.182604640722274808029013115629 -0.032446857541799552226979841407 0.006041284184902906417846679688 0.000196657230844721198081970215 0 0 0 0 
2409833333.3333334923 0.182896748185157803634481865629 -0.033111866563558578491210937500 0.005749261938035488128662109375 0.000055224019888555631041526794 0 0 0 0 
2410000000.0000000000 0.183302119374275207519531250000 -0.033673424273729317401926408593 0.005721048451960086822509765625 -0.000170636834809556603431701660 0 0 0 0 
2410166666.6666665077 0.183376863598823602874432481258 -0.034123145043849952007253278907 0.005636468995362520217895507812 -0.000308134476654231602519434796 0 0 0 0 
2410333333.3333334923 0.183396279811859103103799384371 -0.034301903098821640014648437500 0.005511046387255191802978515625 -0.000534108723513782024383544922 0 0 0 0 
2410500000.0000000000 0.183393314480781610686932481258 -0.034661434590816497802734375000 0.005499259568750858306884765625 -0.000823677459266036748886108398 0 0 0 0 
2410666666.6666665077 0.183473333716392489334268134371 -0.034951094537973396991770158593 0.005447175819426774978637695312 -0.000856389757245779037475585938 0 0 0 0 
2410833333.3333334923 0.183264136314392089843750000000 -0.035330075770616531372070312500 0.005161205772310495376586914062 -0.000947926309891045093536376953 0 0 0 0 
2411000000.0000000000 0.182980045676231412032919365629 -0.035701457411050803447682966407 0.005061343312263488769531250000 -0.001142381341196597056147910010 0 0 0 0 
2411166666.6666665077 0.182817161083221407791299384371 -0.035912018269300460815429687500 0.004954216070473194122314453125 -0.001349176745861768939374614185 0 0 0 0 
2411333333.3333334923 0.182428553700447110275106865629 -0.036125328391790390014648437500 0.004854368511587381362915039062 -0.001364433323033154010772705078 0 0 0 0 
2411500000.0000000000 0.181834965944290188888388115629 -0.036688446998596191406250000000 0.004778074566274881362915039062 -0.001540958415716886954066611182 0 0 0 0 
2411666666.6666665077 0.181478798389434786697549384371 -0.036971181631088256835937500000 0.004679983481764793395996093750 -0.001464538625441492037532187354 0 0 0 0 
2411833333.3333334923 0.180874586105346707443075615629 -0.037201285362243652343750000000 0.004634982440620660781860351562 -0.001563218538649379990221333081 0 0 0 0 
2412000000.0000000000 0.180083736777305603027343750000 -0.037643369287252433086354841407 0.004554423503577709197998046875 -0.001685383962467313029645610278 0 0 0 0 
2412166666.6666665077 0.179107978940010098556356865629 -0.038101959973573691631276716407 0.004259244073182343569283769824 -0.002000055043026804924011230469 0 0 0 0 
2412333333.3333334923 0.178435951471328707595986884371 -0.038545221090316772460937500000 0.004329092800617218017578125000 -0.001906639197841287092921591650 0 0 0 0 
2412500000.0000000000 0.177386969327926607986611884371 -0.039139762520790100097656250000 0.004160803742706775665283203125 -0.002024641958996653990504599463 0 0 0 0 
2412666666.6666665077 0.176445558667182894607705634371 -0.039868496358394622802734375000 0.003940585535019636154174804688 -0.001911542029120028018951416016 0 0 0 0 
2412833333.3333334923 0.175316825509071405608807481258 -0.040311690419912338256835937500 0.003866499057039618925807333838 -0.001895833527669311003444052588 0 0 0 0 
2413000000.0000000000 0.174044251441955594161825615629 -0.041109398007392883300781250000 0.003847554093226789994480752100 -0.001970739103853702978846884619 0 0 0 0 
2413166666.6666665077 0.172779113054275512695312500000 -0.041954137384891510009765625000 0.003849862609058618979213095557 -0.001994398422539234161376953125 0 0 0 0 
2413333333.3333334923 0.171321839094161987304687500000 -0.042806733399629592895507812500 0.003676865017041563987731933594 -0.001913864281959831931470561450 0 0 0 0 
2413500000.0000000000 0.170199498534202603439169365629 -0.043733883649110787128488908593 0.003750557545572518868687295068 -0.001940609421581029891967773438 0 0 0 0 
2413666666.6666665077 0.169096603989601107498330634371 -0.044761274009943008422851562500 0.003757609520107508139369345557 -0.001930266967974602959276508862 0 0 0 0 
2413833333.3333334923 0.167609423398971613128338731258 -0.045885283499956130981445312500 0.003603516845032573179957724463 -0.001853781635873019912122416919 0 0 0 0 
2414000000.0000000000 0.166239872574806213378906250000 -0.047177523374557502056081403907 0.003790570655837655067443847656 -0.001797088421881199099897075122 0 0 0 0 
2414166666.6666665077 0.165173351764679010589276231258 -0.048221528530120849609375000000 0.003863078309223055839538574219 -0.001838819123804569027544331128 0 0 0 0 
2414333333.3333334923 0.163887679576873807052450615629 -0.049670178443193442607839216407 0.003731724107638001008274697412 -0.002123511163517833189723349463 0 0 0 0 
2414500000.0000000000 0.162820458412170410156250000000 -0.051058832556009292602539062500 0.003911141306161881360525800488 -0.001951592392288147969486855615 0 0 0 0 
2414666666.6666665077 0.161573782563209505935830634371 -0.052497748285531997680664062500 0.003920944873243570327758789062 -0.002000447828322649002075195312 0 0 0 0 
2414833333.3333334923 0.160431906580924987792968750000 -0.054118666797876358032226562500 0.004005785565823316574096679688 -0.002064757049083710150477743994 0 0 0 0 
2415000000.0000000000 0.159401267766952486892861884371 -0.055699754506349556659738908593 0.003915352281183004379272460938 -0.002145027974620461897609091650 0 0 0 0 
2415166666.6666665077 0.158578351140022305587606865629 -0.057364486157894141460378278907 0.004122218582779169082641601562 -0.002417111769318581061122275244 0 0 0 0 
2415333333.3333334923 0.157657697796821594238281250000 -0.059249307960271842266042341407 0.004339829552918673429007245801 -0.002623573178425430817845009912 0 0 0 0 
2415500000.0000000000 0.156824350357055691818075615629 -0.060997143387794501567800153907 0.004235407337546348571777343750 -0.002813448896631598906276083838 0 0 0 0 
2415666666.6666665077 0.156120434403419494628906250000 -0.062839090824127197265625000000 0.004326695110648871335501386426 -0.002992346649989486174342490088 0 0 0 0 
2415833333.3333334923 0.155418515205383300781250000000 -0.064666360616683959960937500000 0.004042868036776781082153320312 -0.003135494422167540030238486182 0 0 0 0 
2416000000.0000000000 0.154704064130783108810263115629 -0.066837951540946960449218750000 0.004287721589207649230957031250 -0.003383927978575230078456259619 0 0 0 0 
2416166666.6666665077 0.154413118958473205566406250000 -0.068671911954879760742187500000 0.004036323167383670806884765625 -0.003632062580436468124389648438 0 0 0 0 
2416333333.3333334923 0.153740495443344088455361884371 -0.070544317364692687988281250000 0.004074079915881156921386718750 -0.003870574990287423133850097656 0 0 0 0 
2416500000.0000000000 0.153311118483543395996093750000 -0.072677582502365112304687500000 0.003960003610700368881225585938 -0.004129971377551555633544921875 0 0 0 0 
2416666666.6666665077 0.152920082211494501311932481258 -0.074542671442031860351562500000 0.003928523045033217343802167676 -0.004146312363445758819580078125 0 0 0 0 
2416833333.3333334923 0.152756512165069607833700615629 -0.076618865132331848144531250000 0.003840527031570672988891601562 -0.004405275918543338775634765625 0 0 0 0 
2417000000.0000000000 0.152182862162589999099893134371 -0.078414775431156158447265625000 0.003684322349727154211757040869 -0.004661706741899251937866210938 0 0 0 0 
2417166666.6666665077 0.152115345001220703125000000000 -0.080131433904170989990234375000 0.003336209105327724976780556787 -0.004967513028532266616821289062 0 0 0 0 
2417333333.3333334923 0.152040570974350003341513115629 -0.081926397979259490966796875000 0.003261353122070432142970419775 -0.005135749001055955886840820312 0 0 0 0 
2417500000.0000000000 0.151983603835105895996093750000 -0.083974368870258331298828125000 0.002990893088281155066249228369 -0.005214432254433631896972656250 0 0 0 0 
2417666666.6666665077 0.152043893933296203613281250000 -0.085453763604164123535156250000 0.002670886693522334098815917969 -0.005319687072187662124633789062 0 0 0 0 
2417833333.3333334923 0.151837483048438998123330634371 -0.086946323513984680175781250000 0.002537086373195052146911621094 -0.005498182028532028198242187500 0 0 0 0 
2418000000.0000000000 0.151964783668518094161825615629 -0.088590949773788452148437500000 0.002236412372440100149867392432 -0.005512272007763385772705078125 0 0 0 0 
2418166666.6666665077 0.152003943920135498046875000000 -0.089792169630527496337890625000 0.001937132677994668917414999854 -0.005767727736383677396292402051 0 0 0 0 
2418333333.3333334923 0.152441293001174899002236884371 -0.091171436011791229248046875000 0.001654428313486278057098388672 -0.005771656055003404617309570312 0 0 0 0 
2418500000.0000000000 0.152469277381897000411825615629 -0.092204205691814422607421875000 0.001468324800953269004821777344 -0.005763475317507982254028320312 0 0 0 0 
2418666666.6666665077 0.152757301926612909515057481258 -0.093499839305877685546875000000 0.001292250351980328993556357275 -0.005991309881210327148437500000 0 0 0 0 
2418833333.3333334923 0.152730137109756497482138115629 -0.094446785748004913330078125000 0.001109666074626147963880229419 -0.006076993420720100402832031250 0 0 0 0 
2419000000.0000000000 0.152924716472625704666299384371 -0.095149755477905273437500000000 0.000557851046323776353537404749 -0.005939580500125885009765625000 0 0 0 0 
2419166666.6666665077 0.153067395091056795974893134371 -0.095998466014862060546875000000 0.000492460210807621479034423828 -0.006110749207437038421630859375 0 0 0 0 
2419333333.3333334923 0.153175681829452486892861884371 -0.096403546631336212158203125000 0.000173529449966736110761919565 -0.006261226721107959747314453125 0 0 0 0 
2419500000.0000000000 0.153499066829681396484375000000 -0.097084753215312957763671875000 -0.000055600692576263099908828735 -0.006012068595737218856811523438 0 0 0 0 
2419666666.6666665077 0.153831496834754888336505018742 -0.097545005381107330322265625000 -0.000360029720468446612358093262 -0.006127526983618736267089843750 0 0 0 0 
2419833333.3333334923 0.153684034943580599685830634371 -0.097677461802959442138671875000 -0.000574264733586460351943969727 -0.006204515695571899414062500000 0 0 0 0 
