# Hz S RI R 
2400000000.0000000000 0.173395246267318697830361884371 0.048763886094093322753906250000 -0.002286970149725676016566611182 0.004143781494349241256713867188 0 0 0 0 
2400166666.6666665077 0.173939481377601595779580634371 0.048328448086977011943776716407 -0.002224538940936326980590820312 0.004037108737975358963012695312 0 0 0 0 
2400333333.3333334923 0.174316793680191012283486884371 0.047530833631753921508789062500 -0.002359831705689429803135537256 0.004233540501445531845092773438 0 0 0 0 
2400500000.0000000000 0.174852713942527798751669365629 0.046779390424489981914479841407 -0.002186560304835439162013388525 0.004242068622261285781860351562 0 0 0 0 
2400666666.6666665077 0.175009503960609408279580634371 0.046202369034290306781809221093 -0.002283346140757203102111816406 0.004106997512280941009521484375 0 0 0 0 
2400833333.3333334923 0.175548478960990905761718750000 0.045666001737117767333984375000 -0.002337816171348094940185546875 0.004545656498521566390991210938 0 0 0 0 
2401000000.0000000000 0.175542593002319308181924384371 0.044935572892427437519113908593 -0.002198125468567014174220419775 0.004709346685558558377737714551 0 0 0 0 
2401166666.6666665077 0.175831988453865106780682481258 0.044298496097326278686523437500 -0.002169401617720723152160644531 0.004909537266939879331106855176 0 0 0 0 
2401333333.3333334923 0.175989732146263094803018134371 0.043767079710960388183593750000 -0.001962425885722041130065917969 0.005055261310189962387084960938 0 0 0 0 
2401500000.0000000000 0.176281332969665499588174384371 0.043139774352312088012695312500 -0.001978041371330618858337402344 0.005183242727071046829223632812 0 0 0 0 
2401666666.6666665077 0.176162615418434087555255018742 0.042441293597221381450612653907 -0.001760813989676534912706684644 0.005528734065592288970947265625 0 0 0 0 
2401833333.3333334923 0.176270574331283597091513115629 0.041692528873682022094726562500 -0.001487191999331116893171000903 0.005500301253050565719604492188 0 0 0 0 
2402000000.0000000000 0.175973504781722994705361884371 0.040808301419019699096679687500 -0.001383098540827631950378417969 0.005604965612292289733886718750 0 0 0 0 
2402166666.6666665077 0.175982803106308011154013115629 0.039740860462188720703125000000 -0.001168085262179374911664653247 0.006034542806446552276611328125 0 0 0 0 
2402333333.3333334923 0.175651058554649408538494981258 0.038904845714569091796875000000 -0.001048458041623234965680766528 0.006018678657710552215576171875 0 0 0 0 
2402500000.0000000000 0.175661891698837308029013115629 0.037895884364843368530273437500 -0.000663362618070095777511596680 0.006121279206126928329467773438 0 0 0 0 
2402666666.6666665077 0.175709113478660611251669365629 0.036823142319917678833007812500 -0.000511854421347379684448242188 0.006223135627806186676025390625 0 0 0 0 
2402833333.3333334923 0.175217971205711392501669365629 0.035809829831123352050781250000 -0.000002216354005213360809956350 0.006273577921092510223388671875 0 0 0 0 
2403000000.0000000000 0.174870520830154391189736884371 0.034523028880357742309570312500 0.000163158882060088190153399057 0.006254954729229211807250976562 0 0 0 0 
2403166666.6666665077 0.174533635377883911132812500000 0.032995548099279396747629533593 0.000317448022542521411746424542 0.006285512354224920272827148438 0 0 0 0 
2403333333.3333334923 0.174469307065010098556356865629 0.031765550374984741210937500000 0.000654998933896422386169433594 0.006396237295120955380911542676 0 0 0 0 
2403500000.0000000000 0.173774093389511108398437500000 0.030307184904813769948939139454 0.001063007628545165061950683594 0.006238176487386226654052734375 0 0 0 0 
2403666666.6666665077 0.173591092228889493087606865629 0.028555935248732570302943045704 0.001007561921142041900037455981 0.006238962523639202117919921875 0 0 0 0 
2403833333.3333334923 0.173162505030631991287393134371 0.026743005961179729806920235546 0.001579128322191535992863320459 0.006070010364055634412283612988 0 0 0 0 
2404000000.0000000000 0.172774374485015896896200615629 0.025228317826986309396763985546 0.001669723773375153975245810400 0.006095787510275840759277343750 0 0 0 0 
2404166666.6666665077 0.172626078128814697265625000000 0.023480145260691639291783516796 0.001891154563054441972019814600 0.005982645321637392044067382812 0 0 0 0 
2404333333.3333334923 0.172062009572982788085937500000 0.021552046760916709899902343750 0.002096648560836911201477050781 0.005797423887997865676879882812 0 0 0 0 
2404500000.0000000000 0.171726256608963012695312500000 0.019525855779647830617884451954 0.002227225806564093069789267432 0.005593260750174522399902343750 0 0 0 0 
2404666666.6666665077 0.171416074037551907638388115629 0.017571145668625831604003906250 0.002541116904467343850376748193 0.005577625241130589571481035449 0 0 0 0 
2404833333.3333334923 0.171139970421791104415731865629 0.015712684020400050771693045704 0.002664095023646951155421591650 0.005561282392591238021850585938 0 0 0 0 
2405000000.0000000000 0.171000450849533108810263115629 0.013810773380100730550745780079 0.002771377563476562933680868994 0.005361357238143683347220136426 0 0 0 0 
2405166666.6666665077 0.170853182673454312423544365629 0.011726694181561470031738281250 0.002997691975906490845921181787 0.005157292354851961135864257812 0 0 0 0 
2405333333.3333334923 0.170869290828704806228799384371 0.009536634199321269989013671875 0.003008443862199782891514443506 0.005320817232131958007812500000 0 0 0 0 
2405500000.0000000000 0.170888513326644897460937500000 0.007718665525317192077636718750 0.003182383254170417785644531250 0.005133577622473239898681640625 0 0 0 0 
2405666666.6666665077 0.171018540859222412109375000000 0.005548507440835238370413495801 0.003289429238066076798679970850 0.005047522019594907760620117188 0 0 0 0 
2405833333.3333334923 0.170950248837471008300781250000 0.003594433888792992071864462744 0.003576264949515461921691894531 0.004899570718407630920410156250 0 0 0 0 
2406000000.0000000000 0.171266749501228304763955634371 0.001359086600132286982295370947 0.003627548459917306900024414062 0.004896278493106365203857421875 0 0 0 0 
2406166666.6666665077 0.171453565359115600585937500000 -0.000575511250644922256469726562 0.003647795645520091056823730469 0.004922028630971908569335937500 0 0 0 0 
2406333333.3333334923 0.172006875276565607268963731258 -0.002651571994647384123561240088 0.003800346516072750091552734375 0.004891404882073402404785156250 0 0 0 0 
2406500000.0000000000 0.172367960214614895919638115629 -0.004742662888020277023315429688 0.004177628550678491592407226562 0.004573062527924776077270507812 0 0 0 0 
2406666666.6666665077 0.172569260001182611663494981258 -0.006522744894027709960937500000 0.004258361179381608963012695312 0.004623954650014638900756835938 0 0 0 0 
2406833333.3333334923 0.173158168792724609375000000000 -0.008692737668752670288085937500 0.004538273438811302185058593750 0.004467043094336987409109784863 0 0 0 0 
2407000000.0000000000 0.173999786376953097244424384371 -0.010702177882194520777692225977 0.004675201140344142913818359375 0.004287326708436012268066406250 0 0 0 0 
2407166666.6666665077 0.174643352627754211425781250000 -0.012559020891785619908342930273 0.004903002642095088958740234375 0.004171574022620916366577148438 0 0 0 0 
2407333333.3333334923 0.175155431032180786132812500000 -0.014482724480330940591832344921 0.005187900736927986145019531250 0.003994257654994726181030273438 0 0 0 0 
2407500000.0000000000 0.175752252340316800216513115629 -0.016178859397768970834752266796 0.005398944951593875885009765625 0.003886521793901919884922646631 0 0 0 0 
2407666666.6666665077 0.176512002944946289062500000000 -0.017838492989540100097656250000 0.005707440432161092758178710938 0.003786499844864010810852050781 0 0 0 0 
2407833333.3333334923 0.177040845155715886871661268742 -0.019733473658561710012415701954 0.005918377544730901718139648438 0.003333288012072443962097167969 0 0 0 0 
2408000000.0000000000 0.177775144577026394943075615629 -0.021434951573610309255579764454 0.005857809912413358688354492188 0.003078694455325603918788290869 0 0 0 0 
2408166666.6666665077 0.178461685776710510253906250000 -0.022754101082682609558105468750 0.005992005113512277603149414062 0.002740496536716818809509277344 0 0 0 0 
2408333333.3333334923 0.179157078266143798828125000000 -0.024145958945155140268346016796 0.006205762736499310407156659863 0.002464346121996641159057617188 0 0 0 0 
2408500000.0000000000 0.179725140333175686935263115629 -0.025778178125619888305664062500 0.006331552285701037320608808301 0.002008095383644104003906250000 0 0 0 0 
2408666666.6666665077 0.180307582020759610275106865629 -0.026909627020359039306640625000 0.006324980873614549636840820312 0.001831211033277214007136679541 0 0 0 0 
2408833333.3333334923 0.180753216147422790527343750000 -0.028261370956897739065150076954 0.006385933607816696166992187500 0.001384673290885984897613525391 0 0 0 0 
2409000000.0000000000 0.181168451905250604827557481258 -0.029200967401266101491907889454 0.006201250478625298413748456738 0.001294355140998959975001669775 0 0 0 0 
2409166666.6666665077 0.181714892387390108963174384371 -0.030235081911087039602259451954 0.006186758633702993392944335938 0.000993482070043683052062988281 0 0 0 0 
2409333333.3333334923 0.182095780968666104415731865629 -0.031183896586298939096471016796 0.006084711290895938873291015625 0.000684712431393563747406005859 0 0 0 0 
2409500000.0000000000 0.182295903563499506194744981258 -0.032091870903968811035156250000 0.005930903833359479904174804688 0.000441748969024047309726160870 0 0 0 0 
2409666666.6666665077 0.182638615369796808440838731258 -0.032688774168491356586496721093 0.005981614813208580017089843750 0.000155506335431709912702283316 0 0 0 0 
2409833333.3333334923 0.182785481214523287674111884371 -0.032993588596582412719726562500 0.005839283578097820281982421875 -0.000130612213979475200176239014 0 0 0 0 
2410000000.0000000000 0.183235198259353609939736884371 -0.033526569604873657226562500000 0.005766890477389097213745117188 -0.000272546312771737575531005859 0 0 0 0 
2410166666.6666665077 0.183260932564735412597656250000 -0.033919870853424072265625000000 0.005676327738910914334768964551 -0.000390232336940243786007481708 0 0 0 0 
2410333333.3333334923 0.183258995413780212402343750000 -0.034328050911426537250559221093 0.005533169023692607879638671875 -0.000536692619789391756057739258 0 0 0 0 
2410500000.0000000000 0.183446496725082397460937500000 -0.034722853451967239379882812500 0.005188145209103822708129882812 -0.000652123766485601663589477539 0 0 0 0 
2410666666.6666665077 0.183246642351150512695312500000 -0.035104446113109588623046875000 0.005286250729113817214965820312 -0.000910589180421084165573120117 0 0 0 0 
2410833333.3333334923 0.183230727910995511154013115629 -0.035209700465202331542968750000 0.005250647664070129394531250000 -0.000960529956500977277755737305 0 0 0 0 
2411000000.0000000000 0.183113649487495394607705634371 -0.035541687160730361938476562500 0.005066694226115942001342773438 -0.001099064364098012013676308740 0 0 0 0 
2411166666.6666665077 0.182755097746849087814169365629 -0.035906631499528891826589216407 0.004795914050191640853881835938 -0.001309417537413537935969687354 0 0 0 0 
2411333333.3333334923 0.182430937886238098144531250000 -0.036198291927576072002370466407 0.004955850075930356979370117188 -0.001442415872588753917096782153 0 0 0 0 
2411500000.0000000000 0.181914851069450406173544365629 -0.036663454025983810424804687500 0.004748443607240915298461914062 -0.001466460409574211077449179541 0 0 0 0 
2411666666.6666665077 0.181264489889144897460937500000 -0.036884061992168433452565778907 0.004836653359234333038330078125 -0.001550223794765770001652382959 0 0 0 0 
2411833333.3333334923 0.180705770850181607345419365629 -0.037044212222099297260324846093 0.004631250165402889251708984375 -0.001627230434678494930267333984 0 0 0 0 
2412000000.0000000000 0.180083736777305603027343750000 -0.037642475217580802226979841407 0.004517348948866128921508789062 -0.001654040301218629100202250903 0 0 0 0 
2412166666.6666665077 0.179216787219047601897869981258 -0.037982337176799767231027971093 0.004445276223123073577880859375 -0.001794768963009119033813476562 0 0 0 0 
2412333333.3333334923 0.178276985883712796310263115629 -0.038541126996278762817382812500 0.004361984319984912872314453125 -0.001838990137912333011627197266 0 0 0 0 
2412500000.0000000000 0.177342444658279391189736884371 -0.039100259542465209960937500000 0.003971195779740810394287109375 -0.001937578665092587904689169775 0 0 0 0 
2412666666.6666665077 0.176361978054046603103799384371 -0.039779018610715873027761091407 0.003949428442865610122680664062 -0.002010714728385210037231445312 0 0 0 0 
2412833333.3333334923 0.175298482179641695877236884371 -0.040404871106147773052175153907 0.003964950796216726303100585938 -0.001837546355091034932377480615 0 0 0 0 
2413000000.0000000000 0.174040690064430209060830634371 -0.041116170585155487060546875000 0.003829682245850563049316406250 -0.001912629813887178897857666016 0 0 0 0 
2413166666.6666665077 0.172756180167198208907919365629 -0.041822772473096847534179687500 0.003695667022839189009425497900 -0.001958731329068541960475302588 0 0 0 0 
2413333333.3333334923 0.171435624361038208007812500000 -0.042876623570919036865234375000 0.003613209817558526992797851562 -0.001931019709445535919786762769 0 0 0 0 
2413500000.0000000000 0.170337900519371004959268134371 -0.043785866349935531616210937500 0.003703621914610267119166708838 -0.001846144441515207073808979565 0 0 0 0 
2413666666.6666665077 0.168998390436172513107138115629 -0.044788669794797897338867187500 0.003628486301749945120570517432 -0.001949619268998503901837993091 0 0 0 0 
2413833333.3333334923 0.167698696255683898925781250000 -0.045821785926818847656250000000 0.003557338146492838859558105469 -0.001979393651708960966822958838 0 0 0 0 
2414000000.0000000000 0.166238471865653991699218750000 -0.047053001821041107177734375000 0.003570455592125653786900185693 -0.001949767000041902065277099609 0 0 0 0 
2414166666.6666665077 0.165154814720153808593750000000 -0.048345416784286499023437500000 0.003631440456956624984741210938 -0.001926952390931546904920268481 0 0 0 0 
2414333333.3333334923 0.163854017853736905196981865629 -0.049670331180095672607421875000 0.003681019181385635895970009912 -0.001871069078333676078199077075 0 0 0 0 
2414500000.0000000000 0.162790551781654413421307481258 -0.050986807793378829956054687500 0.003781947540119289918186806787 -0.001876041525974869944928813403 0 0 0 0 
2414666666.6666665077 0.161486327648162786285723768742 -0.052545510232448577880859375000 0.003943893592804670333862304688 -0.001953674480319023132324218750 0 0 0 0 
2414833333.3333334923 0.160395875573158291915731865629 -0.054086726158857352519948591407 0.003896472742781043052673339844 -0.002046365523710846900939941406 0 0 0 0 
2415000000.0000000000 0.159615010023117093185263115629 -0.055758938193321228027343750000 0.004128865431994199752807617188 -0.002162030199542642073390341650 0 0 0 0 
2415166666.6666665077 0.158342733979225186446981865629 -0.057373166084289550781250000000 0.004004344809800386428833007812 -0.002259887056425213813781738281 0 0 0 0 
2415333333.3333334923 0.157792583107948303222656250000 -0.059396222233772277832031250000 0.004155141301453114423269941113 -0.002447264036163688139674521338 0 0 0 0 
2415500000.0000000000 0.156770288944244412521200615629 -0.060947675257921218872070312500 0.004225959070026875409598066113 -0.002674329094588756994960165869 0 0 0 0 
2415666666.6666665077 0.156056344509124811370526231258 -0.062785193324089050292968750000 0.004378734622150660428518964551 -0.002746880752965807914733886719 0 0 0 0 
2415833333.3333334923 0.155435651540756197830361884371 -0.064783290028572082519531250000 0.004413896705955266952514648438 -0.003208097768947482109069824219 0 0 0 0 
2416000000.0000000000 0.154690176248550387283486884371 -0.066649250686168670654296875000 0.004344266373664140701293945312 -0.003416784340515733198878622900 0 0 0 0 
2416166666.6666665077 0.154334142804145812988281250000 -0.068763673305511474609375000000 0.004269857890903949737548828125 -0.003613484790548682212829589844 0 0 0 0 
2416333333.3333334923 0.153770774602889986892861884371 -0.070631623268127441406250000000 0.004064247477799654006958007812 -0.004019776824861764907836914062 0 0 0 0 
2416500000.0000000000 0.153290703892707796951455634371 -0.072775676846504211425781250000 0.004008492920547723770141601562 -0.004048494622111321362967206738 0 0 0 0 
2416666666.6666665077 0.152837559580802889724893134371 -0.074525907635688781738281250000 0.003852045396342874006984091650 -0.004210476763546466827392578125 0 0 0 0 
2416833333.3333334923 0.152661427855491610428018134371 -0.076604098081588745117187500000 0.003711919998750091032740927588 -0.004497431684285402297973632812 0 0 0 0 
2417000000.0000000000 0.152198135852813692947549384371 -0.078548036515712738037109375000 0.003384018084034324126002646338 -0.004780273418873549375052167676 0 0 0 0 
2417166666.6666665077 0.152088806033134488204794365629 -0.080239407718181610107421875000 0.003374264808371663093566894531 -0.004971053451299667358398437500 0 0 0 0 
2417333333.3333334923 0.152028530836105402190838731258 -0.082044683396816253662109375000 0.003181329695507884025573730469 -0.004982744343578816327566816113 0 0 0 0 
2417500000.0000000000 0.151940435171127291580361884371 -0.083930984139442443847656250000 0.003000454977154732184169150244 -0.005273926537483930587768554688 0 0 0 0 
2417666666.6666665077 0.151956498622894287109375000000 -0.085450924932956695556640625000 0.002726804930716753005981445312 -0.005317079834640026092529296875 0 0 0 0 
2417833333.3333334923 0.151955679059028597732705634371 -0.086927548050880432128906250000 0.002511101542040706114528036963 -0.005575716495513916015625000000 0 0 0 0 
2418000000.0000000000 0.151987791061401394943075615629 -0.088552922010421752929687500000 0.002059963531792163848876953125 -0.005692897364497184753417968750 0 0 0 0 
2418166666.6666665077 0.151918545365333612640057481258 -0.089849740266799926757812500000 0.001984269823879003958461142432 -0.005785297136753798398489667676 0 0 0 0 
2418333333.3333334923 0.152419283986091613769531250000 -0.091207273304462432861328125000 0.001851798617281019904493022388 -0.005948529578745365142822265625 0 0 0 0 
2418500000.0000000000 0.152419745922088595291299384371 -0.092334747314453125000000000000 0.001471242867410182952880859375 -0.006045123096555471420288085938 0 0 0 0 
2418666666.6666665077 0.152731537818908691406250000000 -0.093497291207313537597656250000 0.001267375773750246004817343604 -0.006051728967577219009399414062 0 0 0 0 
2418833333.3333334923 0.152836903929710388183593750000 -0.094418339431285858154296875000 0.001047552796080708937404013525 -0.006148958113044500350952148438 0 0 0 0 
2419000000.0000000000 0.152810454368591308593750000000 -0.095324084162712097167968750000 0.000700024713296443223953247070 -0.006120483856648206710815429688 0 0 0 0 
2419166666.6666665077 0.153167992830276489257812500000 -0.096030913293361663818359375000 0.000483303039800375699996948242 -0.006123936735093593597412109375 0 0 0 0 
2419333333.3333334923 0.153284832835197504241619981258 -0.096515782177448272705078125000 0.000236945605138316804736536847 -0.006084832362830638885498046875 0 0 0 0 
2419500000.0000000000 0.153454422950744601150674384371 -0.097196958959102630615234375000 -0.000028566331820911731233800582 -0.006283427122980356216430664062 0 0 0 0 
2419666666.6666665077 0.153852343559265108963174384371 -0.097535558044910430908203125000 -0.000201663380721583989545545035 -0.006053795106709002581124590137 0 0 0 0 
2419833333.3333334923 0.153718680143356295486611884371 -0.097711026668548583984375000000 -0.000611762108746916055679321289 -0.006139791104942560195922851562 0 0 0 0 
