# Version 1.00
#
freq[Hz];re:Trc1_S11;im:Trc1_S11;re:Trc2_S21;im:Trc2_S21;
2.400000000000000E+009;1.734530776739121E-001;4.869445785880089E-002;4.468463361263275E-003;9.541421895846725E-004;
2.400166666666667E+009;1.739916801452637E-001;4.825179278850555E-002;4.354035481810570E-003;8.902900735847652E-004;
2.400333333333334E+009;1.741102784872055E-001;4.725537821650505E-002;4.090802278369665E-003;9.001275175251067E-004;
2.400500000000000E+009;1.747039258480072E-001;4.667831584811211E-002;3.974655177444220E-003;7.897281320765615E-004;
2.400666666666667E+009;1.750416457653046E-001;4.584777727723122E-002;4.026262089610100E-003;5.815636250190437E-004;
2.400833333333334E+009;1.754578351974487E-001;4.546519368886948E-002;3.827686421573162E-003;5.763735971413553E-004;
2.401000000000000E+009;1.756539344787598E-001;4.476679489016533E-002;3.800430800765753E-003;6.550412508659065E-004;
2.401166666666667E+009;1.759079843759537E-001;4.399571195244789E-002;3.735423553735018E-003;7.022412610240281E-004;
2.401333333333334E+009;1.757290959358215E-001;4.350745677947998E-002;3.673123195767403E-003;6.298516527749598E-004;
2.401500000000000E+009;1.762211024761200E-001;4.276443645358086E-002;3.732924116775394E-003;8.244716445915401E-004;
2.401666666666667E+009;1.761566400527954E-001;4.211441427469254E-002;3.564329817891121E-003;7.359179435297847E-004;
2.401833333333334E+009;1.761270165443420E-001;4.142532870173454E-002;3.536907257512212E-003;7.869672263041139E-004;
2.402000000000000E+009;1.760054230690002E-001;4.072182625532150E-002;3.623042255640030E-003;6.968529196456075E-004;
2.402166666666667E+009;1.758607774972916E-001;3.968340158462524E-002;3.651341423392296E-003;8.588480995967984E-004;
2.402333333333334E+009;1.756826192140579E-001;3.886546939611435E-002;3.664215328171849E-003;7.072289008647203E-004;
2.402500000000000E+009;1.756138503551483E-001;3.799463808536530E-002;3.720700740814209E-003;8.883828413672745E-004;
2.402666666666667E+009;1.751922816038132E-001;3.684246912598610E-002;4.005420021712780E-003;8.912499761208892E-004;
2.402833333333334E+009;1.749963015317917E-001;3.569060936570168E-002;3.957620356231928E-003;7.667090976610780E-004;
2.403000000000000E+009;1.747482568025589E-001;3.439287468791008E-002;3.868847852572799E-003;8.812611340545118E-004;
2.403166666666667E+009;1.743028312921524E-001;3.322927653789520E-002;3.825716208666563E-003;8.283525239676237E-004;
2.403333333333334E+009;1.740484982728958E-001;3.180197253823280E-002;4.022656008601189E-003;6.440549041144550E-004;
2.403500000000000E+009;1.736132055521011E-001;3.000945970416069E-002;4.164208658039570E-003;6.101168692111969E-004;
2.403666666666667E+009;1.732720434665680E-001;2.854761481285095E-002;4.190897569060326E-003;5.855254712514579E-004;
2.403833333333334E+009;1.728542149066925E-001;2.694052830338478E-002;4.158658441156149E-003;4.348483926150948E-004;
2.404000000000000E+009;1.725379526615143E-001;2.533466555178165E-002;4.430007655173540E-003;2.064322907244787E-004;
2.404166666666667E+009;1.720182150602341E-001;2.342554368078709E-002;4.490166902542114E-003;2.725256490521133E-004;
2.404333333333334E+009;1.717705577611923E-001;2.168351411819458E-002;4.529321566224098E-003;2.421461977064610E-005;
2.404500000000000E+009;1.713813692331314E-001;1.966760866343975E-002;4.657811950892210E-003;-8.525280281901360E-005;
2.404666666666667E+009;1.711247414350510E-001;1.777293160557747E-002;4.622891545295715E-003;-2.811202139128000E-004;
2.404833333333334E+009;1.707649976015091E-001;1.582760736346245E-002;4.705435596406460E-003;-3.444795438554138E-004;
2.405000000000000E+009;1.706934720277786E-001;1.383142266422510E-002;4.473082255572081E-003;-4.956159973517060E-004;
2.405166666666667E+009;1.705570816993713E-001;1.178909279406071E-002;4.528518300503492E-003;-5.431561148725450E-004;
2.405333333333334E+009;1.705197244882584E-001;9.767529554665089E-003;4.477289039641619E-003;-7.117767236195505E-004;
2.405500000000000E+009;1.704480797052383E-001;7.834307849407196E-003;4.497202113270760E-003;-9.561593178659678E-004;
2.405666666666667E+009;1.705757975578308E-001;5.804529413580895E-003;4.463497083634138E-003;-8.788331178948283E-004;
2.405833333333334E+009;1.705149561166763E-001;3.969599492847920E-003;4.523024428635836E-003;-1.116112456656992E-003;
2.406000000000000E+009;1.708684414625168E-001;1.614914508536458E-003;4.480306990444660E-003;-9.941118769347668E-004;
2.406166666666667E+009;1.711974143981934E-001;-2.842938120011240E-004;4.393746610730887E-003;-1.234265277162194E-003;
2.406333333333334E+009;1.715455353260040E-001;-2.278964035212994E-003;4.274014383554459E-003;-1.179430633783341E-003;
2.406500000000000E+009;1.719498038291931E-001;-4.422321915626526E-003;4.389301873743534E-003;-1.321369665674865E-003;
2.406666666666667E+009;1.723877936601639E-001;-6.210440769791603E-003;4.427239764481783E-003;-1.413068850524724E-003;
2.406833333333334E+009;1.728476583957672E-001;-8.215817622840405E-003;4.317697603255510E-003;-1.511537353508174E-003;
2.407000000000000E+009;1.735826432704926E-001;-1.025262661278248E-002;4.281775560230017E-003;-1.641139155253768E-003;
2.407166666666667E+009;1.743530035018921E-001;-1.215775869786739E-002;4.319396335631609E-003;-1.630169805139303E-003;
2.407333333333334E+009;1.750346422195435E-001;-1.393455360084772E-002;4.335536621510983E-003;-1.856365357525647E-003;
2.407500000000000E+009;1.755876094102860E-001;-1.571505330502987E-002;4.415935371071100E-003;-1.810529036447406E-003;
2.407666666666667E+009;1.763251423835754E-001;-1.744694449007511E-002;4.296638537198305E-003;-2.085311105474830E-003;
2.407833333333334E+009;1.769974529743195E-001;-1.924106478691101E-002;4.423326347023249E-003;-2.074505202472210E-003;
2.408000000000000E+009;1.777529418468475E-001;-2.093381807208061E-002;4.430349916219711E-003;-2.214186824858189E-003;
2.408166666666667E+009;1.785056740045548E-001;-2.229643985629082E-002;4.308728966861963E-003;-2.373317256569862E-003;
2.408333333333334E+009;1.791945248842239E-001;-2.386744879186153E-002;4.295235034078360E-003;-2.525170333683491E-003;
2.408500000000000E+009;1.797847300767899E-001;-2.542663738131523E-002;4.301895853132010E-003;-2.574513200670481E-003;
2.408666666666667E+009;1.803283989429474E-001;-2.667297422885895E-002;4.170550964772701E-003;-2.920935628935695E-003;
2.408833333333334E+009;1.808774620294571E-001;-2.783576212823391E-002;4.156985785812140E-003;-2.958337077870965E-003;
2.409000000000000E+009;1.811758428812027E-001;-2.886902540922165E-002;4.023716785013676E-003;-2.981861587613821E-003;
2.409166666666667E+009;1.818296313285828E-001;-2.999508567154408E-002;3.971834667026997E-003;-3.244044957682490E-003;
2.409333333333334E+009;1.822656840085983E-001;-3.091410547494888E-002;3.981084097176790E-003;-3.399625420570374E-003;
2.409500000000000E+009;1.822476834058762E-001;-3.169783204793930E-002;3.871636698022485E-003;-3.609538311138749E-003;
2.409666666666667E+009;1.826271265745163E-001;-3.262165933847427E-002;3.782190382480621E-003;-3.496252000331879E-003;
2.409833333333334E+009;1.828382015228272E-001;-3.293561935424805E-002;3.704647766426206E-003;-3.629936836659908E-003;
2.410000000000000E+009;1.833859831094742E-001;-3.331271559000015E-002;3.714828053489327E-003;-3.668308490887284E-003;
2.410166666666667E+009;1.831807196140289E-001;-3.358170017600060E-002;3.473038785159588E-003;-4.177417140454054E-003;
2.410333333333334E+009;1.835677325725555E-001;-3.417941182851791E-002;3.466643160209060E-003;-3.978226333856583E-003;
2.410500000000000E+009;1.833887696266174E-001;-3.439503535628319E-002;3.330887993797660E-003;-4.208440426737070E-003;
2.410666666666667E+009;1.834002584218979E-001;-3.483184799551964E-002;3.429743694141507E-003;-4.244757816195488E-003;
2.410833333333334E+009;1.834191977977753E-001;-3.513762354850769E-002;3.330519422888756E-003;-4.504995420575142E-003;
2.411000000000000E+009;1.832771301269531E-001;-3.537756577134132E-002;3.120702691376209E-003;-4.695881158113480E-003;
2.411166666666667E+009;1.827651858329773E-001;-3.562457114458084E-002;3.168801078572869E-003;-4.750740248709917E-003;
2.411333333333334E+009;1.825969815254211E-001;-3.608582913875580E-002;3.077231580391526E-003;-4.811066668480635E-003;
2.411500000000000E+009;1.821798235177994E-001;-3.637004643678665E-002;2.910074312239885E-003;-4.941527266055346E-003;
2.411666666666667E+009;1.816828399896622E-001;-3.671176731586456E-002;2.755240537226200E-003;-5.300738383084536E-003;
2.411833333333334E+009;1.809004098176956E-001;-3.712034597992897E-002;2.550981473177671E-003;-5.502836313098669E-003;
2.412000000000000E+009;1.803232878446579E-001;-3.747085854411125E-002;2.272906014695764E-003;-5.685251671820879E-003;
2.412166666666667E+009;1.793619543313980E-001;-3.797829896211624E-002;2.143122255802155E-003;-5.670225713402033E-003;
2.412333333333334E+009;1.786611527204514E-001;-3.833465650677681E-002;1.914612716063857E-003;-5.826365202665329E-003;
2.412500000000000E+009;1.774846911430359E-001;-3.883552178740501E-002;1.657335553318262E-003;-5.948761478066444E-003;
2.412666666666667E+009;1.764968186616898E-001;-3.962131962180138E-002;1.461488776840270E-003;-5.916480440646410E-003;
2.412833333333334E+009;1.752467155456543E-001;-4.025605320930481E-002;1.110267243348062E-003;-6.006248295307159E-003;
2.413000000000000E+009;1.741825640201569E-001;-4.087468609213829E-002;9.686536504887044E-004;-6.005091592669487E-003;
2.413166666666667E+009;1.730699837207794E-001;-4.166981577873230E-002;6.843835581094027E-004;-6.003143265843391E-003;
2.413333333333334E+009;1.716451644897461E-001;-4.265082627534866E-002;3.727950097527355E-004;-5.988082382827997E-003;
2.413500000000000E+009;1.703968495130539E-001;-4.353149235248566E-002;2.823462127707899E-004;-5.954668857157230E-003;
2.413666666666667E+009;1.691697835922241E-001;-4.468969255685806E-002;-1.338712354481686E-005;-5.899781361222267E-003;
2.413833333333334E+009;1.679029315710068E-001;-4.564459249377251E-002;-1.520377991255373E-004;-5.857242736965418E-003;
2.414000000000000E+009;1.666080802679062E-001;-4.700097069144249E-002;-4.264850576873869E-004;-5.806155037134886E-003;
2.414166666666667E+009;1.653229296207428E-001;-4.804810136556625E-002;-6.183608202263713E-004;-5.627925507724285E-003;
2.414333333333334E+009;1.641976535320282E-001;-4.954972863197327E-002;-7.875674637034535E-004;-5.666271317750216E-003;
2.414500000000000E+009;1.631771177053452E-001;-5.087605491280556E-002;-9.198251063935459E-004;-5.424122791737318E-003;
2.414666666666667E+009;1.619522571563721E-001;-5.229960754513741E-002;-1.065238728187978E-003;-5.318694747984409E-003;
2.414833333333334E+009;1.607179492712021E-001;-5.397113412618637E-002;-1.255244947969914E-003;-5.282093770802021E-003;
2.415000000000000E+009;1.597331166267395E-001;-5.551815405488014E-002;-1.330537721514702E-003;-5.352707579731941E-003;
2.415166666666667E+009;1.587129831314087E-001;-5.725536495447159E-002;-1.583552453666925E-003;-5.143769551068544E-003;
2.415333333333334E+009;1.579960882663727E-001;-5.918157100677490E-002;-1.553780748508871E-003;-5.135233048349619E-003;
2.415500000000000E+009;1.570112407207489E-001;-6.093657389283180E-002;-1.628304482437670E-003;-5.158089101314545E-003;
2.415666666666667E+009;1.563051193952560E-001;-6.272167712450028E-002;-1.841336139477789E-003;-4.966505337506533E-003;
2.415833333333334E+009;1.556630879640579E-001;-6.467276811599731E-002;-1.869274419732392E-003;-4.938352853059769E-003;
2.416000000000000E+009;1.548040807247162E-001;-6.671109050512314E-002;-1.979672349989414E-003;-4.843969829380512E-003;
2.416166666666667E+009;1.545339971780777E-001;-6.861454993486404E-002;-2.218914683908224E-003;-4.799350164830685E-003;
2.416333333333334E+009;1.539451330900192E-001;-7.060541957616806E-002;-2.256993670016527E-003;-4.540302325040102E-003;
2.416500000000000E+009;1.534175276756287E-001;-7.266981899738312E-002;-2.394700888544321E-003;-4.666695836931467E-003;
2.416666666666667E+009;1.530007123947144E-001;-7.453591376543045E-002;-2.465114230290055E-003;-4.434677306562662E-003;
2.416833333333334E+009;1.527270227670670E-001;-7.674156874418259E-002;-2.625813707709312E-003;-4.317833576351404E-003;
2.417000000000000E+009;1.522258222103119E-001;-7.863053679466248E-002;-2.599956933408976E-003;-4.251269623637199E-003;
2.417166666666667E+009;1.520727127790451E-001;-8.030143380165100E-002;-2.601549262180924E-003;-4.117736127227545E-003;
2.417333333333334E+009;1.520456224679947E-001;-8.209894597530365E-002;-2.872756915166974E-003;-3.876943606883287E-003;
2.417500000000000E+009;1.520328372716904E-001;-8.397705852985382E-002;-2.872859127819538E-003;-3.950647078454495E-003;
2.417666666666667E+009;1.520028412342072E-001;-8.538690954446793E-002;-2.892151474952698E-003;-3.846767125651240E-003;
2.417833333333334E+009;1.519685983657837E-001;-8.702342212200165E-002;-2.885617082938552E-003;-3.718555672094226E-003;
2.418000000000000E+009;1.518405377864838E-001;-8.867720514535904E-002;-3.126987256109715E-003;-3.764664055779576E-003;
2.418166666666667E+009;1.519696563482285E-001;-8.982588350772858E-002;-3.161046886816621E-003;-3.727956442162395E-003;
2.418333333333334E+009;1.523593515157700E-001;-9.129216521978378E-002;-3.099277848377824E-003;-3.458346705883741E-003;
2.418500000000000E+009;1.523398011922836E-001;-9.236199408769608E-002;-3.205469576641917E-003;-3.547889646142721E-003;
2.418666666666667E+009;1.526440531015396E-001;-9.337334334850311E-002;-3.378168446943164E-003;-3.305179998278618E-003;
2.418833333333334E+009;1.525415331125259E-001;-9.444565325975418E-002;-3.278555581346154E-003;-3.288804087787867E-003;
2.419000000000000E+009;1.527846157550812E-001;-9.518431127071381E-002;-3.495646174997091E-003;-3.297564806416631E-003;
2.419166666666667E+009;1.530657857656479E-001;-9.594948589801788E-002;-3.375652944669128E-003;-3.112555015832186E-003;
2.419333333333334E+009;1.531992256641388E-001;-9.640714526176453E-002;-3.463412169367075E-003;-3.127007512375712E-003;
2.419500000000000E+009;1.533678174018860E-001;-9.700004756450653E-002;-3.580293385311961E-003;-3.158211009576917E-003;
2.419666666666667E+009;1.536902487277985E-001;-9.738081693649292E-002;-3.509633010253310E-003;-3.235556650906801E-003;
2.419833333333334E+009;1.537266969680786E-001;-9.753857553005219E-002;-3.644446609541774E-003;-3.075462533161044E-003;
2.420000000000000E+009;1.538810282945633E-001;-9.774368256330490E-002;-3.710519988089800E-003;-2.957716118544340E-003;
2.420166666666667E+009;1.540832370519638E-001;-9.782978892326355E-002;-3.790895920246840E-003;-3.038399852812290E-003;
2.420333333333334E+009;1.541263610124588E-001;-9.780199080705643E-002;-3.985335584729910E-003;-3.012561472132802E-003;
2.420500000000000E+009;1.541222184896469E-001;-9.757200628519058E-002;-4.052310716360807E-003;-2.981559839099646E-003;
2.420666666666667E+009;1.542061269283295E-001;-9.736958891153336E-002;-3.929829690605402E-003;-2.892765682190657E-003;
2.420833333333334E+009;1.542764902114868E-001;-9.719283133745194E-002;-4.274541977792978E-003;-2.727968152612448E-003;
2.421000000000000E+009;1.539596915245056E-001;-9.701946377754211E-002;-4.356883000582457E-003;-2.712497022002935E-003;
2.421166666666667E+009;1.539361327886581E-001;-9.684502333402634E-002;-4.525267519056797E-003;-2.775850240141153E-003;
2.421333333333334E+009;1.537691950798035E-001;-9.664186090230942E-002;-4.682633560150862E-003;-2.678072080016136E-003;
2.421500000000000E+009;1.533275395631790E-001;-9.623854607343674E-002;-4.983332939445972E-003;-2.617717254906893E-003;
2.421666666666667E+009;1.528841853141785E-001;-9.602973610162735E-002;-5.095257889479399E-003;-2.518596127629280E-003;
2.421833333333334E+009;1.524584740400314E-001;-9.566618502140045E-002;-5.342446733266115E-003;-2.344709821045399E-003;
2.422000000000000E+009;1.517706960439682E-001;-9.524996578693390E-002;-5.490765441209078E-003;-2.314046956598759E-003;
2.422166666666667E+009;1.508383601903915E-001;-9.517399966716766E-002;-5.678315646946430E-003;-2.103988081216812E-003;
2.422333333333334E+009;1.501150280237198E-001;-9.483533352613449E-002;-5.739878863096237E-003;-1.781315542757511E-003;
2.422500000000000E+009;1.491786390542984E-001;-9.473036229610443E-002;-6.138509139418602E-003;-1.464909408241510E-003;
2.422666666666667E+009;1.479664444923401E-001;-9.463717788457871E-002;-6.154994014650583E-003;-1.259951503016055E-003;
2.422833333333334E+009;1.467378586530685E-001;-9.453032165765762E-002;-6.329051684588194E-003;-9.252373711206019E-004;
2.423000000000000E+009;1.454999744892120E-001;-9.441135823726654E-002;-6.349993404000998E-003;-6.893338286317885E-004;
2.423166666666667E+009;1.441880166530609E-001;-9.451153874397278E-002;-6.356510333716869E-003;-3.615019377321005E-004;
2.423333333333334E+009;1.429681777954102E-001;-9.426254779100418E-002;-6.406253203749657E-003;-1.956519845407456E-004;
2.423500000000000E+009;1.414654403924942E-001;-9.445983916521072E-002;-6.377760320901871E-003;3.076134016737342E-004;
2.423666666666667E+009;1.398534476757050E-001;-9.457655251026154E-002;-6.389666348695755E-003;4.829333047382534E-004;
2.423833333333334E+009;1.384981572628021E-001;-9.482185542583466E-002;-6.287178490310907E-003;7.000258774496615E-004;
2.424000000000000E+009;1.367492079734802E-001;-9.495611488819122E-002;-6.065906025469303E-003;9.818359976634383E-004;
2.424166666666667E+009;1.352382451295853E-001;-9.521523118019104E-002;-6.045656278729439E-003;1.175980665720999E-003;
2.424333333333334E+009;1.339249163866043E-001;-9.561698883771896E-002;-5.995031446218491E-003;1.360625959932804E-003;
2.424500000000000E+009;1.322636902332306E-001;-9.630966931581497E-002;-6.087610498070717E-003;1.710570999421179E-003;
2.424666666666667E+009;1.308523416519165E-001;-9.665609151124954E-002;-5.982571281492710E-003;1.918402500450611E-003;
2.424833333333334E+009;1.293257921934128E-001;-9.739865362644196E-002;-5.802760832011700E-003;2.099849050864577E-003;
2.425000000000000E+009;1.280096620321274E-001;-9.835056960582733E-002;-5.694985389709473E-003;2.393178408965468E-003;
2.425166666666667E+009;1.264785081148148E-001;-9.917408227920532E-002;-5.613422021269798E-003;2.610696246847510E-003;
2.425333333333334E+009;1.252863407135010E-001;-1.000926345586777E-001;-5.573172122240067E-003;2.955977804958820E-003;
2.425500000000000E+009;1.241189315915108E-001;-1.013202741742134E-001;-5.478764418512583E-003;2.798249712213874E-003;
2.425666666666667E+009;1.228357926011086E-001;-1.024928316473961E-001;-5.223222542554140E-003;2.914345357567072E-003;
2.425833333333334E+009;1.216901764273644E-001;-1.038552373647690E-001;-4.985867999494076E-003;3.354658605530858E-003;
2.426000000000000E+009;1.206388846039772E-001;-1.051189154386520E-001;-4.921743180602789E-003;3.604307770729065E-003;
2.426166666666667E+009;1.198723018169403E-001;-1.065094619989395E-001;-4.579175263643265E-003;3.711280878633261E-003;
2.426333333333334E+009;1.189108341932297E-001;-1.079288646578789E-001;-4.515904933214188E-003;3.878944320604205E-003;
2.426500000000000E+009;1.180014088749886E-001;-1.094006150960922E-001;-4.316276870667934E-003;3.818888217210770E-003;
2.426666666666667E+009;1.173958927392960E-001;-1.108070760965347E-001;-4.012715537101030E-003;4.033718258142471E-003;
2.426833333333334E+009;1.167287304997444E-001;-1.125490739941597E-001;-3.817229764536023E-003;4.185955505818129E-003;
2.427000000000000E+009;1.160626038908958E-001;-1.141480803489685E-001;-3.587949089705944E-003;4.365833941847086E-003;
2.427166666666667E+009;1.156325638294220E-001;-1.155949085950851E-001;-3.295546863228083E-003;4.193224012851715E-003;
2.427333333333334E+009;1.150963976979256E-001;-1.172616556286812E-001;-3.045285819098353E-003;4.261196590960026E-003;
2.427500000000000E+009;1.149393543601036E-001;-1.188462227582932E-001;-3.053171792998910E-003;4.428883548825979E-003;
2.427666666666667E+009;1.146413683891296E-001;-1.204624101519585E-001;-2.683677943423390E-003;4.299386870115995E-003;
