# Hz S RI R 50
2400000000.0000000000 0.166302889585494995117187500000 0.041433800011873252178151716407 -0.000730117084458470344543457031 -0.002929945476353168921229697119 0 0 0 0 
2400166666.6666665077 0.166958793997764587402343750000 0.040729772299528121948242187500 -0.000893554708454757928848266602 -0.002975905779749155044555664062 0 0 0 0 
2400333333.3333334923 0.167307317256927490234375000000 0.039600282907485961914062500000 -0.000766940996982157230377197266 -0.002810398116707801818847656250 0 0 0 0 
2400500000.0000000000 0.167857244610786410232705634371 0.038540694862604141235351562500 -0.000781863811425864696502685547 -0.002695166971534491019008017432 0 0 0 0 
2400666666.6666665077 0.168392956256866510589276231258 0.037559796124696731567382812500 -0.000984063488431274890899658203 -0.002608780981972814039943076025 0 0 0 0 
2400833333.3333334923 0.168632417917251586914062500000 0.036465156823396682739257812500 -0.000987139064818620681762695312 -0.002539520384743810133693076025 0 0 0 0 
2401000000.0000000000 0.168956339359283502776776231258 0.035564631223678588867187500000 -0.001112860161811112923863076318 -0.002532306825742125944850302588 0 0 0 0 
2401166666.6666665077 0.169220566749572809417401231258 0.034585092216730117797851562500 -0.001036269706673919937731098706 -0.002267448231577872796299599756 0 0 0 0 
2401333333.3333334923 0.169419497251510592361611884371 0.033598154783248901367187500000 -0.001148310955613851980922079932 -0.002346484921872615814208984375 0 0 0 0 
2401500000.0000000000 0.169759064912795992752236884371 0.032438263297080986713449846093 -0.001088711549527942917467426831 -0.002198366913944482803344726562 0 0 0 0 
2401666666.6666665077 0.169927746057510403732138115629 0.031536608934402472759206403907 -0.001249753870069981055018759619 -0.002166800433769822120666503906 0 0 0 0 
2401833333.3333334923 0.170187458395958002288494981258 0.030589187517762180673619454296 -0.001077626133337616920471191406 -0.002132547553628683090209960938 0 0 0 0 
2402000000.0000000000 0.170113816857338007171307481258 0.029585145413875579833984375000 -0.001094163511879741928697895581 -0.001997641287744044823887490381 0 0 0 0 
2402166666.6666665077 0.170596897602081298828125000000 0.028575198724865909921666329296 -0.001142321387305855967878032153 -0.002084634732455015182495117188 0 0 0 0 
2402333333.3333334923 0.170409590005874606033486884371 0.027546681463718410837193673046 -0.001056214096024633104439760523 -0.002178251277655363082885742188 0 0 0 0 
2402500000.0000000000 0.170693650841713007171307481258 0.026551822200417518615722656250 -0.000880591513123363256454467773 -0.002086183987557888031005859375 0 0 0 0 
2402666666.6666665077 0.170730471611023004729901231258 0.025475244969129558908482735546 -0.000932258379179984331130981445 -0.002067645080387591881992959131 0 0 0 0 
2402833333.3333334923 0.170964226126670809646768134371 0.024436581879854198801060860546 -0.000998418894596397876739501953 -0.002310638548806310133693076025 0 0 0 0 
2403000000.0000000000 0.171036228537559509277343750000 0.023322103545069701457936872657 -0.001009526778943836905835795825 -0.002208304125815629959106445312 0 0 0 0 
2403166666.6666665077 0.170997858047485407073651231258 0.021973902359604838979700858204 -0.000945932348258793354034423828 -0.002176784211769700050354003906 0 0 0 0 
2403333333.3333334923 0.171102777123451205154580634371 0.021167684346437450754185860546 -0.001009852276183665015577006763 -0.002404279774054884910583496094 0 0 0 0 
2403500000.0000000000 0.171078562736511202713174384371 0.020044617354869839059849923046 -0.001371426042169332937953329932 -0.002453409601002932028529501807 0 0 0 0 
2403666666.6666665077 0.170989423990249606033486884371 0.018768183887004848825474923046 -0.001327105914242566065547324072 -0.002485194243490695953369140625 0 0 0 0 
2403833333.3333334923 0.171182751655578613281250000000 0.017611095681786540639857108204 -0.001536723459139466068865131909 -0.002463086275383830070495605469 0 0 0 0 
2404000000.0000000000 0.171148791909217806717080634371 0.016283769160509109497070312500 -0.001668945420533419089076376807 -0.002326766727492212815525673975 0 0 0 0 
2404166666.6666665077 0.171002954244613702972088731258 0.015124021098017690831194492773 -0.001808548462577163956285786206 -0.002100205514580010934116982568 0 0 0 0 
2404333333.3333334923 0.171223625540733309646768134371 0.013900703750550750387171561329 -0.001988668227568269209620810400 -0.002268740674480795860290527344 0 0 0 0 
2404500000.0000000000 0.170919269323348999023437500000 0.012448654510080809157401837695 -0.002105872612446546988246298682 -0.002407172694802283807041787256 0 0 0 0 
2404666666.6666665077 0.171139180660247802734375000000 0.011332847177982330322265625000 -0.002087700180709362030029296875 -0.002145435195416212081909179688 0 0 0 0 
2404833333.3333334923 0.171056240797042902190838731258 0.009970195591449737548828125000 -0.002251742407679557800292968750 -0.001954875187948346138000488281 0 0 0 0 
2405000000.0000000000 0.171259775757789611816406250000 0.008473431691527366638183593750 -0.002398632699623703956604003906 -0.001823249971494079069850302588 0 0 0 0 
2405166666.6666665077 0.171212658286094693282919365629 0.007162230089306831359863281250 -0.002411576919257640838623046875 -0.001777653465978801033617329175 0 0 0 0 
2405333333.3333334923 0.171362951397895812988281250000 0.005591089371591806411743164062 -0.002559227868914604187011718750 -0.001805035280995070934295654297 0 0 0 0 
2405500000.0000000000 0.171260103583335904220419365629 0.004228298552334308624267578125 -0.002615284407511353926417685400 -0.001732947654090821959851909106 0 0 0 0 
2405666666.6666665077 0.171422258019447298904580634371 0.002933047013357282118556357275 -0.002610799157992004914524697412 -0.001545724342577158971073769678 0 0 0 0 
2405833333.3333334923 0.171134099364280700683593750000 0.001413706806488334915758442456 -0.002499901456758379936218261719 -0.001478198450058699087855673682 0 0 0 0 
2406000000.0000000000 0.171229183673858587066973768742 -0.000183120559086091789320269174 -0.002558088861405849890467978369 -0.001315110246650875048396445166 0 0 0 0 
2406166666.6666665077 0.170936822891235407073651231258 -0.001452943892218172983882285010 -0.002831286052241920991184853662 -0.001289757317863404967664409106 0 0 0 0 
2406333333.3333334923 0.171098738908767700195312500000 -0.002971386536955833001377724756 -0.002635882236063479943516396631 -0.001392867299728095965144492041 0 0 0 0 
2406500000.0000000000 0.170833051204681396484375000000 -0.004515178501605988416189862988 -0.002741999225690960884094238281 -0.001123088062740861935856484521 0 0 0 0 
2406666666.6666665077 0.170476302504539489746093750000 -0.005733915604650974273681640625 -0.002778366673737763924839638818 -0.001138542545959353013279580225 0 0 0 0 
2406833333.3333334923 0.170453965663909912109375000000 -0.007213540840893983840942382812 -0.002864606678485869927647256006 -0.001068067504093050956726074219 0 0 0 0 
2407000000.0000000000 0.170124337077140808105468750000 -0.008546288125216960906982421875 -0.003039815463125706152675009619 -0.000861515640281140804290771484 0 0 0 0 
2407166666.6666665077 0.170113220810890197753906250000 -0.009760367684066295623779296875 -0.002879158128052949905395507812 -0.000676316907629370689392089844 0 0 0 0 
2407333333.3333334923 0.169681444764137295821981865629 -0.011169559322297569620152657421 -0.002871273318305612044093466650 -0.000461215910036116784245091571 0 0 0 0 
2407500000.0000000000 0.169463470578193692306356865629 -0.012362862005829809361467930273 -0.002911225892603396935703896631 -0.000420547468820586800575256348 0 0 0 0 
2407666666.6666665077 0.169222548604011507888955634371 -0.013484084047377109527587890625 -0.002920541912317276000976562500 -0.000243385758949443697929382324 0 0 0 0 
2407833333.3333334923 0.168731555342674310882244981258 -0.014658384956419469660748866602 -0.002901831176131964163539267432 -0.000013809038136969320476055145 0 0 0 0 
2408000000.0000000000 0.168598264455795288085937500000 -0.015732593834400180471400076954 -0.002810724545270204977748251807 -0.000002065946318907662802611151 0 0 0 0 
2408166666.6666665077 0.168356716632842989822549384371 -0.016510551795363429677943045704 -0.002759332768619060950038290869 -0.000007685750460950657725334167 0 0 0 0 
2408333333.3333334923 0.168396249413490295410156250000 -0.017540797591209411621093750000 -0.002629737136885523796081542969 0.000252835423452779704898280011 0 0 0 0 
2408500000.0000000000 0.168157964944839505294638115629 -0.018497442826628688467005545704 -0.002718510804697871208190917969 0.000309682625811546986729222430 0 0 0 0 
2408666666.6666665077 0.168199747800826998611611884371 -0.019465183839201930654505545704 -0.002536851679906249046325683594 0.000292634707875549793243408203 0 0 0 0 
2408833333.3333334923 0.167968541383743286132812500000 -0.020302418619394298898717110546 -0.002536814427003263993504189600 0.000389603956136852502822875977 0 0 0 0 
2409000000.0000000000 0.167992368340492304046307481258 -0.021230859681963920593261718750 -0.002475230023264884948730468750 0.000288155657472088878780919208 0 0 0 0 
2409166666.6666665077 0.168002873659133911132812500000 -0.022125001996755599975585937500 -0.002400815486907958984375000000 0.000367183092748746275901794434 0 0 0 0 
2409333333.3333334923 0.168151170015335110763388115629 -0.023209732025861740112304687500 -0.002114438917487860159633017432 0.000479657028336077874332982196 0 0 0 0 
2409500000.0000000000 0.168164685368537902832031250000 -0.024220366030931469308873360546 -0.002384906634688376946690224756 0.000581167987547814846038818359 0 0 0 0 
2409666666.6666665077 0.168202087283134488204794365629 -0.025199837982654571533203125000 -0.002151605207473040060756064307 0.000452984502771869301795959473 0 0 0 0 
2409833333.3333334923 0.167908653616905212402343750000 -0.025952914729714390146275704296 -0.002064175670966506004333496094 0.000404096150305122082859593524 0 0 0 0 
2410000000.0000000000 0.168108373880386408050213731258 -0.026952974498271938669224923046 -0.001950241625308990912196493994 0.000291011703666299581527709961 0 0 0 0 
2410166666.6666665077 0.168074563145637512207031250000 -0.027895890176296230661412423046 -0.002072232775390148162841796875 0.000500766094774007797241210938 0 0 0 0 
2410333333.3333334923 0.168137460947036687652911268742 -0.028905844315886500967005545704 -0.001983202993869781927821493994 0.000238571985391899889141636981 0 0 0 0 
2410500000.0000000000 0.167972549796104403396768134371 -0.029954902827739719045618826954 -0.002208186546340585188624716650 0.000324541208101436495780944824 0 0 0 0 
2410666666.6666665077 0.167832121253013610839843750000 -0.031148588284850120544433593750 -0.002109149936586617989781045068 0.000386217434424907023280543195 0 0 0 0 
2410833333.3333334923 0.167687565088272094726562500000 -0.032066445797681808471679687500 -0.002114381175488233999965048682 0.000425254576839506626129150391 0 0 0 0 
2411000000.0000000000 0.167447596788406399825888115629 -0.033101692795753479003906250000 -0.002135912654921412901637411963 0.000427036429755389690399169922 0 0 0 0 
2411166666.6666665077 0.167371228337287902832031250000 -0.033996947109699249267578125000 -0.002279469044879078865051269531 0.000333985692122951204150599347 0 0 0 0 
2411333333.3333334923 0.166992589831352206131143134371 -0.034889552742242813110351562500 -0.002317196223884820938110351562 0.000264800328295677900314331055 0 0 0 0 
2411500000.0000000000 0.166876778006553705413494981258 -0.036148145794868469238281250000 -0.002366235246881843046901083838 0.000411602668464183807373046875 0 0 0 0 
2411666666.6666665077 0.166849106550216702560263115629 -0.037200167775154106830637346093 -0.002303077140823007063624716650 0.000514630286488682031631469727 0 0 0 0 
2411833333.3333334923 0.166746184229850796798544365629 -0.037818334996700286865234375000 -0.002391715301200747923610068213 0.000532733858563005924224853516 0 0 0 0 
2412000000.0000000000 0.166491866111755398849325615629 -0.039161536842584609985351562500 -0.002372342627495526833775185693 0.000708874897100031375885009766 0 0 0 0 
2412166666.6666665077 0.166277691721916198730468750000 -0.040210139006376273418386091407 -0.002554137492552400068995810400 0.000553557591047137975692749023 0 0 0 0 
2412333333.3333334923 0.166174277663230895996093750000 -0.041129600256681442260742187500 -0.002396548865363001823425292969 0.000742745527531951665878295898 0 0 0 0 
2412500000.0000000000 0.165669173002242986481036268742 -0.042055897414684302593190778907 -0.002407064195722341971156454932 0.000855045218486338853836059570 0 0 0 0 
2412666666.6666665077 0.165471732616424588302450615629 -0.043256673961877822875976562500 -0.002548152580857276916503906250 0.000709214888047426939010620117 0 0 0 0 
2412833333.3333334923 0.165237888693809509277343750000 -0.044304966926574707031250000000 -0.002408679109066725210902548682 0.001020058174617588953730917822 0 0 0 0 
2413000000.0000000000 0.164932847023010309417401231258 -0.045386008918285369873046875000 -0.002677440876141190962550497900 0.001137534389272331974626850659 0 0 0 0 
2413166666.6666665077 0.164537504315376309493856865629 -0.046438522636890411376953125000 -0.002696302253752946853637695312 0.001113301841542124965070414966 0 0 0 0 
2413333333.3333334923 0.164083614945411709884481865629 -0.047528792172670357440988908593 -0.002450005384162067933323525537 0.001341342693194746971130371094 0 0 0 0 
2413500000.0000000000 0.163863465189933804611044365629 -0.048519030213356018066406250000 -0.002669099951162933869602822412 0.001528224442154169082641601562 0 0 0 0 
2413666666.6666665077 0.163550585508346613128338731258 -0.049789782613515846942942033593 -0.002447011647745966911315917969 0.001523642800748348019243549878 0 0 0 0 
2413833333.3333334923 0.163150236010551508147869981258 -0.050566278398036956787109375000 -0.002606589812785387039184570312 0.001703528338111937046051025391 0 0 0 0 
2414000000.0000000000 0.162622213363647488693075615629 -0.051778752356767647480051408593 -0.002670292044058442115783691406 0.001638215850107372023938823169 0 0 0 0 
2414166666.6666665077 0.162565112113952608963174384371 -0.052663519978523247455637346093 -0.002555575687438250021693564307 0.001847695792093873023986816406 0 0 0 0 
2414333333.3333334923 0.162109017372131403167401231258 -0.053601775318384170532226562500 -0.002618690719828010039088583838 0.001860832679085433916804648291 0 0 0 0 
2414500000.0000000000 0.162135034799575805664062500000 -0.054440155625343322753906250000 -0.002333808690309524969813681494 0.002089736983180046081542968750 0 0 0 0 
2414666666.6666665077 0.161638781428337097167968750000 -0.055415619164705283428151716407 -0.002276596613228321075439453125 0.002306623384356499151942587744 0 0 0 0 
2414833333.3333334923 0.161573827266693087478799384371 -0.056464351713657379150390625000 -0.002368313726037741141078329932 0.002436578273773192925694131006 0 0 0 0 
2415000000.0000000000 0.161372631788253811935263115629 -0.057288281619548797607421875000 -0.002144017489627004103419638525 0.002471458399668335914611816406 0 0 0 0 
2415166666.6666665077 0.161330640316009493728799384371 -0.058252520859241492534597028907 -0.002232677070423961119410849463 0.002543413545936346054077148438 0 0 0 0 
2415333333.3333334923 0.161272630095481900314169365629 -0.059382807463407523418386091407 -0.002232044469565153121948242188 0.002713224850594996972324990381 0 0 0 0 
2415500000.0000000000 0.161211609840393094161825615629 -0.060234192758798599243164062500 -0.002184229437261819839477539062 0.002712138928472996191737509619 0 0 0 0 
2415666666.6666665077 0.161072522401809692382812500000 -0.061325028538703918457031250000 -0.002017367864027618928196572412 0.002884300891309977011439658057 0 0 0 0 
2415833333.3333334923 0.160932913422584505935830634371 -0.062577560544013977050781250000 -0.001883814460597931905033730615 0.002891647163778543905970908057 0 0 0 0 
2416000000.0000000000 0.160577461123466491699218750000 -0.063552379608154296875000000000 -0.001827873289585113959071493994 0.003137037390843033790588378906 0 0 0 0 
2416166666.6666665077 0.160686299204826410491619981258 -0.064658671617507934570312500000 -0.001586414990015327930450439453 0.003126931143924593925476074219 0 0 0 0 
2416333333.3333334923 0.160370081663131713867187500000 -0.065551511943340301513671875000 -0.001390331191942095973371196216 0.003309417283162475065944052588 0 0 0 0 
2416500000.0000000000 0.160038664937019403655682481258 -0.066706299781799316406250000000 -0.001328852493315934918047260815 0.003489514812827109856846474756 0 0 0 0 
2416666666.6666665077 0.159677430987358093261718750000 -0.067783601582050323486328125000 -0.001067143515683711008784628760 0.003383421804755926132202148438 0 0 0 0 
2416833333.3333334923 0.159580558538436889648437500000 -0.068992994725704193115234375000 -0.000983803183771669864654541016 0.003341648029163479804992675781 0 0 0 0 
2417000000.0000000000 0.159001514315605191329794365629 -0.069834999740123748779296875000 -0.000883415283169597387313842773 0.003621415700763463973999023438 0 0 0 0 
2417166666.6666665077 0.158639222383499201018963731258 -0.070776171982288360595703125000 -0.000589898903854191303253173828 0.003492268733680247826817177881 0 0 0 0 
2417333333.3333334923 0.158376380801200894454794365629 -0.071640431880950927734375000000 -0.000513043720275163650512695312 0.003556022187694907188415527344 0 0 0 0 
2417500000.0000000000 0.157964944839477511306924384371 -0.072606973350048065185546875000 -0.000287355389446020126342773438 0.003568004351109265847447060693 0 0 0 0 
2417666666.6666665077 0.157668352127075195312500000000 -0.073365911841392517089843750000 0.000072118084062822163105010986 0.003554902737960218949558877100 0 0 0 0 
2417833333.3333334923 0.157175034284591702560263115629 -0.074171975255012512207031250000 0.000119462885777465999126434326 0.003520338563248515129089355469 0 0 0 0 
2418000000.0000000000 0.156795829534530611892861884371 -0.075009599328041076660156250000 0.000426970102125778794288635254 0.003490712260827422142028808594 0 0 0 0 
2418166666.6666665077 0.156400218605995205978231865629 -0.075662560760974884033203125000 0.000703784462530165910720825195 0.003283535130321979956385947119 0 0 0 0 
2418333333.3333334923 0.156394287943839999099893134371 -0.076487764716148376464843750000 0.000746927631553262472152709961 0.003209735965356231169459677588 0 0 0 0 
2418500000.0000000000 0.155825361609458895584268134371 -0.077224202454090118408203125000 0.000804989249445497989654541016 0.002856012666597961945774697412 0 0 0 0 
2418666666.6666665077 0.155572265386581393142861884371 -0.078021667897701263427734375000 0.000966134539339691400527954102 0.002780930371955037117004394531 0 0 0 0 
2418833333.3333334923 0.155065909028053311446981865629 -0.078699886798858642578125000000 0.001035334542393683953526162256 0.002697422401979566054103232275 0 0 0 0 
2419000000.0000000000 0.154566988348960904220419365629 -0.079389378428459167480468750000 0.000923302548471838235855102539 0.002518496243283153013942099463 0 0 0 0 
2419166666.6666665077 0.154140815138816805740518134371 -0.080177456140518188476562500000 0.000866765622049570083618164062 0.002381048863753675980808877100 0 0 0 0 
2419333333.3333334923 0.153661236166954012771768134371 -0.080556809902191162109375000000 0.000812376732937991619110107422 0.002160264877602458000183105469 0 0 0 0 
2419500000.0000000000 0.153259694576263399978799384371 -0.081504069268703460693359375000 0.000795128929894417524337768555 0.001924394979141653017756796729 0 0 0 0 
2419666666.6666665077 0.152932137250900296310263115629 -0.082064837217330932617187500000 0.000761977978982031453787648889 0.002004980109632014794590615381 0 0 0 0 
2419833333.3333334923 0.152361497282981900314169365629 -0.082580342888832092285156250000 0.000587444112170487642288208008 0.001966526731848717169520712744 0 0 0 0 
