# Hz S RI R 50
2400000000.0000000000 0.168076843023300198654013115629 0.040430635213851928710937500000 0.002285091439262032942530966650 0.000073843933932948857545852661 0 0 0 0 
2400166666.6666665077 0.168651789426803588867187500000 0.039871241897344589233398437500 0.002376999240368605093715048682 0.000124592959764413508489885873 0 0 0 0 
2400333333.3333334923 0.169132336974144009689169365629 0.038728225976228707050363908593 0.002462300006300210952758789062 0.000067358225351199507713317871 0 0 0 0 
2400500000.0000000000 0.169649809598922701736611884371 0.038072276860475540161132812500 0.002511969301849604086634970557 0.000109787040855735499732433180 0 0 0 0 
2400666666.6666665077 0.170070320367813110351562500000 0.036978781223297119140625000000 0.002578713931143283843994140625 0.000102184625575318905428209848 0 0 0 0 
2400833333.3333334923 0.170508936047553988357705634371 0.036455970257520682598073591407 0.002796497661620378927943564307 -0.000009330514330940786749124527 0 0 0 0 
2401000000.0000000000 0.170749783515930203536825615629 0.035337820649147026752512346093 0.002662940649315714836120605469 -0.000121238808787893503904342651 0 0 0 0 
2401166666.6666665077 0.171196669340133694747763115629 0.034528933465480797504465471093 0.002749525476247071786167763818 -0.000245063769398257082134801044 0 0 0 0 
2401333333.3333334923 0.171116471290588406661825615629 0.033830337226390838623046875000 0.002837334526702762083766318213 -0.000286552851321175694465637207 0 0 0 0 
2401500000.0000000000 0.171548694372177096267861884371 0.033069811761379241943359375000 0.002935632364824413819553994287 -0.000569253170397132635116577148 0 0 0 0 
2401666666.6666665077 0.171617150306701687911825615629 0.032190382480621337890625000000 0.002977977506816387176513671875 -0.000658712175209075212478637695 0 0 0 0 
2401833333.3333334923 0.171765625476837213714276231258 0.031378407031297676776926408593 0.002863312605768442153930664062 -0.000779058376792818307876586914 0 0 0 0 
2402000000.0000000000 0.171501636505127008636151231258 0.030374277383089069021204764454 0.002872592769563198089599609375 -0.000899223960004746913909912109 0 0 0 0 
2402166666.6666665077 0.171827167272567804534588731258 0.029377894476056098937988281250 0.002758154878392816023585654150 -0.001046427292749285914777446216 0 0 0 0 
2402333333.3333334923 0.171659708023071289062500000000 0.028684640303254130971888358204 0.002772322157397865815403603662 -0.001323451753705739974975585938 0 0 0 0 
2402500000.0000000000 0.171869263052940396407919365629 0.027669921517372131347656250000 0.002655667718499898910522460938 -0.001297655515372752926470112378 0 0 0 0 
2402666666.6666665077 0.171969458460807800292968750000 0.026681832969188690185546875000 0.002535418374463915824890136719 -0.001433436293154954910278320312 0 0 0 0 
2402833333.3333334923 0.171825468540191705901776231258 0.025760864838957790029505545704 0.002416610484942793846130371094 -0.001584946410730480930925678784 0 0 0 0 
2403000000.0000000000 0.171638488769531305511151231258 0.024837031960487369192103201954 0.002334525110200047926661826025 -0.001442744629457592964172363281 0 0 0 0 
2403166666.6666665077 0.171509087085723904708700615629 0.023551227524876601482350935157 0.002354087540879846052882529150 -0.001548564177937806086299277197 0 0 0 0 
2403333333.3333334923 0.171637490391731289962606865629 0.022596240043640140188196951954 0.002197356428951025009155273438 -0.001486201421357691071153950269 0 0 0 0 
2403500000.0000000000 0.171409547328949002364950615629 0.021373832598328590393066406250 0.002026445930823684172389365088 -0.001423613168299197933794331128 0 0 0 0 
2403666666.6666665077 0.171204820275306701660156250000 0.019889013841748241079310233204 0.001998229650780559019801474463 -0.001427955110557376904728554834 0 0 0 0 
2403833333.3333334923 0.171128600835800198654013115629 0.018674185499548908578892891796 0.002214646665379405021667480469 -0.001406225957907736084581684644 0 0 0 0 
2404000000.0000000000 0.171166896820068387130575615629 0.017561091110110279428502266796 0.002040338702499866919276572119 -0.001432585995644330978393554688 0 0 0 0 
2404166666.6666665077 0.170866817235946710784588731258 0.016200656071305278432825858204 0.001927096862345933914184570312 -0.001364205847494303963304829175 0 0 0 0 
2404333333.3333334923 0.170734554529190091232138115629 0.015002937056124210357666015625 0.002110889647156000137329101562 -0.001497815595939755006077431787 0 0 0 0 
2404500000.0000000000 0.170486420392990112304687500000 0.013507163152098659170130545704 0.002235552761703730063197470557 -0.001427941373549401976941752856 0 0 0 0 
2404666666.6666665077 0.170489504933357211013955634371 0.012109550647437570744524570898 0.002468586433678864999058388818 -0.001555083086714148955104208838 0 0 0 0 
2404833333.3333334923 0.170467078685760498046875000000 0.010689003393054010218610194727 0.002300105057656764984130859375 -0.001698700711131096103070903247 0 0 0 0 
2405000000.0000000000 0.170314773917198208907919365629 0.009226439520716667175292968750 0.002378153614699840979335165869 -0.001670512021519243934034038013 0 0 0 0 
2405166666.6666665077 0.170142993330955505371093750000 0.007703491020947694778442382812 0.002484183525666594938990927588 -0.001731396652758121924159384619 0 0 0 0 
2405333333.3333334923 0.170192569494247408767861884371 0.006007101852446795377249433301 0.002637000288814305825474404443 -0.002071680501103401184082031250 0 0 0 0 
2405500000.0000000000 0.170106828212738009353799384371 0.004444532096385955810546875000 0.002415674505755304856541298975 -0.002309705829247831864597939600 0 0 0 0 
2405666666.6666665077 0.170102432370185907561932481258 0.002975340466946363015415810693 0.002484244294464588165283203125 -0.002554024802520871162414550781 0 0 0 0 
2405833333.3333334923 0.169787064194679288009481865629 0.001409239484928547902348183740 0.002528830431401730017421103369 -0.002693975809961556954624795068 0 0 0 0 
2406000000.0000000000 0.169837474822998102386151231258 -0.000349680689396336674690246582 0.002376095158979297117946005713 -0.002918231533840299086329794775 0 0 0 0 
2406166666.6666665077 0.169665694236755398849325615629 -0.001834854483604430935503315503 0.002143547870218753814697265625 -0.003151517361402512030360556494 0 0 0 0 
2406333333.3333334923 0.169709712266921997070312500000 -0.003482131753116846084594726562 0.001948388759046792984008789062 -0.003199994331225752830505371094 0 0 0 0 
2406500000.0000000000 0.169473290443420410156250000000 -0.005065384786576032638549804688 0.001670791767537594058393168872 -0.003319400362670422034022665869 0 0 0 0 
2406666666.6666665077 0.169212609529495211502236884371 -0.006575689185410737991333007812 0.001636440050788223960279155200 -0.003696364816278218789341591943 0 0 0 0 
2406833333.3333334923 0.169181004166603088378906250000 -0.008287605829536914825439453125 0.001164786284789443016052246094 -0.003609534353017807006835937500 0 0 0 0 
2407000000.0000000000 0.169111609458923312088174384371 -0.009758125990629196166992187500 0.000941513804718852043151855469 -0.003655796404927968978881835938 0 0 0 0 
2407166666.6666665077 0.168901711702346801757812500000 -0.011052782647311689204205897852 0.000746484729461371898651123047 -0.003656729822978376908543252100 0 0 0 0 
2407333333.3333334923 0.168600231409072903732138115629 -0.012532118707895280665387538477 0.000504386611282825469970703125 -0.003529819892719388008117675781 0 0 0 0 
2407500000.0000000000 0.168459504842758206466513115629 -0.013846743851900100708007812500 0.000151726344483904513433733530 -0.003312275279313325881958007812 0 0 0 0 
2407666666.6666665077 0.168328821659088107010049384371 -0.014990227296948429452916329296 -0.000042346382542746141552925110 -0.003238173201680182976963662256 0 0 0 0 
2407833333.3333334923 0.168039634823799105545205634371 -0.016348689794540408742884451954 -0.000201762086362578001901349478 -0.003139674896374344825744628906 0 0 0 0 
2408000000.0000000000 0.168027490377426202972088731258 -0.017559863626956939697265625000 -0.000140270916745066588551121844 -0.002894859993830322785618447412 0 0 0 0 
2408166666.6666665077 0.167856335639953613281250000000 -0.018432978540658950805664062500 -0.000310868519591167623370570050 -0.002677715383470058007481240381 0 0 0 0 
2408333333.3333334923 0.168194681406021090408486884371 -0.019402472302317619323730468750 -0.000395845097955316305160522461 -0.002592404372990130944492959131 0 0 0 0 
2408500000.0000000000 0.167972385883331298828125000000 -0.020484020933508869516392891796 -0.000541208079084753990173339844 -0.002340928185731172995326376807 0 0 0 0 
2408666666.6666665077 0.168059706687927301604901231258 -0.021311091259121898305872733204 -0.000506978831253945827484130859 -0.002208751859143375916721963037 0 0 0 0 
2408833333.3333334923 0.168015941977500887771768134371 -0.022219119593501091003417968750 -0.000415258487919345498085021973 -0.002080501988530158996582031250 0 0 0 0 
2409000000.0000000000 0.168155163526535006424111884371 -0.022986507043242461467702497657 -0.000400689430534839575916844501 -0.002206824952736496925354003906 0 0 0 0 
2409166666.6666665077 0.168376624584197998046875000000 -0.023921158164739608764648437500 -0.000252003519563004374504089355 -0.001995293190702795982360839844 0 0 0 0 
2409333333.3333334923 0.168551445007324190994424384371 -0.024862563237547870981236641796 -0.000158097071107477003901881085 -0.001843124977312982082366943359 0 0 0 0 
2409500000.0000000000 0.168756157159805297851562500000 -0.025897189974784851074218750000 -0.000158802766236476600170135498 -0.001877828850410879091975546729 0 0 0 0 
2409666666.6666665077 0.168776094913482693771200615629 -0.026767453178763389587402343750 0.000023998338292585689237321547 -0.001774583244696259932277060400 0 0 0 0 
2409833333.3333334923 0.168921038508415194412393134371 -0.027519287541508681560475935157 0.000113104870251845595523557120 -0.001921262941323220946668315356 0 0 0 0 
2410000000.0000000000 0.169170305132865905761718750000 -0.028348984196782108652135079296 0.000223442795686423805638989859 -0.002058985643088818030116415869 0 0 0 0 
2410166666.6666665077 0.169128239154815701583700615629 -0.029345665127038959157923514454 0.000271604454610496813624781476 -0.001984696369618176980259560693 0 0 0 0 
2410333333.3333334923 0.169152766466140802581463731258 -0.030043819919228550302525704296 0.000137320123030804097652435303 -0.002081157406792045073268271338 0 0 0 0 
2410500000.0000000000 0.169290319085121210296307481258 -0.031065285205841060983678048046 0.000192380000953562611907404767 -0.002166555495932697816136025537 0 0 0 0 
2410666666.6666665077 0.169058978557586697677450615629 -0.032028775662183761596679687500 0.000123950376291759312152862549 -0.002231296617537736892700195312 0 0 0 0 
2410833333.3333334923 0.169219031929969787597656250000 -0.032842099666595458984375000000 0.000241838250076398307650965558 -0.002215449465438723997828818213 0 0 0 0 
2411000000.0000000000 0.169029980897903386871661268742 -0.033647831529378890991210937500 0.000156472378876060301631373273 -0.002300468273460865020751953125 0 0 0 0 
2411166666.6666665077 0.168877393007278386871661268742 -0.034489832818508148193359375000 0.000152839304064400494098663330 -0.002290944568812847137451171875 0 0 0 0 
2411333333.3333334923 0.168706059455871609786825615629 -0.035488996654748916625976562500 -0.000001150384719039720948785543 -0.002588940551504493193385458838 0 0 0 0 
2411500000.0000000000 0.168641135096549987792968750000 -0.036385975778102881694753278907 0.000199514819541946107715052472 -0.002716800197958945794346474756 0 0 0 0 
2411666666.6666665077 0.168358340859413202483807481258 -0.037324763834476470947265625000 0.000079039578849915415048599243 -0.002544811461120843887329101562 0 0 0 0 
2411833333.3333334923 0.168017417192459106445312500000 -0.037955503910779953002929687500 0.000022728507246938530692850419 -0.002873855875805019898655556787 0 0 0 0 
2412000000.0000000000 0.168026864528656005859375000000 -0.038895603269338607788085937500 0.000033799846278270713310649259 -0.003027646569535135789158486475 0 0 0 0 
2412166666.6666665077 0.167501971125602694412393134371 -0.039834294468164437030832658593 -0.000105983373941853601806102614 -0.002998618641868234114405966650 0 0 0 0 
2412333333.3333334923 0.167487844824791010100994981258 -0.040648218244314186786692033593 -0.000076556301792152225971221924 -0.003235567593947052955627441406 0 0 0 0 
2412500000.0000000000 0.166885733604431207854901231258 -0.041666097939014441753347028907 -0.000286315451376140117645263672 -0.003413667902350426153895712744 0 0 0 0 
2412666666.6666665077 0.166693240404129000564736884371 -0.042677268385887152934987653907 -0.000406659528380259925692957745 -0.003338393755257130102870322119 0 0 0 0 
2412833333.3333334923 0.166281834244728088378906250000 -0.043577890843152999877929687500 -0.000662965234369039535522460938 -0.003504803171381353898289345850 0 0 0 0 
2413000000.0000000000 0.165690556168556213378906250000 -0.044494625180959701538085937500 -0.000849206349812448024749755859 -0.003432672237977385954615927588 0 0 0 0 
2413166666.6666665077 0.165289044380187988281250000000 -0.045505881309509277343750000000 -0.000973161892034113407135009766 -0.003647831967100501060485839844 0 0 0 0 
2413333333.3333334923 0.164713770151138305664062500000 -0.046389672905206680297851562500 -0.001206128741614520983455038916 -0.003616211237385869026184082031 0 0 0 0 
2413500000.0000000000 0.164296448230743408203125000000 -0.047555100172758102416992187500 -0.001478156191296875910518027197 -0.003673936706036328835728310693 0 0 0 0 
2413666666.6666665077 0.163846448063850402832031250000 -0.048448465764522552490234375000 -0.001812446047551929950714111328 -0.003588224295526742935180664062 0 0 0 0 
2413833333.3333334923 0.163281351327896090408486884371 -0.049415417015552520751953125000 -0.001978961750864983038661337744 -0.003623826196417212919947958838 0 0 0 0 
2414000000.0000000000 0.162656337022781399825888115629 -0.050446193665266036987304687500 -0.002082763938233255906345986475 -0.003528509987518190903904580225 0 0 0 0 
2414166666.6666665077 0.162483245134353609939736884371 -0.051379285752773291851003278907 -0.002350039314478635787963867188 -0.003624195000156760215759277344 0 0 0 0 
2414333333.3333334923 0.162086471915245111663494981258 -0.052317719906568527221679687500 -0.002699953503906726837158203125 -0.003231463721022009849548339844 0 0 0 0 
2414500000.0000000000 0.161859065294265802581463731258 -0.053315192461013787006418596093 -0.002974551636725664138793945312 -0.003246924141421914100646972656 0 0 0 0 
2414666666.6666665077 0.161352410912513705154580634371 -0.054309677332639687274973283593 -0.003051748033612966971156454932 -0.003056926885619759993312216650 0 0 0 0 
2414833333.3333334923 0.161025583744049100021200615629 -0.055295255035161972045898437500 -0.003410249017179011864903115381 -0.002808021381497383117675781250 0 0 0 0 
2415000000.0000000000 0.160902395844459505935830634371 -0.056147694587707519531250000000 -0.003329403931275010108947753906 -0.002740133320912719206569052588 0 0 0 0 
2415166666.6666665077 0.160547420382499694824218750000 -0.057314738631248467182199846093 -0.003484294284135102792027138818 -0.002350960159674286842346191406 0 0 0 0 
2415333333.3333334923 0.160479292273521395584268134371 -0.058535527437925338745117187500 -0.003752784337848424911499023438 -0.002122729783877729935887002100 0 0 0 0 
2415500000.0000000000 0.160397127270698602874432481258 -0.059557482600212097167968750000 -0.003658592002466320991516113281 -0.001938050729222595908521342700 0 0 0 0 
2415666666.6666665077 0.160098165273666409591513115629 -0.060878522694110870361328125000 -0.003600164549425243897678994287 -0.001532498979941010908839560400 0 0 0 0 
2415833333.3333334923 0.159855157136917086502236884371 -0.061902329325675957416574846093 -0.003803924890235065980198525537 -0.001494384370744227929356240381 0 0 0 0 
2416000000.0000000000 0.159593403339385986328125000000 -0.063233114778995513916015625000 -0.003714122809469699859619140625 -0.001456478727050126032588339697 0 0 0 0 
2416166666.6666665077 0.159638687968254089355468750000 -0.064398095011711120605468750000 -0.003666639328002930121180868994 -0.001061187824234365983250283350 0 0 0 0 
2416333333.3333334923 0.159302085638046292404013115629 -0.065560765564441680908203125000 -0.003494711825624107880833291162 -0.000826901989057660102844238281 0 0 0 0 
2416500000.0000000000 0.158979654312133789062500000000 -0.066893927752971649169921875000 -0.003361690556630492210388183594 -0.000710499647539108991622924805 0 0 0 0 
2416666666.6666665077 0.158538296818733187576455634371 -0.068052560091018676757812500000 -0.003278179327026009993312216650 -0.000705256417859345674514770508 0 0 0 0 
2416833333.3333334923 0.158428356051445007324218750000 -0.069516912102699279785156250000 -0.003276938805356622175929404150 -0.000735788431484252214431762695 0 0 0 0 
2417000000.0000000000 0.157810658216476412674111884371 -0.070535428822040557861328125000 -0.003111162455752491950988769531 -0.000545175687875598669052124023 0 0 0 0 
2417166666.6666665077 0.157611876726150512695312500000 -0.071477301418781280517578125000 -0.003176177386194467978236533057 -0.000540090026333928108215332031 0 0 0 0 
2417333333.3333334923 0.157360509037971496582031250000 -0.072372600436210632324218750000 -0.003028952516615391211268759619 -0.000427489721914753317832946777 0 0 0 0 
2417500000.0000000000 0.156892299652099609375000000000 -0.073690950870513916015625000000 -0.003205978078767656846287392725 -0.000498889945447444915771484375 0 0 0 0 
2417666666.6666665077 0.156784281134605407714843750000 -0.074501782655715942382812500000 -0.003181822365149856047389365088 -0.000444991310359910076290684833 0 0 0 0 
2417833333.3333334923 0.156355127692222595214843750000 -0.075436770915985107421875000000 -0.003285439917817711830139160156 -0.000344456318998709321022033691 0 0 0 0 
2418000000.0000000000 0.155896857380867004394531250000 -0.076295956969261169433593750000 -0.003321090713143349127528525244 -0.000304736371617764180332738055 0 0 0 0 
2418166666.6666665077 0.155744820833206204513388115629 -0.077087678015232086181640625000 -0.003281224519014358954188681494 -0.000289333431283011978298741473 0 0 0 0 
2418333333.3333334923 0.155772924423217801193075615629 -0.078012920916080474853515625000 -0.003201107960194348855259560693 -0.000111429246317129595719198909 0 0 0 0 
2418500000.0000000000 0.155235692858696011642294365629 -0.078850992023944854736328125000 -0.003198893507942556901219033350 -0.000051003942644456401467323303 0 0 0 0 
2418666666.6666665077 0.155234009027481106857138115629 -0.079664312303066253662109375000 -0.003505215281620622114894247900 0.000063837484049145132303237915 0 0 0 0 
2418833333.3333334923 0.154680997133255004882812500000 -0.080512844026088714599609375000 -0.003422249807044864134547568213 0.000108694344817195101223807063 0 0 0 0 
2419000000.0000000000 0.154461532831191988845986884371 -0.081210859119892120361328125000 -0.003449782729148865179774618994 0.000252765661571174914210718976 0 0 0 0 
2419166666.6666665077 0.154155015945434598068075615629 -0.081865638494491577148437500000 -0.003310812171548604965209960938 0.000287896866211667711108607159 0 0 0 0 
2419333333.3333334923 0.153648942708969088455361884371 -0.082345254719257354736328125000 -0.003400541609153151945826865088 0.000588972761761397123336791992 0 0 0 0 
2419500000.0000000000 0.153558328747749300857705634371 -0.083172030746936798095703125000 -0.003393899416550993919372558594 0.000737015565391629934310913086 0 0 0 0 
2419666666.6666665077 0.153135120868682889083700615629 -0.083801373839378356933593750000 -0.003250906476750969886779785156 0.001004984020255506038665771484 0 0 0 0 
2419833333.3333334923 0.152947425842285211761151231258 -0.084260128438472747802734375000 -0.003312932327389717102050781250 0.000965891231317073106765747070 0 0 0 0 
