# Version 1.00
#
freq[Hz];re:Trc1_S11;im:Trc1_S11;re:Trc2_S21;im:Trc2_S21;
2.400000000000000E+009;1.734265536069870E-001;4.895143210887909E-002;2.827589400112629E-003;-3.113112179562450E-003;
2.400166666666667E+009;1.739757508039475E-001;4.846018552780151E-002;2.956066280603409E-003;-3.328342689201236E-003;
2.400333333333334E+009;1.744238436222076E-001;4.758971557021141E-002;2.879429142922163E-003;-3.291103057563305E-003;
2.400500000000000E+009;1.747550070285797E-001;4.702295362949371E-002;2.887088805437088E-003;-3.452956676483154E-003;
2.400666666666667E+009;1.751873493194580E-001;4.617892578244209E-002;2.826174022629857E-003;-3.529795678332448E-003;
2.400833333333334E+009;1.756087690591812E-001;4.573940858244896E-002;2.674936316907406E-003;-3.711942583322525E-003;
2.401000000000000E+009;1.755632609128952E-001;4.500441998243332E-002;2.728381194174290E-003;-3.884328063577414E-003;
2.401166666666667E+009;1.759576201438904E-001;4.451990872621536E-002;2.642756095156074E-003;-3.895790548995137E-003;
2.401333333333334E+009;1.759131252765656E-001;4.370263218879700E-002;2.559559419751167E-003;-4.077317193150520E-003;
2.401500000000000E+009;1.760925054550171E-001;4.307380691170692E-002;2.289254218339920E-003;-4.098879639059305E-003;
2.401666666666667E+009;1.759069561958313E-001;4.240107536315918E-002;2.313249045982957E-003;-4.185600671917200E-003;
2.401833333333334E+009;1.759714484214783E-001;4.165814816951752E-002;2.287826500833035E-003;-4.285143688321114E-003;
2.402000000000000E+009;1.757362782955170E-001;4.079101979732513E-002;2.002829685807228E-003;-4.594699013978243E-003;
2.402166666666667E+009;1.758999228477478E-001;3.975135460495949E-002;1.922836410813034E-003;-4.672461189329624E-003;
2.402333333333334E+009;1.756012737751007E-001;3.889671713113785E-002;1.859448500908911E-003;-4.683845210820437E-003;
2.402500000000000E+009;1.756118535995483E-001;3.791307657957077E-002;1.949351280927658E-003;-4.726394079625607E-003;
2.402666666666667E+009;1.754164397716522E-001;3.678474947810173E-002;1.562101766467094E-003;-4.838001448661089E-003;
2.402833333333334E+009;1.749973893165588E-001;3.562997281551361E-002;1.500963000580668E-003;-4.984069149941206E-003;
2.403000000000000E+009;1.746072918176651E-001;3.430919721722603E-002;1.275183400139213E-003;-5.016846582293510E-003;
2.403166666666667E+009;1.744244545698166E-001;3.285524621605873E-002;1.253721886314452E-003;-5.047603975981474E-003;
2.403333333333334E+009;1.740757673978806E-001;3.153642639517784E-002;1.144302776083350E-003;-5.229523871093988E-003;
2.403500000000000E+009;1.737792938947678E-001;3.009691275656223E-002;1.120099681429565E-003;-5.276159383356571E-003;
2.403666666666667E+009;1.733877658843994E-001;2.831045538187027E-002;6.750229513272643E-004;-5.450661294162273E-003;
2.403833333333334E+009;1.730040162801743E-001;2.674675546586514E-002;4.994089249521494E-004;-5.387246143072844E-003;
2.404000000000000E+009;1.725612133741379E-001;2.490960247814655E-002;3.683422401081771E-004;-5.445978138595820E-003;
2.404166666666667E+009;1.720023453235626E-001;2.307183668017387E-002;2.288723044330254E-004;-5.562249571084976E-003;
2.404333333333334E+009;1.717899292707443E-001;2.140245027840138E-002;-2.732339635258541E-005;-5.619634874165058E-003;
2.404500000000000E+009;1.714319139719009E-001;1.941569335758686E-002;-3.006294718943536E-004;-5.772706121206284E-003;
2.404666666666667E+009;1.712372153997421E-001;1.746393926441670E-002;-5.422197864390910E-004;-5.635705310851336E-003;
2.404833333333334E+009;1.709630340337753E-001;1.558868214488030E-002;-7.581159588880837E-004;-5.463364068418741E-003;
2.405000000000000E+009;1.708516478538513E-001;1.350189093500376E-002;-1.017701346427202E-003;-5.542702041566372E-003;
2.405166666666667E+009;1.706112921237946E-001;1.148168649524450E-002;-1.143553177826107E-003;-5.363494157791138E-003;
2.405333333333334E+009;1.706487834453583E-001;9.395956061780453E-003;-1.425194554030895E-003;-5.627274047583342E-003;
2.405500000000000E+009;1.706512868404388E-001;7.354270666837692E-003;-1.699111657217145E-003;-5.189178045839071E-003;
2.405666666666667E+009;1.706799417734146E-001;5.465899594128132E-003;-1.829070854000747E-003;-5.244527943432331E-003;
2.405833333333334E+009;1.707517653703690E-001;3.455484053120017E-003;-2.152558416128159E-003;-5.048320628702641E-003;
2.406000000000000E+009;1.711033582687378E-001;1.130931079387665E-003;-2.222712850198150E-003;-5.039776675403118E-003;
2.406166666666667E+009;1.711420565843582E-001;-7.137215579859912E-004;-2.280192682519555E-003;-4.867841023951769E-003;
2.406333333333334E+009;1.717534363269806E-001;-2.598773222416639E-003;-2.460080198943615E-003;-4.716347903013229E-003;
2.406500000000000E+009;1.721546798944473E-001;-4.797195084393024E-003;-2.774236723780632E-003;-4.593148827552795E-003;
2.406666666666667E+009;1.723251938819885E-001;-6.785925012081862E-003;-2.772594336420298E-003;-4.409175366163254E-003;
2.406833333333334E+009;1.729559004306793E-001;-8.781274780631065E-003;-2.860612468793988E-003;-4.335709381848574E-003;
2.407000000000000E+009;1.736339330673218E-001;-1.065566111356020E-002;-3.093439387157559E-003;-4.289062693715096E-003;
2.407166666666667E+009;1.743133068084717E-001;-1.241643261164427E-002;-3.248460358008742E-003;-4.006591159850359E-003;
2.407333333333334E+009;1.748623400926590E-001;-1.441946439445019E-002;-3.201495157554746E-003;-3.911908715963364E-003;
2.407500000000000E+009;1.756423264741898E-001;-1.616000570356846E-002;-3.296496812254190E-003;-3.807346103712916E-003;
2.407666666666667E+009;1.764340698719025E-001;-1.786881312727928E-002;-3.402974922209978E-003;-3.666203236207366E-003;
2.407833333333334E+009;1.768637150526047E-001;-1.949907466769218E-002;-3.477359423413873E-003;-3.473168937489390E-003;
2.408000000000000E+009;1.777180880308151E-001;-2.121475152671337E-002;-3.386400640010834E-003;-3.412031102925539E-003;
2.408166666666667E+009;1.783329844474793E-001;-2.272802963852882E-002;-3.639584407210350E-003;-3.237661672756076E-003;
2.408333333333334E+009;1.792173832654953E-001;-2.422322332859039E-002;-3.579133655875921E-003;-3.240528749302030E-003;
2.408500000000000E+009;1.797253936529160E-001;-2.561168558895588E-002;-3.921288065612316E-003;-3.131383564323187E-003;
2.408666666666667E+009;1.801606118679047E-001;-2.665016055107117E-002;-3.856910858303309E-003;-3.186394227668643E-003;
2.408833333333334E+009;1.806289106607437E-001;-2.788925357162952E-002;-3.970803227275610E-003;-3.020098898559809E-003;
2.409000000000000E+009;1.810819208621979E-001;-2.915667183697224E-002;-3.904334036633372E-003;-2.759201684966683E-003;
2.409166666666667E+009;1.816021203994751E-001;-3.000687062740326E-002;-3.976265434175730E-003;-2.808507531881332E-003;
2.409333333333334E+009;1.822597831487656E-001;-3.108832798898220E-002;-4.212692379951477E-003;-2.751475200057030E-003;
2.409500000000000E+009;1.821226775646210E-001;-3.215503692626953E-002;-4.059626255184412E-003;-2.482538111507893E-003;
2.409666666666667E+009;1.825028955936432E-001;-3.245538845658302E-002;-4.214483313262463E-003;-2.556724008172751E-003;
2.409833333333334E+009;1.824869364500046E-001;-3.280607610940933E-002;-4.258069209754467E-003;-2.380657475441694E-003;
2.410000000000000E+009;1.829837709665299E-001;-3.348186239600182E-002;-4.333381541073322E-003;-2.203032607212663E-003;
2.410166666666667E+009;1.833143979310989E-001;-3.372167795896530E-002;-4.646408371627331E-003;-1.934168976731598E-003;
2.410333333333334E+009;1.831374019384384E-001;-3.424250707030296E-002;-4.605327732861042E-003;-1.851768349297345E-003;
2.410500000000000E+009;1.833247095346451E-001;-3.460857272148132E-002;-4.927188623696566E-003;-1.670142868533731E-003;
2.410666666666667E+009;1.831038892269135E-001;-3.475081920623779E-002;-4.760417155921459E-003;-1.761804800480604E-003;
2.410833333333334E+009;1.831670105457306E-001;-3.508564829826355E-002;-4.773161374032497E-003;-1.429967698641121E-003;
2.411000000000000E+009;1.826563030481339E-001;-3.531854972243309E-002;-4.824011586606503E-003;-1.225240062922239E-003;
2.411166666666667E+009;1.824320554733276E-001;-3.569999337196350E-002;-4.855082836002111E-003;-1.059146132320166E-003;
2.411333333333334E+009;1.819749325513840E-001;-3.585969656705856E-002;-4.969718400388956E-003;-9.230398572981358E-004;
2.411500000000000E+009;1.816021800041199E-001;-3.623437508940697E-002;-4.942790605127811E-003;-7.300335564650595E-004;
2.411666666666667E+009;1.812287569046021E-001;-3.667561709880829E-002;-5.108261480927467E-003;-6.035715341567993E-004;
2.411833333333334E+009;1.805691570043564E-001;-3.702318668365479E-002;-5.012976005673409E-003;-3.756357764359564E-004;
2.412000000000000E+009;1.798891723155975E-001;-3.743743523955345E-002;-5.148886237293482E-003;-1.638188114156947E-004;
2.412166666666667E+009;1.787606626749039E-001;-3.785431012511253E-002;-5.146386101841927E-003;-4.407994492794387E-005;
2.412333333333334E+009;1.781088858842850E-001;-3.822745010256767E-002;-5.009903106838465E-003;1.441232452634722E-004;
2.412500000000000E+009;1.772199124097824E-001;-3.876063600182533E-002;-5.074163898825645E-003;2.969950728584081E-004;
2.412666666666667E+009;1.759606450796127E-001;-3.946084156632423E-002;-4.898580722510815E-003;6.274927291087806E-004;
2.412833333333334E+009;1.749174892902374E-001;-4.006672650575638E-002;-4.956713877618313E-003;7.718713604845107E-004;
2.413000000000000E+009;1.736419498920441E-001;-4.087616503238678E-002;-4.918649327009916E-003;9.299627272412181E-004;
2.413166666666667E+009;1.723702102899551E-001;-4.175579175353050E-002;-4.836646374315023E-003;9.796702070161700E-004;
2.413333333333334E+009;1.712033301591873E-001;-4.247597977519035E-002;-4.844505805522203E-003;1.116893952712417E-003;
2.413500000000000E+009;1.700069010257721E-001;-4.359017685055733E-002;-4.581077024340630E-003;1.584867597557604E-003;
2.413666666666667E+009;1.687171459197998E-001;-4.460270702838898E-002;-4.495711997151375E-003;1.503908773884177E-003;
2.413833333333334E+009;1.674907952547073E-001;-4.560334980487824E-002;-4.414117429405451E-003;1.625671633519232E-003;
2.414000000000000E+009;1.660415232181549E-001;-4.688291624188423E-002;-4.169691819697619E-003;1.743573462590575E-003;
2.414166666666667E+009;1.649201065301895E-001;-4.811038449406624E-002;-4.052758216857910E-003;1.996643375605345E-003;
2.414333333333334E+009;1.637624353170395E-001;-4.946537688374519E-002;-3.797714598476887E-003;2.081661019474268E-003;
2.414500000000000E+009;1.628484427928925E-001;-5.079987272620201E-002;-3.819347359240055E-003;2.092719310894609E-003;
2.414666666666667E+009;1.616361588239670E-001;-5.239642038941383E-002;-3.686262294650078E-003;2.271015662699938E-003;
2.414833333333334E+009;1.603863984346390E-001;-5.390720441937447E-002;-3.619219409301877E-003;2.300746738910675E-003;
2.415000000000000E+009;1.594529002904892E-001;-5.557050555944443E-002;-3.614937420934439E-003;2.227150369435549E-003;
2.415166666666667E+009;1.584029197692871E-001;-5.734086036682129E-002;-3.250272944569588E-003;2.337860409170389E-003;
2.415333333333334E+009;1.575869023799896E-001;-5.908518657088280E-002;-3.254391718655825E-003;2.272968180477619E-003;
2.415500000000000E+009;1.567212492227554E-001;-6.087118014693260E-002;-3.041171468794346E-003;2.126322127878666E-003;
2.415666666666667E+009;1.559492498636246E-001;-6.272856146097183E-002;-2.784690819680691E-003;2.289050258696079E-003;
2.415833333333334E+009;1.554954648017883E-001;-6.468860805034638E-002;-2.988514956086874E-003;2.346011810004711E-003;
2.416000000000000E+009;1.547145396471024E-001;-6.663028895854950E-002;-2.950923284515739E-003;2.122376812621951E-003;
2.416166666666667E+009;1.542517244815826E-001;-6.853780895471573E-002;-2.761983312666416E-003;2.146170707419515E-003;
2.416333333333334E+009;1.537670791149139E-001;-7.054844498634338E-002;-2.685121027752757E-003;2.251660916954279E-003;
2.416500000000000E+009;1.534092128276825E-001;-7.264097034931183E-002;-2.679962199181318E-003;2.479245420545340E-003;
2.416666666666667E+009;1.527846902608872E-001;-7.443346083164215E-002;-2.524371026083827E-003;2.360985847190023E-003;
2.416833333333334E+009;1.526292264461517E-001;-7.650058716535568E-002;-2.526627620682120E-003;2.348886569961906E-003;
2.417000000000000E+009;1.522415280342102E-001;-7.849164307117462E-002;-2.485714154317975E-003;2.398724434897304E-003;
2.417166666666667E+009;1.520555466413498E-001;-8.015283197164536E-002;-2.428947482258081E-003;2.371547510847449E-003;
2.417333333333334E+009;1.520018279552460E-001;-8.191327750682831E-002;-2.312962431460619E-003;2.363217296078801E-003;
2.417500000000000E+009;1.518784910440445E-001;-8.379333466291428E-002;-2.316904254257679E-003;2.345136366784573E-003;
2.417666666666667E+009;1.519261896610260E-001;-8.519795536994934E-002;-2.474881010130048E-003;2.579138148576021E-003;
2.417833333333334E+009;1.519235521554947E-001;-8.677598834037781E-002;-2.467377809807658E-003;2.507878001779318E-003;
2.418000000000000E+009;1.519031375646591E-001;-8.836565166711807E-002;-2.393126254901290E-003;2.610947936773300E-003;
2.418166666666667E+009;1.519495397806168E-001;-8.956716954708099E-002;-2.366460859775543E-003;2.737547270953655E-003;
2.418333333333334E+009;1.522962749004364E-001;-9.094551205635071E-002;-2.323089167475700E-003;2.614168217405677E-003;
2.418500000000000E+009;1.523486375808716E-001;-9.198838472366333E-002;-2.478590235114098E-003;2.722137840464711E-003;
2.418666666666667E+009;1.527465432882309E-001;-9.314953535795212E-002;-2.292630029842258E-003;2.827280899509788E-003;
2.418833333333334E+009;1.526871323585510E-001;-9.413526952266693E-002;-2.142809564247727E-003;2.949020592495799E-003;
2.419000000000000E+009;1.528368592262268E-001;-9.488281607627869E-002;-2.236473606899381E-003;3.048851620405912E-003;
2.419166666666667E+009;1.531340330839157E-001;-9.561780840158463E-002;-1.999852247536182E-003;3.141284221783280E-003;
2.419333333333334E+009;1.533076912164688E-001;-9.607473015785217E-002;-1.951031503267586E-003;3.400459187105298E-003;
2.419500000000000E+009;1.535297930240631E-001;-9.664154052734375E-002;-1.880569616332650E-003;3.439741441980004E-003;
2.419666666666667E+009;1.538202315568924E-001;-9.702848643064499E-002;-1.754965283907950E-003;3.560703480616212E-003;
2.419833333333334E+009;1.537924706935883E-001;-9.732838720083237E-002;-1.672372804023325E-003;3.740069456398487E-003;
2.420000000000000E+009;1.541180610656738E-001;-9.734058380126953E-002;-1.603908836841583E-003;3.591444808989763E-003;
2.420166666666667E+009;1.540733724832535E-001;-9.751088917255402E-002;-1.387058524414897E-003;3.776956116780639E-003;
2.420333333333334E+009;1.543448120355606E-001;-9.755782037973404E-002;-1.351381535641849E-003;3.820061217993498E-003;
2.420500000000000E+009;1.543852984905243E-001;-9.717193990945816E-002;-1.174020930193365E-003;3.846153384074569E-003;
2.420666666666667E+009;1.543381661176682E-001;-9.692607074975967E-002;-9.351656772196293E-004;3.842118196189404E-003;
2.420833333333334E+009;1.542199701070786E-001;-9.691836684942246E-002;-8.881399990059435E-004;3.905941965058446E-003;
2.421000000000000E+009;1.541032195091248E-001;-9.682233631610870E-002;-7.367374491877854E-004;3.925913013517857E-003;
2.421166666666667E+009;1.539164632558823E-001;-9.650396555662155E-002;-7.273895898833871E-004;3.968246281147003E-003;
2.421333333333334E+009;1.537221074104309E-001;-9.631288051605225E-002;-4.410936380736530E-004;4.053330514580011E-003;
2.421500000000000E+009;1.530738621950150E-001;-9.593877941370010E-002;-3.386468451935798E-004;4.097514785826206E-003;
2.421666666666667E+009;1.528325676918030E-001;-9.574557840824127E-002;-2.848816511686891E-004;4.074505064636469E-003;
2.421833333333334E+009;1.524790227413178E-001;-9.544574469327927E-002;-7.650605402886868E-005;4.076508339494467E-003;
2.422000000000000E+009;1.515715867280960E-001;-9.512950479984283E-002;1.045415992848575E-004;4.105299245566130E-003;
2.422166666666667E+009;1.508401334285736E-001;-9.513616561889648E-002;2.776426263153553E-004;3.949437756091356E-003;
2.422333333333334E+009;1.500919312238693E-001;-9.466274827718735E-002;4.441192140802741E-004;4.183572251349688E-003;
2.422500000000000E+009;1.490015238523483E-001;-9.435036778450012E-002;5.651395767927170E-004;4.143349360674620E-003;
2.422666666666667E+009;1.478009670972824E-001;-9.444213658571243E-002;8.052865159697831E-004;3.996994812041521E-003;
2.422833333333334E+009;1.468742936849594E-001;-9.445112943649292E-002;9.410228230990470E-004;3.854172769933939E-003;
2.423000000000000E+009;1.455721110105515E-001;-9.428420662879944E-002;1.137521001510322E-003;3.789625829085708E-003;
2.423166666666667E+009;1.441358774900436E-001;-9.437059611082077E-002;1.300792908295989E-003;3.649294842034578E-003;
2.423333333333334E+009;1.428114324808121E-001;-9.425069391727448E-002;1.571643399074674E-003;3.501812694594264E-003;
2.423500000000000E+009;1.413431912660599E-001;-9.431380778551102E-002;1.640764763578773E-003;3.454323159530759E-003;
2.423666666666667E+009;1.396574676036835E-001;-9.457248449325562E-002;1.655146246775985E-003;3.110334044322372E-003;
2.423833333333334E+009;1.383956074714661E-001;-9.494327008724213E-002;1.689299126155675E-003;2.823318820446730E-003;
2.424000000000000E+009;1.367380470037460E-001;-9.492570906877518E-002;1.775936456397176E-003;2.852569334208965E-003;
2.424166666666667E+009;1.350777000188828E-001;-9.540674090385437E-002;1.765003777109087E-003;2.617357997223735E-003;
2.424333333333334E+009;1.338019073009491E-001;-9.565131366252899E-002;1.652142032980919E-003;2.578291343525052E-003;
2.424500000000000E+009;1.322308033704758E-001;-9.629874676465988E-002;1.656728796660900E-003;2.444809302687645E-003;
2.424666666666667E+009;1.309228539466858E-001;-9.662055969238281E-002;1.775180804543197E-003;2.354972995817661E-003;
2.424833333333334E+009;1.292083263397217E-001;-9.756725281476975E-002;1.762035535648465E-003;2.346344990655780E-003;
2.425000000000000E+009;1.279898285865784E-001;-9.827399998903275E-002;1.543820952065289E-003;2.314150566235185E-003;
2.425166666666667E+009;1.264577060937882E-001;-9.923556447029114E-002;1.691112178377807E-003;2.145877107977867E-003;
2.425333333333334E+009;1.252993196249008E-001;-1.002346947789192E-001;1.695617102086544E-003;2.316042315214872E-003;
2.425500000000000E+009;1.240083575248718E-001;-1.013606935739517E-001;1.517732627689838E-003;1.913449377752841E-003;
2.425666666666667E+009;1.228238642215729E-001;-1.025355532765389E-001;1.551311463117600E-003;2.136428374797106E-003;
2.425833333333334E+009;1.216921731829643E-001;-1.036604419350624E-001;1.562351011671126E-003;2.015489619225264E-003;
2.426000000000000E+009;1.206331104040146E-001;-1.051483601331711E-001;1.562569756060839E-003;1.964521594345570E-003;
2.426166666666667E+009;1.197957769036293E-001;-1.066070944070816E-001;1.574374968186021E-003;1.997064100578427E-003;
2.426333333333334E+009;1.188063845038414E-001;-1.080025956034660E-001;1.541430829092860E-003;2.136576222255826E-003;
2.426500000000000E+009;1.180661693215370E-001;-1.093675643205643E-001;1.568551175296307E-003;2.105077728629112E-003;
2.426666666666667E+009;1.175175309181213E-001;-1.109171882271767E-001;1.697391504421830E-003;2.000639913603663E-003;
2.426833333333334E+009;1.169033497571945E-001;-1.125965565443039E-001;1.710186828859150E-003;1.840050332248211E-003;
2.427000000000000E+009;1.162554025650024E-001;-1.142434701323509E-001;1.925660413689911E-003;1.864025718532503E-003;
2.427166666666667E+009;1.157282888889313E-001;-1.157003492116928E-001;1.982143847271800E-003;1.865920494310558E-003;
2.427333333333334E+009;1.152435466647148E-001;-1.173881068825722E-001;1.899311318993568E-003;1.849475083872676E-003;
2.427500000000000E+009;1.151082888245583E-001;-1.190083175897598E-001;1.945504103787243E-003;1.784235122613609E-003;
2.427666666666667E+009;1.148504912853241E-001;-1.204338222742081E-001;2.139233285561204E-003;1.658924506045878E-003;
