# Hz S RI R 50
2400000000.0000000000 0.158657714724540710449218750000 0.063108488917350769042968750000 0.000331387593178078478008824481 -0.000801036658231168985366821289 0 0 0 0 
2400166666.6666665077 0.158397182822227505782919365629 0.061610609292984008789062500000 0.000414216687204316312640589581 -0.000768269121181219816207885742 0 0 0 0 
2400333333.3333334923 0.158273681998252896407919365629 0.059559624642133712768554687500 0.000317136436933651620715540753 -0.000830628909170627593994140625 0 0 0 0 
2400500000.0000000000 0.158378422260284396072549384371 0.057630505412817001342773437500 0.000434238521847873926162719727 -0.000902820611372590065002441406 0 0 0 0 
2400666666.6666665077 0.158126980066299410720986884371 0.055671755224466316913645158593 0.000610136368777602910995483398 -0.001015926594845951037165976416 0 0 0 0 
2400833333.3333334923 0.158153414726257296463174384371 0.053973719477653503417968750000 0.000624836422502994537353515625 -0.000992431538179516792297363281 0 0 0 0 
2401000000.0000000000 0.158190429210662786285723768742 0.051734849810600280761718750000 0.000538739899639040231704711914 -0.001050423132255672974827431787 0 0 0 0 
2401166666.6666665077 0.158318385481834411621093750000 0.049584306776523590087890625000 0.000657140219118446111679077148 -0.001096703577786684036254882812 0 0 0 0 
2401333333.3333334923 0.158469572663307189941406250000 0.047606773674488067626953125000 0.000573748257011175155639648438 -0.001214766060002147934557270581 0 0 0 0 
2401500000.0000000000 0.158923849463462801834268134371 0.045502949506044387817382812500 0.000718845345545560121536254883 -0.001270022359676659107208251953 0 0 0 0 
2401666666.6666665077 0.159012243151664706131143134371 0.043509460985660552978515625000 0.000712383945938199758529663086 -0.001365668489597738005994487231 0 0 0 0 
2401833333.3333334923 0.159610807895660400390625000000 0.041314747184514999389648437500 0.000749852566514164209365844727 -0.001512735616415739059448242188 0 0 0 0 
2402000000.0000000000 0.159772455692291287521200615629 0.039467800408601760864257812500 0.000699135533068329095840454102 -0.001670189434662461063982319409 0 0 0 0 
2402166666.6666665077 0.160174503922462491134481865629 0.037250544875860207294504533593 0.000440991076175123507350367413 -0.001789147267118095917942666162 0 0 0 0 
2402333333.3333334923 0.160703450441360501388388115629 0.035469148308038711547851562500 0.000331863528117537498474121094 -0.001889011124148965098737407153 0 0 0 0 
2402500000.0000000000 0.161526888608932495117187500000 0.033524058759212486957590471093 0.000582573411520570516586303711 -0.001792318886145948930027627100 0 0 0 0 
2402666666.6666665077 0.161856129765510586837606865629 0.031633768230676651000976562500 0.000356014206772670204013270245 -0.001916724140755831978441547925 0 0 0 0 
2402833333.3333334923 0.162620574235916109939736884371 0.029956398531794551504114920704 0.000179941431269980994149884634 -0.001990660559386014938354492188 0 0 0 0 
2403000000.0000000000 0.163582757115364102462606865629 0.028152629733085628854771798046 0.000315642071655020117759704590 -0.001991656841710209846496582031 0 0 0 0 
2403166666.6666665077 0.164468392729759188553018134371 0.026695849373936649667760079296 0.000135263064294122186586102896 -0.002035994082689284844639443506 0 0 0 0 
2403333333.3333334923 0.165242850780487088302450615629 0.025119053199887279165247733204 -0.000015240615539369169959818193 -0.002288274234160780906677246094 0 0 0 0 
2403500000.0000000000 0.166144683957099886795205634371 0.023792957887053489685058593750 -0.000034801501897163689136505127 -0.002306113718077539963963173975 0 0 0 0 
2403666666.6666665077 0.167108505964279202560263115629 0.022205432876944538461705391796 -0.000164394878083840012550354004 -0.002280798507854342894313193213 0 0 0 0 
2403833333.3333334923 0.168151870369911193847656250000 0.020769588649272918701171875000 -0.000265755428699776476055699481 -0.002202359726652503013610839844 0 0 0 0 
2404000000.0000000000 0.168963044881820706466513115629 0.019602438434958461416224295704 -0.000402017030864953994750976562 -0.002254187362268567085266113281 0 0 0 0 
2404166666.6666665077 0.169843718409538296798544365629 0.018470790237188339233398437500 -0.000450724561233073472976684570 -0.002493789186701178984401083838 0 0 0 0 
2404333333.3333334923 0.170804545283317593673544365629 0.017500070855021480215052420704 -0.000572821474634110927581787109 -0.002328284084796905951258993994 0 0 0 0 
2404500000.0000000000 0.171748146414756802657919365629 0.016366673633456230163574218750 -0.000623629137407988309860229492 -0.002326900837942957878112792969 0 0 0 0 
2404666666.6666665077 0.172723397612571688553018134371 0.015320863574743269139299961523 -0.000753104803152382373809814453 -0.002203786745667458014247275244 0 0 0 0 
2404833333.3333334923 0.173655018210411099532919365629 0.014673788100481029855748360546 -0.001103362417779863097547221606 -0.002338114194571971893310546875 0 0 0 0 
2405000000.0000000000 0.174619749188423212249432481258 0.013853011652827259408971016796 -0.000976380484644323587417602539 -0.002324966015294193787815713037 0 0 0 0 
2405166666.6666665077 0.175483763217925997635049384371 0.013146778568625450134277343750 -0.001078472123481333038927387769 -0.002291904762387276129481650244 0 0 0 0 
2405333333.3333334923 0.176281645894050598144531250000 0.012331795878708360844622227148 -0.001237941556610167026519775391 -0.002147749066352843804600381006 0 0 0 0 
2405500000.0000000000 0.177142918109893798828125000000 0.011955006979405879974365234375 -0.001211498980410397052764892578 -0.002259223023429512977600097656 0 0 0 0 
2405666666.6666665077 0.177750810980796786209268134371 0.011616297997534280259102068555 -0.001215633703395724079729389722 -0.002136693801730871200561523438 0 0 0 0 
2405833333.3333334923 0.178178563714027404785156250000 0.011127140372991560154924961523 -0.001259794807992876009700156104 -0.002073705662041902975795126807 0 0 0 0 
2406000000.0000000000 0.178952008485794095138388115629 0.010548911988735200709332850977 -0.001466822228394448974012065356 -0.002055288990959525108337402344 0 0 0 0 
2406166666.6666665077 0.179339766502380398849325615629 0.010397793725132940464983555273 -0.001429243711754679896711039966 -0.002099834848195313973667763818 0 0 0 0 
2406333333.3333334923 0.180001139640808105468750000000 0.009942383505403995513916015625 -0.001635829568840563080431294019 -0.002028210554271935982945107568 0 0 0 0 
2406500000.0000000000 0.180166393518447903732138115629 0.009780891239643096923828125000 -0.001816748757846653895137167822 -0.001978688640519977049586630713 0 0 0 0 
2406666666.6666665077 0.180400222539901705642861884371 0.009493196383118629455566406250 -0.001749276649206876971601176685 -0.001961954869329928918125771631 0 0 0 0 
2406833333.3333334923 0.180701404809951809982138115629 0.009112887084484100341796875000 -0.001819601980969310023664164966 -0.001870759180746972994563437354 0 0 0 0 
2407000000.0000000000 0.180791020393371609786825615629 0.008733160793781280517578125000 -0.001992664765566587014439248193 -0.001773103373125195936915732275 0 0 0 0 
2407166666.6666665077 0.180967584252357510665731865629 0.008556509390473365783691406250 -0.002014121040701866149902343750 -0.001702215755358337922337197412 0 0 0 0 
2407333333.3333334923 0.180779725313186701018963731258 0.008124050684273242950439453125 -0.002086220076307653947117470850 -0.001782575971446930928471230615 0 0 0 0 
2407500000.0000000000 0.180712088942527798751669365629 0.007775750476866961392874433301 -0.002154592424631119208094931494 -0.001553507870994508049608540112 0 0 0 0 
2407666666.6666665077 0.180461764335632296463174384371 0.007468442432582378387451171875 -0.002167626051232219176051474463 -0.001543849823065102100372314453 0 0 0 0 
2407833333.3333334923 0.180219382047653198242187500000 0.006845700554549694061279296875 -0.002242395654320716857910156250 -0.001584085170179605917689658057 0 0 0 0 
2408000000.0000000000 0.179823145270347595214843750000 0.006124635692685843381399823926 -0.002327697351574898199794150244 -0.001346678123809397003771137769 0 0 0 0 
2408166666.6666665077 0.179498821496963500976562500000 0.005707923322916030883789062500 -0.002505625830963253974914550781 -0.001325087388977407975437783350 0 0 0 0 
2408333333.3333334923 0.179118484258651705642861884371 0.005002405494451522827148437500 -0.002427169121801853179931640625 -0.001323940232396126010297465747 0 0 0 0 
2408500000.0000000000 0.178612187504768399337606865629 0.004286322277039290341849042676 -0.002547826152294874191284179688 -0.001260651391930877945543598706 0 0 0 0 
2408666666.6666665077 0.178046897053718594650106865629 0.003311807988211512999293661963 -0.002457655267789959907531738281 -0.001064291573129593892338418115 0 0 0 0 
2408833333.3333334923 0.177343547344207791427450615629 0.002456251764670013947727822412 -0.002488842234015465216395712744 -0.001035304390825330994249653394 0 0 0 0 
2409000000.0000000000 0.176681667566299410720986884371 0.001594919478520750999450683594 -0.002591671189293264909031533350 -0.000929367728531360626220703125 0 0 0 0 
2409166666.6666665077 0.175990834832191495040731865629 0.000384468643460422808497828351 -0.002522316994145513014552451025 -0.000915676355361938476562500000 0 0 0 0 
2409333333.3333334923 0.175452247262001009842080634371 -0.000741613912396132946014404297 -0.002570402342826128005981445312 -0.000835161306895315647125244141 0 0 0 0 
2409500000.0000000000 0.174633428454399108886718750000 -0.001922550261951982975006103516 -0.002510922495275735855102539062 -0.000753198983147740364074707031 0 0 0 0 
2409666666.6666665077 0.173912838101386996170205634371 -0.003256870666518806977512978662 -0.002529024844989180998561240088 -0.000605639594141393899917602539 0 0 0 0 
2409833333.3333334923 0.173191338777542086502236884371 -0.004637489095330238342285156250 -0.002673076000064611001255654443 -0.000609975948464125394821166992 0 0 0 0 
2410000000.0000000000 0.172646075487136813064736884371 -0.006213346961885690689086914062 -0.002776985988020896911621093750 -0.000686480256263166666030883789 0 0 0 0 
2410166666.6666665077 0.171863645315170288085937500000 -0.007627733983099460601806640625 -0.002666821470484137968776083838 -0.000573634810280054807662963867 0 0 0 0 
2410333333.3333334923 0.171342536807060186188067518742 -0.009218120016157627105712890625 -0.002764034317806363105773925781 -0.000503877643495798110961914062 0 0 0 0 
2410500000.0000000000 0.170646741986274691482705634371 -0.010938183404505249368687813671 -0.002894978970289229912998818506 -0.000535724917426705360412597656 0 0 0 0 
2410666666.6666665077 0.170182794332504300216513115629 -0.012745168991386890411376953125 -0.002760354429483414129969931494 -0.000275019585387781316607874738 0 0 0 0 
2410833333.3333334923 0.169721975922584505935830634371 -0.014480274170637130737304687500 -0.002883662935346364974975585938 -0.000317644997267052477032261981 0 0 0 0 
2411000000.0000000000 0.169205486774444607833700615629 -0.016134051606059070932408516796 -0.003046928206458688215968466650 -0.000400833843741565888554173602 0 0 0 0 
2411166666.6666665077 0.168795719742774991134481865629 -0.018265658989548679697056954296 -0.002983782207593321800231933594 -0.000065931155404541641473770142 0 0 0 0 
2411333333.3333334923 0.168703421950340298751669365629 -0.019889691844582561147669608204 -0.003055847948417067961451865088 -0.000124534431961364989906865253 0 0 0 0 
2411500000.0000000000 0.168273508548736600021200615629 -0.022043500095605850219726562500 -0.003247519256547092957737588037 0.000075262469181325286626815796 0 0 0 0 
2411666666.6666665077 0.168315723538398687164630018742 -0.023859456181526180612584298046 -0.003174362471327186064479208838 0.000160101786605082506507319318 0 0 0 0 
2411833333.3333334923 0.168056011199951199630575615629 -0.025867253541946411132812500000 -0.003177552716806530952453613281 0.000199962974875234094545087271 0 0 0 0 
2412000000.0000000000 0.168102771043777493575888115629 -0.027720905840396881103515625000 -0.003349899547174572944641113281 0.000378222466679289882809239520 0 0 0 0 
2412166666.6666665077 0.168071776628494290450888115629 -0.029924772679805759084681326954 -0.003394300350919365882873535156 0.000546063529327511787414550781 0 0 0 0 
2412333333.3333334923 0.168348044157028198242187500000 -0.031684193760156631469726562500 -0.003294219961389898820164345850 0.000605564855504781007766723633 0 0 0 0 
2412500000.0000000000 0.168310537934303311446981865629 -0.033422205597162246704101562500 -0.003261890029534697966334677588 0.000838731823023408651351928711 0 0 0 0 
2412666666.6666665077 0.168901056051254300216513115629 -0.035538867115974433208425153907 -0.003273209091275929970982216943 0.000961026409640908241271972656 0 0 0 0 
2412833333.3333334923 0.169043406844139099121093750000 -0.037399627268314361572265625000 -0.003224808722734450860264443506 0.000988049549050629138946533203 0 0 0 0 
2413000000.0000000000 0.169390782713890103439169365629 -0.039081659168004989624023437500 -0.003384735202416778044459677588 0.001186887733638287024257040869 0 0 0 0 
2413166666.6666665077 0.169727206230163601974325615629 -0.040999401360750198364257812500 -0.003288172651082276864292763818 0.001329463790170847935917519678 0 0 0 0 
2413333333.3333334923 0.170042768120765713790731865629 -0.042558725923299789428710937500 -0.003244924591854215101954794775 0.001465895213186741092084575122 0 0 0 0 
2413500000.0000000000 0.170781433582305908203125000000 -0.044271331280469887470285783593 -0.003121608169749379158020019531 0.001794023206457495906232524341 0 0 0 0 
2413666666.6666665077 0.171340227127075195312500000000 -0.045853994786739349365234375000 -0.003204600885510445074794150244 0.001787726068869232914568256909 0 0 0 0 
2413833333.3333334923 0.171632990241050692459268134371 -0.047506917268037802959401716407 -0.003141190158203244209289550781 0.001813858398236334107042622144 0 0 0 0 
2414000000.0000000000 0.172096759080886813064736884371 -0.048910845071077346801757812500 -0.002924032276496291160583496094 0.002076286124065517945530556787 0 0 0 0 
2414166666.6666665077 0.172927498817443903167401231258 -0.050267335027456276630442033593 -0.002913568867370485825779580225 0.002062429441139101982116699219 0 0 0 0 
2414333333.3333334923 0.173420310020446805099325615629 -0.051612891256809241558034528907 -0.002769795479252934889552451025 0.002251508412882686094996786963 0 0 0 0 
2414500000.0000000000 0.173988133668899508377236884371 -0.052911274135112762451171875000 -0.002793828025460242791416787256 0.002275680657476187186000204932 0 0 0 0 
2414666666.6666665077 0.174501895904540987869424384371 -0.053852204233407967304270158593 -0.002540101530030370192286826025 0.002457761904224752946140908350 0 0 0 0 
2414833333.3333334923 0.175088912248611505706463731258 -0.054913185536861419677734375000 -0.002578176558017731146571493994 0.002707085572183132171630859375 0 0 0 0 
2415000000.0000000000 0.175461754202842712402343750000 -0.055758383125066757202148437500 -0.002470017643645406203029013525 0.002491658087819815115687704932 0 0 0 0 
2415166666.6666665077 0.175823330879211398025674384371 -0.056707181036472320556640625000 -0.002291303360834718184230185400 0.002770030871033668951747275244 0 0 0 0 
2415333333.3333334923 0.176350116729736300369424384371 -0.057492300868034362792968750000 -0.002198125701397656960728310693 0.002710333326831459999084472656 0 0 0 0 
2415500000.0000000000 0.176677927374839810470419365629 -0.058120429515838623046875000000 -0.001999884610995649857762002100 0.002816640771925448937657021631 0 0 0 0 
2415666666.6666665077 0.176929712295532198806924384371 -0.058602556586265557025949846093 -0.002002402208745480017421103369 0.002839279361069201989414834131 0 0 0 0 
2415833333.3333334923 0.177135780453682001311932481258 -0.059053476899862289428710937500 -0.001854067319072782993316650391 0.002944588894024490876438759912 0 0 0 0 
2416000000.0000000000 0.177077785134315490722656250000 -0.059742264449596411968190778907 -0.001620079972781240940093994141 0.002914764219895004792454384912 0 0 0 0 
2416166666.6666665077 0.177509590983390808105468750000 -0.060123804956674582744557966407 -0.001509051304310560009599995190 0.003031259635463356971740722656 0 0 0 0 
2416333333.3333334923 0.177472054958343505859375000000 -0.060419015586376190185546875000 -0.001503048930317163901088095557 0.003053051186725496812107705225 0 0 0 0 
2416500000.0000000000 0.177385509014129610916299384371 -0.060814224183559417724609375000 -0.001314535969868301911595009912 0.003046641126275062994716025244 0 0 0 0 
2416666666.6666665077 0.177228972315788296798544365629 -0.060958955436944961547851562500 -0.001244921353645622947095561450 0.003149101976305245919468545068 0 0 0 0 
2416833333.3333334923 0.177087888121604891678018134371 -0.061549350619316101074218750000 -0.001040328061208128929138183594 0.003149566706269979910609579932 0 0 0 0 
2417000000.0000000000 0.176486626267433194259481865629 -0.061518311500549323345143903907 -0.001143538393080234961268759619 0.003114140592515469031092978369 0 0 0 0 
2417166666.6666665077 0.176136285066604586502236884371 -0.061770111322402947162668596093 -0.001034952583722769997240376050 0.003215961623936891989467001807 0 0 0 0 
2417333333.3333334923 0.175707578659057589431924384371 -0.061822574585676193237304687500 -0.000827534822747111320495605469 0.003056331770494579835178994287 0 0 0 0 
2417500000.0000000000 0.175097331404686001876669365629 -0.062202546745538711547851562500 -0.000841177534312009811401367188 0.003071124898269772963282919775 0 0 0 0 
2417666666.6666665077 0.174476757645606994628906250000 -0.062354035675525672222097028907 -0.000871128053404390811920166016 0.003150932956486939950230263818 0 0 0 0 
2417833333.3333334923 0.173781722784042386154013115629 -0.062454327940940856933593750000 -0.000657821365166455507278442383 0.003039754228666425184962607275 0 0 0 0 
2418000000.0000000000 0.172848626971244812011718750000 -0.063013061881065368652343750000 -0.000520500354468822479248046875 0.003182108746841549873352050781 0 0 0 0 
2418166666.6666665077 0.172049030661583002288494981258 -0.062968492507934570312500000000 -0.000481590919662267023890894757 0.003299936186522244973423623193 0 0 0 0 
2418333333.3333334923 0.171273931860923794845419365629 -0.063526190817356109619140625000 -0.000334191776346415281295776367 0.003255045041441916985752724756 0 0 0 0 
2418500000.0000000000 0.170123055577278109451455634371 -0.063753269612789154052734375000 -0.000337948615197092294692993164 0.003210014663636683984043740381 0 0 0 0 
2418666666.6666665077 0.169279485940933199783486884371 -0.064423434436321258544921875000 -0.000226046366151422289296826773 0.003119921078905462785008095850 0 0 0 0 
2418833333.3333334923 0.168006315827369689941406250000 -0.064861699938774108886718750000 -0.000177647671080194386556902475 0.003203333588317037062404013525 0 0 0 0 
2419000000.0000000000 0.166805475950241088867187500000 -0.065328657627105712890625000000 -0.000132821194711141288280487061 0.003195039229467511177062988281 0 0 0 0 
2419166666.6666665077 0.165644153952598599532919365629 -0.065957136452198028564453125000 0.000086362560978159308433532715 0.003141000401228665871861123193 0 0 0 0 
2419333333.3333334923 0.164218112826347406585369981258 -0.066509522497653961181640625000 0.000112281828478444394752225333 0.003151360433548688888549804688 0 0 0 0 
2419500000.0000000000 0.163217350840568486969317518742 -0.067559860646724700927734375000 0.000195331929717212888315477914 0.003123141126707195801975869287 0 0 0 0 
2419666666.6666665077 0.162169829010963412185830634371 -0.068356357514858245849609375000 0.000246981973759829998016357422 0.003192279022186994986293173682 0 0 0 0 
2419833333.3333334923 0.160882726311683710296307481258 -0.069308467209339141845703125000 0.000290015479549765586853027344 0.003236215328797698020935058594 0 0 0 0 
