# Hz S RI R 50
2400000000.0000000000 0.156263485550880404373330634371 0.062161985784769058227539062500 -0.001870498410426080010057758862 0.002799472073093057112452841650 0 0 0 0 
2400166666.6666665077 0.156209215521812411209268134371 0.060424547642469413066823591407 -0.001744981622323394038556743091 0.002844492904841899871826171875 0 0 0 0 
2400333333.3333334923 0.156073510646820096114950615629 0.058463823050260536884348283593 -0.001757737016305326981785439600 0.002832521451637148857116699219 0 0 0 0 
2400500000.0000000000 0.156121015548706110198651231258 0.056327488273382186889648437500 -0.001715123304165899970410991138 0.002927998779341578917262411963 0 0 0 0 
2400666666.6666665077 0.156130641698837308029013115629 0.054210875183343887329101562500 -0.001719355699606240012525248950 0.002844776725396513938903808594 0 0 0 0 
2400833333.3333334923 0.156627237796783502776776231258 0.052207365632057189941406250000 -0.001491837436333298900006938403 0.002979325596243143081665039062 0 0 0 0 
2401000000.0000000000 0.156777396798133905608807481258 0.049988090991973876953125000000 -0.001483645290136337063433003003 0.003059480339288711981532431494 0 0 0 0 
2401166666.6666665077 0.157065808773040799239950615629 0.047823213040828711772878278907 -0.001397905754856765053392719800 0.002927261404693127112147665869 0 0 0 0 
2401333333.3333334923 0.157354176044464111328125000000 0.045587249100208282470703125000 -0.001396548235788940949680947412 0.002942358842119574980494833838 0 0 0 0 
2401500000.0000000000 0.157646819949150113204794365629 0.043555580079555511474609375000 -0.001390361227095127105712890625 0.003280357690528035163879394531 0 0 0 0 
2401666666.6666665077 0.158457159996032687088174384371 0.041462324559688568115234375000 -0.001237161457538604953168559497 0.003235109616070985794067382812 0 0 0 0 
2401833333.3333334923 0.158969640731811495681924384371 0.039139479398727416992187500000 -0.001089497236534952900530170972 0.003230924485251307921168661963 0 0 0 0 
2402000000.0000000000 0.159330144524574307540731865629 0.037466622889041900634765625000 -0.000953132112044841051101684570 0.003159973304718732833862304688 0 0 0 0 
2402166666.6666665077 0.160096332430839510818643134371 0.035319603979587561870534528907 -0.000950321787968277931213378906 0.003242727136239409013035439600 0 0 0 0 
2402333333.3333334923 0.160827115178108187576455634371 0.033540241420269012451171875000 -0.000967841886449605226516723633 0.003254021517932415008544921875 0 0 0 0 
2402500000.0000000000 0.161967411637306213378906250000 0.031635049730539321899414062500 -0.000644896528683602809906005859 0.003319081617519259886500693213 0 0 0 0 
2402666666.6666665077 0.162529379129409790039062500000 0.029870333150029178964635079296 -0.000655407842714339494705200195 0.003318272996693849997279501807 0 0 0 0 
2402833333.3333334923 0.163592115044593811035156250000 0.028303259983658790588378906250 -0.000727650476619601249694824219 0.003510718466714024977443076025 0 0 0 0 
2403000000.0000000000 0.164513230323791503906250000000 0.026633804664015769958496093750 -0.000467322621261700987815856934 0.003469642018899321989772177588 0 0 0 0 
2403166666.6666665077 0.165572151541709899902343750000 0.025234084576368328439732735546 -0.000441457785200327580601292743 0.003349000355228782133815146338 0 0 0 0 
2403333333.3333334923 0.166711688041687011718750000000 0.023845819756388660776158516796 -0.000319564715027809088856297626 0.003414403880015016035792685400 0 0 0 0 
2403500000.0000000000 0.167668968439102200607138115629 0.022547582164406779897669608204 -0.000390137196518480777740478516 0.003547367639839649200439453125 0 0 0 0 
2403666666.6666665077 0.168609768152236910720986884371 0.021091369912028309213658516796 -0.000063256018620450049638748169 0.003480258630588651137111044775 0 0 0 0 
2403833333.3333334923 0.169840678572654696365518134371 0.019849782809615138662318045704 -0.000123320452985353794976911002 0.003486204892396926879882812500 0 0 0 0 
2404000000.0000000000 0.170781627297401400467080634371 0.019014505669474598276158516796 0.000124207610497251207202357159 0.003570807399228214783909463037 0 0 0 0 
2404166666.6666665077 0.171889305114746093750000000000 0.017964893952012058603306954296 0.000144814810482785105705261230 0.003527840832248330116271972656 0 0 0 0 
2404333333.3333334923 0.172863140702247591873330634371 0.017155613750219348562220389454 0.000195248430827632600634974347 0.003521081758663057847263955225 0 0 0 0 
2404500000.0000000000 0.173882603645324707031250000000 0.016119116917252540588378906250 0.000239517990848980789810734882 0.003567988751456141905543661963 0 0 0 0 
2404666666.6666665077 0.174842655658721896072549384371 0.015579892322421070444127266796 0.000456928304629400426715296613 0.003422184614464641051051474463 0 0 0 0 
2404833333.3333334923 0.175576433539390591720419365629 0.014929831959307190286656563671 0.000671436951961368322372436523 0.003629960818216205076930380713 0 0 0 0 
2405000000.0000000000 0.176603764295578002929687500000 0.014288498088717460632324218750 0.000854658894240856170654296875 0.003534346818923950195312500000 0 0 0 0 
2405166666.6666665077 0.177585497498512295821981865629 0.013700497336685659235944179102 0.000749411061406135559082031250 0.003490987000986934141871786963 0 0 0 0 
2405333333.3333334923 0.178216174244880704025106865629 0.013182109221816059457799141796 0.000962256337516009807586669922 0.003497820580378175215480185400 0 0 0 0 
2405500000.0000000000 0.178730279207229586502236884371 0.012974224053323270625104335352 0.001036593574099242904065776294 0.003651208709925413131713867188 0 0 0 0 
2405666666.6666665077 0.179589390754699707031250000000 0.012725757434964179992675781250 0.001272012945264578082441020435 0.003475547302514315085170126807 0 0 0 0 
2405833333.3333334923 0.179760187864303588867187500000 0.012366596609354019165039062500 0.001583540812134742953656840747 0.003180493833497167067286826025 0 0 0 0 
2406000000.0000000000 0.180523008108139010330361884371 0.012001979164779189718226248829 0.001572077744640409946441650391 0.003435431048274039788487099756 0 0 0 0 
2406166666.6666665077 0.180630847811698913574218750000 0.011834524571895599365234375000 0.001656346023082732937456440503 0.003299903124570846991298056494 0 0 0 0 
2406333333.3333334923 0.181233182549476595779580634371 0.011629523709416389465332031250 0.001793427160009741999982524341 0.003305312246084212823155068506 0 0 0 0 
2406500000.0000000000 0.181150138378143310546875000000 0.011420576833188530313512032421 0.002033518161624670028686523438 0.003204124979674816131591796875 0 0 0 0 
2406666666.6666665077 0.181162312626838711837606865629 0.011214647442102430516253086523 0.002109321998432279066798544775 0.003262940561398863792419433594 0 0 0 0 
2406833333.3333334923 0.181266590952873202224893134371 0.010738051496446129190465157421 0.002277098596096038818359375000 0.003043530508875846862792968750 0 0 0 0 
2407000000.0000000000 0.181178614497184808929119981258 0.010640064254403110849400704296 0.002411697292700409889221191406 0.002909068716689943833592080225 0 0 0 0 
2407166666.6666665077 0.181207403540611294845419365629 0.010403468273580070840855782421 0.002651161979883908791782998193 0.002835910534486175017115927588 0 0 0 0 
2407333333.3333334923 0.180719271302223205566406250000 0.009821508079767227172851562500 0.002567573683336377143859863281 0.002664247527718544006347656250 0 0 0 0 
2407500000.0000000000 0.180386543273925809005575615629 0.009511489421129226684570312500 0.002756667556241155104396201025 0.002706741448491812186000204932 0 0 0 0 
2407666666.6666665077 0.180033892393112210372763115629 0.009102823212742805480957031250 0.002877385588362812995910644531 0.002545919502153993086573935400 0 0 0 0 
2407833333.3333334923 0.179344356060028103927450615629 0.008489578962326049804687500000 0.002751974388957024054286337744 0.002373184077441691918614052881 0 0 0 0 
2408000000.0000000000 0.178912565112114008147869981258 0.007754585705697537335867597363 0.002980668796226381821873330225 0.002253915416076778931858681787 0 0 0 0 
2408166666.6666665077 0.178299248218536404708700615629 0.007224948145449162396902753613 0.003000670811161398887634277344 0.002233835402876139120814658057 0 0 0 0 
2408333333.3333334923 0.177843481302261408050213731258 0.006475986912846565246582031250 0.003009408945217729048487997900 0.001826829393394290967228554834 0 0 0 0 
2408500000.0000000000 0.176977649331092806717080634371 0.005448933690786361694335937500 0.003040187060832976861241006006 0.001771789509803056933759379810 0 0 0 0 
2408666666.6666665077 0.176215559244155911544638115629 0.004442266654223203659057617188 0.003096951404586433930637978662 0.001751361647620796940447163159 0 0 0 0 
2408833333.3333334923 0.175494670867919894119424384371 0.003456180682405828995945595850 0.003052274230867623849156045068 0.001488322741352021911023784106 0 0 0 0 
2409000000.0000000000 0.174609169363975497146768134371 0.002365807304158806800842285156 0.003185176756232976913452148438 0.001325635472312570051905966650 0 0 0 0 
2409166666.6666665077 0.173942938446998596191406250000 0.001078712870366870923283242334 0.002975551178678870201110839844 0.001261657685972749970079731519 0 0 0 0 
2409333333.3333334923 0.173122301697730990310830634371 -0.000202396840904839309767046518 0.003186653833836317062377929688 0.001207361463457345962524414062 0 0 0 0 
2409500000.0000000000 0.172230139374732998946981865629 -0.001854756381362677054164267432 0.003240307560190557999851845850 0.000953565642703324556350708008 0 0 0 0 
2409666666.6666665077 0.171523511409759493728799384371 -0.003079055808484553857090615381 0.003157907165586947961094521631 0.000782735936809331178665161133 0 0 0 0 
2409833333.3333334923 0.170780912041664095779580634371 -0.004596328828483819961547851562 0.003140529617667198181152343750 0.000815360923297703266143798828 0 0 0 0 
2410000000.0000000000 0.170166209340095492263955634371 -0.006298285443335772428030683301 0.003103504655882716178894042969 0.000617772282566875219345092773 0 0 0 0 
2410166666.6666665077 0.169697880744934109786825615629 -0.008008589036762714385986328125 0.003180367173627018928527832031 0.000519480439834296703338623047 0 0 0 0 
2410333333.3333334923 0.168832033872604397872763115629 -0.009864333085715770721435546875 0.003305905964225531058070517432 0.000383725244319066405296325684 0 0 0 0 
2410500000.0000000000 0.168461516499519403655682481258 -0.011589778587222099304199218750 0.003208623966202139854431152344 0.000127444844110868898317059927 0 0 0 0 
2410666666.6666665077 0.167794451117515591720419365629 -0.013728180900216100865374180273 0.002992671681568026976344443213 0.000118116520752664696104587694 0 0 0 0 
2410833333.3333334923 0.167528539896011408050213731258 -0.015497764572501180821428867773 0.003025260288268328146693564307 0.000019482255083858038892949752 0 0 0 0 
2411000000.0000000000 0.167280241847038296798544365629 -0.017408048734068870544433593750 0.003060514805838466124293661963 -0.000272602628683671409457606183 0 0 0 0 
2411166666.6666665077 0.167048737406730707366619981258 -0.019647592678666118276575858204 0.003188602160662413077113486182 -0.000314494332997128421634119855 0 0 0 0 
2411333333.3333334923 0.166773900389671297928018134371 -0.021516826003789901733398437500 0.003005911596119403839111328125 -0.000453420245321467518806457520 0 0 0 0 
2411500000.0000000000 0.166660726070404108245526231258 -0.023648336529731750488281250000 0.002878010272979735894444131006 -0.000521106121595948934555053711 0 0 0 0 
2411666666.6666665077 0.166776999831199701507244981258 -0.025650309398770328866978829296 0.002953384770080447196960449219 -0.000633147603366523981094360352 0 0 0 0 
2411833333.3333334923 0.166911050677299499511718750000 -0.027622377499938011169433593750 0.002765506738796830177307128906 -0.000852553988806903362274169922 0 0 0 0 
2412000000.0000000000 0.167090237140655489822549384371 -0.029737273231148719787597656250 0.002660016529262065887451171875 -0.001005614991299808025360107422 0 0 0 0 
2412166666.6666665077 0.167161703109741210937500000000 -0.031645625829696662212331403907 0.002555505605414510206935263525 -0.001140516600571572997449565356 0 0 0 0 
2412333333.3333334923 0.167720869183540288727130018742 -0.033763866871595382690429687500 0.002531560603529214859008789062 -0.001197438105009495995165180737 0 0 0 0 
2412500000.0000000000 0.167960882186889703948651231258 -0.035425812005996697162668596093 0.002525126328691840171813964844 -0.001312434673309325955034565503 0 0 0 0 
2412666666.6666665077 0.168493926525115994552450615629 -0.037505377084016799926757812500 0.002218463458120822906494140625 -0.001419945037923753044725727612 0 0 0 0 
2412833333.3333334923 0.169047653675079401214276231258 -0.039238620549440376972238908593 0.002157361246645451025721884619 -0.001482641091570257923723530347 0 0 0 0 
2413000000.0000000000 0.169584393501281710525674384371 -0.041157949715852737426757812500 0.002073534531518816947937011719 -0.001545995939522982077357626807 0 0 0 0 
2413166666.6666665077 0.169966071844101007659588731258 -0.042820557951927191997487653907 0.001741635496728122017504047925 -0.001692448044195771000505756909 0 0 0 0 
2413333333.3333334923 0.170563787221908597091513115629 -0.044512990862131118774414062500 0.001734673511236906051635742188 -0.001666710013523698069928813403 0 0 0 0 
2413500000.0000000000 0.171368613839149502853231865629 -0.045984178781509399414062500000 0.001690309494733809991123818506 -0.001748220296576618931413960034 0 0 0 0 
2413666666.6666665077 0.172112688422203091720419365629 -0.047604933381080627441406250000 0.001425963477231561920763325269 -0.001717583509162067933323525537 0 0 0 0 
2413833333.3333334923 0.172608181834220886230468750000 -0.048870619386434561992604841407 0.001291004358790815093396830981 -0.001787568675354122898699116284 0 0 0 0 
2414000000.0000000000 0.173303291201591491699218750000 -0.050311800092458731914479841407 0.001133912010118365070940327222 -0.001934904255904257080675434644 0 0 0 0 
2414166666.6666665077 0.173975899815559387207031250000 -0.051380742341279976581613908593 0.000901530496776103973388671875 -0.001669149729423224925994873047 0 0 0 0 
2414333333.3333334923 0.174471840262412997146768134371 -0.052662242203950881958007812500 0.000827658630441874265670776367 -0.001741695683449506976483989185 0 0 0 0 
2414500000.0000000000 0.175359711050987188141192518742 -0.053591243922710418701171875000 0.000636322423815727233886718750 -0.001733721350319683985469199072 0 0 0 0 
2414666666.6666665077 0.175944790244102505782919365629 -0.054426919668912887573242187500 0.000568192102946341037750244141 -0.001697237137705088095424033057 0 0 0 0 
2414833333.3333334923 0.176338806748390197753906250000 -0.055332649499177932739257812500 0.000390828965464606881141662598 -0.001577742164954542896868061597 0 0 0 0 
2415000000.0000000000 0.176871821284294100662393134371 -0.055914565920829772949218750000 0.000201803617528639706686297006 -0.001459421589970588900922465747 0 0 0 0 
2415166666.6666665077 0.177347898483276394943075615629 -0.056667808443307876586914062500 0.000050975468184333301406314237 -0.001531546935439110019086528247 0 0 0 0 
2415333333.3333334923 0.178006738424301202972088731258 -0.057273805141448981548268903907 -0.000016655338185955770313739777 -0.001385829877108335928675986182 0 0 0 0 
2415500000.0000000000 0.178166329860687311370526231258 -0.057780772447586059570312500000 -0.000051889572205254808068275452 -0.001229693880304693958879780347 0 0 0 0 
2415666666.6666665077 0.178374662995338412185830634371 -0.058115549385547637939453125000 -0.000033813208574429147619793551 -0.001191788120195270018336630713 0 0 0 0 
2415833333.3333334923 0.178711220622062710861044365629 -0.058403804898262016986887346093 -0.000127121005789376795291900635 -0.001140008098445832946180034106 0 0 0 0 
2416000000.0000000000 0.178519368171691894531250000000 -0.058740243315696723247487653907 -0.000275834754575043916702270508 -0.000900115701369941234588623047 0 0 0 0 
2416166666.6666665077 0.178771212697029113769531250000 -0.058941114693880081176757812500 -0.000363153434591367786556798114 -0.000807168777100741863250732422 0 0 0 0 
2416333333.3333334923 0.178649783134460504729901231258 -0.059093356132507317279856096093 -0.000308077287627384120791834698 -0.000608784204814583063125610352 0 0 0 0 
2416500000.0000000000 0.178435340523719787597656250000 -0.059244252741336822509765625000 -0.000319559825584292411804199219 -0.000726152095012366771697998047 0 0 0 0 
2416666666.6666665077 0.178130373358726501464843750000 -0.059379421174526221538503278907 -0.000387150503229349905818384991 -0.000519577704835683107376098633 0 0 0 0 
2416833333.3333334923 0.177931725978851290603799384371 -0.059632636606693267822265625000 -0.000263436289969831705093383789 -0.000477674941066652482182103290 0 0 0 0 
2417000000.0000000000 0.177215009927749606033486884371 -0.059823319315910339355468750000 -0.000426114042056724374920445575 -0.000417969218688085675239562988 0 0 0 0 
2417166666.6666665077 0.176776722073554992675781250000 -0.059797383844852447509765625000 -0.000352428352925926501124781476 -0.000289436196908354813426417218 0 0 0 0 
2417333333.3333334923 0.176090329885482788085937500000 -0.059838019311428070068359375000 -0.000261769135249778574139195575 -0.000159389732289128005504608154 0 0 0 0 
2417500000.0000000000 0.175272673368454007247763115629 -0.060196630656719207763671875000 -0.000166820886079221990987500601 -0.000153207947732880711555480957 0 0 0 0 
2417666666.6666665077 0.174619704484939602950888115629 -0.060224287211894989013671875000 -0.000270337128313258290290832520 -0.000065724547312129288911819458 0 0 0 0 
2417833333.3333334923 0.173702418804168701171875000000 -0.060431472957134246826171875000 -0.000208727811696007901996058331 -0.000152280947077088112204951154 0 0 0 0 
2418000000.0000000000 0.172571465373039301116619981258 -0.060904566198587417602539062500 -0.000359920057235285585552769794 0.000112002227979246499851503915 0 0 0 0 
2418166666.6666665077 0.171489551663398687164630018742 -0.061090376228094100952148437500 -0.000135853115352802005693158560 0.000022465043002739548683166504 0 0 0 0 
2418333333.3333334923 0.170658230781555203536825615629 -0.061381164938211441040039062500 -0.000219996611122041886478978290 0.000122735320474021109655657358 0 0 0 0 
2418500000.0000000000 0.169251143932342501541299384371 -0.061811730265617370605468750000 -0.000071146569098345935344696045 0.000144606674439273801728925162 0 0 0 0 
2418666666.6666665077 0.168240696191787691970986884371 -0.062420114874839782714843750000 -0.000130631058709695908144274301 0.000119471253128722296513695988 0 0 0 0 
2418833333.3333334923 0.166771069169044494628906250000 -0.062836401164531707763671875000 -0.000105090075521729900084356990 0.000151215324876830008908948355 0 0 0 0 
2419000000.0000000000 0.165305897593498202224893134371 -0.063564047217369079589843750000 0.000018457114492775868961607286 0.000253681646427139585644322528 0 0 0 0 
2419166666.6666665077 0.164144665002822903732138115629 -0.064303867518901824951171875000 0.000046263750846264877099583285 0.000114387294161133495256146841 0 0 0 0 
2419333333.3333334923 0.162798658013343811035156250000 -0.065002448856830596923828125000 0.000085484003648161888122558594 0.000296608166536316275596618652 0 0 0 0 
2419500000.0000000000 0.161606132984161404708700615629 -0.066029235720634460449218750000 0.000031133818993112072348594666 0.000373286049580201506614685059 0 0 0 0 
2419666666.6666665077 0.160440072417259188553018134371 -0.067061312496662139892578125000 0.000035475652111927047371864319 0.000498067412991076707839965820 0 0 0 0 
2419833333.3333334923 0.159045159816741887848223768742 -0.067944191396236419677734375000 0.000045566772314487031917979581 0.000392366986488923376232701434 0 0 0 0 
