# Hz S RI R 
2400000000.0000000000 0.155600249767303494552450615629 0.106805376708507496208433451557 -0.003495686454698442979099892725 -0.003828425891697407202479697119 0 0 0 0 
2400166666.6666665077 0.155319437384605407714843750000 0.103968620300292996505575615629 -0.003017844399437307877781533350 -0.003931545186787843704223632812 0 0 0 0 
2400333333.3333334923 0.155520871281623812576455634371 0.101890973746776594688334682814 -0.004258250817656517028808593750 -0.003377676010131835937500000000 0 0 0 0 
2400500000.0000000000 0.155217483639717102050781250000 0.099272288382053375244140625000 -0.005097622983157634735107421875 -0.003567954525351523919346474756 0 0 0 0 
2400666666.6666665077 0.155475720763206509689169365629 0.096486136317253112792968750000 -0.003769079921767116026637411963 -0.002467899350449442863464355469 0 0 0 0 
2400833333.3333334923 0.155239999294281005859375000000 0.093650691211223602294921875000 -0.004335248377174139022827148438 -0.002677933080121874809265136719 0 0 0 0 
2401000000.0000000000 0.155616715550422696212606865629 0.090782329440116882324218750000 -0.004249347839504480361938476562 -0.002437275601550937132594443213 0 0 0 0 
2401166666.6666665077 0.155455008149147005935830634371 0.088032670319080352783203125000 -0.004188434686511754989624023438 -0.001989932730793952941894531250 0 0 0 0 
2401333333.3333334923 0.155881509184837313553018134371 0.085123568773269653320312500000 -0.004305292386561632156372070312 -0.001883211894892155907274555737 0 0 0 0 
2401500000.0000000000 0.156293392181396512130575615629 0.082192473113536834716796875000 -0.004076567478477954864501953125 -0.001526335487142205021501850659 0 0 0 0 
2401666666.6666665077 0.156606853008270291427450615629 0.079470761120319366455078125000 -0.003974365070462226867675781250 -0.001351089333184063000919961084 0 0 0 0 
2401833333.3333334923 0.157208472490310696700888115629 0.076449051499366760253906250000 -0.003815812524408102035522460938 -0.001264114747755229906794882666 0 0 0 0 
2402000000.0000000000 0.158030301332473810393963731258 0.073847167193889617919921875000 -0.003653639927506446838378906250 -0.001053367508575320026995014722 0 0 0 0 
2402166666.6666665077 0.158937141299247686188067518742 0.071175254881381988525390625000 -0.003570505883544683890101767432 -0.000932673865463584661483764648 0 0 0 0 
2402333333.3333334923 0.159636124968528803069744981258 0.068421356379985809326171875000 -0.003441669512540102005004882812 -0.000793829269241541624069213867 0 0 0 0 
2402500000.0000000000 0.160804763436317388336505018742 0.065869733691215515136718750000 -0.003375716973096131844761513818 -0.000766754208598285913467407227 0 0 0 0 
2402666666.6666665077 0.161944106221199007888955634371 0.063568420708179473876953125000 -0.003374864347279071807861328125 -0.000864130794070661067962646484 0 0 0 0 
2402833333.3333334923 0.163368180394172696212606865629 0.061187267303466796875000000000 -0.003303403966128826141357421875 -0.000882825930602848529815673828 0 0 0 0 
2403000000.0000000000 0.164756268262863186935263115629 0.058807425200939178466796875000 -0.003264781786128879027125693213 -0.000737355847377330064773559570 0 0 0 0 
2403166666.6666665077 0.166445374488830594161825615629 0.056362140923738479614257812500 -0.003175295656546949906590127100 -0.000676244031637907028198242188 0 0 0 0 
2403333333.3333334923 0.167774379253387506683026231258 0.054230656474828720092773437500 -0.003106335876509546799900673975 -0.000862009241245687007904052734 0 0 0 0 
2403500000.0000000000 0.169514268636703491210937500000 0.052246131002902991558034528907 -0.003152325749397277832031250000 -0.000619388476479798555374145508 0 0 0 0 
2403666666.6666665077 0.171247169375419588943643134371 0.050307713449001312255859375000 -0.003274119226261972947361611475 -0.000684037862811237573623657227 0 0 0 0 
2403833333.3333334923 0.172970578074455288986044365629 0.048424027860164642333984375000 -0.003277517622336744828465127100 -0.000449372804723680019378662109 0 0 0 0 
2404000000.0000000000 0.174318730831146212478799384371 0.046635504812002182006835937500 -0.003335910150781273841857910156 -0.000457322050351649522781372070 0 0 0 0 
2404166666.6666665077 0.176263630390167208572549384371 0.045191720128059387207031250000 -0.003383994335308670997619628906 -0.000366006337571889216273707257 0 0 0 0 
2404333333.3333334923 0.178025573492050198654013115629 0.043439250439405441284179687500 -0.003284899750724434852600097656 -0.000117613562906626598395486150 0 0 0 0 
2404500000.0000000000 0.179276198148727389236611884371 0.042215090245008468627929687500 -0.003317788708955049948451376807 0.000049234589823754497546742098 0 0 0 0 
2404666666.6666665077 0.181195691227912902832031250000 0.041075456887483596801757812500 -0.002944745356217027144191122900 0.000058444893511477857828140259 0 0 0 0 
2404833333.3333334923 0.182884246110916109939736884371 0.040085334330797202373464216407 -0.003201159881427884101867675781 0.000072479713708162307739257812 0 0 0 0 
2405000000.0000000000 0.184216558933258112151776231258 0.039261005818843841552734375000 -0.003103265073150395913365029443 0.000060402777307899668812751770 0 0 0 0 
2405166666.6666665077 0.185665413737297113616619981258 0.038789112120866782451589216407 -0.003114231862127780914306640625 0.000391146924812346696853637695 0 0 0 0 
2405333333.3333334923 0.186958834528923006912393134371 0.038101553916931152343750000000 -0.002958896337077022032496786963 0.000221799054997973089844304218 0 0 0 0 
2405500000.0000000000 0.188441112637519808670205634371 0.037801284343004226684570312500 -0.003007941646501421928405761719 0.000446347083197906613349914551 0 0 0 0 
2405666666.6666665077 0.189648553729057312011718750000 0.037342868745327002788503278907 -0.002739864168688654899597167969 0.000469495542347431182861328125 0 0 0 0 
2405833333.3333334923 0.190944001078605707366619981258 0.037162940949201576923410783593 -0.002811092883348464965820312500 0.000591028889175504446029663086 0 0 0 0 
2406000000.0000000000 0.191943630576133700271768134371 0.036950904875993728637695312500 -0.002516052918508648872375488281 0.000530879711732268333435058594 0 0 0 0 
2406166666.6666665077 0.192846909165382413009481865629 0.036802899092435836791992187500 -0.002498281886801124052760458838 0.000566268048714846372604370117 0 0 0 0 
2406333333.3333334923 0.193893224000930786132812500000 0.036863703280687332153320312500 -0.002490957267582416968104697119 0.000710938824340701103210449219 0 0 0 0 
2406500000.0000000000 0.194552600383758489410723768742 0.036798272281885147094726562500 -0.002416865434497594833374023438 0.000753140251617878675460815430 0 0 0 0 
2406666666.6666665077 0.195241034030914306640625000000 0.036996182054281241680104841407 -0.002304928842931985855102539062 0.000588924915064126253128051758 0 0 0 0 
2406833333.3333334923 0.195712253451347406585369981258 0.036906152963638312602956403907 -0.002325812354683876037597656250 0.000528449949342757463455200195 0 0 0 0 
2407000000.0000000000 0.195927694439888000488281250000 0.037176687270402908325195312500 -0.002206219825893640951869345557 0.000532819714862853288650512695 0 0 0 0 
2407166666.6666665077 0.196198627352714510818643134371 0.036910764873027801513671875000 -0.002168932929635047912597656250 0.000524093979038298130035400391 0 0 0 0 
2407333333.3333334923 0.196146428585052490234375000000 0.037161182612180709838867187500 -0.002127979882061481909510947119 0.000319467391818761825561523438 0 0 0 0 
2407500000.0000000000 0.196085244417190607268963731258 0.037376806139945976947824846093 -0.002197493799030780792236328125 0.000228541161050088703632354736 0 0 0 0 
2407666666.6666665077 0.196092128753662109375000000000 0.037105571478605270385742187500 -0.002172993961721659140345908057 0.000362140010111033916473388672 0 0 0 0 
2407833333.3333334923 0.195545673370361300369424384371 0.037140239030122756958007812500 -0.002168083796277641816380166162 0.000313282769639045000076293945 0 0 0 0 
2408000000.0000000000 0.195425570011138888260049384371 0.036979522556066513061523437500 -0.002173295244574546813964843750 0.000371328322216868400573730469 0 0 0 0 
2408166666.6666665077 0.194870844483375604827557481258 0.036693692207336432720143903907 -0.002190724248066544966456747900 0.000190743725397624102517804556 0 0 0 0 
2408333333.3333334923 0.194409057497978210449218750000 0.036208156496286392211914062500 -0.002347462810575962066650390625 0.000000380946943323578981828486 0 0 0 0 
2408500000.0000000000 0.193585127592086791992187500000 0.035962712019681930541992187500 -0.002424009842798113822937011719 -0.000045828659494873143058230741 0 0 0 0 
2408666666.6666665077 0.193021163344383211990518134371 0.035450506955385208129882812500 -0.002603245899081230163574218750 -0.000145370344398543211534777231 0 0 0 0 
2408833333.3333334923 0.192399978637695312500000000000 0.034801665693521499633789062500 -0.002567423041909933090209960938 -0.000091090332716703414916992188 0 0 0 0 
2409000000.0000000000 0.191265285015106201171875000000 0.033840041607618331909179687500 -0.002775776898488401932957314600 -0.000227937096497043994352063589 0 0 0 0 
2409166666.6666665077 0.190346434712410000900106865629 0.032858949154615402221679687500 -0.003079082584008574919459677588 -0.000150391177157871398046770639 0 0 0 0 
2409333333.3333334923 0.189499035477638189117755018742 0.031912866979837417602539062500 -0.003167632268741726875305175781 -0.000060362435760907828807830811 0 0 0 0 
2409500000.0000000000 0.188242077827453613281250000000 0.030615197494626048696497733204 -0.003340774914249777793884277344 -0.000030500652428600009193624190 0 0 0 0 
2409666666.6666665077 0.187281310558319091796875000000 0.029287012293934818613072579296 -0.003363115713000297980067587744 0.000392378249671310186386108398 0 0 0 0 
2409833333.3333334923 0.186324685811996487716513115629 0.027721906080842021596888358204 -0.003515134565532207922694540869 0.000405327737098559682995396747 0 0 0 0 
2410000000.0000000000 0.185173124074935913085937500000 0.026073105633258819580078125000 -0.003653186373412609100341796875 0.000428371335146948695182800293 0 0 0 0 
2410166666.6666665077 0.184036135673523004729901231258 0.024235174059867858886718750000 -0.003640051931142807006835937500 0.000702193705365061759948730469 0 0 0 0 
2410333333.3333334923 0.183160841464996310135049384371 0.022526262328028678894042968750 -0.003808113979175686836242675781 0.000988319749012589454650878906 0 0 0 0 
2410500000.0000000000 0.182201534509658813476562500000 0.020523291081190109252929687500 -0.003812031587585806846618652344 0.001185378408990799947025918115 0 0 0 0 
2410666666.6666665077 0.181294441223144503494424384371 0.018298871815204620361328125000 -0.003648756770417093796970986475 0.001223691389895976023433066260 0 0 0 0 
2410833333.3333334923 0.180749341845512390136718750000 0.016265280544757839548131173046 -0.003902601776644587950465536963 0.001561698853038250966313027490 0 0 0 0 
2411000000.0000000000 0.179754421114921597579794365629 0.013989174738526340829869454296 -0.003672325517982244925258017432 0.001777384779416024901746440356 0 0 0 0 
2411166666.6666665077 0.179158255457878112792968750000 0.011771989054977890359898751171 -0.003641656832769513130187988281 0.001963222865015267892124795068 0 0 0 0 
2411333333.3333334923 0.178848519921302795410156250000 0.009150269441306591033935546875 -0.003434746991842985153198242188 0.002019841689616442160365439307 0 0 0 0 
2411500000.0000000000 0.178156822919845608810263115629 0.006897832266986370086669921875 -0.003453311976045370101928710938 0.002242554211989045143127441406 0 0 0 0 
2411666666.6666665077 0.177970543503761291503906250000 0.004388464614748954772949218750 -0.003331356449052691893336630713 0.002320098225027323202845908057 0 0 0 0 
2411833333.3333334923 0.177693992853164700607138115629 0.002158683026209474043605185400 -0.003269073553383349938633584131 0.002397458767518401145935058594 0 0 0 0 
2412000000.0000000000 0.178034648299217196365518134371 -0.000453277607448399121135157452 -0.003210086841136217117309570312 0.002462766598910092873814248193 0 0 0 0 
2412166666.6666665077 0.177925467491149902343750000000 -0.002934207674115895791294716943 -0.003170085139572619958164834131 0.002599738771095871925354003906 0 0 0 0 
2412333333.3333334923 0.178116485476493807693643134371 -0.005313726142048835754394531250 -0.002845869399607181982753134619 0.002528142882511020140406943213 0 0 0 0 
2412500000.0000000000 0.178587839007377596756143134371 -0.007860929705202579498291015625 -0.003041302086785436110255576025 0.002638582838699222044703818213 0 0 0 0 
2412666666.6666665077 0.179044753313064602950888115629 -0.010280229151248930150042149023 -0.002933355746790767149684286963 0.002732272027060389952418661963 0 0 0 0 
2412833333.3333334923 0.179738923907279996017294365629 -0.012813791632652279245396798046 -0.002853530226275324821472167969 0.002694234019145369963404990088 0 0 0 0 
2413000000.0000000000 0.180450618267059298416299384371 -0.015047930181026460474957850977 -0.002992315916344522996189736475 0.002603317378088831901550292969 0 0 0 0 
2413166666.6666665077 0.181220188736915588378906250000 -0.017385425046086311340332031250 -0.002955623902380466894862509619 0.002895680023357272148132324219 0 0 0 0 
2413333333.3333334923 0.182325407862663296798544365629 -0.019619751721620559692382812500 -0.002925689332187176184413290869 0.003011070890352129936218261719 0 0 0 0 
2413500000.0000000000 0.183203354477882413009481865629 -0.021838771179318431508997733204 -0.002875213045626879172084189307 0.003039402188733220100402832031 0 0 0 0 
2413666666.6666665077 0.184380352497100802322549384371 -0.023990310728549960744837576954 -0.002935732482001184983494423975 0.003253331175073980851414345850 0 0 0 0 
2413833333.3333334923 0.185441970825195312500000000000 -0.026078041642904281616210937500 -0.002897894941270350976231240381 0.003354286542162299156188964844 0 0 0 0 
2414000000.0000000000 0.186595380306243896484375000000 -0.028002826496958729135533516796 -0.002797510009258985953090048682 0.003470334922894835905787802588 0 0 0 0 
2414166666.6666665077 0.187877982854843111892861884371 -0.029768222942948341369628906250 -0.002803584095090628103968954932 0.003722698194906115965602255713 0 0 0 0 
2414333333.3333334923 0.189135372638702392578125000000 -0.031852025538682937622070312500 -0.002499676775187253952026367188 0.003899685107171535925624228369 0 0 0 0 
2414500000.0000000000 0.190222054719924899002236884371 -0.033380132168531417846679687500 -0.002451205858960748152491904150 0.004070637747645378112792968750 0 0 0 0 
2414666666.6666665077 0.191392719745635986328125000000 -0.034834109246730797504465471093 -0.002398671349510550932643271338 0.004259067587554454803466796875 0 0 0 0 
2414833333.3333334923 0.192570969462394686599893134371 -0.036120500415563583374023437500 -0.002126697450876235961914062500 0.004499324597418308258056640625 0 0 0 0 
2415000000.0000000000 0.193661972880363492111044365629 -0.037411980330944061279296875000 -0.001909912680275738022447895581 0.004672757349908351898193359375 0 0 0 0 
2415166666.6666665077 0.195006951689720209319744981258 -0.038449782878160476684570312500 -0.001737569575197994925855327075 0.004991730675101280212402343750 0 0 0 0 
2415333333.3333334923 0.196085482835769708831463731258 -0.039401128888130187988281250000 -0.001392198377288877964019775391 0.005099130794405937194824218750 0 0 0 0 
2415500000.0000000000 0.197164759039878900725994981258 -0.040187712758779532695729841407 -0.001279348507523536898969340747 0.005042634438723325729370117188 0 0 0 0 
2415666666.6666665077 0.198065102100372286697549384371 -0.040889170020818710327148437500 -0.000837855739519000053405761719 0.005103504750877618789672851562 0 0 0 0 
2415833333.3333334923 0.199034094810485812088174384371 -0.041578717529773712158203125000 -0.000555383390747010707855224609 0.005287435371428728103637695312 0 0 0 0 
2416000000.0000000000 0.199720129370689392089843750000 -0.042113520205020911479909528907 -0.000289871561108156984478551044 0.005153062753379344940185546875 0 0 0 0 
2416166666.6666665077 0.200423166155815096756143134371 -0.042715318500995642925222028907 -0.000099889126431662589311599731 0.005230973474681377410888671875 0 0 0 0 
2416333333.3333334923 0.201015740633010892013388115629 -0.042792219668626792217214216407 0.000105625033029355095185418401 0.005112656392157077789306640625 0 0 0 0 
2416500000.0000000000 0.201484918594360407073651231258 -0.043052099645137786865234375000 0.000397720141336321776539403094 0.005067914258688688278198242188 0 0 0 0 
2416666666.6666665077 0.201779618859291104415731865629 -0.043266873806715011596679687500 0.000633718620520085096359252930 0.005091759841889142990112304688 0 0 0 0 
2416833333.3333334923 0.201919049024581909179687500000 -0.043327394872903816913645158593 0.000849841337185353040695190430 0.004829064011573792371267987988 0 0 0 0 
2417000000.0000000000 0.202072158455848693847656250000 -0.043360482901334762573242187500 0.001084893709048629023908305591 0.004742093849927186965942382812 0 0 0 0 
2417166666.6666665077 0.201717510819435091873330634371 -0.043180134147405617450754533593 0.001121117151342331929447793115 0.004710872191935777664184570312 0 0 0 0 
2417333333.3333334923 0.201482921838760403732138115629 -0.043035626411437988281250000000 0.001302780932746828036067343604 0.004440931603312492370605468750 0 0 0 0 
2417500000.0000000000 0.201166734099388094803018134371 -0.042999889701604843139648437500 0.001527114422060549042345356519 0.004422451835125684738159179688 0 0 0 0 
2417666666.6666665077 0.200620099902152987381143134371 -0.042627148330211639404296875000 0.001750135212205349965336464990 0.004313416779041290283203125000 0 0 0 0 
2417833333.3333334923 0.200234338641166687011718750000 -0.042346734553575522685964216407 0.001706947223283350901362753760 0.004229079466313123703002929688 0 0 0 0 
2418000000.0000000000 0.199612483382225008865518134371 -0.042124345898628241802175153907 0.001871259417384862899780273438 0.004020706750452519330496503613 0 0 0 0 
2418166666.6666665077 0.198741674423217801193075615629 -0.041949536651372909545898437500 0.001938062137924134948133159106 0.003865283681079744858982705225 0 0 0 0 
2418333333.3333334923 0.197746366262435913085937500000 -0.041771378368139266967773437500 0.002056186320260167121887207031 0.003749595023691654205322265625 0 0 0 0 
2418500000.0000000000 0.196746319532394409179687500000 -0.041771486401557922363281250000 0.002089290646836162047145224463 0.003854790469631553129908896338 0 0 0 0 
2418666666.6666665077 0.195830464363098089020098768742 -0.041552130132913589477539062500 0.002230025595054029984715127100 0.003652187529951333999633789062 0 0 0 0 
2418833333.3333334923 0.194615691900253295898437500000 -0.041698370128870010375976562500 0.002359404228627682165858603369 0.003281828714534639878513955225 0 0 0 0 
2419000000.0000000000 0.193201348185539301116619981258 -0.042019598186016082763671875000 0.002286065835505723953247070312 0.003175808582454919815063476562 0 0 0 0 
2419166666.6666665077 0.191998302936554010589276231258 -0.042087871581315987323801408593 0.002312752185389399962184286963 0.003213863819837570190429687500 0 0 0 0 
2419333333.3333334923 0.190691396594047601897869981258 -0.042547199875116348266601562500 0.002325114561244844956638955225 0.002992323134094477133509970557 0 0 0 0 
2419500000.0000000000 0.189026221632957486251669365629 -0.042937252670526511455495466407 0.002314178040251135826110839844 0.002840133616700768904445029150 0 0 0 0 
2419666666.6666665077 0.187491014599800109863281250000 -0.043705027550458908081054687500 0.002334485761821269989013671875 0.002922517014667392210719443213 0 0 0 0 
2419833333.3333334923 0.185995921492576599121093750000 -0.044527232646942138671875000000 0.002474959706887602806091308594 0.002766887191683053970336914062 0 0 0 0 
