# Version 1.00
#
freq[Hz];re:Trc1_S11;im:Trc1_S11;re:Trc2_S21;im:Trc2_S21;
2.400000000000000E+009;1.549472510814667E-001;1.068686842918396E-001;-1.793310046195984E-003;4.036266356706619E-003;
2.400166666666667E+009;1.547371298074722E-001;1.044043079018593E-001;-1.856142422184348E-003;4.391405731439591E-003;
2.400333333333334E+009;1.547358036041260E-001;1.021550595760346E-001;-1.701169647276402E-003;4.412413109093905E-003;
2.400500000000000E+009;1.546076089143753E-001;9.936217963695526E-002;-1.632035593502224E-003;4.643585998564959E-003;
2.400666666666667E+009;1.548945754766464E-001;9.686423093080521E-002;-1.510887988843024E-003;4.726517479866743E-003;
2.400833333333334E+009;1.545668244361877E-001;9.396122395992279E-002;-1.447185990400612E-003;4.701972007751465E-003;
2.401000000000000E+009;1.547967493534088E-001;9.107872098684311E-002;-1.206827932037413E-003;4.964897409081459E-003;
2.401166666666667E+009;1.549061089754105E-001;8.848597854375839E-002;-1.166778150945902E-003;4.916118923574686E-003;
2.401333333333334E+009;1.552401334047318E-001;8.561931550502777E-002;-1.044560223817825E-003;5.289868451654911E-003;
2.401500000000000E+009;1.556913703680039E-001;8.258962631225586E-002;-1.060297247022390E-003;5.348232574760914E-003;
2.401666666666667E+009;1.558246761560440E-001;7.974814623594284E-002;-1.001333817839623E-003;5.422623828053474E-003;
2.401833333333334E+009;1.563743501901627E-001;7.696033269166946E-002;-6.209409330040216E-004;5.541168153285980E-003;
2.402000000000000E+009;1.571965068578720E-001;7.439885288476944E-002;-3.907133068423718E-004;5.870365072041750E-003;
2.402166666666667E+009;1.582428216934204E-001;7.173291593790054E-002;-3.837633703369647E-004;6.001784466207027E-003;
2.402333333333334E+009;1.590650528669357E-001;6.892114132642746E-002;-1.552927133161575E-004;6.028493400663137E-003;
2.402500000000000E+009;1.601935923099518E-001;6.650197505950928E-002;1.307319325860590E-005;6.202275399118662E-003;
2.402666666666667E+009;1.614191383123398E-001;6.419042497873306E-002;2.109142660629004E-004;6.363872904330492E-003;
2.402833333333334E+009;1.627038121223450E-001;6.168649345636368E-002;7.261937716975808E-004;6.519168149679899E-003;
2.403000000000000E+009;1.640019565820694E-001;5.933767929673195E-002;9.124747011810541E-004;6.577283143997192E-003;
2.403166666666667E+009;1.658113747835159E-001;5.706074088811874E-002;1.353196217678487E-003;6.676378659904003E-003;
2.403333333333334E+009;1.673078685998917E-001;5.498733744025230E-002;1.635258900932968E-003;6.796165835112333E-003;
2.403500000000000E+009;1.690516024827957E-001;5.287136882543564E-002;2.073980169370771E-003;6.462829187512398E-003;
2.403666666666667E+009;1.706926673650742E-001;5.097766220569611E-002;2.510689897462726E-003;6.714775227010250E-003;
2.403833333333334E+009;1.723793298006058E-001;4.898089542984963E-002;2.888835966587067E-003;6.554465740919113E-003;
2.404000000000000E+009;1.739021390676498E-001;4.726671427488327E-002;3.426626091822982E-003;6.356763187795878E-003;
2.404166666666667E+009;1.756501495838165E-001;4.588921740651131E-002;3.821209771558642E-003;6.216139532625675E-003;
2.404333333333334E+009;1.773383170366287E-001;4.427338391542435E-002;4.284888505935669E-003;5.889951717108488E-003;
2.404500000000000E+009;1.788506954908371E-001;4.293705895543098E-002;4.441858734935522E-003;5.578126758337021E-003;
2.404666666666667E+009;1.805295199155808E-001;4.168434068560600E-002;4.735815338790417E-003;5.297400988638401E-003;
2.404833333333334E+009;1.818929314613342E-001;4.099439829587936E-002;5.283329170197249E-003;4.863527137786150E-003;
2.405000000000000E+009;1.838438957929611E-001;4.011144116520882E-002;5.011653061956167E-003;4.647708032280207E-003;
2.405166666666667E+009;1.857452094554901E-001;4.008457437157631E-002;4.837972111999989E-003;3.788616741076112E-003;
2.405333333333334E+009;1.862945407629013E-001;3.901454433798790E-002;5.562073085457087E-003;4.085522610694170E-003;
2.405500000000000E+009;1.883184313774109E-001;3.834776207804680E-002;4.960574209690094E-003;3.676183754578233E-003;
2.405666666666667E+009;1.888936460018158E-001;3.790447115898132E-002;5.466609727591276E-003;3.604326164349914E-003;
2.405833333333334E+009;1.901931166648865E-001;3.836033493280411E-002;5.659754388034344E-003;2.933896379545331E-003;
2.406000000000000E+009;1.918599307537079E-001;3.841799125075340E-002;4.317523445934057E-003;3.322088625282049E-003;
2.406166666666667E+009;1.929867118597031E-001;3.764333948493004E-002;4.850472323596478E-003;3.552412148565054E-003;
2.406333333333334E+009;1.933834701776505E-001;3.807843104004860E-002;5.437269341200590E-003;3.164406633004546E-003;
2.406500000000000E+009;1.941804438829422E-001;3.783595561981201E-002;5.513773299753666E-003;2.196428133174777E-003;
2.406666666666667E+009;1.948607563972473E-001;3.795428574085236E-002;5.464919377118349E-003;1.911651459522545E-003;
2.406833333333334E+009;1.954050213098526E-001;3.830417618155479E-002;4.072810988873243E-003;2.372412243857980E-003;
2.407000000000000E+009;1.955255120992661E-001;3.818541392683983E-002;5.823235027492046E-003;6.366495508700609E-004;
2.407166666666667E+009;1.961626112461090E-001;3.809310495853424E-002;5.749662406742573E-003;1.906866091303527E-003;
2.407333333333334E+009;1.961685121059418E-001;3.825167939066887E-002;5.565810482949019E-003;1.024868804961443E-003;
2.407500000000000E+009;1.958617269992828E-001;3.840536996722221E-002;5.374349188059568E-003;6.369143957272172E-004;
2.407666666666667E+009;1.961050033569336E-001;3.822265565395355E-002;5.667628720402718E-003;7.796264835633338E-004;
2.407833333333334E+009;1.956476420164108E-001;3.826715424656868E-002;5.510740913450718E-003;2.583724854048342E-004;
2.408000000000000E+009;1.955882012844086E-001;3.825259953737259E-002;5.143138580024242E-003;3.829884226433933E-004;
2.408166666666667E+009;1.949865520000458E-001;3.799777105450630E-002;5.031150765717030E-003;2.055406803265214E-004;
2.408333333333334E+009;1.944372206926346E-001;3.755270689725876E-002;4.822845105081797E-003;1.071906444849446E-004;
2.408500000000000E+009;1.939128786325455E-001;3.722454234957695E-002;4.784965422004461E-003;-2.033822238445282E-004;
2.408666666666667E+009;1.932660639286041E-001;3.657820075750351E-002;4.652177449315786E-003;-2.670125977601856E-004;
2.408833333333334E+009;1.925818771123886E-001;3.603298217058182E-002;4.561030305922031E-003;-3.257265489082784E-004;
2.409000000000000E+009;1.917521357536316E-001;3.499192744493485E-002;4.371676594018936E-003;-5.809329450130463E-004;
2.409166666666667E+009;1.907487809658051E-001;3.390702977776527E-002;4.201219417154789E-003;-6.089241942390800E-004;
2.409333333333334E+009;1.898595839738846E-001;3.299724683165550E-002;4.216465633362532E-003;-6.043766043148935E-004;
2.409500000000000E+009;1.887170076370239E-001;3.170771896839142E-002;3.957120701670647E-003;-6.204918026924133E-004;
2.409666666666667E+009;1.877768337726593E-001;3.035596758127213E-002;3.729550167918205E-003;-8.697760640643537E-004;
2.409833333333334E+009;1.867178380489349E-001;2.887430600821972E-002;3.595979418605566E-003;-7.073641172610223E-004;
2.410000000000000E+009;1.858982592821121E-001;2.724566124379635E-002;3.553777467459440E-003;-6.987587548792362E-004;
2.410166666666667E+009;1.848395615816116E-001;2.534829266369343E-002;3.477195277810097E-003;-5.496275844052434E-004;
2.410333333333334E+009;1.838136911392212E-001;2.348830364644527E-002;3.435808932408691E-003;-3.396590764168650E-004;
2.410500000000000E+009;1.829534620046616E-001;2.154423855245113E-002;3.296199953183532E-003;-4.061216022819281E-004;
2.410666666666667E+009;1.820559650659561E-001;1.939480938017368E-002;3.490421921014786E-003;-3.697628853842616E-004;
2.410833333333334E+009;1.813029497861862E-001;1.703182235360146E-002;3.375879256054759E-003;-5.086133605800569E-004;
2.411000000000000E+009;1.805435568094254E-001;1.493912655860186E-002;3.478989005088806E-003;-4.106601700186729E-004;
2.411166666666667E+009;1.799072474241257E-001;1.275289617478848E-002;3.304215380921960E-003;-4.466295940801501E-004;
2.411333333333334E+009;1.792438924312592E-001;9.971857070922852E-003;3.225143766030669E-003;-4.395914729684591E-004;
2.411500000000000E+009;1.789359748363495E-001;7.852490991353989E-003;3.443336114287376E-003;-4.788464284501970E-004;
2.411666666666667E+009;1.787616014480591E-001;5.394753068685532E-003;3.451950382441282E-003;-3.663306415546686E-004;
2.411833333333334E+009;1.784651577472687E-001;3.136521205306053E-003;3.492463845759630E-003;-5.225626518949866E-004;
2.412000000000000E+009;1.786316633224487E-001;2.210748934885487E-004;3.336122492328286E-003;-4.777103895321488E-004;
2.412166666666667E+009;1.785780936479569E-001;-1.942018629051745E-003;3.418534062802792E-003;-6.001444999128580E-004;
2.412333333333334E+009;1.788144260644913E-001;-4.345322493463755E-003;3.317390568554401E-003;-5.302084027789533E-004;
2.412500000000000E+009;1.792993098497391E-001;-6.955828517675400E-003;3.501126775518060E-003;-6.033435929566622E-004;
2.412666666666667E+009;1.799020320177078E-001;-9.448897093534470E-003;3.411483485251665E-003;-5.717374151572585E-004;
2.412833333333334E+009;1.804971396923065E-001;-1.186923030763865E-002;3.494732547551394E-003;-4.271269426681101E-004;
2.413000000000000E+009;1.813603043556213E-001;-1.428145729005337E-002;3.600775962695479E-003;-5.244800122454763E-004;
2.413166666666667E+009;1.821754723787308E-001;-1.646207086741924E-002;3.528516273945570E-003;-6.034758407622576E-004;
2.413333333333334E+009;1.832531243562698E-001;-1.893485710024834E-002;3.574348287656903E-003;-7.441538618877530E-004;
2.413500000000000E+009;1.841089725494385E-001;-2.124360576272011E-002;3.655774751678109E-003;-5.137918633408845E-004;
2.413666666666667E+009;1.853047609329224E-001;-2.351816184818745E-002;3.910894040018320E-003;-8.667329093441367E-004;
2.413833333333334E+009;1.865806281566620E-001;-2.537470497190952E-002;3.893518587574363E-003;-8.062036358751357E-004;
2.414000000000000E+009;1.873922199010849E-001;-2.740880474448204E-002;3.991672769188881E-003;-9.577854652889073E-004;
2.414166666666667E+009;1.887854486703873E-001;-2.935685217380524E-002;4.082413855940104E-003;-1.035844325087965E-003;
2.414333333333334E+009;1.899299025535584E-001;-3.124887309968472E-002;4.043268971145153E-003;-1.369892503134906E-003;
2.414500000000000E+009;1.911510676145554E-001;-3.271965309977531E-002;4.113064147531986E-003;-1.324589597061276E-003;
2.414666666666667E+009;1.923361122608185E-001;-3.420817106962204E-002;4.124497063457966E-003;-1.614774460904300E-003;
2.414833333333334E+009;1.935418397188187E-001;-3.564593195915222E-002;4.121189471334219E-003;-1.512867747806013E-003;
2.415000000000000E+009;1.947674006223679E-001;-3.707339987158775E-002;4.151179920881987E-003;-1.953349215909839E-003;
2.415166666666667E+009;1.959388554096222E-001;-3.792923316359520E-002;3.981055226176977E-003;-1.995983766391873E-003;
2.415333333333334E+009;1.972475647926331E-001;-3.902900591492653E-002;3.900082316249609E-003;-2.273310674354434E-003;
2.415500000000000E+009;1.982197314500809E-001;-3.968519717454910E-002;3.904292127117515E-003;-2.266881987452507E-003;
2.415666666666667E+009;1.992635130882263E-001;-4.061798006296158E-002;3.925338853150606E-003;-2.382715465500951E-003;
2.415833333333334E+009;2.000270187854767E-001;-4.115903750061989E-002;3.946093842387199E-003;-2.437334274873138E-003;
2.416000000000000E+009;2.008335441350937E-001;-4.179897904396057E-002;3.754273522645235E-003;-2.744765719398856E-003;
2.416166666666667E+009;2.016084641218185E-001;-4.239595681428909E-002;3.683428047224879E-003;-2.710727974772453E-003;
2.416333333333334E+009;2.022648304700851E-001;-4.268898442387581E-002;3.667894052341580E-003;-2.838919172063470E-003;
2.416500000000000E+009;2.027033567428589E-001;-4.289771988987923E-002;3.636402543634176E-003;-2.916649915277958E-003;
2.416666666666667E+009;2.030743211507797E-001;-4.317388683557510E-002;3.681707661598921E-003;-2.969362074509263E-003;
2.416833333333334E+009;2.032299935817719E-001;-4.319606721401215E-002;3.658607369288802E-003;-3.154380246996880E-003;
2.417000000000000E+009;2.033330798149109E-001;-4.335853457450867E-002;3.594973590224981E-003;-3.356297034770250E-003;
2.417166666666667E+009;2.031235396862030E-001;-4.320253059267998E-002;3.502477426081896E-003;-3.599477699026465E-003;
2.417333333333334E+009;2.028424888849258E-001;-4.304434731602669E-002;3.425006754696369E-003;-3.602997167035937E-003;
2.417500000000000E+009;2.025820761919022E-001;-4.309570416808128E-002;3.474693279713392E-003;-3.668388118967414E-003;
2.417666666666667E+009;2.020716965198517E-001;-4.286020994186401E-002;3.309539286419749E-003;-3.806548891589046E-003;
2.417833333333334E+009;2.015503942966461E-001;-4.264285415410996E-002;3.391288686543703E-003;-3.984316252171993E-003;
2.418000000000000E+009;2.009319067001343E-001;-4.241738095879555E-002;3.126892726868391E-003;-3.968117758631706E-003;
2.418166666666667E+009;2.002242505550385E-001;-4.226791486144066E-002;3.196785924956203E-003;-4.278803244233131E-003;
2.418333333333334E+009;1.991308331489563E-001;-4.226256906986237E-002;3.175655379891396E-003;-4.438410978764296E-003;
2.418500000000000E+009;1.981885731220245E-001;-4.224716499447823E-002;3.011755412444472E-003;-4.618469625711441E-003;
2.418666666666667E+009;1.974023729562759E-001;-4.213437438011169E-002;2.932368079200387E-003;-4.841727204620838E-003;
2.418833333333334E+009;1.959588378667831E-001;-4.229816049337387E-002;2.837900072336197E-003;-4.923672415316105E-003;
2.419000000000000E+009;1.947274208068848E-001;-4.257618263363838E-002;2.673883223906159E-003;-5.161091685295105E-003;
2.419166666666667E+009;1.934889703989029E-001;-4.288972169160843E-002;2.589219016954303E-003;-5.318483803421259E-003;
2.419333333333334E+009;1.919790506362915E-001;-4.326860234141350E-002;2.212337451055646E-003;-5.451256409287453E-003;
2.419500000000000E+009;1.905282884836197E-001;-4.384039342403412E-002;2.195152221247554E-003;-5.655261222273111E-003;
2.419666666666667E+009;1.888731867074966E-001;-4.474217817187309E-002;1.937775639817119E-003;-5.875020287930965E-003;
2.419833333333334E+009;1.873260289430618E-001;-4.525463283061981E-002;1.614485750906169E-003;-5.745633505284786E-003;
2.420000000000000E+009;1.856606304645538E-001;-4.622780531644821E-002;1.296465634368360E-003;-5.950203631073237E-003;
2.420166666666667E+009;1.839446425437927E-001;-4.727107286453247E-002;1.175571000203490E-003;-5.987599026411772E-003;
2.420333333333334E+009;1.822966933250427E-001;-4.838977381587029E-002;7.972246967256069E-004;-6.097014062106609E-003;
2.420500000000000E+009;1.806941777467728E-001;-4.966954514384270E-002;5.095943342894316E-004;-6.056552752852440E-003;
2.420666666666667E+009;1.789710521697998E-001;-5.084679648280144E-002;3.359444672241807E-004;-6.018011365085840E-003;
2.420833333333334E+009;1.773909479379654E-001;-5.244031921029091E-002;1.136330611188896E-004;-5.987320095300674E-003;
2.421000000000000E+009;1.758409738540649E-001;-5.402053520083427E-002;-1.265160972252488E-004;-5.927476100623608E-003;
2.421166666666667E+009;1.744839847087860E-001;-5.573241412639618E-002;-8.918140520108864E-005;-5.975977517664433E-003;
2.421333333333334E+009;1.727301478385925E-001;-5.705830082297325E-002;-3.576917515601963E-004;-5.987807177007198E-003;
2.421500000000000E+009;1.713694632053375E-001;-5.918952822685242E-002;-4.596201470121741E-004;-5.786558147519827E-003;
2.421666666666667E+009;1.701097041368485E-001;-6.099791824817658E-002;-7.079350179992616E-004;-5.742880515754223E-003;
2.421833333333334E+009;1.690009236335754E-001;-6.288845837116242E-002;-7.835120777599514E-004;-5.798987578600645E-003;
2.422000000000000E+009;1.677534282207489E-001;-6.494086235761643E-002;-1.042845658957958E-003;-5.856510717421770E-003;
2.422166666666667E+009;1.670889705419540E-001;-6.696453690528870E-002;-1.243831356987357E-003;-5.802880506962538E-003;
2.422333333333334E+009;1.657976508140564E-001;-6.905697286128998E-002;-1.550206448882818E-003;-5.884528625756502E-003;
2.422500000000000E+009;1.650465428829193E-001;-7.096794247627258E-002;-1.616409514099360E-003;-5.712602287530899E-003;
2.422666666666667E+009;1.645164340734482E-001;-7.296113669872284E-002;-1.943217823281884E-003;-5.809371825307608E-003;
2.422833333333334E+009;1.639180481433868E-001;-7.521488517522812E-002;-2.099548699334264E-003;-5.724008195102215E-003;
2.423000000000000E+009;1.633002310991287E-001;-7.714876532554627E-002;-2.377282595261931E-003;-5.584048572927713E-003;
2.423166666666667E+009;1.631577163934708E-001;-7.916201651096344E-002;-2.716875635087490E-003;-5.486457608640194E-003;
2.423333333333334E+009;1.627828776836395E-001;-8.112573623657227E-002;-2.963248174637556E-003;-5.297153722494841E-003;
2.423500000000000E+009;1.626890152692795E-001;-8.306004106998444E-002;-3.155329963192344E-003;-5.114870145916939E-003;
2.423666666666667E+009;1.627645641565323E-001;-8.493974059820175E-002;-3.471978241577745E-003;-5.036056507378817E-003;
2.423833333333334E+009;1.626428961753845E-001;-8.671144396066666E-002;-3.575316397473216E-003;-4.586654715240002E-003;
2.424000000000000E+009;1.627466827630997E-001;-8.846230059862137E-002;-3.877425799146295E-003;-4.537036642432213E-003;
2.424166666666667E+009;1.628571301698685E-001;-9.005670249462128E-002;-3.976066596806049E-003;-4.125754814594984E-003;
2.424333333333334E+009;1.631614863872528E-001;-9.161080420017242E-002;-3.923240583389998E-003;-3.978013526648283E-003;
2.424500000000000E+009;1.633623242378235E-001;-9.340815991163254E-002;-4.109413828700781E-003;-3.737313207238913E-003;
2.424666666666667E+009;1.637704670429230E-001;-9.472268074750900E-002;-4.125546198338270E-003;-3.374276682734489E-003;
2.424833333333334E+009;1.641991734504700E-001;-9.603963047266007E-002;-4.361333791166544E-003;-3.248899476602674E-003;
2.425000000000000E+009;1.645361036062241E-001;-9.719037264585495E-002;-4.313217010349035E-003;-2.909420523792505E-003;
2.425166666666667E+009;1.649249494075775E-001;-9.832649677991867E-002;-4.213739186525345E-003;-2.905504079535604E-003;
2.425333333333334E+009;1.653067320585251E-001;-9.925753623247147E-002;-4.353058524429798E-003;-2.510771388188005E-003;
2.425500000000000E+009;1.656542569398880E-001;-1.002170816063881E-001;-4.173714667558670E-003;-2.446188125759363E-003;
2.425666666666667E+009;1.660751104354858E-001;-1.009387075901032E-001;-4.042361397296190E-003;-2.175010740756989E-003;
2.425833333333334E+009;1.663986742496491E-001;-1.017619073390961E-001;-4.109992180019617E-003;-2.068046946078539E-003;
2.426000000000000E+009;1.668310910463333E-001;-1.021238192915916E-001;-4.113276023417711E-003;-1.815804047510028E-003;
2.426166666666667E+009;1.671717613935471E-001;-1.027045920491219E-001;-4.016651771962643E-003;-1.748879905790091E-003;
2.426333333333334E+009;1.674026101827622E-001;-1.031790599226952E-001;-4.022925626486540E-003;-1.521691679954529E-003;
2.426500000000000E+009;1.677398532629013E-001;-1.033892035484314E-001;-3.773852018639445E-003;-1.612492837011814E-003;
2.426666666666667E+009;1.679440289735794E-001;-1.036404892802239E-001;-3.807491157203913E-003;-1.541468081995845E-003;
2.426833333333334E+009;1.680958271026611E-001;-1.039636582136154E-001;-3.706403076648712E-003;-1.416129758581519E-003;
2.427000000000000E+009;1.680985391139984E-001;-1.041020154953003E-001;-3.715811297297478E-003;-1.328289392404258E-003;
2.427166666666667E+009;1.680982261896133E-001;-1.042300164699554E-001;-3.586212871596217E-003;-1.237600576132536E-003;
2.427333333333334E+009;1.679514348506928E-001;-1.043563634157181E-001;-3.717770334333181E-003;-1.259786542505026E-003;
2.427500000000000E+009;1.676222831010819E-001;-1.044960692524910E-001;-3.557858057320118E-003;-1.182179665192962E-003;
2.427666666666667E+009;1.674919575452805E-001;-1.045867130160332E-001;-3.578068455681205E-003;-1.074185711331666E-003;
