# Hz S RI R 
2400000000.0000000000 0.156630814075469998458700615629 0.106021113693714100212339701557 0.002230450976639986038208007812 -0.000333745003445074016421717511 0 0 0 0 
2400166666.6666665077 0.156703129410743713378906250000 0.103538863360881805419921875000 0.002259053988382219834568642725 -0.000628033885732293128967285156 0 0 0 0 
2400333333.3333334923 0.156941577792167691329794365629 0.101395331323146806190571567186 0.002552797086536883874180459131 -0.000763066171202808618545532227 0 0 0 0 
2400500000.0000000000 0.157215043902397211272869981258 0.098786659538745880126953125000 0.002479707822203636169433593750 -0.001059124944731592915178608472 0 0 0 0 
2400666666.6666665077 0.157446548342704800704794365629 0.096620209515094757080078125000 0.002469831611961125893833779443 -0.001174598233774303956272744287 0 0 0 0 
2400833333.3333334923 0.157654091715812710861044365629 0.093851998448371887207031250000 0.002336263889446855025050497900 -0.001442907494492829062818217700 0 0 0 0 
2401000000.0000000000 0.158002093434333801269531250000 0.091196045279502868652343750000 0.002290375530719757080078125000 -0.001725305803120136044145893628 0 0 0 0 
2401166666.6666665077 0.158277466893196105957031250000 0.088577598333358764648437500000 0.002306237816810607910156250000 -0.001842281431891023895860981519 0 0 0 0 
2401333333.3333334923 0.158645585179328890701455634371 0.086121112108230590820312500000 0.002225513570010662078857421875 -0.002175778383389114899876259912 0 0 0 0 
2401500000.0000000000 0.159416720271110506912393134371 0.083400949835777282714843750000 0.001873924746178091006038046729 -0.002433212008327246145961142432 0 0 0 0 
2401666666.6666665077 0.159801721572876004318075615629 0.080770090222358703613281250000 0.001714194891974329948425292969 -0.002601495245471597151515341650 0 0 0 0 
2401833333.3333334923 0.160398229956626892089843750000 0.078078471124172210693359375000 0.001345413620583713054656982422 -0.002628679852932692007777548682 0 0 0 0 
2402000000.0000000000 0.161131575703620910644531250000 0.075695462524890899658203125000 0.001169879222288727977155375903 -0.002694087335839868025538779150 0 0 0 0 
2402166666.6666665077 0.161940887570381192306356865629 0.073243245482444763183593750000 0.000933594710659235715866088867 -0.002739022485911846160888671875 0 0 0 0 
2402333333.3333334923 0.162987172603607205489950615629 0.070828579366207122802734375000 0.000535598257556557655334472656 -0.002598702907562255859375000000 0 0 0 0 
2402500000.0000000000 0.164007633924484308440838731258 0.068522848188877105712890625000 0.000510323734488338232040405273 -0.002549075055867433981654501807 0 0 0 0 
2402666666.6666665077 0.165046855807304410079794365629 0.066306911408901214599609375000 0.000190390084753744304180145264 -0.002657697070389986038208007812 0 0 0 0 
2402833333.3333334923 0.166306361556053189376669365629 0.063996322453022003173828125000 0.000274010439170524477958679199 -0.002328400965780020193812704932 0 0 0 0 
2403000000.0000000000 0.167544394731521606445312500000 0.061597649008035659790039062500 0.000064122694311663508415222168 -0.002296746708452702002284384619 0 0 0 0 
2403166666.6666665077 0.169220939278602600097656250000 0.059772923588752746582031250000 0.000025031245968420989811420441 -0.002176109002903103828430175781 0 0 0 0 
2403333333.3333334923 0.170416131615638705154580634371 0.057736743241548538208007812500 0.000097019190434366464614868164 -0.002209962112829089164733886719 0 0 0 0 
2403500000.0000000000 0.171875149011611910720986884371 0.055764984339475631713867187500 0.000017290147297899238765239716 -0.002102585975080728964564658057 0 0 0 0 
2403666666.6666665077 0.173626929521560696700888115629 0.053922306746244430541992187500 -0.000020460412997636009344850846 -0.001985439797863363785984658350 0 0 0 0 
2403833333.3333334923 0.174990445375442504882812500000 0.052122786641120910644531250000 -0.000135918176965788006782531738 -0.002011351520195602936985634912 0 0 0 0 
2404000000.0000000000 0.176285460591316195388955634371 0.050333105027675628662109375000 0.000037335343222366652708461149 -0.001942795235663651986363076318 0 0 0 0 
2404166666.6666665077 0.177806392312049893478231865629 0.049094956368207931518554687500 -0.000049101974582299590110778809 -0.001998648047447205023524618994 0 0 0 0 
2404333333.3333334923 0.179164320230484008789062500000 0.047623336315155029296875000000 -0.000073208568210247904062271118 -0.002001427346840500831604003906 0 0 0 0 
2404500000.0000000000 0.180592522025108309646768134371 0.046164736151695251464843750000 0.000014801387806073760782378350 -0.002113819587975739999058388818 0 0 0 0 
2404666666.6666665077 0.181873217225074795821981865629 0.045170415192842476581613908593 -0.000208531389944255406230372296 -0.002168958075344562964198447119 0 0 0 0 
2404833333.3333334923 0.183340385556221008300781250000 0.044042274355888366699218750000 -0.000215317835682071799605769025 -0.002267566043883562088012695312 0 0 0 0 
2405000000.0000000000 0.184350922703743008712606865629 0.043288264423608779907226562500 -0.000374016701243817806243896484 -0.002585019450634717941284179688 0 0 0 0 
2405166666.6666665077 0.185670942068100003341513115629 0.042511858046054840087890625000 -0.000530963938217610120773315430 -0.002357482211664319038391113281 0 0 0 0 
2405333333.3333334923 0.186845168471336392501669365629 0.041904680430889129638671875000 -0.000561860622838139533996582031 -0.002518955385312438011169433594 0 0 0 0 
2405500000.0000000000 0.188020735979080200195312500000 0.041219417005777359008789062500 -0.000884793116711080074310302734 -0.002359215402975678010227822412 0 0 0 0 
2405666666.6666665077 0.188980311155319213867187500000 0.040844023227691650390625000000 -0.001022312091663480021833110278 -0.002556487219408154921290732275 0 0 0 0 
2405833333.3333334923 0.190062746405601501464843750000 0.040476076304912567138671875000 -0.001087808050215244076372456128 -0.002281928202137351036071777344 0 0 0 0 
2406000000.0000000000 0.190796568989753695388955634371 0.040124285966157913208007812500 -0.001502047874964774088618613135 -0.002276547951623796983006142725 0 0 0 0 
2406166666.6666665077 0.191652789711952209472656250000 0.039743833243846893310546875000 -0.001648182980716228918788290869 -0.002099044388160109953639365088 0 0 0 0 
2406333333.3333334923 0.192363277077674893478231865629 0.039674609899520867084543596093 -0.001727882423438132026075053638 -0.002025369089096785025355673682 0 0 0 0 
2406500000.0000000000 0.192982226610183688064736884371 0.039346210658550262451171875000 -0.001899774768389761014225625146 -0.001973704434931277795078896631 0 0 0 0 
2406666666.6666665077 0.193478956818580599685830634371 0.039265029132366180419921875000 -0.002004092326387763023376464844 -0.001759369159117341041564941406 0 0 0 0 
2406833333.3333334923 0.193929076194763211349325615629 0.039111647754907608032226562500 -0.002031058073043822808506631006 -0.001576124574057758071302104419 0 0 0 0 
2407000000.0000000000 0.194146603345870999435263115629 0.039140477776527411724050153907 -0.002148427767679094834568642725 -0.001333170919679105064989399487 0 0 0 0 
2407166666.6666665077 0.194499507546424893478231865629 0.038808327168226242065429687500 -0.002039748942479490800144814600 -0.001153731835074722983716655200 0 0 0 0 
2407333333.3333334923 0.194510579109191894531250000000 0.038747712969779968261718750000 -0.002179700182750821113586425781 -0.001127714174799621105194091797 0 0 0 0 
2407500000.0000000000 0.194366008043289212325888115629 0.038548517972230911254882812500 -0.002238158369436860084533691406 -0.000673662172630429267883300781 0 0 0 0 
2407666666.6666665077 0.194534853100776700118856865629 0.038261357694864273071289062500 -0.002000650158151984214782714844 -0.000647306151222437620162963867 0 0 0 0 
2407833333.3333334923 0.194079175591468811035156250000 0.037984013557434082031250000000 -0.002168615115806459946873330225 -0.000664287188556045293807983398 0 0 0 0 
2408000000.0000000000 0.194137260317802401443643134371 0.037535887211561203002929687500 -0.001844950136728584983228373950 -0.000337390229105949401855468750 0 0 0 0 
2408166666.6666665077 0.193603277206420898437500000000 0.037196818739175803447682966407 -0.001940555521287024021148681641 -0.000378689641365781426429748535 0 0 0 0 
2408333333.3333334923 0.193312808871269198318643134371 0.036546267569065087055246721093 -0.001993388868868350982666015625 -0.000110212939034681794330319815 0 0 0 0 
2408500000.0000000000 0.192779064178466796875000000000 0.036011368036270141601562500000 -0.001717264414764940955518413013 0.000004214635282551171258091927 0 0 0 0 
2408666666.6666665077 0.192437380552291897872763115629 0.035331856459379203105886091407 -0.001636293251067399978637695312 0.000070795853389427065849304199 0 0 0 0 
2408833333.3333334923 0.191887184977531405349893134371 0.034497551620006561279296875000 -0.001556579140014946894404745947 0.000074821022280957549810409546 0 0 0 0 
2409000000.0000000000 0.191086456179618807693643134371 0.033543951809406280517578125000 -0.001520281890407205061671591650 0.000225986601435579386636456900 0 0 0 0 
2409166666.6666665077 0.190329983830451993087606865629 0.032318204641342163085937500000 -0.001276337541639805056928325122 0.000038524791307281702756881714 0 0 0 0 
2409333333.3333334923 0.189547151327133206466513115629 0.031433958560228347778320312500 -0.001351020648144185976741171729 0.000009453384336666204035282135 0 0 0 0 
2409500000.0000000000 0.188839986920356805999432481258 0.030187988653779029846191406250 -0.001117513747885823032976460034 0.000183001189725473496034899301 0 0 0 0 
2409666666.6666665077 0.188031777739524813553018134371 0.028648579493165019643763358204 -0.001030022162012756087659526294 0.000065694905060809105634689331 0 0 0 0 
2409833333.3333334923 0.187379866838455200195312500000 0.027365259826183319091796875000 -0.001146531663835048892377543872 0.000259815395111218094825744629 0 0 0 0 
2410000000.0000000000 0.186645507812500000000000000000 0.025751329958438869821568673046 -0.000799447880126535892486572266 -0.000074819938163273036479949951 0 0 0 0 
2410166666.6666665077 0.185684904456138610839843750000 0.023661825805902481079101562500 -0.000890024879481643438339233398 0.000108687883766833706341604915 0 0 0 0 
2410333333.3333334923 0.185051113367080688476562500000 0.022081024944782260549525076954 -0.000754714303184300661087036133 -0.000229185621719807413503369742 0 0 0 0 
2410500000.0000000000 0.184084296226501492599325615629 0.020309492945671081542968750000 -0.000740432529710233211517333984 -0.000167942052939906689241686411 0 0 0 0 
2410666666.6666665077 0.183631032705307006835937500000 0.018043857067823410034179687500 -0.000637949968222528696060180664 -0.000263085443293675780296325684 0 0 0 0 
2410833333.3333334923 0.183128178119659396072549384371 0.016146931797266009939173514454 -0.000794992491137236356735229492 -0.000295306119369342923164367676 0 0 0 0 
2411000000.0000000000 0.182389616966247586349325615629 0.014153142459690570831298828125 -0.000941321952268481254577636719 -0.000304800196317955905764979230 0 0 0 0 
2411166666.6666665077 0.181952878832817105392294365629 0.012178968638181689870814139454 -0.001009989297017455101013183594 -0.000421041593654081225395202637 0 0 0 0 
2411333333.3333334923 0.181684464216232299804687500000 0.009886062704026699066162109375 -0.001172890770249068953870463794 -0.000386947504011914079815465106 0 0 0 0 
2411500000.0000000000 0.181350231170654296875000000000 0.007719865534454584121704101562 -0.001219035009853542067884135669 -0.000509006495121866464614868164 0 0 0 0 
2411666666.6666665077 0.181268975138664301116619981258 0.005508144851773977279663085938 -0.001455674995668232007267617334 -0.000461148127214983105659484863 0 0 0 0 
2411833333.3333334923 0.181006833910942105392294365629 0.003331471933051944212672568213 -0.001392782665789126916172646631 -0.000415664806496352011531275616 0 0 0 0 
2412000000.0000000000 0.181257620453834505935830634371 0.000966773426625877618789672852 -0.001511287759058177904841757666 -0.000421543343691155314445495605 0 0 0 0 
2412166666.6666665077 0.181375950574874905685263115629 -0.001047807163558899922611855615 -0.001526697189547121958491660010 -0.000167269987286999794557848520 0 0 0 0 
2412333333.3333334923 0.181547030806541387359942518742 -0.003329013474285603003260947119 -0.001698142499662935950635600513 -0.000107951214886270504124225755 0 0 0 0 
2412500000.0000000000 0.181998267769813509842080634371 -0.005645526107400655746459960938 -0.001624426455236970944645547021 -0.000118666961498092900641025682 0 0 0 0 
2412666666.6666665077 0.182560130953788812835369981258 -0.007867495529353618621826171875 -0.001799643039703368923784565503 0.000131689914269372793749132700 0 0 0 0 
2412833333.3333334923 0.183209404349327087402343750000 -0.009878086857497692108154296875 -0.001868641003966331915614462744 0.000144670266308821710661211557 0 0 0 0 
2413000000.0000000000 0.183753132820129394531250000000 -0.011845957487821580714215663477 -0.001718926825560628934147500146 0.000305387744447216391563415527 0 0 0 0 
2413166666.6666665077 0.184445485472679110428018134371 -0.014182485640048980712890625000 -0.001861218595877289988874125903 0.000628151814453303813934326172 0 0 0 0 
2413333333.3333334923 0.185571447014808710296307481258 -0.016174877062439918518066406250 -0.001826561056077480099321674878 0.000563970301300287246704101562 0 0 0 0 
2413500000.0000000000 0.186187088489532498458700615629 -0.018336303532123569143275076954 -0.001799927209503948905347514575 0.000729542516637593507766723633 0 0 0 0 
2413666666.6666665077 0.187243267893791198730468750000 -0.020330240949988368642786795704 -0.001701247179880738041521381909 0.000868784380145370960235595703 0 0 0 0 
2413833333.3333334923 0.188289970159530611892861884371 -0.022000139579176899301549141796 -0.001470792456530034975764609229 0.000908517627976834774017333984 0 0 0 0 
2414000000.0000000000 0.189061537384986905196981865629 -0.023935563862323760986328125000 -0.001484513864852488040924072266 0.001077921595424413897870707935 0 0 0 0 
2414166666.6666665077 0.190197139978408813476562500000 -0.025511106476187709463099295704 -0.001446912414394319057464599609 0.001037423848174511952641152490 0 0 0 0 
2414333333.3333334923 0.191142782568931607345419365629 -0.027491007000207901000976562500 -0.001215836149640380902531289209 0.001136829843744636015651083838 0 0 0 0 
2414500000.0000000000 0.192152768373489407638388115629 -0.028742456808686259878138358204 -0.001060534850694238922716450269 0.001213658950291574001312255859 0 0 0 0 
2414666666.6666665077 0.193200603127479608733807481258 -0.030207525938749309885045235546 -0.000943295832257717847824096680 0.001203336869366466999053955078 0 0 0 0 
2414833333.3333334923 0.194201260805130004882812500000 -0.031495701521635062480886091407 -0.000918221368920058012008666992 0.001083957613445817990543984521 0 0 0 0 
2415000000.0000000000 0.194986477494239807128906250000 -0.032739378511905670166015625000 -0.000791618134826421737670898438 0.000926262408029288053512573242 0 0 0 0 
2415166666.6666665077 0.196029976010322598556356865629 -0.033825539052486419677734375000 -0.000721165910363197326660156250 0.000950318237300962209701538086 0 0 0 0 
2415333333.3333334923 0.196992889046669006347656250000 -0.034884396940469741821289062500 -0.000883579545188695192337036133 0.000980758224613964557647705078 0 0 0 0 
2415500000.0000000000 0.197887167334556607345419365629 -0.035617351531982421875000000000 -0.000692465342581272125244140625 0.000955130613874644041061401367 0 0 0 0 
2415666666.6666665077 0.198735296726226806640625000000 -0.036548040807247161865234375000 -0.000794505875091999769210815430 0.000939010933507233858108520508 0 0 0 0 
2415833333.3333334923 0.199448764324188204666299384371 -0.037218920886516571044921875000 -0.000781961134634912014007568359 0.000841086497530341148376464844 0 0 0 0 
2416000000.0000000000 0.199944287538528386871661268742 -0.037979248911142349243164062500 -0.000749805127270519733428955078 0.000796203152276575565338134766 0 0 0 0 
2416166666.6666665077 0.200568065047264099121093750000 -0.038635969161987311626393903907 -0.000741390336770564317703247070 0.000847419316414743661880493164 0 0 0 0 
2416333333.3333334923 0.201040551066398592849893134371 -0.038970816880464546894113908593 -0.000890685361810028553009033203 0.000960090022999793291091918945 0 0 0 0 
2416500000.0000000000 0.201401859521865789215411268742 -0.039471011608839041973073591407 -0.000761863077059388160705566406 0.000965460261795669794082641602 0 0 0 0 
2416666666.6666665077 0.201580539345741299728231865629 -0.039876196533441536640207658593 -0.000909110298380255699157714844 0.000991658540442585945129394531 0 0 0 0 
2416833333.3333334923 0.201631501317024203201455634371 -0.040088422596454620361328125000 -0.000843185640405863523483276367 0.001193102914839982986450195312 0 0 0 0 
2417000000.0000000000 0.201545566320419311523437500000 -0.040470462292432791973073591407 -0.000735374283976852893829345703 0.001222975901328027031542133862 0 0 0 0 
2417166666.6666665077 0.201271981000900296310263115629 -0.040550876408815376972238908593 -0.000599775754380971193313598633 0.001289297943003476099727011572 0 0 0 0 
2417333333.3333334923 0.200941115617752102950888115629 -0.040581371635198593139648437500 -0.000566970848012715578079223633 0.001332619809545577006099081885 0 0 0 0 
2417500000.0000000000 0.200722157955169705489950615629 -0.040790129452943801879882812500 -0.000600969302468001842498779297 0.001338269677944480939152382959 0 0 0 0 
2417666666.6666665077 0.200108766555786105056924384371 -0.040765680372715003276784528907 -0.000528874923475086688995361328 0.001376315951347351074218750000 0 0 0 0 
2417833333.3333334923 0.199732735753059387207031250000 -0.040864516049623489379882812500 -0.000551023753359913825988769531 0.001398325664922595024108886719 0 0 0 0 
2418000000.0000000000 0.199176430702209500411825615629 -0.040732875466346740722656250000 -0.000445128534920513575703221454 0.001467344118282198905944824219 0 0 0 0 
2418166666.6666665077 0.198412925004959106445312500000 -0.040879417210817337036132812500 -0.000109343265648931305534900804 0.001342674251645804102059389429 0 0 0 0 
2418333333.3333334923 0.197559624910354586502236884371 -0.040996331721544272685964216407 -0.000296921061817556619644165039 0.001340078655630349896074604565 0 0 0 0 
2418500000.0000000000 0.196659132838249206542968750000 -0.041257876902818679809570312500 -0.000193279338418506112977704459 0.001342948409728706099866557544 0 0 0 0 
2418666666.6666665077 0.195817366242408807952557481258 -0.041396360844373703002929687500 -0.000167749894899316104963579721 0.001281763543374836011173867334 0 0 0 0 
2418833333.3333334923 0.194684088230133112151776231258 -0.041725691407918930053710937500 -0.000068742891016881912946701050 0.001297436072491108937504433740 0 0 0 0 
2419000000.0000000000 0.193600043654441805740518134371 -0.042037591338157646869699846093 -0.000168020356795750612586420880 0.001167029608041048049926757812 0 0 0 0 
2419166666.6666665077 0.192480117082595797439736884371 -0.042357452213764190673828125000 -0.000091489309852477163076400757 0.001129917334765196063398051685 0 0 0 0 
2419333333.3333334923 0.191277801990509005447549384371 -0.043110944330692291259765625000 -0.000157456655870191807120722638 0.001054552732966840050340961987 0 0 0 0 
2419500000.0000000000 0.190082982182502802093182481258 -0.043676465749740600585937500000 -0.000116403774882201105356216431 0.001160536543466150977491069263 0 0 0 0 
2419666666.6666665077 0.188711553812027005294638115629 -0.044564709067344672466237653907 -0.000054796317272121086716651917 0.001177800702862441973445273291 0 0 0 0 
2419833333.3333334923 0.187348529696464510818643134371 -0.045262522995471947406809221093 -0.000249169475864619016647338867 0.001140082487836479923845600659 0 0 0 0 
