# Version 1.00
#
freq[Hz];re:Trc1_S11;im:Trc1_S11;re:Trc2_S21;im:Trc2_S21;
2.400000000000000E+009;1.711488664150238E-001;4.007075354456902E-002;2.134208334609866E-003;5.542609142139554E-004;
2.400166666666667E+009;1.718627214431763E-001;3.973960876464844E-002;2.468186663463712E-003;5.004988051950932E-004;
2.400333333333334E+009;1.722886711359024E-001;3.904007747769356E-002;2.431859262287617E-003;4.689455381594598E-004;
2.400500000000000E+009;1.728038489818573E-001;3.843673318624497E-002;2.701577031984925E-003;3.123604110442102E-004;
2.400666666666667E+009;1.730977296829224E-001;3.777470812201500E-002;2.749067498371005E-003;3.089638485107571E-004;
2.400833333333334E+009;1.732817739248276E-001;3.727129846811295E-002;2.986151259392500E-003;1.566111313877627E-004;
2.401000000000000E+009;1.733334511518478E-001;3.665430843830109E-002;3.087088931351900E-003;-5.194184632273391E-005;
2.401166666666667E+009;1.735363453626633E-001;3.605660423636437E-002;3.156459890305996E-003;-5.948697435087524E-005;
2.401333333333334E+009;1.735681295394898E-001;3.535184636712074E-002;3.213627496734262E-003;-1.207844979944639E-004;
2.401500000000000E+009;1.737923324108124E-001;3.477590531110764E-002;3.355660941451788E-003;-5.329707055352628E-004;
2.401666666666667E+009;1.735557168722153E-001;3.423977643251419E-002;3.508585505187511E-003;-5.524118896573782E-004;
2.401833333333334E+009;1.732696741819382E-001;3.357654064893723E-002;3.396127372980118E-003;-7.935765897855163E-004;
2.402000000000000E+009;1.731143146753311E-001;3.281800821423531E-002;3.226399188861251E-003;-1.047825790010393E-003;
2.402166666666667E+009;1.729880422353745E-001;3.175027295947075E-002;3.301842138171196E-003;-1.299369730986655E-003;
2.402333333333334E+009;1.726557463407517E-001;3.111142106354237E-002;3.175964346155524E-003;-1.473726355470717E-003;
2.402500000000000E+009;1.725938916206360E-001;3.025206178426743E-002;2.829272300004959E-003;-1.623230753466487E-003;
2.402666666666667E+009;1.721417754888535E-001;2.910660579800606E-002;2.870196243748069E-003;-1.590759260579944E-003;
2.402833333333334E+009;1.718652248382568E-001;2.820517495274544E-002;2.831963356584311E-003;-1.737494138069451E-003;
2.403000000000000E+009;1.715427041053772E-001;2.713904343545437E-002;2.767146797850728E-003;-1.653990475460887E-003;
2.403166666666667E+009;1.712567359209061E-001;2.596351318061352E-002;2.435554051771760E-003;-1.782880281098187E-003;
2.403333333333334E+009;1.707120388746262E-001;2.492081932723522E-002;2.318112412467599E-003;-1.610677572898567E-003;
2.403500000000000E+009;1.704834103584290E-001;2.360818162560463E-002;2.261632820591331E-003;-1.748180133290589E-003;
2.403666666666667E+009;1.700985878705978E-001;2.214030176401138E-002;2.371188485994935E-003;-1.691666315309703E-003;
2.403833333333334E+009;1.697911322116852E-001;2.074588648974896E-002;2.034349367022514E-003;-1.803948776796460E-003;
2.404000000000000E+009;1.693924069404602E-001;1.930453814566135E-002;2.145218197256327E-003;-1.459763967432082E-003;
2.404166666666667E+009;1.690034717321396E-001;1.780226081609726E-002;2.081267768517137E-003;-1.700423541478813E-003;
2.404333333333334E+009;1.686853915452957E-001;1.638203673064709E-002;2.052327152341604E-003;-1.646701246500015E-003;
2.404500000000000E+009;1.683649271726608E-001;1.458361651748419E-002;2.273646416142583E-003;-1.723811728879809E-003;
2.404666666666667E+009;1.682337969541550E-001;1.290295459330082E-002;2.251191064715385E-003;-1.901291077956557E-003;
2.404833333333334E+009;1.681029796600342E-001;1.131678465753794E-002;2.253519138321281E-003;-1.866745878942311E-003;
2.405000000000000E+009;1.679670214653015E-001;9.504546411335468E-003;2.223121235147119E-003;-1.866021659225225E-003;
2.405166666666667E+009;1.677756011486054E-001;7.832087576389313E-003;2.185950754210353E-003;-2.127365907654166E-003;
2.405333333333334E+009;1.677796393632889E-001;5.686081480234861E-003;2.170145977288485E-003;-2.192088169977069E-003;
2.405500000000000E+009;1.677674353122711E-001;4.010938107967377E-003;2.166181337088347E-003;-2.290452830493450E-003;
2.405666666666667E+009;1.677602082490921E-001;2.061630366370082E-003;1.962530193850398E-003;-2.333375392481685E-003;
2.405833333333334E+009;1.675561517477036E-001;4.509961872827262E-004;1.846358412876725E-003;-2.370962174609304E-003;
2.406000000000000E+009;1.676561385393143E-001;-1.518563716672361E-003;1.794136478565633E-003;-2.528566168621182E-003;
2.406166666666667E+009;1.676345616579056E-001;-3.207078669220209E-003;1.714199665002525E-003;-2.443306380882859E-003;
2.406333333333334E+009;1.678188890218735E-001;-5.147255025804043E-003;1.459952211007476E-003;-2.500738250091672E-003;
2.406500000000000E+009;1.679072380065918E-001;-6.871885154396296E-003;1.486357301473618E-003;-2.530351979658008E-003;
2.406666666666667E+009;1.677784919738770E-001;-8.583351038396359E-003;1.324964803643525E-003;-2.551533281803131E-003;
2.406833333333334E+009;1.679200679063797E-001;-1.035569235682488E-002;1.166066736914218E-003;-2.346471650525928E-003;
2.407000000000000E+009;1.679662168025971E-001;-1.202103681862354E-002;1.235342351719737E-003;-2.337925368919969E-003;
2.407166666666667E+009;1.682162135839462E-001;-1.353749353438616E-002;1.152765937149525E-003;-2.393347444012761E-003;
2.407333333333334E+009;1.680758595466614E-001;-1.512749399989843E-002;1.213867333717644E-003;-2.321957144886255E-003;
2.407500000000000E+009;1.681168377399445E-001;-1.647297292947769E-002;1.323562464676797E-003;-2.261042594909668E-003;
2.407666666666667E+009;1.684269905090332E-001;-1.782624609768391E-002;1.315861009061337E-003;-2.307375892996788E-003;
2.407833333333334E+009;1.682906895875931E-001;-1.915008015930653E-002;1.303374418057501E-003;-2.307414542883635E-003;
2.408000000000000E+009;1.685395687818527E-001;-2.016948722302914E-002;1.435958081856370E-003;-2.235268941149116E-003;
2.408166666666667E+009;1.686211079359055E-001;-2.113965526223183E-002;1.391478232108057E-003;-2.410210901871324E-003;
2.408333333333334E+009;1.690112054347992E-001;-2.204908803105354E-002;1.407299190759659E-003;-2.496977802366018E-003;
2.408500000000000E+009;1.692428439855576E-001;-2.318275347352028E-002;1.433249330148101E-003;-2.519964007660747E-003;
2.408666666666667E+009;1.695222109556198E-001;-2.381595224142075E-002;1.323078293353319E-003;-2.674837131053209E-003;
2.408833333333334E+009;1.697818040847778E-001;-2.465021423995495E-002;1.394495251588523E-003;-2.723236801102758E-003;
2.409000000000000E+009;1.700593233108521E-001;-2.526474371552467E-002;1.284041092731059E-003;-2.848423086106777E-003;
2.409166666666667E+009;1.705552190542221E-001;-2.606360800564289E-002;1.314376480877399E-003;-2.864984096959233E-003;
2.409333333333334E+009;1.708885580301285E-001;-2.675316110253334E-002;1.265550032258034E-003;-3.034926019608975E-003;
2.409500000000000E+009;1.711743921041489E-001;-2.755641937255859E-002;1.189040835015476E-003;-3.275059163570404E-003;
2.409666666666667E+009;1.713797748088837E-001;-2.825992181897163E-002;1.201946055516601E-003;-3.153468482196331E-003;
2.409833333333334E+009;1.716858595609665E-001;-2.872031740844250E-002;1.026501529850066E-003;-3.281910903751850E-003;
2.410000000000000E+009;1.719170957803726E-001;-2.955815754830837E-002;9.988072561100125E-004;-3.468978451564908E-003;
2.410166666666667E+009;1.720232367515564E-001;-3.027870506048203E-002;7.223600987344980E-004;-3.518214682117105E-003;
2.410333333333334E+009;1.720571964979172E-001;-3.090334869921207E-002;8.327732793986797E-004;-3.560286248102784E-003;
2.410500000000000E+009;1.719056665897369E-001;-3.152988851070404E-002;7.319205906242132E-004;-3.661439055576921E-003;
2.410666666666667E+009;1.718197762966156E-001;-3.222060948610306E-002;7.325446349568665E-004;-3.591077402234078E-003;
2.410833333333334E+009;1.718448847532272E-001;-3.274779394268990E-002;4.327967471908778E-004;-3.774144919589162E-003;
2.411000000000000E+009;1.717412024736404E-001;-3.339055553078651E-002;3.654861066024751E-004;-3.968100063502789E-003;
2.411166666666667E+009;1.712660491466522E-001;-3.397782519459724E-002;2.429201849736273E-004;-3.987967502325773E-003;
2.411333333333334E+009;1.709616333246231E-001;-3.455249965190888E-002;2.187142672482878E-004;-4.045906476676464E-003;
2.411500000000000E+009;1.707124710083008E-001;-3.537131845951080E-002;-1.082559174392372E-005;-4.132872913032770E-003;
2.411666666666667E+009;1.703912019729614E-001;-3.577518835663796E-002;-1.433707802789286E-004;-4.229638259857893E-003;
2.411833333333334E+009;1.700057685375214E-001;-3.642471507191658E-002;-5.188053473830223E-004;-4.310520365834236E-003;
2.412000000000000E+009;1.694984734058380E-001;-3.712856024503708E-002;-6.560562760569155E-004;-4.186961799860001E-003;
2.412166666666667E+009;1.688551753759384E-001;-3.794235363602638E-002;-7.629743777215481E-004;-4.281135741621256E-003;
2.412333333333334E+009;1.686711311340332E-001;-3.866371512413025E-002;-9.998171590268612E-004;-4.325916990637779E-003;
2.412500000000000E+009;1.678438931703568E-001;-3.956185281276703E-002;-1.290200045332313E-003;-4.372348543256521E-003;
2.412666666666667E+009;1.674636304378510E-001;-4.043665155768395E-002;-1.369757112115622E-003;-4.108366090804339E-003;
2.412833333333334E+009;1.668341606855393E-001;-4.140464216470718E-002;-1.590256113559008E-003;-4.113688133656979E-003;
2.413000000000000E+009;1.660953462123871E-001;-4.228481650352478E-002;-1.635605236515403E-003;-4.071775823831558E-003;
2.413166666666667E+009;1.653790622949600E-001;-4.339619725942612E-002;-2.042271429672837E-003;-4.012109246104956E-003;
2.413333333333334E+009;1.645945012569428E-001;-4.429060220718384E-002;-1.999272033572197E-003;-4.218998365104199E-003;
2.413500000000000E+009;1.638830006122589E-001;-4.547510296106339E-002;-2.282173139974475E-003;-3.940075635910034E-003;
2.413666666666667E+009;1.632285714149475E-001;-4.645267501473427E-002;-2.393078757449985E-003;-3.976989071816206E-003;
2.413833333333334E+009;1.626699864864349E-001;-4.749752581119537E-002;-2.436442766338587E-003;-3.931113518774509E-003;
2.414000000000000E+009;1.616760343313217E-001;-4.867555946111679E-002;-2.722824225202203E-003;-3.737415885552764E-003;
2.414166666666667E+009;1.612783968448639E-001;-4.963902011513710E-002;-2.901672152802348E-003;-3.651750506833196E-003;
2.414333333333334E+009;1.605820357799530E-001;-5.091232061386108E-002;-3.031686181202531E-003;-3.676656633615494E-003;
2.414500000000000E+009;1.603807508945465E-001;-5.203143879771233E-002;-3.137397347018123E-003;-3.334128065034747E-003;
2.414666666666667E+009;1.597527563571930E-001;-5.323472246527672E-002;-3.487983485683799E-003;-3.350038779899478E-003;
2.414833333333334E+009;1.592297852039337E-001;-5.457350611686707E-002;-3.652902320027351E-003;-3.337863134220243E-003;
2.415000000000000E+009;1.589543819427490E-001;-5.564159154891968E-002;-3.708863630890846E-003;-3.054692177101970E-003;
2.415166666666667E+009;1.585824191570282E-001;-5.708165466785431E-002;-3.893607063218951E-003;-2.884745132178068E-003;
2.415333333333334E+009;1.584814041852951E-001;-5.847690254449844E-002;-4.173506051301956E-003;-2.602767432108522E-003;
2.415500000000000E+009;1.581802964210510E-001;-5.980656296014786E-002;-4.137785639613867E-003;-2.557134954258800E-003;
2.415666666666667E+009;1.579303592443466E-001;-6.114447489380837E-002;-4.286411218345165E-003;-2.211750485002995E-003;
2.415833333333334E+009;1.576966047286987E-001;-6.260517984628677E-002;-4.412161651998758E-003;-1.967419637367129E-003;
2.416000000000000E+009;1.573724448680878E-001;-6.404438614845276E-002;-4.434708971530199E-003;-1.697311876341701E-003;
2.416166666666667E+009;1.575160920619965E-001;-6.553975492715836E-002;-4.616050980985165E-003;-1.409431104548276E-003;
2.416333333333334E+009;1.572000682353973E-001;-6.693822145462036E-002;-4.486302379518747E-003;-1.170725794509053E-003;
2.416500000000000E+009;1.569937765598297E-001;-6.849315017461777E-002;-4.374885465949774E-003;-7.311067893169820E-004;
2.416666666666667E+009;1.568585634231567E-001;-6.979601085186005E-002;-4.374078940600157E-003;-5.044753779657185E-004;
2.416833333333334E+009;1.566788554191589E-001;-7.137366384267807E-002;-4.256490152329207E-003;-3.442006709519774E-004;
2.417000000000000E+009;1.563648879528046E-001;-7.267337292432785E-002;-4.058310762047768E-003;-1.657226384850219E-004;
2.417166666666667E+009;1.562092006206513E-001;-7.378856837749481E-002;-3.735468722879887E-003;3.354069485794753E-005;
2.417333333333334E+009;1.562293618917465E-001;-7.500030845403671E-002;-3.723953152075410E-003;9.440431313123554E-005;
2.417500000000000E+009;1.559887826442719E-001;-7.623885571956635E-002;-3.642001887783408E-003;2.131741784978658E-004;
2.417666666666667E+009;1.559819728136063E-001;-7.711548358201981E-002;-3.674950217828155E-003;3.361685376148671E-004;
2.417833333333334E+009;1.559322774410248E-001;-7.812377810478210E-002;-3.359393216669560E-003;3.138224419672042E-004;
2.418000000000000E+009;1.558162420988083E-001;-7.923094928264618E-002;-3.393219318240881E-003;4.054199671372771E-004;
2.418166666666667E+009;1.556215584278107E-001;-7.992747426033020E-002;-3.144691232591867E-003;5.230964743532240E-004;
2.418333333333334E+009;1.559083759784699E-001;-8.081813156604767E-002;-3.110594814643264E-003;5.623283213935792E-004;
2.418500000000000E+009;1.556523442268372E-001;-8.155967295169830E-002;-3.217862220481038E-003;4.421807534527034E-004;
2.418666666666667E+009;1.556938588619232E-001;-8.240038156509399E-002;-3.105641342699528E-003;5.930484039708972E-004;
2.418833333333334E+009;1.555278599262238E-001;-8.305479586124420E-002;-3.149374388158321E-003;7.065471727401018E-004;
2.419000000000000E+009;1.553548723459244E-001;-8.367256820201874E-002;-2.968480112031102E-003;7.120962254703045E-004;
2.419166666666667E+009;1.553155630826950E-001;-8.434251695871353E-002;-2.845826093107462E-003;8.708792156539857E-004;
2.419333333333334E+009;1.550471633672714E-001;-8.461268246173859E-002;-2.747270977124572E-003;7.733270758762956E-004;
2.419500000000000E+009;1.549420803785324E-001;-8.541343361139298E-002;-2.658124780282378E-003;1.005398342385888E-003;
2.419666666666667E+009;1.549600064754486E-001;-8.573067933320999E-002;-2.556930296123028E-003;8.881969843059778E-004;
2.419833333333334E+009;1.545614749193192E-001;-8.610268682241440E-002;-2.333592856302857E-003;1.049778773449361E-003;
2.420000000000000E+009;1.543260663747788E-001;-8.635081350803375E-002;-2.307858085259795E-003;1.019590185023844E-003;
2.420166666666667E+009;1.541314721107483E-001;-8.687367290258408E-002;-2.260539913550019E-003;1.117499312385917E-003;
2.420333333333334E+009;1.539786309003830E-001;-8.707864582538605E-002;-2.176572103053331E-003;1.108331023715437E-003;
2.420500000000000E+009;1.537259519100189E-001;-8.735141158103943E-002;-2.064321190118790E-003;8.509167819283903E-004;
2.420666666666667E+009;1.533562690019608E-001;-8.749877661466599E-002;-2.005197107791901E-003;8.570947102271020E-004;
2.420833333333334E+009;1.530860662460327E-001;-8.798964321613312E-002;-2.021304564550519E-003;6.566525553353131E-004;
2.421000000000000E+009;1.524238735437393E-001;-8.855736255645752E-002;-1.948344754055142E-003;6.938839796930552E-004;
2.421166666666667E+009;1.522417217493057E-001;-8.874276280403137E-002;-1.949212979525328E-003;6.738385418429971E-004;
2.421333333333334E+009;1.519542634487152E-001;-8.925129473209381E-002;-2.014491008594632E-003;7.519865757785738E-004;
2.421500000000000E+009;1.509660482406616E-001;-8.959073573350906E-002;-1.991225173696876E-003;5.794044118374586E-004;
2.421666666666667E+009;1.503994762897492E-001;-9.019477665424347E-002;-1.928636804223061E-003;5.982444272376597E-004;
2.421833333333334E+009;1.499636620283127E-001;-9.061287343502045E-002;-1.871119020506740E-003;5.959616391919553E-004;
2.422000000000000E+009;1.492082327604294E-001;-9.112610667943955E-002;-2.014264697209001E-003;5.848912405781448E-004;
2.422166666666667E+009;1.485484540462494E-001;-9.184534102678299E-002;-2.006976166740060E-003;6.330956821329892E-004;
2.422333333333334E+009;1.478224247694016E-001;-9.242061525583267E-002;-2.102984348312020E-003;4.678129917010665E-004;
2.422500000000000E+009;1.468696296215057E-001;-9.286420792341232E-002;-2.031732350587845E-003;5.675196298398078E-004;
2.422666666666667E+009;1.460061520338059E-001;-9.368520975112915E-002;-2.072668867185712E-003;4.292817029636353E-004;
2.422833333333334E+009;1.454590260982513E-001;-9.443937242031097E-002;-2.210455015301704E-003;5.486791487783194E-004;
2.423000000000000E+009;1.443199515342712E-001;-9.523959457874298E-002;-2.238566987216473E-003;3.918818547390401E-004;
2.423166666666667E+009;1.436034590005875E-001;-9.603396803140640E-002;-2.579647582024336E-003;3.205834655091167E-004;
2.423333333333334E+009;1.425521522760391E-001;-9.676008671522141E-002;-2.650684909895062E-003;9.646619582781568E-005;
2.423500000000000E+009;1.417448073625565E-001;-9.777880460023880E-002;-2.791171194985509E-003;3.552583511918783E-004;
2.423666666666667E+009;1.406247764825821E-001;-9.886946529150009E-002;-2.834973391145468E-003;2.806207630783320E-004;
2.423833333333334E+009;1.398993283510208E-001;-9.978350251913071E-002;-3.096257802098990E-003;3.905078629031777E-004;
2.424000000000000E+009;1.387911289930344E-001;-1.008033975958824E-001;-2.979016862809658E-003;7.286693435162306E-004;
2.424166666666667E+009;1.380560547113419E-001;-1.018136516213417E-001;-3.335169516503811E-003;9.046013001352549E-004;
2.424333333333334E+009;1.372510194778442E-001;-1.027072221040726E-001;-3.579031676054001E-003;1.149212475866079E-003;
2.424500000000000E+009;1.362997591495514E-001;-1.040259301662445E-001;-3.585831727832556E-003;1.215834636241198E-003;
2.424666666666667E+009;1.356813162565231E-001;-1.048674285411835E-001;-3.579003037884831E-003;1.708356896415353E-003;
2.424833333333334E+009;1.347387582063675E-001;-1.060792505741119E-001;-3.712662030011416E-003;1.784906722605228E-003;
2.425000000000000E+009;1.340892314910889E-001;-1.073077917098999E-001;-3.513669362291694E-003;2.111729234457016E-003;
2.425166666666667E+009;1.331692934036255E-001;-1.083925813436508E-001;-3.362858900800347E-003;2.291868906468153E-003;
2.425333333333334E+009;1.326402574777603E-001;-1.096734032034874E-001;-3.174203447997570E-003;2.660426078364253E-003;
2.425500000000000E+009;1.321579962968826E-001;-1.107851862907410E-001;-3.060749266296625E-003;2.807091688737273E-003;
2.425666666666667E+009;1.314855217933655E-001;-1.120095402002335E-001;-2.836353145539761E-003;2.934826537966728E-003;
2.425833333333334E+009;1.310010701417923E-001;-1.131664365530014E-001;-2.701461547985673E-003;3.104170318692923E-003;
2.426000000000000E+009;1.304744929075241E-001;-1.144336238503456E-001;-2.539320383220911E-003;3.098093206062913E-003;
2.426166666666667E+009;1.302799135446549E-001;-1.156271323561668E-001;-2.298094332218170E-003;3.275319235399365E-003;
2.426333333333334E+009;1.296610534191132E-001;-1.168068572878838E-001;-2.111348556354642E-003;3.228924470022321E-003;
2.426500000000000E+009;1.293750107288361E-001;-1.178610995411873E-001;-2.115939976647496E-003;3.350393613800407E-003;
2.426666666666667E+009;1.291524022817612E-001;-1.189329624176025E-001;-1.735514379106462E-003;3.326214151456952E-003;
2.426833333333334E+009;1.287613660097122E-001;-1.199587881565094E-001;-1.658627181313932E-003;3.417536849156022E-003;
2.427000000000000E+009;1.284832507371903E-001;-1.211126744747162E-001;-1.492584007792175E-003;3.448342205956578E-003;
2.427166666666667E+009;1.282727569341660E-001;-1.219797357916832E-001;-1.531753805465996E-003;3.609894774854183E-003;
2.427333333333334E+009;1.279523223638535E-001;-1.229191869497299E-001;-1.248272950761020E-003;3.544176463037729E-003;
2.427500000000000E+009;1.278542131185532E-001;-1.238580271601677E-001;-1.189934089779854E-003;3.484718035906553E-003;
2.427666666666667E+009;1.276693493127823E-001;-1.245727688074112E-001;-7.446173112839460E-004;3.542721271514893E-003;
