# Version 1.00
#
freq[Hz];re:Trc1_S11;im:Trc1_S11;re:Trc2_S21;im:Trc2_S21;
2.400000000000000E+009;1.559958010911942E-001;6.019188463687897E-002;4.939390812069178E-003;-1.931136823259294E-003;
2.400166666666667E+009;1.560663282871246E-001;5.844800919294357E-002;4.854725673794746E-003;-1.895090565085411E-003;
2.400333333333334E+009;1.561386585235596E-001;5.627484992146492E-002;4.823223222047091E-003;-2.078487304970622E-003;
2.400500000000000E+009;1.564924716949463E-001;5.422363430261612E-002;4.994332790374756E-003;-2.177323447540402E-003;
2.400666666666667E+009;1.565370112657547E-001;5.212674289941788E-002;4.826799500733614E-003;-2.579385414719582E-003;
2.400833333333334E+009;1.570680886507034E-001;5.022484809160233E-002;4.771740641444922E-003;-2.564091933891177E-003;
2.401000000000000E+009;1.574852019548416E-001;4.806300625205040E-002;4.616743419319391E-003;-2.856622217223048E-003;
2.401166666666667E+009;1.579467207193375E-001;4.601695388555527E-002;4.391335416585207E-003;-3.129913471639156E-003;
2.401333333333334E+009;1.581958532333374E-001;4.395339265465736E-002;4.408982116729021E-003;-3.218462225049734E-003;
2.401500000000000E+009;1.590215116739273E-001;4.190237820148468E-002;4.297171253710985E-003;-3.398825181648135E-003;
2.401666666666667E+009;1.593701541423798E-001;3.997844830155373E-002;4.137036856263876E-003;-3.510865382850170E-003;
2.401833333333334E+009;1.601153165102005E-001;3.822990879416466E-002;4.048800095915794E-003;-3.688524011522532E-003;
2.402000000000000E+009;1.607807278633118E-001;3.606607019901276E-002;3.781577106565237E-003;-3.888717154040933E-003;
2.402166666666667E+009;1.613989770412445E-001;3.423742949962616E-002;3.674291772767901E-003;-3.991543781012297E-003;
2.402333333333334E+009;1.621411591768265E-001;3.246835991740227E-002;3.365169046446681E-003;-4.156105220317841E-003;
2.402500000000000E+009;1.633460670709610E-001;3.099233098328114E-002;3.405002411454916E-003;-4.271798301488161E-003;
2.402666666666667E+009;1.641242504119873E-001;2.938533946871758E-002;3.136483952403069E-003;-4.407740663737059E-003;
2.402833333333334E+009;1.650097668170929E-001;2.797733061015606E-002;2.780254930257797E-003;-4.545405507087708E-003;
2.403000000000000E+009;1.659054011106491E-001;2.651571854948998E-002;2.681952668353915E-003;-4.627852234989405E-003;
2.403166666666667E+009;1.667970418930054E-001;2.527910843491554E-002;2.611777978017926E-003;-4.667972680181265E-003;
2.403333333333334E+009;1.679235100746155E-001;2.393793314695358E-002;2.237199805676937E-003;-4.583112895488739E-003;
2.403500000000000E+009;1.687226891517639E-001;2.277468144893646E-002;2.078118734061718E-003;-4.752103704959154E-003;
2.403666666666667E+009;1.698388606309891E-001;2.163744159042835E-002;1.909191603772342E-003;-4.914219956845045E-003;
2.403833333333334E+009;1.708698421716690E-001;2.061387337744236E-002;1.552095520310104E-003;-5.053065251559019E-003;
2.404000000000000E+009;1.718107908964157E-001;1.981958001852036E-002;1.375429565086961E-003;-5.017021205276251E-003;
2.404166666666667E+009;1.727301329374313E-001;1.897166669368744E-002;1.272917026653886E-003;-5.138257984071970E-003;
2.404333333333334E+009;1.736405193805695E-001;1.816574484109879E-002;9.787289891391993E-004;-4.984622355550528E-003;
2.404500000000000E+009;1.744036972522736E-001;1.728855259716511E-002;6.376804085448384E-004;-4.897267092019320E-003;
2.404666666666667E+009;1.752260923385620E-001;1.679208688437939E-002;4.216500674374402E-004;-5.056102760136128E-003;
2.404833333333334E+009;1.761493682861328E-001;1.639759726822376E-002;1.663291477598250E-004;-4.996532108634710E-003;
2.405000000000000E+009;1.767957806587219E-001;1.579571887850761E-002;1.976537023438141E-004;-5.127326585352421E-003;
2.405166666666667E+009;1.774709522724152E-001;1.535192597657442E-002;-5.857292489963584E-005;-4.987882915884256E-003;
2.405333333333334E+009;1.781743168830872E-001;1.490452233701944E-002;-2.582072338555008E-004;-4.792396444827318E-003;
2.405500000000000E+009;1.786895692348480E-001;1.462747808545828E-002;-5.376331973820925E-004;-4.636046011000872E-003;
2.405666666666667E+009;1.790492385625839E-001;1.427339110523462E-002;-6.808812613599002E-004;-4.665601532906294E-003;
2.405833333333334E+009;1.792322546243668E-001;1.407745759934187E-002;-7.113233441486955E-004;-4.503921139985323E-003;
2.406000000000000E+009;1.797649264335632E-001;1.373893488198519E-002;-8.653440163470805E-004;-4.378406330943108E-003;
2.406166666666667E+009;1.796851456165314E-001;1.345510687679052E-002;-1.126951887272298E-003;-4.373867996037006E-003;
2.406333333333334E+009;1.800613999366760E-001;1.321343053132296E-002;-1.236604293808341E-003;-4.195185843855143E-003;
2.406500000000000E+009;1.801086962223053E-001;1.274901255965233E-002;-1.413310528732836E-003;-4.009537864476442E-003;
2.406666666666667E+009;1.799068450927734E-001;1.265782397240400E-002;-1.519477344118059E-003;-4.021992906928062E-003;
2.406833333333334E+009;1.797665208578110E-001;1.221019681543112E-002;-1.575583824887872E-003;-3.853805130347610E-003;
2.407000000000000E+009;1.796884834766388E-001;1.184169575572014E-002;-1.699098385870457E-003;-3.676282707601786E-003;
2.407166666666667E+009;1.795157939195633E-001;1.149427983909845E-002;-1.661981339566410E-003;-3.477665362879634E-003;
2.407333333333334E+009;1.790964603424072E-001;1.083573326468468E-002;-1.693066791631281E-003;-3.441378474235535E-003;
2.407500000000000E+009;1.787524819374085E-001;1.025484595447779E-002;-1.912880339659751E-003;-3.322637407109141E-003;
2.407666666666667E+009;1.784481853246689E-001;9.758130647242069E-003;-1.902791322208941E-003;-3.331726416945458E-003;
2.407833333333334E+009;1.776678562164307E-001;8.955667726695538E-003;-1.960983267053962E-003;-3.143877955153585E-003;
2.408000000000000E+009;1.772137731313705E-001;8.097817189991474E-003;-1.883865799754858E-003;-2.959086792543531E-003;
2.408166666666667E+009;1.766946613788605E-001;7.394343148916960E-003;-1.964688533917069E-003;-2.825808711349964E-003;
2.408333333333334E+009;1.761344373226166E-001;6.274270359426737E-003;-2.154756570234895E-003;-2.736910711973906E-003;
2.408500000000000E+009;1.753445714712143E-001;5.183756351470947E-003;-1.985300565138459E-003;-2.798771252855659E-003;
2.408666666666667E+009;1.747548580169678E-001;3.991969861090183E-003;-2.064245054498315E-003;-2.674863673746586E-003;
2.408833333333334E+009;1.740070432424545E-001;2.741318661719561E-003;-2.003914676606655E-003;-2.494085812941194E-003;
2.409000000000000E+009;1.732988506555557E-001;1.492093782871962E-003;-2.118384931236506E-003;-2.399934688583016E-003;
2.409166666666667E+009;1.726108044385910E-001;4.773968612425961E-005;-2.071381313726306E-003;-2.455815905705094E-003;
2.409333333333334E+009;1.720222532749176E-001;-1.424570335075259E-003;-2.144159749150276E-003;-2.391335554420948E-003;
2.409500000000000E+009;1.713038831949234E-001;-3.180494764819741E-003;-1.953887753188610E-003;-2.264000708237290E-003;
2.409666666666667E+009;1.705864816904068E-001;-4.569223616272211E-003;-2.193301683291793E-003;-2.424625679850578E-003;
2.409833333333334E+009;1.698344349861145E-001;-6.091133691370487E-003;-2.181622898206115E-003;-2.251278841868043E-003;
2.410000000000000E+009;1.694676429033279E-001;-7.940617389976978E-003;-2.332366537302733E-003;-2.147264545783401E-003;
2.410166666666667E+009;1.690099090337753E-001;-9.749385528266430E-003;-2.222682116553187E-003;-2.210451057180762E-003;
2.410333333333334E+009;1.685166060924530E-001;-1.170379482209683E-002;-2.256599254906178E-003;-2.135510789230466E-003;
2.410500000000000E+009;1.679738909006119E-001;-1.345509849488735E-002;-2.168537350371480E-003;-2.049244707450271E-003;
2.410666666666667E+009;1.676378846168518E-001;-1.553125865757465E-002;-2.231297083199024E-003;-2.081025391817093E-003;
2.410833333333334E+009;1.674273610115051E-001;-1.734106242656708E-002;-2.363279229030013E-003;-1.902367104776204E-003;
2.411000000000000E+009;1.672719866037369E-001;-1.929029449820519E-002;-2.512323902919889E-003;-1.948684570379555E-003;
2.411166666666667E+009;1.672061532735825E-001;-2.134110964834690E-002;-2.352412790060043E-003;-1.973397796973586E-003;
2.411333333333334E+009;1.673110872507095E-001;-2.318143658339977E-002;-2.326778601855040E-003;-1.998892053961754E-003;
2.411500000000000E+009;1.671673953533173E-001;-2.530534379184246E-002;-2.622827421873808E-003;-1.829782850109041E-003;
2.411666666666667E+009;1.675188541412354E-001;-2.728123404085636E-002;-2.708750544115901E-003;-1.854499801993370E-003;
2.411833333333334E+009;1.675369590520859E-001;-2.917122468352318E-002;-2.704822923988104E-003;-1.828604843467474E-003;
2.412000000000000E+009;1.680508255958557E-001;-3.123449720442295E-002;-2.759853843599558E-003;-1.620260416530073E-003;
2.412166666666667E+009;1.682638376951218E-001;-3.290076926350594E-002;-2.845450304448605E-003;-1.665379386395216E-003;
2.412333333333334E+009;1.688478887081146E-001;-3.469957783818245E-002;-3.018163843080401E-003;-1.402153400704265E-003;
2.412500000000000E+009;1.691446304321289E-001;-3.661675006151199E-002;-3.079374553635716E-003;-1.339660724624991E-003;
2.412666666666667E+009;1.695377975702286E-001;-3.832533955574036E-002;-3.007311606779695E-003;-1.357445842586458E-003;
2.412833333333334E+009;1.701750457286835E-001;-3.984801843762398E-002;-3.155098063871265E-003;-1.172443851828575E-003;
2.413000000000000E+009;1.708568930625916E-001;-4.168274998664856E-002;-3.270325483754277E-003;-9.907005587592721E-004;
2.413166666666667E+009;1.713791936635971E-001;-4.328304529190064E-002;-3.391487523913384E-003;-8.218726143240929E-004;
2.413333333333334E+009;1.719020605087280E-001;-4.479179158806801E-002;-3.337831236422062E-003;-7.072517182677984E-004;
2.413500000000000E+009;1.726508289575577E-001;-4.628118872642517E-002;-3.211446572095156E-003;-5.799442878924310E-004;
2.413666666666667E+009;1.732026338577271E-001;-4.748996347188950E-002;-3.227760549634695E-003;-6.328108138404787E-004;
2.413833333333334E+009;1.739657223224640E-001;-4.879325628280640E-002;-3.254723502323031E-003;-4.293413367122412E-004;
2.414000000000000E+009;1.744263768196106E-001;-4.988231509923935E-002;-3.214674303308129E-003;-3.372674691490829E-004;
2.414166666666667E+009;1.750255227088928E-001;-5.089289695024490E-002;-3.120551118627191E-003;-1.096746491384693E-004;
2.414333333333334E+009;1.755678504705429E-001;-5.195541679859161E-002;-3.241709666326642E-003;-1.335740089416504E-004;
2.414500000000000E+009;1.762886047363281E-001;-5.270195752382278E-002;-3.113244427368045E-003;1.612370942893904E-005;
2.414666666666667E+009;1.768260300159454E-001;-5.351310223340988E-002;-3.203572472557426E-003;5.925249934080057E-005;
2.414833333333334E+009;1.772164553403854E-001;-5.431757494807243E-002;-3.186980029568076E-003;2.729128755163401E-004;
2.415000000000000E+009;1.775476038455963E-001;-5.505863204598427E-002;-3.085750155150890E-003;2.657093282323331E-004;
2.415166666666667E+009;1.779489666223526E-001;-5.556663498282433E-002;-3.072024555876851E-003;3.601186908781529E-004;
2.415333333333334E+009;1.781911104917526E-001;-5.596579611301422E-002;-3.064047778025270E-003;6.052407552488148E-004;
2.415500000000000E+009;1.784633398056030E-001;-5.657621473073959E-002;-2.978964941576123E-003;6.560756592079997E-004;
2.415666666666667E+009;1.784078478813171E-001;-5.671910941600800E-002;-2.975519280880690E-003;7.371907122433186E-004;
2.415833333333334E+009;1.785545349121094E-001;-5.704479292035103E-002;-2.845216076821089E-003;9.089389350265265E-004;
2.416000000000000E+009;1.783982366323471E-001;-5.735645443201065E-002;-2.701921854168177E-003;8.720214827917516E-004;
2.416166666666667E+009;1.784335225820541E-001;-5.771389231085777E-002;-2.872369484975934E-003;9.345659636892378E-004;
2.416333333333334E+009;1.781976073980331E-001;-5.770662426948547E-002;-2.842428628355265E-003;1.126829069107771E-003;
2.416500000000000E+009;1.777119934558868E-001;-5.804332718253136E-002;-2.717569004744291E-003;1.206254586577416E-003;
2.416666666666667E+009;1.774296760559082E-001;-5.822031944990158E-002;-2.676657633855939E-003;1.126312650740147E-003;
2.416833333333334E+009;1.770206540822983E-001;-5.848458781838417E-002;-2.613811055198312E-003;1.206823741085827E-003;
2.417000000000000E+009;1.761768609285355E-001;-5.872331559658051E-002;-2.527829492464662E-003;1.383379567414522E-003;
2.417166666666667E+009;1.755526363849640E-001;-5.882027372717857E-002;-2.440745942294598E-003;1.446723472326994E-003;
2.417333333333334E+009;1.748229414224625E-001;-5.896458029747009E-002;-2.478310139849782E-003;1.492107403464615E-003;
2.417500000000000E+009;1.740614771842957E-001;-5.944343283772469E-002;-2.385188592597842E-003;1.487353583797813E-003;
2.417666666666667E+009;1.731513589620590E-001;-5.955934897065163E-002;-2.248918171972036E-003;1.497278572060168E-003;
2.417833333333334E+009;1.720866560935974E-001;-5.985113233327866E-002;-2.132614143192768E-003;1.533334725536406E-003;
2.418000000000000E+009;1.710174828767777E-001;-6.036781519651413E-002;-2.270941622555256E-003;1.746583264321089E-003;
2.418166666666667E+009;1.699142605066299E-001;-6.080749630928040E-002;-2.089021960273385E-003;1.706373412162066E-003;
2.418333333333334E+009;1.689319163560867E-001;-6.127591431140900E-002;-2.025683643296361E-003;1.822020858526230E-003;
2.418500000000000E+009;1.676708310842514E-001;-6.186253577470779E-002;-1.879445160739124E-003;1.903681783005595E-003;
2.418666666666667E+009;1.665112078189850E-001;-6.256373971700668E-002;-1.929064164869487E-003;1.938510453328490E-003;
2.418833333333334E+009;1.651389449834824E-001;-6.331825256347656E-002;-1.787840155884624E-003;1.823476050049067E-003;
2.419000000000000E+009;1.638198196887970E-001;-6.401477009057999E-002;-1.809634501114488E-003;1.964855473488569E-003;
2.419166666666667E+009;1.627388149499893E-001;-6.501799076795578E-002;-1.605851110070944E-003;1.938319648616016E-003;
2.419333333333334E+009;1.613207012414932E-001;-6.577278673648834E-002;-1.565968850627542E-003;1.989156473428011E-003;
2.419500000000000E+009;1.601678729057312E-001;-6.705302745103836E-002;-1.612351159565151E-003;2.040921710431576E-003;
2.419666666666667E+009;1.590578556060791E-001;-6.809239834547043E-002;-1.498546800576150E-003;1.914369058795273E-003;
2.419833333333334E+009;1.578391641378403E-001;-6.910502910614014E-002;-1.359930378384888E-003;1.970631768926978E-003;
2.420000000000000E+009;1.568526029586792E-001;-7.047881931066513E-002;-1.286573708057404E-003;2.030601026490331E-003;
2.420166666666667E+009;1.556447297334671E-001;-7.176163047552109E-002;-1.374813029542565E-003;1.935628242790699E-003;
2.420333333333334E+009;1.546913832426071E-001;-7.333383709192276E-002;-1.195004442706704E-003;2.011146163567901E-003;
2.420500000000000E+009;1.539489775896072E-001;-7.437371462583542E-002;-1.232588896527886E-003;2.136395545676351E-003;
2.420666666666667E+009;1.531231254339218E-001;-7.597884535789490E-002;-1.126514864154160E-003;2.030053641647100E-003;
2.420833333333334E+009;1.523495763540268E-001;-7.761397957801819E-002;-9.917754214257002E-004;2.006249269470573E-003;
2.421000000000000E+009;1.514187455177307E-001;-7.927715778350830E-002;-9.919455042108893E-004;2.133890055119991E-003;
2.421166666666667E+009;1.509557813405991E-001;-8.071222156286240E-002;-8.794411551207304E-004;2.020202344283462E-003;
2.421333333333334E+009;1.505012959241867E-001;-8.259520679712296E-002;-9.925318881869316E-004;2.207383979111910E-003;
2.421500000000000E+009;1.500552296638489E-001;-8.411298692226410E-002;-9.139391477219760E-004;2.059896709397435E-003;
2.421666666666667E+009;1.497628092765808E-001;-8.594775199890137E-002;-8.693976560607553E-004;2.268131356686354E-003;
2.421833333333334E+009;1.494746208190918E-001;-8.755842596292496E-002;-9.036504197865725E-004;2.222795272246003E-003;
2.422000000000000E+009;1.494368016719818E-001;-8.931020647287369E-002;-7.750475197099149E-004;2.061615465208888E-003;
2.422166666666667E+009;1.493497341871262E-001;-9.100741893053055E-002;-6.814107182435691E-004;2.229027915745974E-003;
2.422333333333334E+009;1.492918878793716E-001;-9.272034466266632E-002;-5.761002539657056E-004;2.232891041785479E-003;
2.422500000000000E+009;1.493776887655258E-001;-9.417981654405594E-002;-4.288901400286704E-004;2.270913915708661E-003;
2.422666666666667E+009;1.494781970977783E-001;-9.584054350852966E-002;-3.871654043905437E-004;2.319113584235311E-003;
2.422833333333334E+009;1.499029695987701E-001;-9.778565168380737E-002;-2.502353454474360E-004;2.353495219722390E-003;
2.423000000000000E+009;1.500682681798935E-001;-9.922303259372711E-002;-2.760959032457322E-004;2.435016678646207E-003;
2.423166666666667E+009;1.506339609622955E-001;-1.007953584194183E-001;-2.058775280602276E-004;2.464698394760490E-003;
2.423333333333334E+009;1.510672867298126E-001;-1.021031737327576E-001;-1.546590065117925E-004;2.500216010957956E-003;
2.423500000000000E+009;1.514927446842194E-001;-1.036107912659645E-001;1.255828392459080E-004;2.509181387722492E-003;
2.423666666666667E+009;1.516617089509964E-001;-1.051047593355179E-001;1.768841029843316E-004;2.541875001043081E-003;
2.423833333333334E+009;1.524224877357483E-001;-1.062341257929802E-001;3.491445968393236E-004;2.472179243341088E-003;
2.424000000000000E+009;1.529761254787445E-001;-1.073451414704323E-001;3.353366046212614E-004;2.512402134016156E-003;
2.424166666666667E+009;1.534452140331268E-001;-1.084605455398560E-001;5.391010199673474E-004;2.497857203707099E-003;
2.424333333333334E+009;1.541192680597305E-001;-1.095131784677506E-001;7.085027755238116E-004;2.402349375188351E-003;
2.424500000000000E+009;1.545314043760300E-001;-1.105208545923233E-001;6.206006510183215E-004;2.404767088592053E-003;
2.424666666666667E+009;1.552514731884003E-001;-1.112637966871262E-001;9.808214381337166E-004;2.271836157888174E-003;
2.424833333333334E+009;1.554616987705231E-001;-1.121651977300644E-001;1.044001663103700E-003;2.252241363748908E-003;
2.425000000000000E+009;1.560975015163422E-001;-1.129565462470055E-001;9.414830128662288E-004;2.173500135540962E-003;
2.425166666666667E+009;1.562062948942184E-001;-1.135360524058342E-001;1.082303468137980E-003;1.913559273816645E-003;
2.425333333333334E+009;1.566220968961716E-001;-1.142369136214256E-001;1.312577282078564E-003;1.991000026464462E-003;
2.425500000000000E+009;1.571904569864273E-001;-1.148150712251663E-001;1.177123514935374E-003;1.869363477453589E-003;
2.425666666666667E+009;1.570824384689331E-001;-1.152574717998505E-001;1.325989258475602E-003;1.793777337297797E-003;
2.425833333333334E+009;1.572617143392563E-001;-1.155492886900902E-001;1.448764582164586E-003;1.633657608181238E-003;
2.426000000000000E+009;1.572260111570358E-001;-1.160645708441734E-001;1.539031276479363E-003;1.535194111056626E-003;
2.426166666666667E+009;1.574289798736572E-001;-1.161774843931198E-001;1.585128949955106E-003;1.450928742997348E-003;
2.426333333333334E+009;1.572398543357849E-001;-1.164190694689751E-001;1.588587183505297E-003;1.245454070158303E-003;
2.426500000000000E+009;1.569817066192627E-001;-1.166317313909531E-001;1.486186636611819E-003;1.246049883775413E-003;
2.426666666666667E+009;1.569108366966248E-001;-1.165746450424194E-001;1.599899958819151E-003;1.142535591498017E-003;
2.426833333333334E+009;1.564925909042358E-001;-1.167996376752853E-001;1.621505361981690E-003;1.080855727195740E-003;
2.427000000000000E+009;1.559223234653473E-001;-1.169678419828415E-001;1.489344402216375E-003;1.063178642652929E-003;
2.427166666666667E+009;1.552504599094391E-001;-1.168758198618889E-001;1.467415830120444E-003;7.839073077775538E-004;
2.427333333333334E+009;1.545522361993790E-001;-1.170891374349594E-001;1.531171612441540E-003;7.629824103787541E-004;
2.427500000000000E+009;1.540085226297379E-001;-1.171878427267075E-001;1.456477912142873E-003;5.494938814081252E-004;
2.427666666666667E+009;1.529593765735626E-001;-1.173921748995781E-001;1.572706503793597E-003;4.576752253342420E-004;
