# Version 1.00
#
freq[Hz];re:Trc1_S11;im:Trc1_S11;re:Trc2_S21;im:Trc2_S21;
2.400000000000000E+009;1.558898985385895E-001;6.006661057472229E-002;4.982209764420986E-003;-1.603711629286408E-003;
2.400166666666667E+009;1.560465842485428E-001;5.838428437709808E-002;4.932325799018145E-003;-1.911194529384375E-003;
2.400333333333334E+009;1.559765338897705E-001;5.636661872267723E-002;4.824075382202864E-003;-1.967212650924921E-003;
2.400500000000000E+009;1.563672274351120E-001;5.423651635646820E-002;4.888075869530439E-003;-2.317401813343167E-003;
2.400666666666667E+009;1.565578430891037E-001;5.226833000779152E-002;4.641096573323011E-003;-2.352517331019044E-003;
2.400833333333334E+009;1.568131893873215E-001;5.030634254217148E-002;4.545113071799278E-003;-2.567301504313946E-003;
2.401000000000000E+009;1.573036164045334E-001;4.804133996367455E-002;4.569537471979857E-003;-2.807826735079289E-003;
2.401166666666667E+009;1.576962172985077E-001;4.599978774785996E-002;4.451965913176537E-003;-2.988619497045875E-003;
2.401333333333334E+009;1.581913977861404E-001;4.408705979585648E-002;4.397017881274223E-003;-3.162601962685585E-003;
2.401500000000000E+009;1.588447391986847E-001;4.204435646533966E-002;4.205568227916956E-003;-3.155088284984231E-003;
2.401666666666667E+009;1.593535840511322E-001;4.019106179475784E-002;4.068542737513781E-003;-3.530032699927688E-003;
2.401833333333334E+009;1.601225435733795E-001;3.816832229495049E-002;3.966175485402346E-003;-3.628062317147851E-003;
2.402000000000000E+009;1.606713086366653E-001;3.623078390955925E-002;3.738140454515815E-003;-3.834979608654976E-003;
2.402166666666667E+009;1.613094806671143E-001;3.436120972037315E-002;3.672033315524459E-003;-4.042330197989941E-003;
2.402333333333334E+009;1.622072011232376E-001;3.266340494155884E-002;3.505340311676264E-003;-4.130497109144926E-003;
2.402500000000000E+009;1.632110476493835E-001;3.100399672985077E-002;3.217711811885238E-003;-4.259829409420490E-003;
2.402666666666667E+009;1.640278995037079E-001;2.945598401129246E-002;3.193476935848594E-003;-4.348306450992823E-003;
2.402833333333334E+009;1.648465245962143E-001;2.813453227281570E-002;2.978528151288629E-003;-4.336192272603512E-003;
2.403000000000000E+009;1.657222807407379E-001;2.655894309282303E-002;2.684212755411863E-003;-4.599772859364748E-003;
2.403166666666667E+009;1.669262349605560E-001;2.520731464028359E-002;2.543363720178604E-003;-4.700381308794022E-003;
2.403333333333334E+009;1.679294407367706E-001;2.402872033417225E-002;2.316616941243410E-003;-4.696536343544722E-003;
2.403500000000000E+009;1.688553690910339E-001;2.286484278738499E-002;2.154496731236577E-003;-4.808950703591108E-003;
2.403666666666667E+009;1.698185503482819E-001;2.168096415698528E-002;1.965414267033339E-003;-4.817985463887453E-003;
2.403833333333334E+009;1.708265542984009E-001;2.069120854139328E-002;1.729553798213601E-003;-4.836977925151587E-003;
2.404000000000000E+009;1.717904955148697E-001;1.969147101044655E-002;1.419550506398082E-003;-4.943339154124260E-003;
2.404166666666667E+009;1.727849990129471E-001;1.890842989087105E-002;1.194161479361355E-003;-4.879901185631752E-003;
2.404333333333334E+009;1.737545132637024E-001;1.832906901836395E-002;1.028890488669276E-003;-4.989922977983952E-003;
2.404500000000000E+009;1.744969934225082E-001;1.739352941513062E-002;8.765479433350265E-004;-4.946489818394184E-003;
2.404666666666667E+009;1.753109842538834E-001;1.687534153461456E-002;5.441863322630525E-004;-4.946996923536062E-003;
2.404833333333334E+009;1.760908365249634E-001;1.634520851075649E-002;4.706074250862002E-004;-5.083180032670498E-003;
2.405000000000000E+009;1.767742782831192E-001;1.584459841251373E-002;-2.491124632797437E-006;-4.799236077815294E-003;
2.405166666666667E+009;1.774595081806183E-001;1.532592810690403E-002;1.250830391654745E-004;-4.875832237303257E-003;
2.405333333333334E+009;1.781980842351914E-001;1.486483402550221E-002;-4.359449958428741E-004;-4.738847259432077E-003;
2.405500000000000E+009;1.786676049232483E-001;1.460756361484528E-002;-3.956723085138947E-004;-4.672391340136528E-003;
2.405666666666667E+009;1.790080815553665E-001;1.431622263044119E-002;-4.837878805119544E-004;-4.434718284755945E-003;
2.405833333333334E+009;1.793123185634613E-001;1.411734428256750E-002;-6.441950099542737E-004;-4.423496313393116E-003;
2.406000000000000E+009;1.796720772981644E-001;1.364867482334375E-002;-1.047628466039896E-003;-4.365714266896248E-003;
2.406166666666667E+009;1.798082739114761E-001;1.354663446545601E-002;-1.047660247422755E-003;-4.213525447994471E-003;
2.406333333333334E+009;1.800597310066223E-001;1.327301934361458E-002;-1.188273658044636E-003;-4.026331473141909E-003;
2.406500000000000E+009;1.800949573516846E-001;1.286217477172613E-002;-1.231284230016172E-003;-3.945805598050356E-003;
2.406666666666667E+009;1.799182444810867E-001;1.273513399064541E-002;-1.473131938837469E-003;-3.866688115522265E-003;
2.406833333333334E+009;1.798138171434403E-001;1.223686710000038E-002;-1.398216350935400E-003;-3.816397394984961E-003;
2.407000000000000E+009;1.796381771564484E-001;1.179185323417187E-002;-1.515195937827230E-003;-3.747486975044012E-003;
2.407166666666667E+009;1.795910745859146E-001;1.139323227107525E-002;-1.565670361742377E-003;-3.428686177358031E-003;
2.407333333333334E+009;1.792050898075104E-001;1.080778893083334E-002;-1.675142790190876E-003;-3.375374246388674E-003;
2.407500000000000E+009;1.787112206220627E-001;1.042883098125458E-002;-1.911300932988524E-003;-3.324266523122788E-003;
2.407666666666667E+009;1.783040463924408E-001;9.765123017132282E-003;-1.842120080254972E-003;-3.186478279531002E-003;
2.407833333333334E+009;1.776563972234726E-001;8.845028467476368E-003;-1.753438496962190E-003;-3.222313243895769E-003;
2.408000000000000E+009;1.770994216203690E-001;8.101442828774452E-003;-1.877260860055685E-003;-2.878489205613732E-003;
2.408166666666667E+009;1.766783595085144E-001;7.399480789899826E-003;-1.976713305339217E-003;-2.795769600197673E-003;
2.408333333333334E+009;1.761805862188339E-001;6.403339095413685E-003;-1.880888012237847E-003;-2.711458830162883E-003;
2.408500000000000E+009;1.754109412431717E-001;5.289400927722454E-003;-2.099270699545741E-003;-2.685401821509004E-003;
2.408666666666667E+009;1.747259944677353E-001;3.980017732828856E-003;-2.065158914774656E-003;-2.560193650424480E-003;
2.408833333333334E+009;1.740465313196182E-001;2.777496585622430E-003;-1.984206028282642E-003;-2.673179376870394E-003;
2.409000000000000E+009;1.731846332550049E-001;1.592012238688767E-003;-2.100134268403053E-003;-2.491003135219216E-003;
2.409166666666667E+009;1.725720912218094E-001;2.367670240346342E-004;-1.954995328560472E-003;-2.370280912145972E-003;
2.409333333333334E+009;1.720528751611710E-001;-1.359221176244319E-003;-2.042660955339670E-003;-2.397579839453101E-003;
2.409500000000000E+009;1.713132709264755E-001;-3.048236249014735E-003;-1.917265704832971E-003;-2.317222533747554E-003;
2.409666666666667E+009;1.704831570386887E-001;-4.684670362621546E-003;-2.114049391821027E-003;-2.276789397001267E-003;
2.409833333333334E+009;1.698714643716812E-001;-6.088921800255776E-003;-1.963357441127300E-003;-2.210272941738367E-003;
2.410000000000000E+009;1.695718914270401E-001;-7.889023981988430E-003;-2.001326531171799E-003;-2.123402198776603E-003;
2.410166666666667E+009;1.690043359994888E-001;-9.600793011486530E-003;-2.041425555944443E-003;-2.239426830783486E-003;
2.410333333333334E+009;1.685590595006943E-001;-1.172285806387663E-002;-2.076679607853293E-003;-2.026363974437118E-003;
2.410500000000000E+009;1.681818217039108E-001;-1.353412773460150E-002;-1.996756764128804E-003;-2.130490727722645E-003;
2.410666666666667E+009;1.676917821168900E-001;-1.557242404669523E-002;-2.136026509106159E-003;-2.138060517609119E-003;
2.410833333333334E+009;1.674062609672546E-001;-1.728676073253155E-002;-2.351072384044528E-003;-2.078118268400431E-003;
2.411000000000000E+009;1.674845516681671E-001;-1.923170685768127E-002;-2.415978582575917E-003;-2.139053540304303E-003;
2.411166666666667E+009;1.673806309700012E-001;-2.124544046819210E-002;-2.433145651593804E-003;-1.895260415039957E-003;
2.411333333333334E+009;1.672763228416443E-001;-2.323685213923454E-002;-2.414430025964975E-003;-2.099185716360807E-003;
2.411500000000000E+009;1.671721190214157E-001;-2.532603777945042E-002;-2.651101909577847E-003;-2.061037579551339E-003;
2.411666666666667E+009;1.676821857690811E-001;-2.707555703818798E-002;-2.649503061547875E-003;-1.807726221159101E-003;
2.411833333333334E+009;1.677881181240082E-001;-2.903771959245205E-002;-2.652534283697605E-003;-1.735277008265257E-003;
2.412000000000000E+009;1.681791543960571E-001;-3.108741156756878E-002;-2.803239040076733E-003;-1.684154616668820E-003;
2.412166666666667E+009;1.681349426507950E-001;-3.304340690374374E-002;-2.816884312778711E-003;-1.684122136794031E-003;
2.412333333333334E+009;1.689538806676865E-001;-3.452802076935768E-002;-2.799871610477567E-003;-1.462595653720200E-003;
2.412500000000000E+009;1.692543327808380E-001;-3.638978675007820E-002;-2.830863464623690E-003;-1.355267246253789E-003;
2.412666666666667E+009;1.696317940950394E-001;-3.839319571852684E-002;-3.020523814484477E-003;-1.437151571735740E-003;
2.412833333333334E+009;1.701779812574387E-001;-4.015218093991280E-002;-3.051243955269456E-003;-1.175643643364310E-003;
2.413000000000000E+009;1.707975715398789E-001;-4.154287278652191E-002;-3.119341563433409E-003;-1.180404447950423E-003;
2.413166666666667E+009;1.713036149740219E-001;-4.310224205255508E-002;-3.119571134448052E-003;-9.429165511392057E-004;
2.413333333333334E+009;1.720031499862671E-001;-4.472410306334496E-002;-3.165298607200384E-003;-8.793847518973053E-004;
2.413500000000000E+009;1.726876944303513E-001;-4.606030136346817E-002;-3.219377016648650E-003;-6.350830080918968E-004;
2.413666666666667E+009;1.733625531196594E-001;-4.749150946736336E-002;-3.319268580526114E-003;-6.213409360498190E-004;
2.413833333333334E+009;1.738222241401672E-001;-4.868853092193604E-002;-3.240729449316859E-003;-5.471579497680068E-004;
2.414000000000000E+009;1.744815111160278E-001;-4.981536418199539E-002;-3.246600739657879E-003;-3.372316714376211E-004;
2.414166666666667E+009;1.752258986234665E-001;-5.096382275223732E-002;-3.139926120638847E-003;-2.117808180628344E-004;
2.414333333333334E+009;1.755954176187515E-001;-5.188076943159103E-002;-3.048706334084272E-003;-8.554946543881670E-005;
2.414500000000000E+009;1.763370335102081E-001;-5.280667170882225E-002;-3.182404208928347E-003;8.156381954904646E-005;
2.414666666666667E+009;1.767140328884125E-001;-5.361768603324890E-002;-3.119048429653049E-003;6.063087857910432E-005;
2.414833333333334E+009;1.771924346685410E-001;-5.428279563784599E-002;-3.159168642014265E-003;2.702687634155154E-004;
2.415000000000000E+009;1.774525493383408E-001;-5.498569458723068E-002;-3.143108915537596E-003;2.391425514360890E-004;
2.415166666666667E+009;1.778576672077179E-001;-5.536925792694092E-002;-2.955513773486018E-003;3.699905064422637E-004;
2.415333333333334E+009;1.782146990299225E-001;-5.606716498732567E-002;-3.057709429413080E-003;3.691417805384845E-004;
2.415500000000000E+009;1.783398538827896E-001;-5.650658905506134E-002;-3.070491366088390E-003;7.169747259467840E-004;
2.415666666666667E+009;1.784147620201111E-001;-5.673277750611305E-002;-2.865273039788008E-003;5.612418171949685E-004;
2.415833333333334E+009;1.785700619220734E-001;-5.708235502243042E-002;-2.826612675562501E-003;7.079303031787276E-004;
2.416000000000000E+009;1.783972531557083E-001;-5.735689401626587E-002;-2.873842604458332E-003;9.287959546782076E-004;
2.416166666666667E+009;1.784695684909821E-001;-5.760748684406281E-002;-2.831114223226905E-003;8.662981563247740E-004;
2.416333333333334E+009;1.781824529170990E-001;-5.777689069509506E-002;-2.752922242507339E-003;1.002403674647212E-003;
2.416500000000000E+009;1.779599487781525E-001;-5.799719318747520E-002;-2.683056518435478E-003;9.676556801423430E-004;
2.416666666666667E+009;1.773147433996201E-001;-5.810751020908356E-002;-2.601155778393149E-003;1.312407664954662E-003;
2.416833333333334E+009;1.769775301218033E-001;-5.846489593386650E-002;-2.461805939674377E-003;1.141807530075312E-003;
2.417000000000000E+009;1.761657744646072E-001;-5.866082012653351E-002;-2.356499899178743E-003;1.363783143460751E-003;
2.417166666666667E+009;1.756237149238586E-001;-5.865700915455818E-002;-2.437880262732506E-003;1.226730295456946E-003;
2.417333333333334E+009;1.748850643634796E-001;-5.891066789627075E-002;-2.325696637853980E-003;1.504502841271460E-003;
2.417500000000000E+009;1.739723533391953E-001;-5.940321460366249E-002;-2.325474983081222E-003;1.473295269533992E-003;
2.417666666666667E+009;1.732206195592880E-001;-5.953686684370041E-002;-2.146912738680840E-003;1.482521649450064E-003;
2.417833333333334E+009;1.722299903631210E-001;-5.990849062800407E-002;-2.128871623426676E-003;1.513717579655349E-003;
2.418000000000000E+009;1.710902005434036E-001;-6.044558435678482E-002;-2.166782738640904E-003;1.546210492961109E-003;
2.418166666666667E+009;1.698235273361206E-001;-6.063584983348846E-002;-1.950386329554021E-003;1.674186903983355E-003;
2.418333333333334E+009;1.689714342355728E-001;-6.129524111747742E-002;-1.967945834621787E-003;1.718501793220639E-003;
2.418500000000000E+009;1.677333116531372E-001;-6.178839132189751E-002;-1.866144128143787E-003;1.880731782875955E-003;
2.418666666666667E+009;1.665327847003937E-001;-6.257598847150803E-002;-1.928273006342351E-003;1.588399056345224E-003;
2.418833333333334E+009;1.651806533336639E-001;-6.329205632209778E-002;-1.916422974318266E-003;1.798664452508092E-003;
2.419000000000000E+009;1.638259738683701E-001;-6.399415433406830E-002;-1.672398531809449E-003;1.951913116499782E-003;
2.419166666666667E+009;1.626909524202347E-001;-6.496627628803253E-002;-1.707834191620350E-003;1.847986830398440E-003;
2.419333333333334E+009;1.613115221261978E-001;-6.579170376062393E-002;-1.576570793986321E-003;1.788182533346117E-003;
2.419500000000000E+009;1.601415276527405E-001;-6.694283336400986E-002;-1.573975780047476E-003;1.949839876033366E-003;
2.419666666666667E+009;1.590774655342102E-001;-6.820216774940491E-002;-1.486987457610667E-003;1.815506373532116E-003;
2.419833333333334E+009;1.578606814146042E-001;-6.911228597164154E-002;-1.453252625651658E-003;2.008128212764859E-003;
2.420000000000000E+009;1.567857563495636E-001;-7.051304727792740E-002;-1.315283006988466E-003;1.905626733787358E-003;
2.420166666666667E+009;1.557461619377136E-001;-7.174129039049149E-002;-1.318896654993296E-003;1.958896871656179E-003;
2.420333333333334E+009;1.547515094280243E-001;-7.319207489490509E-002;-1.268512802198529E-003;2.087342785671353E-003;
2.420500000000000E+009;1.539608836174011E-001;-7.442393153905869E-002;-1.226027961820364E-003;1.967102056369185E-003;
2.420666666666667E+009;1.529159396886826E-001;-7.585076242685318E-002;-1.075077801942825E-003;2.000862965360284E-003;
2.420833333333334E+009;1.523186117410660E-001;-7.754804193973541E-002;-1.089956378564239E-003;2.036138903349638E-003;
2.421000000000000E+009;1.515882462263107E-001;-7.940388470888138E-002;-1.094141160137951E-003;1.990855904296041E-003;
2.421166666666667E+009;1.509266048669815E-001;-8.086921274662018E-002;-1.047448371537030E-003;2.125629223883152E-003;
2.421333333333334E+009;1.504882723093033E-001;-8.261623233556747E-002;-1.007365412078798E-003;2.074122428894043E-003;
2.421500000000000E+009;1.502352654933929E-001;-8.416417241096497E-002;-9.282809915021062E-004;2.258644206449390E-003;
2.421666666666667E+009;1.497548520565033E-001;-8.596661686897278E-002;-7.423650822602212E-004;2.070379443466663E-003;
2.421833333333334E+009;1.495715528726578E-001;-8.760710805654526E-002;-9.136514272540808E-004;2.220325637608767E-003;
2.422000000000000E+009;1.493121981620789E-001;-8.926729112863541E-002;-7.729429635219276E-004;2.066836925223470E-003;
2.422166666666667E+009;1.492974013090134E-001;-9.115555137395859E-002;-7.295224349945784E-004;2.231568330898881E-003;
2.422333333333334E+009;1.494769752025604E-001;-9.266942739486694E-002;-5.955086671747267E-004;2.296963939443231E-003;
2.422500000000000E+009;1.494514346122742E-001;-9.429144114255905E-002;-6.176968454383314E-004;2.183937001973391E-003;
2.422666666666667E+009;1.494877189397812E-001;-9.597459435462952E-002;-6.275947089307010E-004;2.391033805906773E-003;
2.422833333333334E+009;1.497846394777298E-001;-9.772849828004837E-002;-3.430825599934906E-004;2.402790589258075E-003;
2.423000000000000E+009;1.500625759363174E-001;-9.908723831176758E-002;-3.856864059343934E-004;2.480466617271304E-003;
2.423166666666667E+009;1.505457609891892E-001;-1.007060632109642E-001;-2.642646431922913E-004;2.390646841377020E-003;
2.423333333333334E+009;1.511182337999344E-001;-1.020897030830383E-001;-3.100885805906728E-005;2.415606286376715E-003;
2.423500000000000E+009;1.513504832983017E-001;-1.034297645092011E-001;-1.289228021050803E-005;2.483556512743235E-003;
2.423666666666667E+009;1.518184393644333E-001;-1.049034371972084E-001;1.402701600454748E-004;2.399163087829948E-003;
2.423833333333334E+009;1.524358987808228E-001;-1.061673387885094E-001;1.659703702898696E-004;2.431256696581841E-003;
2.424000000000000E+009;1.529018580913544E-001;-1.073222234845161E-001;3.381879068911076E-004;2.555066719651222E-003;
2.424166666666667E+009;1.534075289964676E-001;-1.084549352526665E-001;3.248940629418939E-004;2.313372213393450E-003;
2.424333333333334E+009;1.540275812149048E-001;-1.094163730740547E-001;4.170178144704551E-004;2.378689125180244E-003;
2.424500000000000E+009;1.545390784740448E-001;-1.105086952447891E-001;6.057918071746826E-004;2.357185119763017E-003;
2.424666666666667E+009;1.551188379526138E-001;-1.111700609326363E-001;9.180417400784791E-004;2.352726645767689E-003;
2.424833333333334E+009;1.554838269948959E-001;-1.120033487677574E-001;8.916553924791515E-004;2.273911377415061E-003;
2.425000000000000E+009;1.560789644718170E-001;-1.128739863634110E-001;1.098185079172254E-003;2.049223752692342E-003;
2.425166666666667E+009;1.562931388616562E-001;-1.135662943124771E-001;1.149537623859942E-003;1.877725822851062E-003;
2.425333333333334E+009;1.567273139953613E-001;-1.140154153108597E-001;1.115882536396384E-003;1.985512673854828E-003;
2.425500000000000E+009;1.570803523063660E-001;-1.146944314241409E-001;1.320092706009746E-003;1.881984062492847E-003;
2.425666666666667E+009;1.570322364568710E-001;-1.150043606758118E-001;1.257055206224322E-003;1.687220763415098E-003;
2.425833333333334E+009;1.572092771530151E-001;-1.154773086309433E-001;1.404893118888140E-003;1.593568827956915E-003;
2.426000000000000E+009;1.573227941989899E-001;-1.158247068524361E-001;1.353738596662879E-003;1.493959571234882E-003;
2.426166666666667E+009;1.574735641479492E-001;-1.160286515951157E-001;1.442432287149131E-003;1.320783048868179E-003;
2.426333333333334E+009;1.572846919298172E-001;-1.163375154137611E-001;1.360765076242387E-003;1.337522873654962E-003;
2.426500000000000E+009;1.571091413497925E-001;-1.164607554674149E-001;1.533311558887363E-003;1.216780277900398E-003;
2.426666666666667E+009;1.569196134805679E-001;-1.164610385894775E-001;1.438817474991083E-003;1.120658009313047E-003;
2.426833333333334E+009;1.565369963645935E-001;-1.167075783014298E-001;1.612565363757312E-003;8.166641928255558E-004;
2.427000000000000E+009;1.560337245464325E-001;-1.169362589716911E-001;1.457580248825252E-003;9.337565861642361E-004;
2.427166666666667E+009;1.554265916347504E-001;-1.168918907642365E-001;1.509905909188092E-003;7.526879198849201E-004;
2.427333333333334E+009;1.546656340360642E-001;-1.170195415616036E-001;1.684510265477002E-003;7.268381887115538E-004;
2.427500000000000E+009;1.540711969137192E-001;-1.172506138682365E-001;1.329916529357433E-003;6.504666525870562E-004;
2.427666666666667E+009;1.531467586755753E-001;-1.173293218016625E-001;1.488626934587956E-003;4.467839607968926E-004;
