# Hz S RI R 50
2400000000.0000000000 0.155472084879875210861044365629 0.111202366650104494949502509371 -0.004298681393265724182128906250 -0.003546800464391707940342568506 0 0 0 0 
2400166666.6666665077 0.155017971992492703536825615629 0.109161369502544403076171875000 -0.004364913329482079419607831738 -0.003535322844982147216796875000 0 0 0 0 
2400333333.3333334923 0.154817044734954806228799384371 0.106702253222465501258930942186 -0.004514581989496946334838867188 -0.003330567386001348929164267432 0 0 0 0 
2400500000.0000000000 0.154340580105781610686932481258 0.104072988033294705489950615629 -0.004669181071221829328055097363 -0.003346697892993689017054892432 0 0 0 0 
2400666666.6666665077 0.154290392994880704025106865629 0.101791463792324093917684990629 -0.004714636132121086120605468750 -0.003280670382082461877110146631 0 0 0 0 
2400833333.3333334923 0.153966143727302606780682481258 0.098789408802986145019531250000 -0.004896307829767465591430664062 -0.002913845935836433930637978662 0 0 0 0 
2401000000.0000000000 0.153931125998497009277343750000 0.095936775207519531250000000000 -0.004918579012155532836914062500 -0.002991838613525032997131347656 0 0 0 0 
2401166666.6666665077 0.153674185276031494140625000000 0.093161150813102722167968750000 -0.005152495577931404113769531250 -0.002835681661963462829589843750 0 0 0 0 
2401333333.3333334923 0.153695091605186490157919365629 0.090350262820720672607421875000 -0.005233566276729106903076171875 -0.002785407006740570068359375000 0 0 0 0 
2401500000.0000000000 0.153935909271240206619424384371 0.087142944335937500000000000000 -0.005478210747241973876953125000 -0.002689106389880179925205849756 0 0 0 0 
2401666666.6666665077 0.154147356748580904861611884371 0.084245286881923675537109375000 -0.005483841057866811752319335938 -0.002586261369287968115565634619 0 0 0 0 
2401833333.3333334923 0.154388636350631713867187500000 0.081554368138313293457031250000 -0.005774199962615966796875000000 -0.002317031379789113998413085938 0 0 0 0 
2402000000.0000000000 0.155111640691757202148437500000 0.078521117568016052246093750000 -0.005949486047029495239257812500 -0.002123375190421938896179199219 0 0 0 0 
2402166666.6666665077 0.155733302235603304763955634371 0.075630776584148406982421875000 -0.006163109559565783414358808301 -0.001713003613986074924468994141 0 0 0 0 
2402333333.3333334923 0.156541377305984497070312500000 0.072784557938575744628906250000 -0.006391072180122137069702148438 -0.001502368948422371907475136865 0 0 0 0 
2402500000.0000000000 0.157592624425888089279013115629 0.070034407079219818115234375000 -0.006550958380103111267089843750 -0.001195371383801103071925497900 0 0 0 0 
2402666666.6666665077 0.158751249313354492187500000000 0.067379169166088104248046875000 -0.006679079495370388031005859375 -0.000899104692507535219192504883 0 0 0 0 
2402833333.3333334923 0.159943565726280212402343750000 0.064914375543594360351562500000 -0.006580390967428684234619140625 -0.000689518288709223270416259766 0 0 0 0 
2403000000.0000000000 0.161326214671135004241619981258 0.062235705554485321044921875000 -0.006886105518788099288940429688 -0.000486917881062254309654235840 0 0 0 0 
2403166666.6666665077 0.163016960024833706954794365629 0.059734739363193511962890625000 -0.006864811759442090988159179688 0.000061319486121647059917449951 0 0 0 0 
2403333333.3333334923 0.164537429809570312500000000000 0.057222679257392883300781250000 -0.006936354562640190124511718750 0.000456032896181568503379821777 0 0 0 0 
2403500000.0000000000 0.166230574250221307952557481258 0.055042982101440429687500000000 -0.006774593144655227661132812500 0.000653833383694291114807128906 0 0 0 0 
2403666666.6666665077 0.168146610260009793380575615629 0.052802257239818572998046875000 -0.006745474413037300109863281250 0.001172126852907239957096718896 0 0 0 0 
2403833333.3333334923 0.170019060373306302169638115629 0.050832536071538932109792341407 -0.006756349466741085052490234375 0.001418952364474534988403320312 0 0 0 0 
2404000000.0000000000 0.171624496579170199295205634371 0.048697482794523239135742187500 -0.006659256760030984878540039062 0.001903309952467679977416992188 0 0 0 0 
2404166666.6666665077 0.173446342349052401443643134371 0.046985596418380737304687500000 -0.006513735745102167129516601562 0.002260975074023007912876748193 0 0 0 0 
2404333333.3333334923 0.175217822194099398513955634371 0.045264281332492828369140625000 -0.006358657963573932647705078125 0.002615165663883090019226074219 0 0 0 0 
2404500000.0000000000 0.177172556519508389571981865629 0.043765962123870849609375000000 -0.006186092272400856018066406250 0.002879396080970764160156250000 0 0 0 0 
2404666666.6666665077 0.178980067372322110275106865629 0.042463272809982299804687500000 -0.006073917262256146344656659863 0.003332377877086400985717773438 0 0 0 0 
2404833333.3333334923 0.181007221341133089920205634371 0.041207022964954383159597028907 -0.005563736893236637115478515625 0.003333342727273703055140829932 0 0 0 0 
2405000000.0000000000 0.182469740509986905196981865629 0.040599457919597632671315778907 -0.005281161982566118240356445312 0.003827591193839908079860068213 0 0 0 0 
2405166666.6666665077 0.184205338358879089355468750000 0.039773657917976379394531250000 -0.005235607735812664031982421875 0.003980239387601613998413085938 0 0 0 0 
2405333333.3333334923 0.185974583029747009277343750000 0.039122682064771652221679687500 -0.004996155388653278350830078125 0.004031992983072996139526367188 0 0 0 0 
2405500000.0000000000 0.187434896826744107345419365629 0.038643278181552886962890625000 -0.004461318720132113370413495801 0.004317835904657840728759765625 0 0 0 0 
2405666666.6666665077 0.189004376530647305587606865629 0.038187794387340552593190778907 -0.004244757350534200668334960938 0.004530234728008508682250976562 0 0 0 0 
2405833333.3333334923 0.190679207444191006759481865629 0.038012396544218063354492187500 -0.003954787738621234893798828125 0.004419882781803607940673828125 0 0 0 0 
2406000000.0000000000 0.191937923431396512130575615629 0.037885278463363647460937500000 -0.003725515212863684134242392432 0.004585839807987213134765625000 0 0 0 0 
2406166666.6666665077 0.193252176046371487716513115629 0.037647370249032967304270158593 -0.003566587809473276138305664062 0.004585214890539646148681640625 0 0 0 0 
2406333333.3333334923 0.194491237401962308029013115629 0.037806235253810882568359375000 -0.003132013836875557899475097656 0.004595948383212090405935956738 0 0 0 0 
2406500000.0000000000 0.195498108863830594161825615629 0.037973053753376007080078125000 -0.002973484341055154800415039062 0.004610337782651185989379882812 0 0 0 0 
2406666666.6666665077 0.196385085582733209808026231258 0.038186416029930121684987653907 -0.002766992431133985953090048682 0.004562681075185537338256835938 0 0 0 0 
2406833333.3333334923 0.197246879339218111892861884371 0.038283210247755050659179687500 -0.002711704466491938071009970557 0.004689658991992473602294921875 0 0 0 0 
2407000000.0000000000 0.197763323783874511718750000000 0.038792286068201072002370466407 -0.002423875033855437798741006006 0.004607438575476408004760742188 0 0 0 0 
2407166666.6666665077 0.198465242981910705566406250000 0.038837555795907967304270158593 -0.002272279234603046937229775537 0.004597098566591739654541015625 0 0 0 0 
2407333333.3333334923 0.198511525988578796386718750000 0.039287086576223373413085937500 -0.002104318235069512887241982568 0.004515912383794785413260175488 0 0 0 0 
2407500000.0000000000 0.198637351393699701507244981258 0.039634287357330322265625000000 -0.001897408743388951041577983325 0.004296712111681699752807617188 0 0 0 0 
2407666666.6666665077 0.198916971683502197265625000000 0.039748907089233398437500000000 -0.001471420400775969028472900391 0.004547340329736471176147460938 0 0 0 0 
2407833333.3333334923 0.198692336678504888336505018742 0.040113363415002822875976562500 -0.002288950607180594964268349756 0.004715374205261468887329101562 0 0 0 0 
2408000000.0000000000 0.198730677366256713867187500000 0.040212512016296386718750000000 -0.001765762688592076084734272534 0.004605473484843969345092773438 0 0 0 0 
2408166666.6666665077 0.198357805609703091720419365629 0.040116626769304282451589216407 -0.001142138615250587897059775244 0.004806390032172203063964843750 0 0 0 0 
2408333333.3333334923 0.197912991046905489822549384371 0.039939053356647491455078125000 -0.001057886984199285940883017432 0.003957783803343772888183593750 0 0 0 0 
2408500000.0000000000 0.197228461503982488434161268742 0.039838906377553939819335937500 -0.000727782142348587512969970703 0.004124055616557598114013671875 0 0 0 0 
2408666666.6666665077 0.196611389517784090896768134371 0.039578497409820556640625000000 -0.000763241550885140895843505859 0.003969314042478799819946289062 0 0 0 0 
2408833333.3333334923 0.195966184139251708984375000000 0.039225965738296508789062500000 -0.001144370646215975067735981519 0.004041699692606925964355468750 0 0 0 0 
2409000000.0000000000 0.195050403475761413574218750000 0.038601212203502661968190778907 -0.000823237933218479156494140625 0.004035647492855787277221679688 0 0 0 0 
2409166666.6666665077 0.193959847092628506759481865629 0.037846580147743232036550153907 -0.000765129283536225557327270508 0.003808947978541254997253417969 0 0 0 0 
2409333333.3333334923 0.193102553486824007888955634371 0.036992069333791732788085937500 -0.000746762030757963657379150391 0.003800960956141353087184286963 0 0 0 0 
2409500000.0000000000 0.191728994250297601897869981258 0.036137819290161132812500000000 -0.000747341080568730831146240234 0.003749451367184520201442099463 0 0 0 0 
2409666666.6666665077 0.190699249505996704101562500000 0.034783136099576950073242187500 -0.000819402921479195356369018555 0.003716433886438608169555664062 0 0 0 0 
2409833333.3333334923 0.189514234662055996993856865629 0.033442761749029159545898437500 -0.000801648595370352268218994141 0.003762580687180161909816122900 0 0 0 0 
2410000000.0000000000 0.188297152519226101974325615629 0.032131522893905639648437500000 -0.000861502659972757101058959961 0.003762261942028998894932412256 0 0 0 0 
2410166666.6666665077 0.187015503644943209549111884371 0.030348824337124831462819685157 -0.000924499006941914558410644531 0.003884085919708013968226767432 0 0 0 0 
2410333333.3333334923 0.185799747705459594726562500000 0.028643408790230751037597656250 -0.000853998528327792882919311523 0.003873491426929831938502646338 0 0 0 0 
2410500000.0000000000 0.184515446424484308440838731258 0.026710458099842071533203125000 -0.000958919699769467115402221680 0.003936229739338160428518964551 0 0 0 0 
2410666666.6666665077 0.183465704321861294845419365629 0.024624465033411979675292968750 -0.000715672445949167013168334961 0.004137463402003049850463867188 0 0 0 0 
2410833333.3333334923 0.182494103908538790603799384371 0.022636195644736289978027343750 -0.000684792292304337024688720703 0.004283675458282232284545898438 0 0 0 0 
2411000000.0000000000 0.181491151452064486404580634371 0.020566610619425770151158516796 -0.000537047861143946647644042969 0.004278576467186213407034589551 0 0 0 0 
2411166666.6666665077 0.180488809943199213225994981258 0.018169434741139408456822579296 -0.000648538407403975725173950195 0.004298149608075618743896484375 0 0 0 0 
2411333333.3333334923 0.179709717631339999099893134371 0.015636850148439410818079764454 -0.000523009337484836578369140625 0.004458649083971977233886718750 0 0 0 0 
2411500000.0000000000 0.179212793707847595214843750000 0.013237406499683860433558280079 -0.000485353957628831321566981183 0.004597387276589871320242597363 0 0 0 0 
2411666666.6666665077 0.178720936179161099532919365629 0.010792409069836139678955078125 -0.000256701634498313123553675519 0.004645636305212975415701581738 0 0 0 0 
2411833333.3333334923 0.178002834320068387130575615629 0.008186731487512588500976562500 -0.000189060621778480708599090576 0.004835458472371101379394531250 0 0 0 0 
2412000000.0000000000 0.177968248724937411209268134371 0.005500779021531344327444745801 0.000003905146513716317713260651 0.004818889778107404708862304688 0 0 0 0 
2412166666.6666665077 0.178011238574981689453125000000 0.003025351092219353155848837744 0.000082533733802847564220428467 0.004940760787576436996459960938 0 0 0 0 
2412333333.3333334923 0.177834048867225702483807481258 0.000363323022611439173847752704 0.000303432170767337083816528320 0.005081896670162677764892578125 0 0 0 0 
2412500000.0000000000 0.178362056612968389313067518742 -0.002263279864564538002014160156 0.000636205950286239385604858398 0.005164906848222017288208007812 0 0 0 0 
2412666666.6666665077 0.178631260991096496582031250000 -0.004857586231082677841186523438 0.000852749333716928958892822266 0.005175992846488952636718750000 0 0 0 0 
2412833333.3333334923 0.179042264819145202636718750000 -0.007660922128707171353811933301 0.000962363614235073328018188477 0.005352346226572990417480468750 0 0 0 0 
2413000000.0000000000 0.179682239890098599532919365629 -0.010169572196900849778145037305 0.001207955530844629027723002856 0.005280355457216501235961914062 0 0 0 0 
2413166666.6666665077 0.180404081940650912185830634371 -0.012846241705119609832763671875 0.001512444694526493983027792822 0.005394924432039260864257812500 0 0 0 0 
2413333333.3333334923 0.181304380297660799881143134371 -0.015272679738700389862060546875 0.001879406743682920932769775391 0.005322207696735858917236328125 0 0 0 0 
2413500000.0000000000 0.182152271270752008636151231258 -0.017899924889206889760950858204 0.002169639337807894186732626807 0.005362784489989280700683593750 0 0 0 0 
2413666666.6666665077 0.183426588773727389236611884371 -0.020289352163672450674036795704 0.002136789727956057028529501807 0.005144187249243259429931640625 0 0 0 0 
2413833333.3333334923 0.184528008103370694259481865629 -0.022580232471227649343470389454 0.002582185436040163040161132812 0.005162803456187248229980468750 0 0 0 0 
2414000000.0000000000 0.185748443007469205001669365629 -0.024663176387548450124720389454 0.002777858404442667961120605469 0.005046334583312273025512695312 0 0 0 0 
2414166666.6666665077 0.187081456184387207031250000000 -0.026836181059479709970494454296 0.003074692329391837120056152344 0.004821099340915679931640625000 0 0 0 0 
2414333333.3333334923 0.188170254230499295333700615629 -0.029090503230690959585169608204 0.003213574178516865210292197119 0.004911281168460845947265625000 0 0 0 0 
2414500000.0000000000 0.189515963196754511077557481258 -0.030789114534854888916015625000 0.003584913210943340821507119287 0.004708185791969299316406250000 0 0 0 0 
2414666666.6666665077 0.190894216299057006835937500000 -0.032486144453287131572682966407 0.003802391001954675154445029150 0.004548938013613224029541015625 0 0 0 0 
2414833333.3333334923 0.191961139440536499023437500000 -0.033992942422628402709960937500 0.003881696844473481178283691406 0.004445813130587339401245117188 0 0 0 0 
2415000000.0000000000 0.193560659885406494140625000000 -0.035400964319705963134765625000 0.003996199928224086761474609375 0.004219604190438985824584960938 0 0 0 0 
2415166666.6666665077 0.194861873984336908538494981258 -0.036790478974580771709401716407 0.004399318248033524426932050488 0.004112056456506252288818359375 0 0 0 0 
2415333333.3333334923 0.196144863963127108474893134371 -0.038008134812116622924804687500 0.004530878271907567977905273438 0.003855701303109527067897177588 0 0 0 0 
2415500000.0000000000 0.197602614760398892501669365629 -0.038733989000320441509206403907 0.004751605913043022155761718750 0.003640194190666079954860068213 0 0 0 0 
2415666666.6666665077 0.198806658387184087555255018742 -0.039724342525005340576171875000 0.004968028049916028976440429688 0.003411214565858244895935058594 0 0 0 0 
2415833333.3333334923 0.199957385659217806717080634371 -0.040407158434391021728515625000 0.005127465818077325820922851562 0.003149717347696423964259482275 0 0 0 0 
2416000000.0000000000 0.201040327548980712890625000000 -0.041058715432882308959960937500 0.005193289835005998611450195312 0.002702522091567515893223427881 0 0 0 0 
2416166666.6666665077 0.201968520879745511154013115629 -0.041667010635137557983398437500 0.005379768088459968566894531250 0.002599874977022409005406045068 0 0 0 0 
2416333333.3333334923 0.202847361564636202713174384371 -0.042064562439918518066406250000 0.005277269519865512847900390625 0.002296047052368522124049521338 0 0 0 0 
2416500000.0000000000 0.203581348061561612228231865629 -0.042161855846643447875976562500 0.005405049305409193038940429688 0.001949997385963798002955771338 0 0 0 0 
2416666666.6666665077 0.204260870814323397537393134371 -0.042534396052360541606862653907 0.005446008406579495343680097363 0.001684608520008624033686972510 0 0 0 0 
2416833333.3333334923 0.204687312245369013030682481258 -0.042506076395511627197265625000 0.005393724888563156127929687500 0.001401480869390070004704140771 0 0 0 0 
2417000000.0000000000 0.205104604363441495040731865629 -0.042405169457197189331054687500 0.005271951667964459332937909863 0.001151433796621859073638916016 0 0 0 0 
2417166666.6666665077 0.204985037446022005935830634371 -0.042258746922016136859934221093 0.005215065088123083114624023438 0.000893835502211004495620727539 0 0 0 0 
2417333333.3333334923 0.205022409558296203613281250000 -0.042088937014341347431223283593 0.005198943894356489181518554688 0.000650908506941050291061401367 0 0 0 0 
2417500000.0000000000 0.205059826374054010589276231258 -0.041975915431976318359375000000 0.005154757294803857803344726562 0.000540946086402982473373413086 0 0 0 0 
2417666666.6666665077 0.204714819788932800292968750000 -0.041470825672149658203125000000 0.005125815980136395368094159863 0.000472363695735111778408604755 0 0 0 0 
2417833333.3333334923 0.204656079411506708343182481258 -0.041223812848329537128488908593 0.005187132395803928375244140625 0.000321633910061791484982091083 0 0 0 0 
2418000000.0000000000 0.204159110784530611892861884371 -0.040747858583927161479909528907 0.005203579552471637725830078125 0.000169718856341205510214129037 0 0 0 0 
2418166666.6666665077 0.203576296567916897872763115629 -0.040450379252433776855468750000 0.005018623545765876770019531250 -0.000073177223384846001863479614 0 0 0 0 
2418333333.3333334923 0.202757418155670193771200615629 -0.040119610726833336566965471093 0.005036048125475645065307617188 -0.000070532703830394893884658813 0 0 0 0 
2418500000.0000000000 0.201921254396438598632812500000 -0.039864107966423041606862653907 0.004999727942049503326416015625 -0.000413824163842946290969848633 0 0 0 0 
2418666666.6666665077 0.200972408056259210784588731258 -0.039506226778030402446706403907 0.004949011839926242828369140625 -0.000573890691157430410385131836 0 0 0 0 
2418833333.3333334923 0.199818909168243408203125000000 -0.039575874805450439453125000000 0.004932796116918325424194335938 -0.000752514752093702554702758789 0 0 0 0 
2419000000.0000000000 0.198541015386581393142861884371 -0.039516072720289230346679687500 0.004962632898241282376761152051 -0.000951927737332880496978759766 0 0 0 0 
2419166666.6666665077 0.197167202830314608474893134371 -0.039530437439680099487304687500 0.004719716031104326248168945312 -0.001317246700637042956111288916 0 0 0 0 
2419333333.3333334923 0.195848941802978487869424384371 -0.039822384715080261230468750000 0.004692766815423966321463300488 -0.001212521689012646891950297778 0 0 0 0 
2419500000.0000000000 0.194400936365127591232138115629 -0.039987325668334960937500000000 0.004643360618501901626586914062 -0.001437587896361947059631347656 0 0 0 0 
2419666666.6666665077 0.192660838365554809570312500000 -0.040652874857187271118164062500 0.004477004520595073699951171875 -0.001494210446253418922424316406 0 0 0 0 
2419833333.3333334923 0.191003724932670593261718750000 -0.041014883667230613017995466407 0.004261603113263844576363847949 -0.001643148716539144949672079932 0 0 0 0 
