# Version 1.00
#
freq[Hz];re:Trc1_S11;im:Trc1_S11;re:Trc2_S21;im:Trc2_S21;
2.400000000000000E+009;1.579412966966629E-001;6.235234066843987E-002;-4.779915616381913E-005;-1.071699196472764E-003;
2.400166666666667E+009;1.579763144254684E-001;6.073932722210884E-002;-1.321145391557366E-004;-9.150647674687207E-004;
2.400333333333334E+009;1.577779054641724E-001;5.898118019104004E-002;-3.511469230943476E-006;-1.038628863170743E-003;
2.400500000000000E+009;1.578178107738495E-001;5.709657818078995E-002;-4.161311517236754E-005;-8.956776000559330E-004;
2.400666666666667E+009;1.578316241502762E-001;5.493424832820892E-002;1.736408012220636E-004;-9.842837462201715E-004;
2.400833333333334E+009;1.578935086727142E-001;5.315825715661049E-002;1.250179921044037E-004;-9.575774893164635E-004;
2.401000000000000E+009;1.579505205154419E-001;5.106051638722420E-002;-1.132950455939863E-005;-1.151735428720713E-003;
2.401166666666667E+009;1.582431197166443E-001;4.892046004533768E-002;1.605007491889410E-005;-1.090638223104179E-003;
2.401333333333334E+009;1.582695990800858E-001;4.688353836536408E-002;1.672090875217691E-004;-1.058486523106694E-003;
2.401500000000000E+009;1.588311344385147E-001;4.484762623906136E-002;7.364097837125883E-005;-9.042798192240298E-004;
2.401666666666667E+009;1.592226028442383E-001;4.281169921159744E-002;5.214667180553079E-005;-1.147695467807353E-003;
2.401833333333334E+009;1.595542728900909E-001;4.079437628388405E-002;6.934139673830941E-005;-1.047551515512168E-003;
2.402000000000000E+009;1.598959118127823E-001;3.897317498922348E-002;5.272043199511245E-005;-1.182481297291815E-003;
2.402166666666667E+009;1.605507135391235E-001;3.680000081658363E-002;2.086838940158486E-004;-1.107909134589136E-003;
2.402333333333334E+009;1.609905064105988E-001;3.496518358588219E-002;1.867047685664147E-004;-1.173101598396897E-003;
2.402500000000000E+009;1.619613617658615E-001;3.317775949835777E-002;1.522183447377756E-004;-1.181058585643768E-003;
2.402666666666667E+009;1.624982804059982E-001;3.133940696716309E-002;9.046169725479558E-005;-1.202613348141313E-003;
2.402833333333334E+009;1.632410585880280E-001;2.982329949736595E-002;8.443975821137428E-005;-1.215207274071872E-003;
2.403000000000000E+009;1.640222668647766E-001;2.811470814049244E-002;1.650857157073915E-004;-1.265054685063660E-003;
2.403166666666667E+009;1.651243865489960E-001;2.656354010105133E-002;1.625251024961472E-004;-1.314281485974789E-003;
2.403333333333334E+009;1.659656763076782E-001;2.520084008574486E-002;3.028396458830684E-004;-1.311029773205519E-003;
2.403500000000000E+009;1.668616533279419E-001;2.366968803107739E-002;3.799512924160808E-004;-1.589311286807060E-003;
2.403666666666667E+009;1.678204685449600E-001;2.238281629979610E-002;1.772681280272082E-004;-1.530604902654886E-003;
2.403833333333334E+009;1.688292324542999E-001;2.100241743028164E-002;3.248669963795692E-004;-1.638942514546216E-003;
2.404000000000000E+009;1.697496920824051E-001;1.992684789001942E-002;2.090667985612527E-004;-1.658540451899171E-003;
2.404166666666667E+009;1.706743985414505E-001;1.864243857562542E-002;3.676681371871382E-004;-1.836984883993864E-003;
2.404333333333334E+009;1.715660393238068E-001;1.786970719695091E-002;1.537804346298799E-004;-1.744582667015493E-003;
2.404500000000000E+009;1.724448949098587E-001;1.683255657553673E-002;3.145888622384518E-004;-1.839524018578231E-003;
2.404666666666667E+009;1.734820306301117E-001;1.597042009234428E-002;3.381923597771674E-004;-1.903714961372316E-003;
2.404833333333334E+009;1.743200421333313E-001;1.520511321723461E-002;4.005340088042431E-005;-2.119634300470352E-003;
2.405000000000000E+009;1.752714365720749E-001;1.446569059044123E-002;3.041507625312079E-005;-2.193482592701912E-003;
2.405166666666667E+009;1.760034710168839E-001;1.382657978683710E-002;-6.622861747018760E-006;-2.235121559351683E-003;
2.405333333333334E+009;1.768939793109894E-001;1.315203774720430E-002;-2.210847887909040E-004;-2.368316520005465E-003;
2.405500000000000E+009;1.774770319461823E-001;1.277062948793173E-002;-7.104653195710853E-005;-2.509845187887549E-003;
2.405666666666667E+009;1.780669689178467E-001;1.226907875388861E-002;-4.275924584362656E-004;-2.592192264273763E-003;
2.405833333333334E+009;1.786484420299530E-001;1.209940854460001E-002;-5.419847439043224E-004;-2.578300191089511E-003;
2.406000000000000E+009;1.791960895061493E-001;1.158101577311754E-002;-5.149992066435516E-004;-2.745838835835457E-003;
2.406166666666667E+009;1.794659048318863E-001;1.140379626303911E-002;-7.329948712140322E-004;-2.893641591072083E-003;
2.406333333333334E+009;1.799610108137131E-001;1.098351273685694E-002;-9.351908229291439E-004;-2.768058329820633E-003;
2.406500000000000E+009;1.802774965763092E-001;1.071650628000498E-002;-1.028597238473594E-003;-2.861424582079053E-003;
2.406666666666667E+009;1.803048849105835E-001;1.038843952119350E-002;-1.151423435658217E-003;-2.765491604804993E-003;
2.406833333333334E+009;1.806491315364838E-001;1.010213512927294E-002;-1.245556981302798E-003;-2.853262936696410E-003;
2.407000000000000E+009;1.806768625974655E-001;9.649148210883141E-003;-1.623103162273765E-003;-2.735749119892716E-003;
2.407166666666667E+009;1.808223426342011E-001;9.393155574798584E-003;-1.802934333682060E-003;-2.806613454595208E-003;
2.407333333333334E+009;1.805804818868637E-001;8.811952546238899E-003;-1.868934254162014E-003;-2.797431312501431E-003;
2.407500000000000E+009;1.803811937570572E-001;8.542140945792198E-003;-2.073453506454825E-003;-2.661796053871512E-003;
2.407666666666667E+009;1.802293062210083E-001;8.000137284398079E-003;-2.074171788990498E-003;-2.648000139743090E-003;
2.407833333333334E+009;1.795669347047806E-001;7.430163212120533E-003;-2.293394180014730E-003;-2.657236065715551E-003;
2.408000000000000E+009;1.794082671403885E-001;6.860016379505396E-003;-2.410439308732748E-003;-2.705262275412679E-003;
2.408166666666667E+009;1.789638251066208E-001;6.278913002461195E-003;-2.669409383088350E-003;-2.415183465927839E-003;
2.408333333333334E+009;1.786316484212875E-001;5.542415194213390E-003;-2.720966236665845E-003;-2.475992077961564E-003;
2.408500000000000E+009;1.779875308275223E-001;4.601422231644392E-003;-2.911707386374474E-003;-2.274451078847051E-003;
2.408666666666667E+009;1.772727966308594E-001;3.611149964854121E-003;-3.029275219887495E-003;-2.114858711138368E-003;
2.408833333333334E+009;1.766528934240341E-001;2.759674564003944E-003;-2.973888767883182E-003;-1.965482952073216E-003;
2.409000000000000E+009;1.759655475616455E-001;1.768477959558368E-003;-3.047549165785313E-003;-1.832968904636800E-003;
2.409166666666667E+009;1.753852963447571E-001;4.279406275600195E-004;-3.217968391254544E-003;-1.803405815735459E-003;
2.409333333333334E+009;1.746029704809189E-001;-8.406307315453887E-004;-3.226567059755325E-003;-1.707993331365287E-003;
2.409500000000000E+009;1.739281266927719E-001;-2.373210154473782E-003;-3.376714186742902E-003;-1.471428084187210E-003;
2.409666666666667E+009;1.730714738368988E-001;-3.501948434859514E-003;-3.466151887550950E-003;-1.466232235543430E-003;
2.409833333333334E+009;1.723660230636597E-001;-4.845000337809324E-003;-3.508851164951921E-003;-1.269700471311808E-003;
2.410000000000000E+009;1.718761771917343E-001;-6.578820291906595E-003;-3.563452279195190E-003;-1.311940723098815E-003;
2.410166666666667E+009;1.710716336965561E-001;-8.156697265803814E-003;-3.703721798956394E-003;-1.117475214414299E-003;
2.410333333333334E+009;1.706862598657608E-001;-9.767560288310051E-003;-3.701094537973404E-003;-1.039481954649091E-003;
2.410500000000000E+009;1.701689809560776E-001;-1.162465009838343E-002;-3.700792789459229E-003;-8.916721562854946E-004;
2.410666666666667E+009;1.696898788213730E-001;-1.346780080348253E-002;-4.001788794994354E-003;-7.174326456151903E-004;
2.410833333333334E+009;1.691486388444901E-001;-1.515642739832401E-002;-4.005420021712780E-003;-6.781174452044070E-004;
2.411000000000000E+009;1.687509119510651E-001;-1.706735044717789E-002;-4.071823321282864E-003;-5.256013828329742E-004;
2.411166666666667E+009;1.686137765645981E-001;-1.891296170651913E-002;-4.133464302867651E-003;-4.584286944009364E-004;
2.411333333333334E+009;1.681617796421051E-001;-2.071986719965935E-002;-4.122325219213963E-003;-3.029172657988966E-004;
2.411500000000000E+009;1.679836213588715E-001;-2.284356765449047E-002;-4.147932399064302E-003;-2.127634215867147E-004;
2.411666666666667E+009;1.680614799261093E-001;-2.479563094675541E-002;-4.273235797882080E-003;-8.584393071942031E-005;
2.411833333333334E+009;1.680559962987900E-001;-2.672141976654530E-002;-4.444885533303022E-003;1.630174519959837E-004;
2.412000000000000E+009;1.682731509208679E-001;-2.860063128173351E-002;-4.414214286953211E-003;2.121835277648643E-004;
2.412166666666667E+009;1.680516302585602E-001;-3.065635077655315E-002;-4.493814893066883E-003;4.480506177060306E-004;
2.412333333333334E+009;1.685622781515122E-001;-3.255694359540939E-002;-4.547685850411654E-003;7.026967941783369E-004;
2.412500000000000E+009;1.686452031135559E-001;-3.415744751691818E-002;-4.391974303871393E-003;9.200067142955959E-004;
2.412666666666667E+009;1.691661179065704E-001;-3.625605255365372E-002;-4.527274519205093E-003;1.028505503199995E-003;
2.412833333333334E+009;1.696105003356934E-001;-3.808644786477089E-002;-4.718564450740814E-003;1.305303536355496E-003;
2.413000000000000E+009;1.699198931455612E-001;-3.989813476800919E-002;-4.486359190195799E-003;1.518432749435306E-003;
2.413166666666667E+009;1.703289896249771E-001;-4.146954044699669E-002;-4.601587075740099E-003;1.720353146083653E-003;
2.413333333333334E+009;1.708134263753891E-001;-4.313631355762482E-002;-4.658305551856756E-003;1.903756521642208E-003;
2.413500000000000E+009;1.713564544916153E-001;-4.491880536079407E-002;-4.504154436290264E-003;2.153359353542328E-003;
2.413666666666667E+009;1.719566434621811E-001;-4.652702808380127E-002;-4.341769497841597E-003;2.487640827894211E-003;
2.413833333333334E+009;1.724236458539963E-001;-4.792236164212227E-002;-4.195252899080515E-003;2.562524052336812E-003;
2.414000000000000E+009;1.729757487773895E-001;-4.933907464146614E-002;-4.151951521635056E-003;2.886422444134951E-003;
2.414166666666667E+009;1.736838221549988E-001;-5.053962022066116E-002;-4.180634859949350E-003;2.986644627526403E-003;
2.414333333333334E+009;1.743241846561432E-001;-5.179400369524956E-002;-3.902017837390304E-003;3.176006721332669E-003;
2.414500000000000E+009;1.749558448791504E-001;-5.285571515560150E-002;-3.781484439969063E-003;3.294402733445168E-003;
2.414666666666667E+009;1.752121448516846E-001;-5.391864106059074E-002;-3.731301752850413E-003;3.490688512101769E-003;
2.414833333333334E+009;1.758219152688980E-001;-5.493434518575668E-002;-3.553180722519755E-003;3.797892946749926E-003;
2.415000000000000E+009;1.761654764413834E-001;-5.571047589182854E-002;-3.313907654955983E-003;3.948273602873087E-003;
2.415166666666667E+009;1.766975373029709E-001;-5.652482807636261E-002;-3.286655060946941E-003;4.092637915164232E-003;
2.415333333333334E+009;1.771962791681290E-001;-5.721324682235718E-002;-2.882550936192274E-003;4.375843331217766E-003;
2.415500000000000E+009;1.774388253688812E-001;-5.787386372685432E-002;-2.824294846504927E-003;4.516355227679014E-003;
2.415666666666667E+009;1.776892244815826E-001;-5.822916701436043E-002;-2.521707909181714E-003;4.302512854337692E-003;
2.415833333333334E+009;1.780697852373123E-001;-5.882464349269867E-002;-2.349968999624252E-003;4.385102540254593E-003;
2.416000000000000E+009;1.779948770999908E-001;-5.928071960806847E-002;-2.235741354525089E-003;4.738138522952795E-003;
2.416166666666667E+009;1.781909316778183E-001;-5.960958823561668E-002;-1.985014649108052E-003;4.909520037472248E-003;
2.416333333333334E+009;1.781124472618103E-001;-5.993214249610901E-002;-1.848245738074184E-003;4.817357752472162E-003;
2.416500000000000E+009;1.779937744140625E-001;-6.011980772018433E-002;-1.510889269411564E-003;4.969149827957153E-003;
2.416666666666667E+009;1.776505410671234E-001;-6.036765128374100E-002;-1.569878193549812E-003;5.068343598395586E-003;
2.416833333333334E+009;1.774821579456329E-001;-6.073606386780739E-002;-1.152366749010980E-003;5.105022341012955E-003;
2.417000000000000E+009;1.768958717584610E-001;-6.099536642432213E-002;-1.110812067054212E-003;5.059582181274891E-003;
2.417166666666667E+009;1.765705198049545E-001;-6.100606545805931E-002;-9.497472783550620E-004;5.067079328000546E-003;
2.417333333333334E+009;1.759888231754303E-001;-6.121683865785599E-002;-7.515448960475624E-004;4.955811891704798E-003;
2.417500000000000E+009;1.753028631210327E-001;-6.169784069061279E-002;-3.123760398011655E-004;5.145487841218710E-003;
2.417666666666667E+009;1.746722012758255E-001;-6.167310476303101E-002;-1.715759863145649E-004;4.973322618752718E-003;
2.417833333333334E+009;1.738292425870895E-001;-6.195276975631714E-002;-9.771592885954306E-005;5.059319082647562E-003;
2.418000000000000E+009;1.728488653898239E-001;-6.225168332457542E-002;2.620035957079381E-004;5.105578340590000E-003;
2.418166666666667E+009;1.720050424337387E-001;-6.253540515899658E-002;4.011781420558691E-004;5.084136035293341E-003;
2.418333333333334E+009;1.711218953132629E-001;-6.286190450191498E-002;4.600495740305632E-004;5.002249497920275E-003;
2.418500000000000E+009;1.700583249330521E-001;-6.340730190277100E-002;6.728332373313606E-004;5.157493520528078E-003;
2.418666666666667E+009;1.689401865005493E-001;-6.395364552736282E-002;8.506561862304807E-004;5.036318209022284E-003;
2.418833333333334E+009;1.675981581211090E-001;-6.449379026889801E-002;1.125537906773388E-003;4.946474451571703E-003;
2.419000000000000E+009;1.663291603326798E-001;-6.498029083013535E-002;1.390258898027241E-003;4.938245750963688E-003;
2.419166666666667E+009;1.652348190546036E-001;-6.581062823534012E-002;1.449751551263034E-003;4.835415165871382E-003;
2.419333333333334E+009;1.637669652700424E-001;-6.627839803695679E-002;1.721622189506888E-003;4.764784127473831E-003;
2.419500000000000E+009;1.628751456737518E-001;-6.731274724006653E-002;1.820174278691411E-003;4.798487294465303E-003;
2.419666666666667E+009;1.618364453315735E-001;-6.827371567487717E-002;2.046239562332630E-003;4.618886392563582E-003;
2.419833333333334E+009;1.603616327047348E-001;-6.907825917005539E-002;2.119323704391718E-003;4.778330214321613E-003;
2.420000000000000E+009;1.593520641326904E-001;-7.016796618700028E-002;2.366698114201427E-003;4.566380754113197E-003;
2.420166666666667E+009;1.581992059946060E-001;-7.134506851434708E-002;2.547289244830608E-003;4.477257374674082E-003;
2.420333333333334E+009;1.571202427148819E-001;-7.250609993934631E-002;2.641415921971202E-003;4.281075671315193E-003;
2.420500000000000E+009;1.560915559530258E-001;-7.369364798069000E-002;2.833022968843579E-003;4.221177659928799E-003;
2.420666666666667E+009;1.550477147102356E-001;-7.511059939861298E-002;2.958097029477358E-003;4.085230641067028E-003;
2.420833333333334E+009;1.542944610118866E-001;-7.646968215703964E-002;3.245446132495999E-003;4.059735219925642E-003;
2.421000000000000E+009;1.531270742416382E-001;-7.794436067342758E-002;3.311176551505923E-003;3.963048104196787E-003;
2.421166666666667E+009;1.526384800672531E-001;-7.950737327337265E-002;3.549621673300862E-003;3.944033756852150E-003;
2.421333333333334E+009;1.520168036222458E-001;-8.109837025403976E-002;3.488975111395121E-003;3.682312555611134E-003;
2.421500000000000E+009;1.511826068162918E-001;-8.272698521614075E-002;3.739767009392381E-003;3.693694947287440E-003;
2.421666666666667E+009;1.507341712713242E-001;-8.438019454479218E-002;3.836253657937050E-003;3.322837175801396E-003;
2.421833333333334E+009;1.504023820161820E-001;-8.592492341995239E-002;3.979628439992666E-003;3.177187638357282E-003;
2.422000000000000E+009;1.498896628618240E-001;-8.778049796819687E-002;4.037886857986450E-003;2.920930273830891E-003;
2.422166666666667E+009;1.496080160140991E-001;-8.959399163722992E-002;4.174377303570509E-003;2.906926674768329E-003;
2.422333333333334E+009;1.494644880294800E-001;-9.122212976217270E-002;4.321804735809565E-003;2.741475356742740E-003;
2.422500000000000E+009;1.492738425731659E-001;-9.284287691116333E-002;4.259044770151377E-003;2.568711992353201E-003;
2.422666666666667E+009;1.492353230714798E-001;-9.456063807010651E-002;4.360981751233339E-003;2.425965387374163E-003;
2.422833333333334E+009;1.495221406221390E-001;-9.642944484949112E-002;4.451340995728970E-003;2.228872152045369E-003;
2.423000000000000E+009;1.494421809911728E-001;-9.806963056325913E-002;4.762164782732725E-003;2.077820012345910E-003;
2.423166666666667E+009;1.496932655572891E-001;-9.969800710678101E-002;4.787780344486237E-003;1.794657320715487E-003;
2.423333333333334E+009;1.500256359577179E-001;-1.011962294578552E-001;4.726755898445845E-003;1.526713487692177E-003;
2.423500000000000E+009;1.503412872552872E-001;-1.027413383126259E-001;4.718707408756018E-003;1.414866070263088E-003;
2.423666666666667E+009;1.506237536668778E-001;-1.042881682515144E-001;4.762815777212381E-003;1.336431596428156E-003;
2.423833333333334E+009;1.510665267705917E-001;-1.058875024318695E-001;4.713851492851973E-003;1.177667407318950E-003;
2.424000000000000E+009;1.513652354478836E-001;-1.070220321416855E-001;4.894468002021313E-003;8.164693717844784E-004;
2.424166666666667E+009;1.517473459243774E-001;-1.083652675151825E-001;4.883415997028351E-003;8.406475535593927E-004;
2.424333333333334E+009;1.522873193025589E-001;-1.095231771469116E-001;4.892647732049227E-003;4.987248685210943E-004;
2.424500000000000E+009;1.529493480920792E-001;-1.106668859720230E-001;5.030589643865824E-003;2.571965742390603E-004;
2.424666666666667E+009;1.534329056739807E-001;-1.115291491150856E-001;4.772192798554897E-003;1.125857234001160E-004;
2.424833333333334E+009;1.537395566701889E-001;-1.127108633518219E-001;5.032224114984274E-003;-1.165574431070127E-004;
2.425000000000000E+009;1.544086039066315E-001;-1.136207431554794E-001;5.074311047792435E-003;-3.798314137384296E-004;
2.425166666666667E+009;1.546521782875061E-001;-1.143310070037842E-001;5.063799209892750E-003;-4.701646103058010E-004;
2.425333333333334E+009;1.549539119005203E-001;-1.150950193405151E-001;4.977994132786989E-003;-6.778270471841097E-004;
2.425500000000000E+009;1.554511934518814E-001;-1.157725974917412E-001;4.785332363098860E-003;-9.600058547221124E-004;
2.425666666666667E+009;1.556560248136520E-001;-1.163017824292183E-001;4.752460867166519E-003;-1.106416108086705E-003;
2.425833333333334E+009;1.558505594730377E-001;-1.169356629252434E-001;4.706182051450014E-003;-1.148947863839567E-003;
2.426000000000000E+009;1.561335474252701E-001;-1.173318848013878E-001;4.709049593657255E-003;-1.371747814118862E-003;
2.426166666666667E+009;1.564265191555023E-001;-1.176440566778183E-001;4.564451519399881E-003;-1.740252715535462E-003;
2.426333333333334E+009;1.563369184732437E-001;-1.179603934288025E-001;4.574089311063290E-003;-1.912903855554760E-003;
2.426500000000000E+009;1.565106064081192E-001;-1.181299462914467E-001;4.452295601367950E-003;-1.913400832563639E-003;
2.426666666666667E+009;1.565175354480743E-001;-1.182520538568497E-001;4.040290601551533E-003;-2.035225974395871E-003;
2.426833333333334E+009;1.563373059034348E-001;-1.184838861227036E-001;4.039742983877659E-003;-2.428610110655427E-003;
2.427000000000000E+009;1.559803634881973E-001;-1.187065914273262E-001;3.972144331783056E-003;-2.602340653538704E-003;
2.427166666666667E+009;1.556896120309830E-001;-1.186022982001305E-001;3.872914705425501E-003;-2.531683770939708E-003;
2.427333333333334E+009;1.551896482706070E-001;-1.187978759407997E-001;3.723938716575503E-003;-2.650393638759852E-003;
2.427500000000000E+009;1.547390669584274E-001;-1.188707351684570E-001;3.432791680097580E-003;-2.781804651021957E-003;
2.427666666666667E+009;1.540608108043671E-001;-1.189629286527634E-001;3.441806416958571E-003;-2.888422925025225E-003;
