# Hz S RI R 
2400000000.0000000000 0.169240012764930697342080634371 0.045931678265333182598073591407 0.003079082118347287178039550781 -0.002730686683207749886753701318 0 0 0 0 
2400166666.6666665077 0.170396000146865789215411268742 0.045092798769474029541015625000 0.002944024745374917984008789062 -0.002968903165310620827915810693 0 0 0 0 
2400333333.3333334923 0.171180874109268188476562500000 0.043925352394580841064453125000 0.002943713450804353193995810400 -0.002958939643576740784886025537 0 0 0 0 
2400500000.0000000000 0.172344207763671902755575615629 0.042968869209289550781250000000 0.002929294016212224960327148438 -0.003167089773342012925388955225 0 0 0 0 
2400666666.6666665077 0.173098802566528292556924384371 0.042077872902154922485351562500 0.002858585445210338072535849463 -0.002983195241540669961216591943 0 0 0 0 
2400833333.3333334923 0.174045816063880892654580634371 0.041364759206771850585937500000 0.002878576982766389846801757812 -0.003252733265981078147888183594 0 0 0 0 
2401000000.0000000000 0.174643516540527288238848768742 0.040738828480243682861328125000 0.002848864765837789015529013525 -0.003363418160006403923034667969 0 0 0 0 
2401166666.6666665077 0.175676241517067011077557481258 0.039778020232915878295898437500 0.002933727344498037858250283350 -0.003495287615805863900425576318 0 0 0 0 
2401333333.3333334923 0.176327690482139587402343750000 0.039253160357475280761718750000 0.002737185917794704003574990381 -0.003620095318183302879333496094 0 0 0 0 
2401500000.0000000000 0.177204906940460205078125000000 0.038451470434665679931640625000 0.002717987867072225050685263525 -0.003858746029436587853672646631 0 0 0 0 
2401666666.6666665077 0.177769914269447298904580634371 0.038103278726339340209960937500 0.002662120386958121819737099756 -0.003887263126671313805821084131 0 0 0 0 
2401833333.3333334923 0.178296178579330388824786268742 0.037485104054212570190429687500 0.002590868854895234107971191406 -0.004019488580524921417236328125 0 0 0 0 
2402000000.0000000000 0.178842201828956604003906250000 0.036947812885046012187917341407 0.002506454009562730789184570312 -0.004358077421784400939941406250 0 0 0 0 
2402166666.6666665077 0.179239675402641296386718750000 0.036208998411893851543386091407 0.002359857084229588942286826025 -0.004547664429992437362670898438 0 0 0 0 
2402333333.3333334923 0.179288238286972101409588731258 0.035624388605356223369557966407 0.002333665732294321060180664062 -0.004609260708093643188476562500 0 0 0 0 
2402500000.0000000000 0.179871499538421603103799384371 0.034965597093105323101003278907 0.002254110528156160874607705225 -0.004649503622204065322875976562 0 0 0 0 
2402666666.6666665077 0.180062040686607388595419365629 0.034373242408037192607839216407 0.001934371539391577026964497144 -0.004718541633337736129760742188 0 0 0 0 
2402833333.3333334923 0.180027887225151089767294365629 0.033928871154785163188893903907 0.001974939601495862007141113281 -0.005218064412474632263183593750 0 0 0 0 
2403000000.0000000000 0.180264189839363098144531250000 0.033202033489942550659179687500 0.001852787332609296061872172778 -0.005280777346342802047729492188 0 0 0 0 
2403166666.6666665077 0.180064111948013305664062500000 0.032544657588005072856862653907 0.001784722087904810905456542969 -0.005392021033912897109985351562 0 0 0 0 
2403333333.3333334923 0.179925575852394104003906250000 0.031899444758892059326171875000 0.001482477411627769903895712744 -0.005392482038587331771850585938 0 0 0 0 
2403500000.0000000000 0.179826706647872897049111884371 0.030842589214444160461425781250 0.001397602492943406105041503906 -0.005660816561430692672729492188 0 0 0 0 
2403666666.6666665077 0.179570391774177606780682481258 0.029931114986538890493372733204 0.001033817301504313945770263672 -0.005725719965994358062744140625 0 0 0 0 
2403833333.3333334923 0.179385572671890286544638115629 0.028654383495450019836425781250 0.000809963617939502000808715820 -0.005648236256092786788940429688 0 0 0 0 
2404000000.0000000000 0.178908452391624506194744981258 0.027718985453248020517369454296 0.000548859767150133848190307617 -0.006075843237340450286865234375 0 0 0 0 
2404166666.6666665077 0.178345710039138793945312500000 0.026392417028546329843541329296 0.000424808240495622212260645734 -0.006195728201419115066528320312 0 0 0 0 
2404333333.3333334923 0.178041487932205200195312500000 0.025261003524065021169642264454 0.000222568080062046701281947003 -0.006212027277797461423392011426 0 0 0 0 
2404500000.0000000000 0.177303820848464993575888115629 0.023883329704403880727747733204 0.000160870302352122989579877310 -0.006139341741800308227539062500 0 0 0 0 
2404666666.6666665077 0.176934927701950100997763115629 0.022651283070445060729980468750 -0.000278697174508124589920043945 -0.006368971895426511764526367188 0 0 0 0 
2404833333.3333334923 0.176251187920570401290731865629 0.021139672026038169860839843750 -0.000668523425702005624771118164 -0.006446286570280790328979492188 0 0 0 0 
2405000000.0000000000 0.175981193780899103362713731258 0.019579889252781871450403983204 -0.001027325750328599972965859521 -0.006486179772764444351196289062 0 0 0 0 
2405166666.6666665077 0.175428286194801302810830634371 0.017876623198390010488489920704 -0.001380462897941469929338764722 -0.006426803767681121826171875000 0 0 0 0 
2405333333.3333334923 0.175097227096557589431924384371 0.016117338091135028493861014454 -0.001679939334280788898468017578 -0.006437822710722684860229492188 0 0 0 0 
2405500000.0000000000 0.174673452973365811446981865629 0.014443541876971719914446445898 -0.001869725761935115077375102466 -0.006266683805733919143676757812 0 0 0 0 
2405666666.6666665077 0.174236893653869601150674384371 0.012682153843343259638776210352 -0.002326747635379434065577841650 -0.006286492105573415756225585938 0 0 0 0 
2405833333.3333334923 0.173812329769134493728799384371 0.010895058512687679636021798046 -0.002889781491830945014953613281 -0.006155319511890411376953125000 0 0 0 0 
2406000000.0000000000 0.173508912324905395507812500000 0.008742304518818855285644531250 -0.002864157548174262046813964844 -0.006096382625401020050048828125 0 0 0 0 
2406166666.6666665077 0.173107951879501287262286268742 0.007117282133549451828002929688 -0.003053096123039722008946084131 -0.005975286476314067840576171875 0 0 0 0 
2406333333.3333334923 0.173063561320304898361044365629 0.004924985580146312713623046875 -0.003473986871540545983555459131 -0.005813863128423690795898437500 0 0 0 0 
2406500000.0000000000 0.172741532325744601150674384371 0.002970051951706409888026572119 -0.003613810986280440850498818506 -0.005571886431425809860229492188 0 0 0 0 
2406666666.6666665077 0.172561660408973693847656250000 0.000887072179466485977172851562 -0.004015943966805934906005859375 -0.005387348588556051254272460938 0 0 0 0 
2406833333.3333334923 0.172627642750740106780682481258 -0.001314022229053080081939697266 -0.004110852722078561782836914062 -0.005208376795053482055664062500 0 0 0 0 
2407000000.0000000000 0.172698095440864590743856865629 -0.003550012363120913939235068213 -0.004356627352535724639892578125 -0.005023399367928504943847656250 0 0 0 0 
2407166666.6666665077 0.172741889953613309005575615629 -0.005464014131575822830200195312 -0.004682132508605718612670898438 -0.004674146417528390884399414062 0 0 0 0 
2407333333.3333334923 0.172902464866638211349325615629 -0.007768440525978803634643554688 -0.004705074243247509002685546875 -0.004552091471850872039794921875 0 0 0 0 
2407500000.0000000000 0.173134684562683105468750000000 -0.009947024285793304443359375000 -0.004961657803505659103393554688 -0.004336786456406117352957441113 0 0 0 0 
2407666666.6666665077 0.173428192734718294998330634371 -0.011928978376090530050257498829 -0.005145391914993525418753339551 -0.004111055750399827957153320312 0 0 0 0 
2407833333.3333334923 0.173560783267021206954794365629 -0.014161769300699230539342110546 -0.005269677378237248334402753613 -0.004036328755319119367117597363 0 0 0 0 
2408000000.0000000000 0.174119591712951687911825615629 -0.016280524432659149169921875000 -0.005458175670355558395385742188 -0.003643012605607510046717978369 0 0 0 0 
2408166666.6666665077 0.174319803714752197265625000000 -0.018290333449840549123743826954 -0.005490534938871861371512128613 -0.003347159596160054206848144531 0 0 0 0 
2408333333.3333334923 0.174873828887939508636151231258 -0.020412065088748928415318673046 -0.005575363524258136749267578125 -0.003094704588875174956080771338 0 0 0 0 
2408500000.0000000000 0.175154134631156893631143134371 -0.022264989092946049081822579296 -0.005720469634979963302612304688 -0.002861557761207222938537597656 0 0 0 0 
2408666666.6666665077 0.175561338663101196289062500000 -0.024185089394450191152552420704 -0.005750043317675591382498456738 -0.002499329391866921944859170068 0 0 0 0 
2408833333.3333334923 0.175792172551155090332031250000 -0.025772502645850181579589843750 -0.005786753259599208831787109375 -0.002252259757369757132289267432 0 0 0 0 
2409000000.0000000000 0.176467031240463312347088731258 -0.027470156550407409667968750000 -0.005880907177925109863281250000 -0.001899929950013756968854594653 0 0 0 0 
2409166666.6666665077 0.176844865083694513518963731258 -0.029110828414559360849400704296 -0.005703778006136417388916015625 -0.001812131609767674966099404443 0 0 0 0 
2409333333.3333334923 0.177321135997772189041299384371 -0.030549539253115650522252266796 -0.005761577282100915908813476562 -0.001862491248175502040265727466 0 0 0 0 
2409500000.0000000000 0.177646249532699612716513115629 -0.031931247562170028686523437500 -0.005778861232101917266845703125 -0.001448898576200007958653115381 0 0 0 0 
2409666666.6666665077 0.178081005811691311935263115629 -0.033048797398805618286132812500 -0.005745131056755781173706054688 -0.001292314263992011980769492041 0 0 0 0 
2409833333.3333334923 0.178565517067909212967080634371 -0.034054886549711227416992187500 -0.005684605799615383148193359375 -0.001128372503444551987888955225 0 0 0 0 
2410000000.0000000000 0.179124549031257601638955634371 -0.034890182316303253173828125000 -0.005779247265309095382690429688 -0.001021663774736226038691855322 0 0 0 0 
2410166666.6666665077 0.179639518260955810546875000000 -0.035694520920515060424804687500 -0.005839680321514607343191816113 -0.000896373821888118982315063477 0 0 0 0 
2410333333.3333334923 0.180003300309181213378906250000 -0.036614708602428443218190778907 -0.005844042636454105377197265625 -0.000674589478876441717147827148 0 0 0 0 
2410500000.0000000000 0.180503964424133300781250000000 -0.037395212799310677265207658593 -0.005703317932784557342529296875 -0.000488906342070549726486206055 0 0 0 0 
2410666666.6666665077 0.180713221430778503417968750000 -0.038221061229705810546875000000 -0.005761554464697837829589843750 -0.000336377241183072274357396259 0 0 0 0 
2410833333.3333334923 0.181369200348854092696981865629 -0.038673955947160720825195312500 -0.005740406457334756851196289062 -0.000143648314406163990497589111 0 0 0 0 
2411000000.0000000000 0.181346163153648404220419365629 -0.038967642933130257343332658593 -0.005883374251425266265869140625 0.000025623241526773199439048767 0 0 0 0 
2411166666.6666665077 0.181722506880760192871093750000 -0.039800543338060379028320312500 -0.005862383171916007995605468750 0.000107283092802390496857227464 0 0 0 0 
2411333333.3333334923 0.182017475366592407226562500000 -0.040063045918941497802734375000 -0.005840397905558347702026367188 0.000377990654669702107280176984 0 0 0 0 
2411500000.0000000000 0.181914329528808593750000000000 -0.040562178939580917358398437500 -0.005789977032691240310668945312 0.000521095236763358116149902344 0 0 0 0 
2411666666.6666665077 0.182091847062110900878906250000 -0.040868140757083892822265625000 -0.005959198810160160064697265625 0.000727185106370598077774047852 0 0 0 0 
2411833333.3333334923 0.182000905275344904143963731258 -0.041098967194557189941406250000 -0.006039426196366549405569745801 0.000943682913202792406082153320 0 0 0 0 
2412000000.0000000000 0.181854233145713806152343750000 -0.041614502668380737304687500000 -0.005839005112648010253906250000 0.001208004658110439994214702075 0 0 0 0 
2412166666.6666665077 0.181433945894241305252236884371 -0.041800044476985931396484375000 -0.005854670889675617218017578125 0.001548263709992169900181435693 0 0 0 0 
2412333333.3333334923 0.181211680173873901367187500000 -0.041976556181907646869699846093 -0.005805379711091518402099609375 0.001561775454320013956782675635 0 0 0 0 
2412500000.0000000000 0.180671975016593905349893134371 -0.042357984930276870727539062500 -0.005846831481903791427612304688 0.001810487476177514033076620947 0 0 0 0 
2412666666.6666665077 0.180018708109855707366619981258 -0.042815677821636199951171875000 -0.005833289120346307754516601562 0.002078212797641754150390625000 0 0 0 0 
2412833333.3333334923 0.179467394948005704025106865629 -0.043057944625616066669504533593 -0.005671437829732894897460937500 0.002364074112847446961643838037 0 0 0 0 
2413000000.0000000000 0.178726255893707303146200615629 -0.043272245675325386737863908593 -0.005728415213525295257568359375 0.002588990377262235121486044775 0 0 0 0 
2413166666.6666665077 0.177879810333252008636151231258 -0.043636582791805267333984375000 -0.005590173881500959396362304688 0.002739982213824986977818154443 0 0 0 0 
2413333333.3333334923 0.176922678947448702713174384371 -0.044205486774444580078125000000 -0.005454806610941886901855468750 0.002863266272470355033874511719 0 0 0 0 
2413500000.0000000000 0.175943002104759188553018134371 -0.044676281511783599853515625000 -0.005323728080838918685913085938 0.003135756356641650199890136719 0 0 0 0 
2413666666.6666665077 0.174996480345726013183593750000 -0.045214399695396423339843750000 -0.005267819855362176895141601562 0.003403703449293971061706542969 0 0 0 0 
2413833333.3333334923 0.173909619450569208343182481258 -0.045618917793035507202148437500 -0.005101255141198635101318359375 0.003616721602156757874729775537 0 0 0 0 
2414000000.0000000000 0.172552660107612609863281250000 -0.046287667006254203105886091407 -0.004864767193794251355642987988 0.003851657267659903006312704932 0 0 0 0 
2414166666.6666665077 0.171593889594078091720419365629 -0.047019578516483306884765625000 -0.004764265846461057662963867188 0.004106173757463693618774414062 0 0 0 0 
2414333333.3333334923 0.170233324170112609863281250000 -0.047774869948625571514089216407 -0.004641884006559848785400390625 0.004297188948839902877807617188 0 0 0 0 
2414500000.0000000000 0.169326573610305786132812500000 -0.048554014414548866962473283593 -0.004464870318770408630371093750 0.004706643521785736083984375000 0 0 0 0 
2414666666.6666665077 0.167902380228042602539062500000 -0.049575906246900558471679687500 -0.004270907491445541381835937500 0.004476219881325960159301757812 0 0 0 0 
2414833333.3333334923 0.166740596294403103927450615629 -0.050540566444396972656250000000 -0.004046790301799774169921875000 0.004775106441229581832885742188 0 0 0 0 
2415000000.0000000000 0.165444537997245788574218750000 -0.051814474165439612651784528907 -0.003697091480717062950134277344 0.004877780564129352569580078125 0 0 0 0 
2415166666.6666665077 0.164155125617981012542401231258 -0.052887130528688430786132812500 -0.003601103089749813079833984375 0.004880475811660289764404296875 0 0 0 0 
2415333333.3333334923 0.163219287991523687164630018742 -0.054271642118692398071289062500 -0.003178242128342390060424804688 0.005129936151206493377685546875 0 0 0 0 
2415500000.0000000000 0.161985561251640292068643134371 -0.055633965879678733135182966407 -0.003121861256659030914306640625 0.005218044854700565338134765625 0 0 0 0 
2415666666.6666665077 0.160846635699272211272869981258 -0.057144787162542343139648437500 -0.002738534240052103996276855469 0.005262672901153565320486737988 0 0 0 0 
2415833333.3333334923 0.159730315208435086349325615629 -0.058747701346874237060546875000 -0.002618962200358510017395019531 0.005484339315444231033325195312 0 0 0 0 
2416000000.0000000000 0.158531591296196011642294365629 -0.060589347034692757343332658593 -0.002327982103452086014988564600 0.005259470082819461822509765625 0 0 0 0 
2416166666.6666665077 0.157750278711318997482138115629 -0.062281746417284011840820312500 -0.002186049940064549012425088037 0.005513712763786315917968750000 0 0 0 0 
2416333333.3333334923 0.156779140233993502517861884371 -0.064066819846630096435546875000 -0.001971897901967167854309082031 0.005414782557636499404907226562 0 0 0 0 
2416500000.0000000000 0.155842438340187100509481865629 -0.066069886088371276855468750000 -0.001725538051687180995941162109 0.005328932311385869979858398438 0 0 0 0 
2416666666.6666665077 0.154939994215965298751669365629 -0.067868277430534362792968750000 -0.001482830615714191956761025537 0.005554573144763708114624023438 0 0 0 0 
2416833333.3333334923 0.154225304722786005218182481258 -0.069983698427677154541015625000 -0.001183403539471328041673969800 0.005358469206839799880981445312 0 0 0 0 
2417000000.0000000000 0.153197035193443298339843750000 -0.071956574916839599609375000000 -0.000965978659223765134811401367 0.005551896989345551404471112988 0 0 0 0 
2417166666.6666665077 0.152672067284584100921307481258 -0.073891676962375640869140625000 -0.000830292352475225925445556641 0.005323360208421945571899414062 0 0 0 0 
2417333333.3333334923 0.152098521590232904632244981258 -0.075804397463798522949218750000 -0.000603487424086779356002807617 0.005406598560512065887451171875 0 0 0 0 
2417500000.0000000000 0.151469394564628601074218750000 -0.077894404530525207519531250000 -0.000418611540226265788078308105 0.005207480397075414657592773438 0 0 0 0 
2417666666.6666665077 0.151126146316528292556924384371 -0.079655230045318603515625000000 -0.000291355594526976401179713116 0.005331539548933506011962890625 0 0 0 0 
2417833333.3333334923 0.150669082999229403396768134371 -0.081494979560375213623046875000 -0.000086377338448073714971542358 0.005249310284852981567382812500 0 0 0 0 
2418000000.0000000000 0.150309562683105496505575615629 -0.083517365157604217529296875000 0.000065837244619615375995635986 0.005018720868974924087524414062 0 0 0 0 
2418166666.6666665077 0.150011986494064303299111884371 -0.085188053548336029052734375000 0.000178156333277002004071912222 0.005016639363020659360403730176 0 0 0 0 
2418333333.3333334923 0.149899199604988098144531250000 -0.086812436580657958984375000000 0.000355173833668232018321436749 0.004799163434654474258422851562 0 0 0 0 
2418500000.0000000000 0.149788960814476013183593750000 -0.088453933596611022949218750000 0.000522600312251597642898559570 0.004946717992424964904785156250 0 0 0 0 
2418666666.6666665077 0.149859488010406494140625000000 -0.090047687292098999023437500000 0.000572736957110464572906494141 0.004869272932410240173339843750 0 0 0 0 
2418833333.3333334923 0.149656429886817904373330634371 -0.091597244143486022949218750000 0.000649666821118444204330444336 0.004803890828043222427368164062 0 0 0 0 
2419000000.0000000000 0.149653568863868713378906250000 -0.092838875949382781982421875000 0.000877682061400264501571655273 0.004754842258989810943603515625 0 0 0 0 
2419166666.6666665077 0.149829313158989008147869981258 -0.094120949506759643554687500000 0.000985283288173377513885498047 0.004591075703501701354980468750 0 0 0 0 
2419333333.3333334923 0.149721249938011197189169365629 -0.095149792730808258056640625000 0.001106001320295036055921245044 0.004570487886667251586914062500 0 0 0 0 
2419500000.0000000000 0.150150507688522311111611884371 -0.096247695386409759521484375000 0.001196874654851854064344096606 0.004520129878073930740356445312 0 0 0 0 
2419666666.6666665077 0.150554567575454711914062500000 -0.097334459424018859863281250000 0.001282450626604259014129638672 0.004476453643292188644409179688 0 0 0 0 
2419833333.3333334923 0.150673732161521911621093750000 -0.098039776086807250976562500000 0.001378832035697997050044394385 0.004565515555441380414480878613 0 0 0 0 
