# Version 1.00
#
freq[Hz];re:Trc1_S11;im:Trc1_S11;re:Trc2_S21;im:Trc2_S21;
2.400000000000000E+009;1.561555266380310E-001;6.019490212202072E-002;-5.620697513222694E-003;8.547483012080193E-004;
2.400166666666667E+009;1.562976837158203E-001;5.847116187214851E-002;-5.544255021959543E-003;1.013077329844236E-003;
2.400333333333334E+009;1.563188731670380E-001;5.634481459856033E-002;-5.581680685281754E-003;1.407752162776887E-003;
2.400500000000000E+009;1.565766185522080E-001;5.447778850793839E-002;-5.483282264322043E-003;1.461190404370427E-003;
2.400666666666667E+009;1.566366702318192E-001;5.240448564291000E-002;-5.333709064871073E-003;1.584499957971275E-003;
2.400833333333334E+009;1.570443660020828E-001;5.040713399648666E-002;-5.464017391204834E-003;1.623030169866979E-003;
2.401000000000000E+009;1.573100537061691E-001;4.836815968155861E-002;-5.537813995033503E-003;1.992119243368506E-003;
2.401166666666667E+009;1.578282266855240E-001;4.625817760825157E-002;-5.474989302456379E-003;2.194355009123683E-003;
2.401333333333334E+009;1.581451594829559E-001;4.420658200979233E-002;-5.358094815164805E-003;2.229126170277596E-003;
2.401500000000000E+009;1.588070392608643E-001;4.211006686091423E-002;-5.404582247138023E-003;2.555169630795717E-003;
2.401666666666667E+009;1.591882854700089E-001;4.040836915373802E-002;-5.264395382255316E-003;2.608946291729808E-003;
2.401833333333334E+009;1.600811630487442E-001;3.815946355462074E-002;-5.248624831438065E-003;2.863979199901223E-003;
2.402000000000000E+009;1.604792624711990E-001;3.623925521969795E-002;-4.910123534500599E-003;3.017359646037221E-003;
2.402166666666667E+009;1.611753851175308E-001;3.451237082481384E-002;-4.886708687990904E-003;3.375141182914376E-003;
2.402333333333334E+009;1.617056727409363E-001;3.289924189448357E-002;-4.823682364076376E-003;3.430069657042623E-003;
2.402500000000000E+009;1.629315018653870E-001;3.129848465323448E-002;-4.877205472439528E-003;3.676320193335414E-003;
2.402666666666667E+009;1.636079996824265E-001;2.960451319813728E-002;-4.690635018050671E-003;3.855539485812187E-003;
2.402833333333334E+009;1.646187305450440E-001;2.802943065762520E-002;-4.607300739735365E-003;4.080576356500387E-003;
2.403000000000000E+009;1.654385477304459E-001;2.678393758833408E-002;-4.328721668571234E-003;4.237060435116291E-003;
2.403166666666667E+009;1.666690558195114E-001;2.528098970651627E-002;-4.195205401629210E-003;4.397172480821610E-003;
2.403333333333334E+009;1.673170924186707E-001;2.419381029903889E-002;-3.981371410191059E-003;4.395089577883482E-003;
2.403500000000000E+009;1.683916002511978E-001;2.308278158307076E-002;-3.952557686716318E-003;4.694012925028801E-003;
2.403666666666667E+009;1.693866848945618E-001;2.172057516872883E-002;-3.665407188236713E-003;4.681238438934088E-003;
2.403833333333334E+009;1.704654395580292E-001;2.075463719666004E-002;-3.579940414056182E-003;5.129587370902300E-003;
2.404000000000000E+009;1.713301241397858E-001;1.989095844328404E-002;-3.262409009039402E-003;5.029371008276939E-003;
2.404166666666667E+009;1.723240166902542E-001;1.909112371504307E-002;-3.168193856254220E-003;5.254941992461681E-003;
2.404333333333334E+009;1.730816662311554E-001;1.836800947785378E-002;-2.917775185778737E-003;5.383356940001249E-003;
2.404500000000000E+009;1.738860607147217E-001;1.765519566833973E-002;-2.814681967720389E-003;5.463880486786366E-003;
2.404666666666667E+009;1.748367398977280E-001;1.699868775904179E-002;-2.600578591227531E-003;5.678469315171242E-003;
2.404833333333334E+009;1.756347119808197E-001;1.645495742559433E-002;-2.407882595434785E-003;5.692893639206886E-003;
2.405000000000000E+009;1.762636899948120E-001;1.577617228031158E-002;-2.220041351392865E-003;5.771940574049950E-003;
2.405166666666667E+009;1.769631206989288E-001;1.541519351303577E-002;-1.750340685248375E-003;5.921064876019955E-003;
2.405333333333334E+009;1.777276247739792E-001;1.490007992833853E-002;-1.545199891552329E-003;5.755735095590353E-003;
2.405500000000000E+009;1.782528460025787E-001;1.465256046503782E-002;-1.543089514598250E-003;5.882040597498417E-003;
2.405666666666667E+009;1.786686927080154E-001;1.433326303958893E-002;-1.101722358725965E-003;5.794642493128777E-003;
2.405833333333334E+009;1.788823306560516E-001;1.411765161901712E-002;-8.325200178660452E-004;5.992342252284288E-003;
2.406000000000000E+009;1.794525533914566E-001;1.368833426386118E-002;-6.575739826075733E-004;5.967127159237862E-003;
2.406166666666667E+009;1.795019954442978E-001;1.372801698744297E-002;-2.861937100533396E-004;6.078188773244619E-003;
2.406333333333334E+009;1.798810362815857E-001;1.317901629954577E-002;-8.628485375083983E-005;5.957441404461861E-003;
2.406500000000000E+009;1.798231154680252E-001;1.297735795378685E-002;9.533861157251522E-005;5.768926814198494E-003;
2.406666666666667E+009;1.796528398990631E-001;1.274371519684792E-002;3.073988773394376E-004;5.925904959440231E-003;
2.406833333333334E+009;1.798301935195923E-001;1.231043320149183E-002;5.582378362305462E-004;5.811040755361319E-003;
2.407000000000000E+009;1.796031743288040E-001;1.187655795365572E-002;7.142240647226572E-004;5.932852625846863E-003;
2.407166666666667E+009;1.795313507318497E-001;1.155734341591597E-002;1.076289569027722E-003;5.521791055798531E-003;
2.407333333333334E+009;1.791681051254273E-001;1.091099344193935E-002;1.154066412709653E-003;5.610107444226742E-003;
2.407500000000000E+009;1.786763817071915E-001;1.029843278229237E-002;1.473475364036858E-003;5.513724870979786E-003;
2.407666666666667E+009;1.783587634563446E-001;9.767088107764721E-003;1.582710305228829E-003;5.375909153372049E-003;
2.407833333333334E+009;1.778898090124130E-001;9.015975520014763E-003;1.787894405424595E-003;5.338123999536037E-003;
2.408000000000000E+009;1.773435473442078E-001;8.142464794218540E-003;1.818917342461646E-003;5.201018881052733E-003;
2.408166666666667E+009;1.768790334463120E-001;7.418358232825995E-003;2.043565269559622E-003;5.148193798959255E-003;
2.408333333333334E+009;1.763474643230438E-001;6.449165288358927E-003;2.142365323379636E-003;4.983173217624426E-003;
2.408500000000000E+009;1.756439954042435E-001;5.382960196584463E-003;2.429478336125612E-003;4.762617405503988E-003;
2.408666666666667E+009;1.749612838029862E-001;4.287946037948132E-003;2.417036565020680E-003;4.673931747674942E-003;
2.408833333333334E+009;1.742274016141892E-001;3.153658937662840E-003;2.729022642597556E-003;4.625242669135332E-003;
2.409000000000000E+009;1.735455989837647E-001;1.828132080845535E-003;2.607173519209027E-003;4.414177965372801E-003;
2.409166666666667E+009;1.729028522968292E-001;4.608957387972623E-004;2.767320256680250E-003;4.404348786920309E-003;
2.409333333333334E+009;1.722348779439926E-001;-1.026120968163014E-003;2.819320652633905E-003;4.270233213901520E-003;
2.409500000000000E+009;1.715824753046036E-001;-2.701690420508385E-003;2.893523080274463E-003;4.246104042977095E-003;
2.409666666666667E+009;1.710382997989655E-001;-4.150700755417347E-003;3.029736457392573E-003;3.987682983279228E-003;
2.409833333333334E+009;1.702588051557541E-001;-5.744396243244410E-003;3.182852640748024E-003;3.896600333973765E-003;
2.410000000000000E+009;1.700243949890137E-001;-7.462018635123968E-003;3.284974722191691E-003;3.658043919131160E-003;
2.410166666666667E+009;1.693464815616608E-001;-9.191748686134815E-003;3.441873937845230E-003;3.547091502696276E-003;
2.410333333333334E+009;1.689155697822571E-001;-1.114312838762999E-002;3.385984804481268E-003;3.463155822828412E-003;
2.410500000000000E+009;1.685669422149658E-001;-1.292730681598187E-002;3.476665820926428E-003;3.353184554725885E-003;
2.410666666666667E+009;1.681832224130631E-001;-1.503888051956892E-002;3.733732039108872E-003;3.223816398531199E-003;
2.410833333333334E+009;1.679949313402176E-001;-1.676281355321407E-002;3.872583853080869E-003;3.165543079376221E-003;
2.411000000000000E+009;1.677465438842773E-001;-1.873314194381237E-002;3.832556772977114E-003;2.909502945840359E-003;
2.411166666666667E+009;1.676801294088364E-001;-2.065447717905045E-002;3.859451506286860E-003;2.643960062414408E-003;
2.411333333333334E+009;1.675949692726135E-001;-2.279212512075901E-002;3.841990837827325E-003;2.655535237863660E-003;
2.411500000000000E+009;1.675187647342682E-001;-2.491153404116631E-002;3.873683977872133E-003;2.401054603978992E-003;
2.411666666666667E+009;1.678947955369949E-001;-2.671329863369465E-002;3.973022568970919E-003;2.408239059150219E-003;
2.411833333333334E+009;1.679507046937943E-001;-2.866608276963234E-002;3.996110055595636E-003;2.015720354393125E-003;
2.412000000000000E+009;1.683196276426315E-001;-3.052021376788616E-002;4.028108436614275E-003;2.055166056379676E-003;
2.412166666666667E+009;1.684632152318955E-001;-3.244903311133385E-002;4.073549527674913E-003;1.852698624134064E-003;
2.412333333333334E+009;1.692363619804382E-001;-3.432483598589897E-002;4.102904815226793E-003;1.626800629310310E-003;
2.412500000000000E+009;1.694151759147644E-001;-3.604244068264961E-002;4.214496351778507E-003;1.470260904170573E-003;
2.412666666666667E+009;1.698751002550125E-001;-3.806668147444725E-002;4.188020247966051E-003;1.385293318890035E-003;
2.412833333333334E+009;1.703053116798401E-001;-3.969002515077591E-002;4.241594579070807E-003;1.268226536922157E-003;
2.413000000000000E+009;1.708323955535889E-001;-4.127242416143417E-002;4.267151001840830E-003;1.091038226149976E-003;
2.413166666666667E+009;1.714394390583038E-001;-4.291534423828125E-002;4.121300764381886E-003;9.131967090070248E-004;
2.413333333333334E+009;1.719174385070801E-001;-4.435729980468750E-002;4.030035808682442E-003;1.020542928017676E-003;
2.413500000000000E+009;1.726320832967758E-001;-4.579737037420273E-002;4.130112007260323E-003;6.811259663663805E-004;
2.413666666666667E+009;1.732914298772812E-001;-4.724387452006340E-002;4.172324668616056E-003;6.901505985297263E-004;
2.413833333333334E+009;1.740943640470505E-001;-4.826278984546661E-002;4.041647072881460E-003;3.930180973839015E-004;
2.414000000000000E+009;1.744809001684189E-001;-4.963930323719978E-002;4.031676799058914E-003;2.418013755232096E-004;
2.414166666666667E+009;1.751668006181717E-001;-5.063346773386002E-002;4.038583021610975E-003;6.736739305779338E-005;
2.414333333333334E+009;1.756495535373688E-001;-5.182691290974617E-002;3.946706652641296E-003;4.203076241537929E-005;
2.414500000000000E+009;1.762752979993820E-001;-5.269240215420723E-002;3.792254254221916E-003;2.617879090394126E-006;
2.414666666666667E+009;1.768280416727066E-001;-5.341131985187531E-002;3.893553279340267E-003;-1.271105720661581E-004;
2.414833333333334E+009;1.773211061954498E-001;-5.427721887826920E-002;3.796547651290894E-003;-4.404861829243600E-004;
2.415000000000000E+009;1.775072365999222E-001;-5.488696321845055E-002;3.756535938009620E-003;-3.442953166086227E-004;
2.415166666666667E+009;1.779423654079437E-001;-5.552164837718010E-002;3.655720734968782E-003;-5.416526109911501E-004;
2.415333333333334E+009;1.784175485372543E-001;-5.615327879786491E-002;3.533608978614211E-003;-4.679510602727532E-004;
2.415500000000000E+009;1.784345060586929E-001;-5.647617205977440E-002;3.416843013837934E-003;-5.619109142571688E-004;
2.415666666666667E+009;1.785401999950409E-001;-5.689875036478043E-002;3.474366851150990E-003;-6.590216653421521E-004;
2.415833333333334E+009;1.785480231046677E-001;-5.714892968535423E-002;3.421556204557419E-003;-7.362563046626747E-004;
2.416000000000000E+009;1.784961074590683E-001;-5.755023285746574E-002;3.424486378207803E-003;-8.172239176928997E-004;
2.416166666666667E+009;1.784835159778595E-001;-5.779555067420006E-002;3.234973875805736E-003;-8.207816281355918E-004;
2.416333333333334E+009;1.782491952180862E-001;-5.793956667184830E-002;3.384301438927651E-003;-8.697637822479010E-004;
2.416500000000000E+009;1.779431104660034E-001;-5.833182483911514E-002;3.264138940721750E-003;-9.445259929634631E-004;
2.416666666666667E+009;1.775314360857010E-001;-5.847948044538498E-002;3.220215672627091E-003;-1.106242649257183E-003;
2.416833333333334E+009;1.771351695060730E-001;-5.871972814202309E-002;3.135681385174394E-003;-1.169558730907738E-003;
2.417000000000000E+009;1.763635426759720E-001;-5.895644053816795E-002;3.161055035889149E-003;-1.212633447721601E-003;
2.417166666666667E+009;1.757539510726929E-001;-5.915745720267296E-002;3.044665325433016E-003;-1.187507063150406E-003;
2.417333333333334E+009;1.750711500644684E-001;-5.922808870673180E-002;3.013478824868798E-003;-1.270726439543068E-003;
2.417500000000000E+009;1.742288917303085E-001;-5.977944284677506E-002;3.095150925219059E-003;-1.362723181955516E-003;
2.417666666666667E+009;1.733743548393250E-001;-5.985403060913086E-002;3.063745098188520E-003;-1.441329601220787E-003;
2.417833333333334E+009;1.723418086767197E-001;-6.020473688840866E-002;2.992628142237663E-003;-1.493955729529262E-003;
2.418000000000000E+009;1.712682396173477E-001;-6.072337180376053E-002;3.022585995495319E-003;-1.667051692493260E-003;
2.418166666666667E+009;1.701793819665909E-001;-6.100570037961006E-002;2.738590119406581E-003;-1.627824036404491E-003;
2.418333333333334E+009;1.693137884140015E-001;-6.156332790851593E-002;2.854604041203857E-003;-1.777832745574415E-003;
2.418500000000000E+009;1.679102927446365E-001;-6.220622360706329E-002;2.882881090044975E-003;-1.942905480973423E-003;
2.418666666666667E+009;1.667504757642746E-001;-6.277043372392654E-002;2.808036981150508E-003;-1.994346734136343E-003;
2.418833333333334E+009;1.653813421726227E-001;-6.360151618719101E-002;2.678402932360768E-003;-1.941777183674276E-003;
2.419000000000000E+009;1.640794426202774E-001;-6.430584192276001E-002;2.594963647425175E-003;-2.231956459581852E-003;
2.419166666666667E+009;1.629400998353958E-001;-6.514533609151840E-002;2.488639205694199E-003;-2.257291926071048E-003;
2.419333333333334E+009;1.616706699132919E-001;-6.594774872064591E-002;2.494431100785732E-003;-2.197072375565767E-003;
2.419500000000000E+009;1.604836434125900E-001;-6.715469807386398E-002;2.453104592859745E-003;-2.205952769145370E-003;
2.419666666666667E+009;1.593674570322037E-001;-6.816308945417404E-002;2.254400169476867E-003;-2.366104628890753E-003;
2.419833333333334E+009;1.580954790115356E-001;-6.921253353357315E-002;2.149866195395589E-003;-2.374272560700774E-003;
2.420000000000000E+009;1.570934057235718E-001;-7.055959105491638E-002;2.139977645128965E-003;-2.345625078305602E-003;
2.420166666666667E+009;1.559567302465439E-001;-7.190594822168350E-002;1.918495865538716E-003;-2.503172028809786E-003;
2.420333333333334E+009;1.550498902797699E-001;-7.333150506019592E-002;1.910418621264398E-003;-2.593916375190020E-003;
2.420500000000000E+009;1.540717780590057E-001;-7.454205304384232E-002;1.792367198504508E-003;-2.628887770697475E-003;
2.420666666666667E+009;1.532487571239471E-001;-7.590648531913757E-002;1.670178608037531E-003;-2.622769679874182E-003;
2.420833333333334E+009;1.525310575962067E-001;-7.758747786283493E-002;1.678162370808423E-003;-2.641351427882910E-003;
2.421000000000000E+009;1.518007665872574E-001;-7.915487140417099E-002;1.604754361324012E-003;-2.680610865354538E-003;
2.421166666666667E+009;1.512578427791596E-001;-8.070039004087448E-002;1.474362332373858E-003;-2.740164287388325E-003;
2.421333333333334E+009;1.506547182798386E-001;-8.232742547988892E-002;1.377437147311866E-003;-2.764963777735829E-003;
2.421500000000000E+009;1.501052975654602E-001;-8.403182774782181E-002;1.209824346005917E-003;-2.754186512902379E-003;
2.421666666666667E+009;1.497814506292343E-001;-8.569435775279999E-002;1.201639999635518E-003;-2.673366805538535E-003;
2.421833333333334E+009;1.496689021587372E-001;-8.734600245952606E-002;1.086123753339052E-003;-2.707978943362832E-003;
2.422000000000000E+009;1.493984907865524E-001;-8.909603953361511E-002;1.008148305118084E-003;-2.801646012812853E-003;
2.422166666666667E+009;1.492245048284531E-001;-9.100132435560226E-002;8.441905956715345E-004;-2.831419697031379E-003;
2.422333333333334E+009;1.493262052536011E-001;-9.246136993169785E-002;7.267150795087218E-004;-2.760824048891664E-003;
2.422500000000000E+009;1.493898630142212E-001;-9.406086057424545E-002;5.626216297969222E-004;-2.609995659440756E-003;
2.422666666666667E+009;1.494400501251221E-001;-9.578613191843033E-002;5.273147835396230E-004;-2.577064558863640E-003;
2.422833333333334E+009;1.497137844562531E-001;-9.740646928548813E-002;4.507962439674884E-004;-2.598585095256567E-003;
2.423000000000000E+009;1.499608457088471E-001;-9.900082647800446E-002;4.043570370413363E-004;-2.574987476691604E-003;
2.423166666666667E+009;1.503292918205261E-001;-1.005100309848785E-001;1.908247504616156E-004;-2.578286221250892E-003;
2.423333333333334E+009;1.508276164531708E-001;-1.018612831830978E-001;2.272794808959588E-004;-2.421658718958497E-003;
2.423500000000000E+009;1.513698548078537E-001;-1.033793762326241E-001;1.101147063309327E-004;-2.358623780310154E-003;
2.423666666666667E+009;1.516733020544052E-001;-1.048054397106171E-001;3.471163508947939E-004;-2.475984394550324E-003;
2.423833333333334E+009;1.522208154201508E-001;-1.060216799378395E-001;7.013711729086936E-005;-2.386720152571797E-003;
2.424000000000000E+009;1.526085883378983E-001;-1.070861369371414E-001;-1.688175543677062E-004;-2.259880304336548E-003;
2.424166666666667E+009;1.530988216400147E-001;-1.083522588014603E-001;6.902129825903103E-005;-2.087070839479566E-003;
2.424333333333334E+009;1.537607312202454E-001;-1.093070730566979E-001;-1.427428069291636E-004;-2.288190647959709E-003;
2.424500000000000E+009;1.543120145797730E-001;-1.101713478565216E-001;-9.094150300370529E-005;-2.056244295090437E-003;
2.424666666666667E+009;1.548028737306595E-001;-1.109715178608894E-001;-2.420459786662832E-004;-2.122235717251897E-003;
2.424833333333334E+009;1.552806347608566E-001;-1.120218113064766E-001;-5.647743091685697E-005;-2.218746813014150E-003;
2.425000000000000E+009;1.557142585515976E-001;-1.128569990396500E-001;-1.058508278219961E-004;-2.054967451840639E-003;
2.425166666666667E+009;1.559249907732010E-001;-1.134089827537537E-001;-2.761344076134265E-004;-2.058239653706551E-003;
2.425333333333334E+009;1.564992070198059E-001;-1.139697954058647E-001;-2.514842199161649E-004;-1.934927422553301E-003;
2.425500000000000E+009;1.567836254835129E-001;-1.145106256008148E-001;-2.624265907797962E-004;-2.072833245620132E-003;
2.425666666666667E+009;1.567332595586777E-001;-1.149689182639122E-001;-1.111491219489835E-004;-1.759990467689931E-003;
2.425833333333334E+009;1.570445001125336E-001;-1.154094710946083E-001;-2.014826459344477E-004;-1.890107523649931E-003;
2.426000000000000E+009;1.569924652576447E-001;-1.157921776175499E-001;-2.486267476342619E-004;-1.885346253402531E-003;
2.426166666666667E+009;1.572803109884262E-001;-1.161293089389801E-001;-3.630453138612211E-004;-2.048552036285400E-003;
2.426333333333334E+009;1.570412069559097E-001;-1.162534505128861E-001;-2.441464166622609E-004;-1.919185509905219E-003;
2.426500000000000E+009;1.570427864789963E-001;-1.164854019880295E-001;-2.466635196469724E-004;-1.685557654127479E-003;
2.426666666666667E+009;1.567511856555939E-001;-1.164295300841332E-001;-1.536429190309718E-004;-1.687391079030931E-003;
2.426833333333334E+009;1.563388258218765E-001;-1.166555806994438E-001;-3.048560465686023E-004;-1.800859696231782E-003;
2.427000000000000E+009;1.558662950992584E-001;-1.169799715280533E-001;-2.869158051908016E-004;-1.837003743276000E-003;
2.427166666666667E+009;1.553239226341248E-001;-1.168764084577560E-001;-4.917098558507860E-004;-1.853061025030911E-003;
2.427333333333334E+009;1.545838713645935E-001;-1.170794963836670E-001;-3.074784472119063E-004;-1.762519008480012E-003;
2.427500000000000E+009;1.540685743093491E-001;-1.172095388174057E-001;-4.098242789041251E-004;-1.746133086271584E-003;
2.427666666666667E+009;1.531781256198883E-001;-1.173584908246994E-001;-3.063271869905293E-004;-1.772916759364307E-003;
2.427833333333334E+009;1.521841436624527E-001;-1.175862476229668E-001;-3.984560316894203E-004;-1.783103332854807E-003;
