# Hz S RI R 50
2400000000.0000000000 0.155422523617744501311932481258 0.110766932368278503417968750000 0.000564290734473615884780883789 0.000386880914447829073101597919 0 0 0 0 
2400166666.6666665077 0.154848992824554387848223768742 0.108452670276164994667134067186 0.000316729187034070491790771484 0.000326081266393885016441345215 0 0 0 0 
2400333333.3333334923 0.154756367206573486328125000000 0.106292076408863095382528740629 0.000368017761502414887577611102 0.000211055317777209011003217154 0 0 0 0 
2400500000.0000000000 0.154268592596054104904013115629 0.103560782968997996955629048443 0.000317847763653844594955444336 0.000118181356810964603297649245 0 0 0 0 
2400666666.6666665077 0.154200211167335510253906250000 0.101163290441036196609658759371 0.000141765238367952406406402588 0.000249219126999378204345703125 0 0 0 0 
2400833333.3333334923 0.153900742530822809417401231258 0.098185986280441284179687500000 0.000076213007559999823570251465 0.000247287709498777985572814941 0 0 0 0 
2401000000.0000000000 0.153846994042396600921307481258 0.095441602170467376708984375000 0.000039529451896669343113899231 0.000308830698486417477757054462 0 0 0 0 
2401166666.6666665077 0.153643906116485595703125000000 0.092693291604518890380859375000 -0.000031357540137832977552006380 0.000507216260302811861038208008 0 0 0 0 
2401333333.3333334923 0.153755664825439508636151231258 0.089558012783527374267578125000 -0.000139047464472241699695587158 0.000689355831127613782882690430 0 0 0 0 
2401500000.0000000000 0.153868868947029113769531250000 0.086472451686859130859375000000 -0.000130163956782780587673187256 0.000650794478133320808410644531 0 0 0 0 
2401666666.6666665077 0.153953567147254888336505018742 0.083641402423381805419921875000 -0.000116554751002695397891183171 0.000773841864429414272308349609 0 0 0 0 
2401833333.3333334923 0.154342293739318903167401231258 0.080641061067581176757812500000 -0.000153080065501853796556749887 0.000925186788663268089294433594 0 0 0 0 
2402000000.0000000000 0.154972508549690302093182481258 0.077718026936054229736328125000 -0.000036426969018066301941871643 0.001004679710604249997379922021 0 0 0 0 
2402166666.6666665077 0.155600786209106500823651231258 0.075003892183303833007812500000 0.000060181642766110599040985107 0.001108633587136865095851279150 0 0 0 0 
2402333333.3333334923 0.156544208526611300369424384371 0.072085149586200714111328125000 0.000083463812188711017370223999 0.001103803864680231051204062354 0 0 0 0 
2402500000.0000000000 0.157474189996719388107138115629 0.069237530231475830078125000000 0.000341647362802177721827906476 0.001121275709010661082026816260 0 0 0 0 
2402666666.6666665077 0.158358141779899597167968750000 0.066723696887493133544921875000 0.000441492127720266580581665039 0.001200066064484417004826211084 0 0 0 0 
2402833333.3333334923 0.159575521945953396896200615629 0.063968129456043243408203125000 0.000620993203483521938323974609 0.001171973301097751097438193213 0 0 0 0 
2403000000.0000000000 0.161067679524421691894531250000 0.061320852488279342651367187500 0.000673437665682286024093627930 0.001156738842837512926814413916 0 0 0 0 
2403166666.6666665077 0.162707075476646395584268134371 0.058838400989770889282226562500 0.000965984363574534654617309570 0.001258580479770899035810161060 0 0 0 0 
2403333333.3333334923 0.164111822843551607986611884371 0.056461580097675316547434221093 0.000891373958438634872436523438 0.001176479039713739915135048975 0 0 0 0 
2403500000.0000000000 0.165940284729003906250000000000 0.054015625268220901489257812500 0.001230283407494425990461039966 0.000922569772228598594665527344 0 0 0 0 
2403666666.6666665077 0.167835742235183688064736884371 0.052043229341506958007812500000 0.001404823269695043997523642432 0.000846145150717347860336303711 0 0 0 0 
2403833333.3333334923 0.169573143124580411056356865629 0.049893096089363098144531250000 0.001324105891399085955378867041 0.000649230380076915025711059570 0 0 0 0 
2404000000.0000000000 0.171287298202514703948651231258 0.047941606491804122924804687500 0.001377164269797503948211669922 0.000389275432098656892776489258 0 0 0 0 
2404166666.6666665077 0.173035234212875393966513115629 0.046240765601396560668945312500 0.001483908854424953894374228369 0.000291816540993750095367431641 0 0 0 0 
2404333333.3333334923 0.174911305308342007736044365629 0.044463187456130981445312500000 0.001343660871498286940931010669 -0.000031211606255965307354927063 0 0 0 0 
2404500000.0000000000 0.176692530512809808929119981258 0.042909692972898483276367187500 0.001159137464128435091731406104 0.000034498523746151477098464966 0 0 0 0 
2404666666.6666665077 0.178374856710433987716513115629 0.041790753602981567382812500000 0.001205388223752378983738564600 0.000090779365564230829477310181 0 0 0 0 
2404833333.3333334923 0.180316731333732604980468750000 0.040529619902372360229492187500 0.001227287459187210039851523291 -0.000129890118842013207360944205 0 0 0 0 
2405000000.0000000000 0.181840658187866210937500000000 0.039760738611221306537668596093 0.000969086657278239727020263672 -0.000132053712150081992149353027 0 0 0 0 
2405166666.6666665077 0.183691859245300292968750000000 0.039006136357784271240234375000 0.000843534129671752452850341797 -0.000313843745971098488003331317 0 0 0 0 
2405333333.3333334923 0.185280576348304804046307481258 0.038390669971704483032226562500 0.000849191623274236917495727539 -0.000178892514668405110209864484 0 0 0 0 
2405500000.0000000000 0.187077403068542508224325615629 0.037973452359437942504882812500 0.000749941973481327295303344727 -0.000215025851503014591619214468 0 0 0 0 
2405666666.6666665077 0.188464209437370300292968750000 0.037545200437307357788085937500 0.000719448144081979990005493164 -0.000192430190509185194969177246 0 0 0 0 
2405833333.3333334923 0.189985379576682988922442518742 0.037413984537124626850168596093 0.000569226394873112440109252930 -0.000097702213679440319538116455 0 0 0 0 
2406000000.0000000000 0.191375195980071993728799384371 0.037298958748579032207448591407 0.000734521832782775163650512695 -0.000176664223545230897978106088 0 0 0 0 
2406166666.6666665077 0.192631199955940302093182481258 0.037170913070440292358398437500 0.000743222830351442098617553711 -0.000115909824671689393833437509 0 0 0 0 
2406333333.3333334923 0.193809345364570589920205634371 0.037288118153810501098632812500 0.000750154198613017797470092773 -0.000248507451033219695091247559 0 0 0 0 
2406500000.0000000000 0.194740504026412991622763115629 0.037463247776031487201731096093 0.000695030263159424066543579102 0.000077631149906665086746215820 0 0 0 0 
2406666666.6666665077 0.195658862590789794921875000000 0.037737108767032623291015625000 0.000692520115990191698074340820 -0.000070070804213173687458038330 0 0 0 0 
2406833333.3333334923 0.196414411067962701995526231258 0.037912078201770782470703125000 0.000787583063356578350067138672 -0.000095497678557876497507095337 0 0 0 0 
2407000000.0000000000 0.197067826986312893966513115629 0.038318026810884482646901716407 0.000905179593246430158615112305 -0.000065868196543306112289428711 0 0 0 0 
2407166666.6666665077 0.197669580578803988357705634371 0.038485106080770492553710937500 0.000660881749354302883148193359 -0.000044680273276753716845104830 0 0 0 0 
2407333333.3333334923 0.197870284318924005706463731258 0.038919053971767432476003278907 0.000867599097546190023422241211 -0.000014021798051544470206804770 0 0 0 0 
2407500000.0000000000 0.197923257946968106368856865629 0.039198100566864006732981096093 0.000798089720774441957473754883 -0.000098752796475309878587722778 0 0 0 0 
2407666666.6666665077 0.198090970516204806228799384371 0.039373874664306640625000000000 0.000787575962021946907043457031 -0.000241869885940104695871630258 0 0 0 0 
2407833333.3333334923 0.197816491127014187911825615629 0.039696574211120612407643903907 0.000928799854591488838195800781 -0.000333906529704108780056553973 0 0 0 0 
2408000000.0000000000 0.197787910699844388107138115629 0.039730329066514968872070312500 0.000705837446730583906173706055 -0.000298887898679822683334350586 0 0 0 0 
2408166666.6666665077 0.197290465235710088531817518742 0.039926886558532721782643903907 0.000830583157949149608612060547 -0.000416911294450983405113220215 0 0 0 0 
2408333333.3333334923 0.196913570165634210784588731258 0.039623487740755081176757812500 0.000648036773782223463058471680 -0.000327988178469240719645899640 0 0 0 0 
2408500000.0000000000 0.196206718683242797851562500000 0.039748456329107291484792341407 0.000671865127515047788619995117 -0.000405382656026631593704223633 0 0 0 0 
2408666666.6666665077 0.195602983236312893966513115629 0.039525959640741348266601562500 0.000816727988421916961669921875 -0.000406545237638056278228759766 0 0 0 0 
2408833333.3333334923 0.194877594709396390060263115629 0.039126079529523849487304687500 0.000542365305591374635696411133 -0.000563681183848530054092407227 0 0 0 0 
2409000000.0000000000 0.193874657154083307464276231258 0.038460139185190200805664062500 0.000605602399446070194244384766 -0.000453401531558483784824925555 0 0 0 0 
2409166666.6666665077 0.192862212657928494552450615629 0.037768587470054633403737653907 0.000627209665253758430480957031 -0.000501569069456309080123901367 0 0 0 0 
2409333333.3333334923 0.191890954971313504318075615629 0.037201277911663062358815778907 0.000622054445557296276092529297 -0.000518847838975489139556884766 0 0 0 0 
2409500000.0000000000 0.190610513091087313553018134371 0.035984054207801818847656250000 0.000668503111228346824645996094 -0.000485460826894268393516540527 0 0 0 0 
2409666666.6666665077 0.189484685659408597091513115629 0.035180293023586273193359375000 0.000683757883962243795394897461 -0.000526479037944227457046508789 0 0 0 0 
2409833333.3333334923 0.188302472233772305587606865629 0.033805914223194122314453125000 0.000561483029741793870925903320 -0.000674564391374588012695312500 0 0 0 0 
2410000000.0000000000 0.187246024608612088302450615629 0.032282032072544097900390625000 0.000426841725129634087711888446 -0.000653161434456706047058105469 0 0 0 0 
2410166666.6666665077 0.185971856117248507400674384371 0.030746877193450931203821951954 0.000560163462068885564804077148 -0.000475439475849270820617675781 0 0 0 0 
2410333333.3333334923 0.184868186712264986892861884371 0.029077103361487388610839843750 0.000364491395885124802589416504 -0.000684451195411384105682373047 0 0 0 0 
2410500000.0000000000 0.183608844876289395431356865629 0.027357857674360278738001639454 0.000298038445180281996726989746 -0.000729723891708999872207641602 0 0 0 0 
2410666666.6666665077 0.182546690106391906738281250000 0.025187563151121139526367187500 0.000246858777245506590038853778 -0.000696872593834996223449707031 0 0 0 0 
2410833333.3333334923 0.181719571352005004882812500000 0.023083548992872241628626639454 0.000151370972162112593650817871 -0.000714872556272894144058227539 0 0 0 0 
2411000000.0000000000 0.180716216564178494552450615629 0.020906310528516769409179687500 0.000086363579612225294113159180 -0.000603374210186302661895751953 0 0 0 0 
2411166666.6666665077 0.179765149950981112381143134371 0.018700269982218738901158516796 -0.000002055709956039208918809891 -0.000575618469156324863433837891 0 0 0 0 
2411333333.3333334923 0.179131269454956110198651231258 0.016090432181954380380650704296 -0.000119681957585271502107066022 -0.000442801916506141424179077148 0 0 0 0 
2411500000.0000000000 0.178413257002830505371093750000 0.013787055388092999894111834180 -0.000035234188544563949108123779 -0.000368103472283110022544860840 0 0 0 0 
2411666666.6666665077 0.177928537130355807205361884371 0.011401572264730930328369140625 -0.000077251737820915877819061279 -0.000440232979599386507838648663 0 0 0 0 
2411833333.3333334923 0.177342489361763000488281250000 0.008999733254313468933105468750 -0.000060018570366082713007926941 -0.000216868298593908602565211163 0 0 0 0 
2412000000.0000000000 0.177459493279457092285156250000 0.006200353614985942840576171875 0.000016608590158284638414179155 -0.000100789082353003295973101205 0 0 0 0 
2412166666.6666665077 0.177378505468368502517861884371 0.003844567574560641808750771631 0.000035324865166330710053443909 -0.000102715064713265801042002545 0 0 0 0 
2412333333.3333334923 0.177181646227836608886718750000 0.000999972573481500148773193359 0.000013212033991294450720752410 -0.000034971457353094592690467834 0 0 0 0 
2412500000.0000000000 0.177716314792633112151776231258 -0.001556420349515974955317831885 0.000008213000000978354364633560 0.000079543468018528074026107788 0 0 0 0 
2412666666.6666665077 0.178006321191787691970986884371 -0.004312888719141483306884765625 0.000084225139289628714323043823 -0.000006448714884754735976457596 0 0 0 0 
2412833333.3333334923 0.178493499755859402755575615629 -0.007043841294944286346435546875 0.000184033458936028209611615591 0.000162498879944905611589708871 0 0 0 0 
2413000000.0000000000 0.179149508476257296463174384371 -0.009555779397487640380859375000 0.000347951980074867606163024902 0.000235645798966288593694409781 0 0 0 0 
2413166666.6666665077 0.180115714669227600097656250000 -0.011984236538410190237025076954 0.000537310494109988212585449219 0.000124532802146859494134625845 0 0 0 0 
2413333333.3333334923 0.181081071496009798904580634371 -0.014581399969756599771519844921 0.000520065601449459791183471680 0.000108160456875339204638880597 0 0 0 0 
2413500000.0000000000 0.181998431682586697677450615629 -0.017141276970505710947056954296 0.000632125476840883493423461914 0.000100675926660187501780925612 0 0 0 0 
2413666666.6666665077 0.183253765106201199630575615629 -0.019598329439759250986119454296 0.000666268344502896070480346680 -0.000001568557649989088955100021 0 0 0 0 
2413833333.3333334923 0.184398561716079711914062500000 -0.021829137578606608999232108204 0.000913786352612078189849853516 -0.000231800775509327704280299054 0 0 0 0 
2414000000.0000000000 0.185638248920440701583700615629 -0.023872012272477149963378906250 0.000920341524761170148849487305 -0.000366967200534418225288391113 0 0 0 0 
2414166666.6666665077 0.186881035566330011565838731258 -0.026114786043763160705566406250 0.000898282101843506097793579102 -0.000493481697048991918563842773 0 0 0 0 
2414333333.3333334923 0.188182711601257296463174384371 -0.028336018323898318899134451954 0.000877539510838687419891357422 -0.000389329245081171393394470215 0 0 0 0 
2414500000.0000000000 0.189566358923912103850994981258 -0.029937090352177619934082031250 0.000753077969420701265335083008 -0.000630695838481187820434570312 0 0 0 0 
2414666666.6666665077 0.190896674990653991699218750000 -0.031720828264951712871511091407 0.000603468681219965219497680664 -0.000718468625564128160476684570 0 0 0 0 
2414833333.3333334923 0.192324414849281311035156250000 -0.033355537801980972290039062500 0.000733453663997352123260498047 -0.000781341572292149066925048828 0 0 0 0 
2415000000.0000000000 0.193662807345390292068643134371 -0.035051032900810241699218750000 0.000630849739536643028259277344 -0.000744558288715779781341552734 0 0 0 0 
2415166666.6666665077 0.195064961910247802734375000000 -0.036190964281558990478515625000 0.000511400052346289157867431641 -0.000894544238690286874771118164 0 0 0 0 
2415333333.3333334923 0.196459859609603909591513115629 -0.037319798022508621215820312500 0.000407453626394271904796046124 -0.000780172878876328468322753906 0 0 0 0 
2415500000.0000000000 0.197802037000656100174111884371 -0.038152709603309631347656250000 0.000496501394081860780715942383 -0.000889937335159629583358764648 0 0 0 0 
2415666666.6666665077 0.199160084128379794021768134371 -0.039214748889207839965820312500 0.000349760142853483611911219464 -0.000914942589588463306427001953 0 0 0 0 
2415833333.3333334923 0.200341254472732488434161268742 -0.039926901459693908691406250000 0.000315669953124597722857874738 -0.000908714719116687774658203125 0 0 0 0 
2416000000.0000000000 0.201426371932029696365518134371 -0.040533944964408881450612653907 0.000346992019331082701683044434 -0.000825011287815868854522705078 0 0 0 0 
2416166666.6666665077 0.202381446957588195800781250000 -0.041105259209871292114257812500 0.000307877984596416408389490948 -0.000871714495588093996047973633 0 0 0 0 
2416333333.3333334923 0.203297793865203912933026231258 -0.041474014520645141601562500000 0.000173697262653149691507062369 -0.001063794014044106006622314453 0 0 0 0 
2416500000.0000000000 0.204083770513534601409588731258 -0.041688703000545501708984375000 0.000306151283439248800277709961 -0.001038697781041264967677451025 0 0 0 0 
2416666666.6666665077 0.204581215977668789962606865629 -0.042055256664752960205078125000 0.000123825186165049699231824332 -0.001059251604601741053937602466 0 0 0 0 
2416833333.3333334923 0.205120742321014404296875000000 -0.042084980756044387817382812500 0.000150911262608133310645502911 -0.000871134107001125812530517578 0 0 0 0 
2417000000.0000000000 0.205484524369239807128906250000 -0.042132709175348281860351562500 0.000112597816041670698993144850 -0.001112370984628797011134482275 0 0 0 0 
2417166666.6666665077 0.205513626337051391601562500000 -0.042024314403533942485768903907 -0.000091992325906176120042800903 -0.001079789246432482979418110425 0 0 0 0 
2417333333.3333334923 0.205503836274147005935830634371 -0.041711412370204932476003278907 -0.000108644795545842498540878296 -0.001217490294948220036150288159 0 0 0 0 
2417500000.0000000000 0.205568760633468600174111884371 -0.041654296219348907470703125000 -0.000188026009709574309274396353 -0.001123533351346849961521767725 0 0 0 0 
2417666666.6666665077 0.205224275588989313323651231258 -0.041207965463399887084960937500 -0.000241456626099534305647173471 -0.001105142990127206065534282153 0 0 0 0 
2417833333.3333334923 0.204964280128479003906250000000 -0.040838472545146942138671875000 -0.000419210817199200391769409180 -0.001296339207328855991363525391 0 0 0 0 
2418000000.0000000000 0.204422548413276700118856865629 -0.040362019091844558715820312500 -0.000414614303736016208499354230 -0.001195744029246271090266562354 0 0 0 0 
2418166666.6666665077 0.203893169760704012771768134371 -0.040194064378738403320312500000 -0.000570107600651681423187255859 -0.001036020228639245033264160156 0 0 0 0 
2418333333.3333334923 0.203151434659957913497763115629 -0.039860829710960388183593750000 -0.000648906803689897060394287109 -0.001025818986818193955662392725 0 0 0 0 
2418500000.0000000000 0.202260479331016512771768134371 -0.039748892188072211528737653907 -0.000596533936914056539535522461 -0.000970168155618011951446533203 0 0 0 0 
2418666666.6666665077 0.201395720243454007247763115629 -0.039334557950496666645090471093 -0.000844814640004187822341918945 -0.000881346932146698236465454102 0 0 0 0 
2418833333.3333334923 0.200222805142402704436932481258 -0.039268493652343750000000000000 -0.000892094452865421772003173828 -0.000856995582580566406250000000 0 0 0 0 
2419000000.0000000000 0.198869183659553500076455634371 -0.039208382368087768554687500000 -0.000856760249007493257522583008 -0.000667007174342870712280273438 0 0 0 0 
2419166666.6666665077 0.197708755731582613845986884371 -0.039383787661790847778320312500 -0.000913340598344802856445312500 -0.000698772026225924491882324219 0 0 0 0 
2419333333.3333334923 0.196418777108192388336505018742 -0.039703734219074249267578125000 -0.001154507976025342941284179688 -0.000457752117654308676719665527 0 0 0 0 
2419500000.0000000000 0.194701820611953707595986884371 -0.039853464812040328979492187500 -0.001028281054459512016893696362 -0.000343965512001887018054407941 0 0 0 0 
2419666666.6666665077 0.193092077970504788497763115629 -0.040560696274042129516601562500 -0.000841704546473920453726613733 -0.000367207074305042624473571777 0 0 0 0 
2419833333.3333334923 0.191300109028816195388955634371 -0.041038595139980323101003278907 -0.000833477708511054515838623047 -0.000250775425229221582412719727 0 0 0 0 
