# Hz S RI R 50
2400000000.0000000000 0.154910355806350708007812500000 0.109451673924922901481870951557 -0.003867062972858548164367675781 -0.002611948875710368156433105469 0 0 0 0 
2400166666.6666665077 0.154534399509429903885049384371 0.107103027403354603142027201557 -0.004173372872173786163330078125 -0.002593431388959289030787802588 0 0 0 0 
2400333333.3333334923 0.154429569840431213378906250000 0.105001397430896800666566548443 -0.004151431377977132797241210938 -0.002281692810356616973876953125 0 0 0 0 
2400500000.0000000000 0.154294252395629910568075615629 0.102366916835308102706747490629 -0.004275465849786996841430664062 -0.001823317725211381912231445312 0 0 0 0 
2400666666.6666665077 0.154293239116668701171875000000 0.099923633038997650146484375000 -0.004195088520646095275878906250 -0.001580228446982800960540771484 0 0 0 0 
2400833333.3333334923 0.154018789529800387283486884371 0.096913218498229980468750000000 -0.004106028471142053604125976562 -0.001341972616501152949092245947 0 0 0 0 
2401000000.0000000000 0.154334425926208496093750000000 0.094159908592700958251953125000 -0.003979390952736139297485351562 -0.001194095122627913951873779297 0 0 0 0 
2401166666.6666665077 0.154336974024772588531817518742 0.091434277594089508056640625000 -0.003839592915028334097621298682 -0.000716917624231427907943725586 0 0 0 0 
2401333333.3333334923 0.154584020376205388824786268742 0.088542811572551727294921875000 -0.003766346955671906904933310400 -0.000665267463773488998413085938 0 0 0 0 
2401500000.0000000000 0.154959544539451599121093750000 0.085639484226703643798828125000 -0.003577919676899909973144531250 -0.000463369069620966911315917969 0 0 0 0 
2401666666.6666665077 0.155134364962577792068643134371 0.082774162292480468750000000000 -0.003608389059081674055812216650 -0.000299333914881572073132115497 0 0 0 0 
2401833333.3333334923 0.155544698238372802734375000000 0.079922787845134735107421875000 -0.003403537441045045852661132812 -0.000391325826058164184719639911 0 0 0 0 
2402000000.0000000000 0.156353741884231595138388115629 0.077118732035160064697265625000 -0.003282339312136172814610146631 -0.000250959594268351793289184570 0 0 0 0 
2402166666.6666665077 0.157153144478797912597656250000 0.074448101222515106201171875000 -0.003142123809084295792820595850 -0.000188868478289805406897944318 0 0 0 0 
2402333333.3333334923 0.158120498061180086990518134371 0.071642123162746429443359375000 -0.003076946595683693885803222656 -0.000149462095578201088026323862 0 0 0 0 
2402500000.0000000000 0.159109458327293395996093750000 0.069049976766109466552734375000 -0.002940852660685778097865439307 -0.000116866038297302993849077768 0 0 0 0 
2402666666.6666665077 0.160414218902587890625000000000 0.066564641892910003662109375000 -0.002963282400742173194885253906 -0.000139052732265554395600995474 0 0 0 0 
2402833333.3333334923 0.161722943186760004241619981258 0.063874244689941406250000000000 -0.002858338411897420883178710938 -0.000079169243690557777881622314 0 0 0 0 
2403000000.0000000000 0.163281857967376708984375000000 0.061504378914833068847656250000 -0.002730617532506585121154785156 -0.000259217544225975925296229230 0 0 0 0 
2403166666.6666665077 0.164950221776962308029013115629 0.059241320937871932983398437500 -0.002833241131156682968139648438 -0.000116862436698284000158309937 0 0 0 0 
2403333333.3333334923 0.166287258267402704436932481258 0.056661248207092292095143903907 -0.002747994381934403939488076318 -0.000084766863437835127115249634 0 0 0 0 
2403500000.0000000000 0.168207272887229891678018134371 0.054696410894393920898437500000 -0.002700108569115399880650185693 -0.000051004659326281398534774780 0 0 0 0 
2403666666.6666665077 0.169915497303009005447549384371 0.052686434239149086689035783593 -0.002793865976855158805847167969 -0.000104088147054426399156293326 0 0 0 0 
2403833333.3333334923 0.171601653099060086349325615629 0.050676517188549041748046875000 -0.002662978135049343109130859375 -0.000344038417097181081771850586 0 0 0 0 
2404000000.0000000000 0.173453792929649408538494981258 0.048915032297372817993164062500 -0.002891524927690625190734863281 -0.000276112958090379779965001239 0 0 0 0 
2404166666.6666665077 0.175302341580390902420205634371 0.047188460826873779296875000000 -0.002853414043784141974208212744 -0.000419373915065079873234349384 0 0 0 0 
2404333333.3333334923 0.176856234669685391525106865629 0.045699406415224082256276716407 -0.002925236243754624886753701318 -0.000161212607054039808824816293 0 0 0 0 
2404500000.0000000000 0.178582310676574707031250000000 0.044199690222740173339843750000 -0.003004421945661305947544716943 -0.000334092008415609598159790039 0 0 0 0 
2404666666.6666665077 0.180344015359878512283486884371 0.042819257825613021850585937500 -0.003078925888985394997837685693 -0.000133239460410550209596911020 0 0 0 0 
2404833333.3333334923 0.182295531034469604492187500000 0.041692182421684272075612653907 -0.003255578922107816176173544775 0.000010759727047116030007600784 0 0 0 0 
2405000000.0000000000 0.183762073516845703125000000000 0.040932279080152511596679687500 -0.003372510196641087965724326025 0.000177218083990737795829772949 0 0 0 0 
2405166666.6666665077 0.185334488749504089355468750000 0.040271945297718048095703125000 -0.003298567375168203873875283350 0.000172544590895995497703552246 0 0 0 0 
2405333333.3333334923 0.186852231621742304046307481258 0.039707519114017486572265625000 -0.003301279153674840927124023438 0.000335424148943275213241577148 0 0 0 0 
2405500000.0000000000 0.188413575291633605957031250000 0.039284829050302512432057966407 -0.003366659628227353096008300781 0.000461078016087412779957371844 0 0 0 0 
2405666666.6666665077 0.189846619963645907303018134371 0.038880869746208190917968750000 -0.003348632017150520844700478662 0.000668560038320720195770263672 0 0 0 0 
2405833333.3333334923 0.191102728247642489334268134371 0.038649939000606536865234375000 -0.003329185536131263212916708838 0.000714335124939680099487304688 0 0 0 0 
2406000000.0000000000 0.192246451973915100097656250000 0.038454189896583557128906250000 -0.003300644224509596824645996094 0.000886070018168538808822631836 0 0 0 0 
2406166666.6666665077 0.193463414907455388824786268742 0.038298200815916061401367187500 -0.003137912135571240945103310693 0.000964922830462455749511718750 0 0 0 0 
2406333333.3333334923 0.194489225745201110839843750000 0.038292299956083297729492187500 -0.003125284332782030105590820312 0.000923307437915354967117309570 0 0 0 0 
2406500000.0000000000 0.195397406816482488434161268742 0.038451023399829871440847028907 -0.002863867906853557066676474463 0.001032208092510700008989643628 0 0 0 0 
2406666666.6666665077 0.196065485477447509765625000000 0.038648303598165512084960937500 -0.003070836886763573126551962744 0.001239293720573187091230082935 0 0 0 0 
2406833333.3333334923 0.196777388453483609298544365629 0.038731828331947326660156250000 -0.002925415290519595146179199219 0.000994894420728087425231933594 0 0 0 0 
2407000000.0000000000 0.197184234857559204101562500000 0.039133332669734961772878278907 -0.002995928982272744178771972656 0.001129428972490132071851420825 0 0 0 0 
2407166666.6666665077 0.197716549038886996170205634371 0.039011552929878241802175153907 -0.003095342079177498817443847656 0.001384139293804764964460063403 0 0 0 0 
2407333333.3333334923 0.197811365127563504318075615629 0.039438463747501373291015625000 -0.003157453378662467002868652344 0.001353308674879371903063129956 0 0 0 0 
2407500000.0000000000 0.197647854685783386230468750000 0.039546970278024673461914062500 -0.003268803935497999191284179688 0.001328483223915100097656250000 0 0 0 0 
2407666666.6666665077 0.197788015007972689529580634371 0.039565935730934143066406250000 -0.003160819876939057870152138818 0.001404621521942317919490195166 0 0 0 0 
2407833333.3333334923 0.197425305843353299239950615629 0.039792537689208977436106096093 -0.003103296039626001878025673975 0.001496856915764511065242148291 0 0 0 0 
2408000000.0000000000 0.197451621294021606445312500000 0.039633523672819137573242187500 -0.003114163177087903022766113281 0.001763813896104692979099892725 0 0 0 0 
2408166666.6666665077 0.196890205144882202148437500000 0.039543814957141883159597028907 -0.003224898362532258033752441406 0.002018180210143328146693564307 0 0 0 0 
2408333333.3333334923 0.196308255195617703536825615629 0.039192844182252876972238908593 -0.003250356530770659013035439600 0.002155144000425934791564941406 0 0 0 0 
2408500000.0000000000 0.195705547928810091873330634371 0.039000459015369422222097028907 -0.003273061010986566977259970557 0.002138313837349414825439453125 0 0 0 0 
2408666666.6666665077 0.195080965757369995117187500000 0.038595072925090789794921875000 -0.003219881327822804884669638525 0.002404087688773870901820517432 0 0 0 0 
2408833333.3333334923 0.194372221827506991287393134371 0.038064647465944290161132812500 -0.003204294247552752928492880713 0.002513183280825614929199218750 0 0 0 0 
2409000000.0000000000 0.193573936820030212402343750000 0.037259645760059356689453125000 -0.003231782000511885123011923682 0.002647575689479709105250693213 0 0 0 0 
2409166666.6666665077 0.192435011267662103850994981258 0.036441236734390258789062500000 -0.002959545701742171807530068506 0.002833193633705378012416220557 0 0 0 0 
2409333333.3333334923 0.191475987434387207031250000000 0.035577740520238883281667341407 -0.002986822277307509942295693506 0.002965986263006926016566611182 0 0 0 0 
2409500000.0000000000 0.190193623304367093185263115629 0.034394353628158569335937500000 -0.002957977121695876121520996094 0.003102214075624943213221884619 0 0 0 0 
2409666666.6666665077 0.189263194799423190017861884371 0.033057197928428649902343750000 -0.002800708170980215072631835938 0.003403218928724526925327920068 0 0 0 0 
2409833333.3333334923 0.188117682933807400802450615629 0.031768418848514556884765625000 -0.002736408030614256858825683594 0.003449202282354236082789755713 0 0 0 0 
2410000000.0000000000 0.187049672007560702224893134371 0.030190860852599140512486641796 -0.002544474089518188996555947412 0.003604237223044037818908691406 0 0 0 0 
2410166666.6666665077 0.185702875256538391113281250000 0.028318695724010470998743826954 -0.002414791611954569816589355469 0.003817169461399316787719726562 0 0 0 0 
2410333333.3333334923 0.184603795409202603439169365629 0.026522889733314510690709298046 -0.002295100828632711930515908350 0.004021909087896347045898437500 0 0 0 0 
2410500000.0000000000 0.183606147766113309005575615629 0.024796804413199431682546247657 -0.002107740845531225204467773438 0.004021245520561934384817792676 0 0 0 0 
2410666666.6666665077 0.182450890541076687911825615629 0.022511703893542289733886718750 -0.001924352487549185969709086841 0.004190568346530199050903320312 0 0 0 0 
2410833333.3333334923 0.181703060865402193924111884371 0.020441005006432529794713204296 -0.001446783775463700077654194409 0.004157852847129107388968183301 0 0 0 0 
2411000000.0000000000 0.180880904197692898849325615629 0.018140697851777080190638358204 -0.001515717594884335994720458984 0.004453572910279035568237304688 0 0 0 0 
2411166666.6666665077 0.180009588599204989334268134371 0.016111344099044799804687500000 -0.001271267537958920001983642578 0.004428212065249682340140058301 0 0 0 0 
2411333333.3333334923 0.179373607039451599121093750000 0.013562178239226339512835117773 -0.001067675650119781927821493994 0.004492931067943572998046875000 0 0 0 0 
2411500000.0000000000 0.178823798894882202148437500000 0.011174988932907579594622227148 -0.000820450310129672288894653320 0.004397896584123373031616210938 0 0 0 0 
2411666666.6666665077 0.178590595722198486328125000000 0.008578184992074966430664062500 -0.000660659046843647956848144531 0.004262988921254873275756835938 0 0 0 0 
2411833333.3333334923 0.178080543875694302657919365629 0.006403175182640553388113691113 -0.000473610067274421507686060773 0.004461901728063821792602539062 0 0 0 0 
2412000000.0000000000 0.178081005811691311935263115629 0.003548204433172941207885742188 -0.000382235768483951687812805176 0.004686956759542226791381835938 0 0 0 0 
2412166666.6666665077 0.178116157650947598556356865629 0.001152749755419790961621928638 -0.000096598472737241536378860474 0.004445831757038831710815429688 0 0 0 0 
2412333333.3333334923 0.178170397877693204025106865629 -0.001390263088978826999664306641 0.000238227265072055188104352408 0.004464904312044382095336914062 0 0 0 0 
2412500000.0000000000 0.178651034832000704666299384371 -0.004028123337775468826293945312 0.000250332552241161519854945050 0.004531558137387037277221679688 0 0 0 0 
2412666666.6666665077 0.179007858037948608398437500000 -0.006432977039366961392874433301 0.000533396843820810317993164062 0.004551088437438011169433593750 0 0 0 0 
2412833333.3333334923 0.179728344082832308670205634371 -0.008969157934188842773437500000 0.000772825093008577823638916016 0.004325957503169775009155273438 0 0 0 0 
2413000000.0000000000 0.180180445313453702071981865629 -0.011440101079642769205113594921 0.001040094066411257007001567310 0.004293599165976048383230878613 0 0 0 0 
2413166666.6666665077 0.181216567754745511154013115629 -0.013783863745629789179791835352 0.001163964043371378941776894678 0.004130545537918806076049804688 0 0 0 0 
2413333333.3333334923 0.182172447443008395095986884371 -0.016286343336105350149134451954 0.001490345341153443076490092700 0.004059499129652976989746093750 0 0 0 0 
2413500000.0000000000 0.182831704616546603103799384371 -0.018646748736500740051269531250 0.001608987688086926937103271484 0.003852454246953130202052451025 0 0 0 0 
2413666666.6666665077 0.184102356433868408203125000000 -0.020909694954752918588658516796 0.001819999190047383091570210034 0.003602650249376893043518066406 0 0 0 0 
2413833333.3333334923 0.185071468353271512130575615629 -0.022993400692939758300781250000 0.001980874221771955923793173682 0.003430462209507822990417480469 0 0 0 0 
2414000000.0000000000 0.186329588294029208084268134371 -0.025250172242522239685058593750 0.002060333499684929847717285156 0.003338898997753858999965048682 0 0 0 0 
2414166666.6666665077 0.187586218118667602539062500000 -0.026995858177542689931849295704 0.002100258367136120796203613281 0.003181413048878312110900878906 0 0 0 0 
2414333333.3333334923 0.188747361302375793457031250000 -0.029085325077176090585728829296 0.002205522730946540832519531250 0.003048740793019533157348632812 0 0 0 0 
2414500000.0000000000 0.190124198794364901443643134371 -0.030682975426316261291503906250 0.002196813467890024185180664062 0.002780635608360170884373330225 0 0 0 0 
2414666666.6666665077 0.191293045878410311599893134371 -0.032161612063646323467214216407 0.002013024175539613203761435400 0.002707627601921557946446084131 0 0 0 0 
2414833333.3333334923 0.192587152123451205154580634371 -0.033660490065813071514089216407 0.002025855239480733871459960938 0.002647098153829575018641806494 0 0 0 0 
2415000000.0000000000 0.193883553147316006759481865629 -0.034943606704473502422292341407 0.002110080793499947027919150244 0.002439164789393544197082519531 0 0 0 0 
2415166666.6666665077 0.195175528526306207854901231258 -0.036218810826539993286132812500 0.002147972118109465079066611182 0.002471686573699117140529013525 0 0 0 0 
2415333333.3333334923 0.196626633405685397049111884371 -0.037156768143177032470703125000 0.002144634490832685990574502100 0.002390745561569929122924804688 0 0 0 0 
2415500000.0000000000 0.197724491357803289215411268742 -0.037900418043136596679687500000 0.002162444870918989181518554688 0.002293835859745740890502929688 0 0 0 0 
2415666666.6666665077 0.198954820632934598068075615629 -0.038807701319456100463867187500 0.002150075510144234137294150244 0.002240449190139770941493368994 0 0 0 0 
2415833333.3333334923 0.199965536594390896896200615629 -0.039569988846778869628906250000 0.002280915388837457136866904150 0.002197838621214032173156738281 0 0 0 0 
2416000000.0000000000 0.200975209474563598632812500000 -0.040138069540262222290039062500 0.002271757693961263136622763525 0.001965454081073402924778603662 0 0 0 0 
2416166666.6666665077 0.201843246817588806152343750000 -0.040685702115297317504882812500 0.002306771231815218925476074219 0.001953011029399930997135781396 0 0 0 0 
2416333333.3333334923 0.202513918280601501464843750000 -0.040930196642875671386718750000 0.002320227213203907012939453125 0.001752271549776196913478232275 0 0 0 0 
2416500000.0000000000 0.203242406249046297928018134371 -0.041213810443878166889231096093 0.002364118816331028938293457031 0.001731564290821552059770893628 0 0 0 0 
2416666666.6666665077 0.203678816556930486481036268742 -0.041496325284242630004882812500 0.002225247677415608926060341943 0.001490183407440782027003622900 0 0 0 0 
2416833333.3333334923 0.204087600111961392501669365629 -0.041494388133287429809570312500 0.002182323485612868829014443506 0.001458069542422891096827841650 0 0 0 0 
2417000000.0000000000 0.204279065132141113281250000000 -0.041599277406930923461914062500 0.002120743272826075987574911963 0.001349843689240515015245747144 0 0 0 0 
2417166666.6666665077 0.204195678234100286285723768742 -0.041480783373117446899414062500 0.001998999156057835058925009619 0.001306558377109467983245849609 0 0 0 0 
2417333333.3333334923 0.204221785068511990646200615629 -0.041188217699527740478515625000 0.001731415279209614016889262622 0.001522941980510950088500976562 0 0 0 0 
2417500000.0000000000 0.204026326537132290939169365629 -0.041168961673974990844726562500 0.001756043639034033038495707935 0.001399201806634664969203329932 0 0 0 0 
2417666666.6666665077 0.203688874840736389160156250000 -0.040850412100553512573242187500 0.001805870677344501018524169922 0.001695192186161875941632914966 0 0 0 0 
2417833333.3333334923 0.203408062458038302322549384371 -0.040545534342527389526367187500 0.001779859303496778011322021484 0.001579833682626486041425395435 0 0 0 0 
2418000000.0000000000 0.202802225947380093673544365629 -0.040339671075344092632253278907 0.001757682883180678107618022388 0.001725960988551378033281635815 0 0 0 0 
2418166666.6666665077 0.202007576823234613616619981258 -0.040062975138425827026367187500 0.001947645796462893919703818213 0.001674587139859796004054404150 0 0 0 0 
2418333333.3333334923 0.201240867376327486892861884371 -0.039884142577648162841796875000 0.001884481636807322935817099463 0.001753126387484372095820761572 0 0 0 0 
2418500000.0000000000 0.200394645333290100097656250000 -0.039819218218326568603515625000 0.002161079784855246977565146338 0.001891270279884337945225381006 0 0 0 0 
2418666666.6666665077 0.199528127908706692794638115629 -0.039649695158004760742187500000 0.002122866921126842932460165869 0.001759469043463468985316611182 0 0 0 0 
2418833333.3333334923 0.198288962244987487792968750000 -0.039759911596775061870534528907 0.002302438952028750939610146631 0.001782250823453068950055766528 0 0 0 0 
2419000000.0000000000 0.196957767009735107421875000000 -0.039831310510635382915456403907 0.002516522072255610985996865381 0.001784885302186012051225971753 0 0 0 0 
2419166666.6666665077 0.195749193429946899414062500000 -0.040095202624797821044921875000 0.002575441729277371926548623193 0.001806949498131871006609272534 0 0 0 0 
2419333333.3333334923 0.194278359413147000411825615629 -0.040526863187551498413085937500 0.002854880876839160919189453125 0.001620420604012906985041952979 0 0 0 0 
2419500000.0000000000 0.192759037017822293380575615629 -0.040907692164182662963867187500 0.002802147762849926948547363281 0.001688184682279824993730854565 0 0 0 0 
2419666666.6666665077 0.191309005022049005706463731258 -0.041438117623329162597656250000 0.002944831969216465950012207031 0.001465552253648638942121196216 0 0 0 0 
2419833333.3333334923 0.189566031098365811446981865629 -0.042160063982009887695312500000 0.003104040632024406953098916162 0.001493247575126587910893105615 0 0 0 0 
