# Hz S RI R 50
2400000000.0000000000 0.155021727085113497635049384371 0.109497457742690998405699076557 -0.004155273549258708953857421875 -0.002781743183732033209559775244 0 0 0 0 
2400166666.6666665077 0.154754713177680996993856865629 0.107248589396476801116619981258 -0.004313751123845577239990234375 -0.002569299191236495971679687500 0 0 0 0 
2400333333.3333334923 0.154453486204147311111611884371 0.104949750006198896934428432814 -0.004334295634180307388305664062 -0.002245183801278471946716308594 0 0 0 0 
2400500000.0000000000 0.154386729001998901367187500000 0.102251715958118397087339701557 -0.004401996266096830368041992188 -0.002028552582487463951110839844 0 0 0 0 
2400666666.6666665077 0.154419779777526910979901231258 0.099764272570610046386718750000 -0.004401582293212413787841796875 -0.001584489713422954082489013672 0 0 0 0 
2400833333.3333334923 0.154224470257759094238281250000 0.097031041979789733886718750000 -0.004166068043559789657592773438 -0.001429200638085603930829692310 0 0 0 0 
2401000000.0000000000 0.154343590140342712402343750000 0.094028830528259277343750000000 -0.004255089443176984786987304688 -0.001226313179358839988708496094 0 0 0 0 
2401166666.6666665077 0.154379755258560208419638115629 0.091421172022819519042968750000 -0.004030968062579631805419921875 -0.000829794560559093952178955078 0 0 0 0 
2401333333.3333334923 0.154559418559074401855468750000 0.088599339127540588378906250000 -0.003836597781628369851353310693 -0.000701449287589639425277709961 0 0 0 0 
2401500000.0000000000 0.154970139265060397049111884371 0.085697144269943237304687500000 -0.003917980939149856567382812500 -0.000634039111901074647903442383 0 0 0 0 
2401666666.6666665077 0.155461475253105191329794365629 0.082731291651725769042968750000 -0.003704645205289125008824013818 -0.000420373980887234210968017578 0 0 0 0 
2401833333.3333334923 0.155654028058052090743856865629 0.079919531941413879394531250000 -0.003661057446151971817016601562 -0.000412744149798527414172572003 0 0 0 0 
2402000000.0000000000 0.156605422496795709808026231258 0.077017784118652343750000000000 -0.003312706714496016936061240088 -0.000332847324898466522067469464 0 0 0 0 
2402166666.6666665077 0.157387971878051813323651231258 0.074456810951232910156250000000 -0.003340016584843397140502929688 -0.000302155298413708806037902832 0 0 0 0 
2402333333.3333334923 0.158391073346138000488281250000 0.071567989885807037353515625000 -0.003219219157472252845764160156 -0.000276337203104049021571558820 0 0 0 0 
2402500000.0000000000 0.159390270709991510589276231258 0.069137319922447204589843750000 -0.002837641630321741104125976562 -0.000220727757550776004791259766 0 0 0 0 
2402666666.6666665077 0.161189779639244107345419365629 0.066197417676448822021484375000 -0.003551009343937038941624306787 -0.000711073982529342174530029297 0 0 0 0 
2402833333.3333334923 0.161885961890220586578692518742 0.064278490841388702392578125000 -0.002640009159222245216369628906 -0.000020548704924294728448594741 0 0 0 0 
2403000000.0000000000 0.163493320345878601074218750000 0.061974823474884033203125000000 -0.002358863363042473793029785156 -0.000645888969302177429199218750 0 0 0 0 
2403166666.6666665077 0.165065959095954895019531250000 0.059034712612628936767578125000 -0.002870275871828197999241494287 -0.000248313939664512926906031476 0 0 0 0 
2403333333.3333334923 0.166059479117393493652343750000 0.056766822934150702739675153907 -0.002940114820376038985011435400 0.000133220513816922903060913086 0 0 0 0 
2403500000.0000000000 0.167395204305648803710937500000 0.054835457354784011840820312500 -0.002854576800018548965454101562 0.000639880134258419275283813477 0 0 0 0 
2403666666.6666665077 0.170489475131034906585369981258 0.052471883594989776611328125000 -0.002970183035358787016627646338 -0.000646061438601464033126831055 0 0 0 0 
2403833333.3333334923 0.171749040484428405761718750000 0.050627157092094421386718750000 -0.002866990864276885986328125000 -0.000450053921667859012454432355 0 0 0 0 
2404000000.0000000000 0.173430398106575012207031250000 0.048715841025114059448242187500 -0.002791356993839145140406943213 -0.000284114910755306482315063477 0 0 0 0 
2404166666.6666665077 0.175237655639648409744424384371 0.047149877995252609252929687500 -0.003005987964570521874668740381 -0.000190805221791379207938593732 0 0 0 0 
2404333333.3333334923 0.177069574594497708419638115629 0.045594491064548492431640625000 -0.003080706577748059792759560693 -0.000281328568235039710998535156 0 0 0 0 
2404500000.0000000000 0.178649768233299310882244981258 0.044054385274648673320729841407 -0.003144308226183056831359863281 -0.000094540002464782446622848511 0 0 0 0 
2404666666.6666665077 0.180491313338279696365518134371 0.042857192456722259521484375000 -0.003254061564803123907801962744 -0.000074512376158963888883590698 0 0 0 0 
2404833333.3333334923 0.182273805141449002364950615629 0.041703604161739349365234375000 -0.003395250765606760978698730469 -0.000059553472965490072965621948 0 0 0 0 
2405000000.0000000000 0.183775320649147005935830634371 0.040945596992969512939453125000 -0.003504653694108128981349326025 0.000215918174944817992761889047 0 0 0 0 
2405166666.6666665077 0.185367703437805203536825615629 0.040090486407279968261718750000 -0.003430469892919064001796103369 0.000221255439100786989361363544 0 0 0 0 
2405333333.3333334923 0.186921432614326504806356865629 0.039612676948308951641042341407 -0.003437904408201574845554970850 0.000581328116822987794876098633 0 0 0 0 
2405500000.0000000000 0.188421860337257413009481865629 0.039087660610675811767578125000 -0.003451273078098893165588378906 0.000499779358506202697753906250 0 0 0 0 
2405666666.6666665077 0.189734205603599603850994981258 0.038757853209972381591796875000 -0.003507344750687479972839355469 0.000732542423065751791000366211 0 0 0 0 
2405833333.3333334923 0.191136479377746609786825615629 0.038416683673858642578125000000 -0.003402813337743281884434365381 0.000904183252714574337005615234 0 0 0 0 
2406000000.0000000000 0.192323222756385803222656250000 0.038370218127965927124023437500 -0.003238868666812777952906943213 0.001015262445434927940368652344 0 0 0 0 
2406166666.6666665077 0.193334236741066006759481865629 0.038202401250600821758229841407 -0.003388682845979928970336914062 0.001082699280232191085815429688 0 0 0 0 
2406333333.3333334923 0.194482490420341491699218750000 0.038222238421440131450612653907 -0.003306598868221044974086142432 0.001099609537050127983093261719 0 0 0 0 
2406500000.0000000000 0.195356503129005404373330634371 0.038339383900165557861328125000 -0.003109506098553537888767861475 0.001026293262839317104936909253 0 0 0 0 
2406666666.6666665077 0.196145921945571899414062500000 0.038442071527242660522460937500 -0.003225948195904492898228310693 0.001244724029675126075744628906 0 0 0 0 
2406833333.3333334923 0.196816682815551813323651231258 0.038628403097391128540039062500 -0.003191675525158644156215048682 0.001225485582835972092272114331 0 0 0 0 
2407000000.0000000000 0.197222813963890103439169365629 0.038926772773265838623046875000 -0.003039337228983641104457236182 0.001367812510579824013950966943 0 0 0 0 
2407166666.6666665077 0.197657525539398193359375000000 0.038839790970087051391601562500 -0.003193509532138704819920205225 0.001113639562390744902967143481 0 0 0 0 
2407333333.3333334923 0.197604686021804809570312500000 0.039259046316146850585937500000 -0.003177925013005733923671103369 0.001404275302775203964830708081 0 0 0 0 
2407500000.0000000000 0.197800412774085998535156250000 0.039476726204156882549245466407 -0.003306917613372207121608115088 0.001510453526861966089961386572 0 0 0 0 
2407666666.6666665077 0.197822675108909606933593750000 0.039621103554964072490651716407 -0.003212859155610204176661826025 0.001501521910540759997126913916 0 0 0 0 
2407833333.3333334923 0.197442904114723205566406250000 0.039532549679279327392578125000 -0.003349918173626064820530556787 0.001650801859796046993852924878 0 0 0 0 
2408000000.0000000000 0.197398290038108797928018134371 0.039515253156423568725585937500 -0.003195765428245068030116415869 0.001841020304709672927856445312 0 0 0 0 
2408166666.6666665077 0.196850717067718505859375000000 0.039376299828290939331054687500 -0.003310530679300427003147744287 0.001984650501981378035304404150 0 0 0 0 
2408333333.3333334923 0.196424469351768493652343750000 0.039173178374767303466796875000 -0.003272953210398554801940917969 0.002167477272450923919677734375 0 0 0 0 
2408500000.0000000000 0.195628106594085693359375000000 0.038901794701814651489257812500 -0.003241724101826549010035849463 0.002171730622649192810058593750 0 0 0 0 
2408666666.6666665077 0.195105820894241305252236884371 0.038421824574470520019531250000 -0.003256615949794650077819824219 0.002434433670714497999904013525 0 0 0 0 
2408833333.3333334923 0.194360882043838500976562500000 0.037863794714212417602539062500 -0.003369447542354464964625693213 0.002638344652950764136073447119 0 0 0 0 
2409000000.0000000000 0.193363770842552212814169365629 0.037044834345579147338867187500 -0.003107469994574784798863076318 0.002786846598610281944274902344 0 0 0 0 
2409166666.6666665077 0.192411378026008605957031250000 0.036253523081541061401367187500 -0.002916792407631874084472656250 0.002923082793131471113917685400 0 0 0 0 
2409333333.3333334923 0.191522806882858304122763115629 0.035520296543836586689035783593 -0.002794765168800950050354003906 0.002942268736660480932948447119 0 0 0 0 
2409500000.0000000000 0.190227717161178588867187500000 0.034252643585205078125000000000 -0.002884289016947149796726845850 0.003188422881066799163818359375 0 0 0 0 
2409666666.6666665077 0.189110890030860900878906250000 0.032880693674087517475168596093 -0.002778177848085761070251464844 0.003450255142524838013889931787 0 0 0 0 
2409833333.3333334923 0.187905117869377108474893134371 0.031561076641082756732981096093 -0.002747475635260343985316611182 0.003582231700420380072352743994 0 0 0 0 
2410000000.0000000000 0.186794474720954895019531250000 0.030050745233893391000767891796 -0.002664491534233092828037881006 0.003783388994634151892421103369 0 0 0 0 
2410166666.6666665077 0.185828298330307006835937500000 0.028285741806030269968053048046 -0.002298817737028003172633505713 0.003673856612294911904575966943 0 0 0 0 
2410333333.3333334923 0.184598267078399713714276231258 0.026584943756461140024205391796 -0.002319599501788616180419921875 0.003923079930245876312255859375 0 0 0 0 
2410500000.0000000000 0.183594226837158203125000000000 0.024655502289533618581751639454 -0.001956991851329803900477743994 0.004015212878584861755371093750 0 0 0 0 
2410666666.6666665077 0.182581767439842196365518134371 0.022502180188894268381138985546 -0.001882764394395052953007363428 0.004232508596032857894897460938 0 0 0 0 
2410833333.3333334923 0.181758508086204501053018134371 0.020432367920875549316406250000 -0.001604924793355166912078857422 0.004356017336249352368826581738 0 0 0 0 
2411000000.0000000000 0.180849805474281311035156250000 0.018159037455916411663014997657 -0.001462458283640444061876606519 0.004425602033734321594238281250 0 0 0 0 
2411166666.6666665077 0.180176824331283597091513115629 0.015909716486930850637415701954 -0.001197621575556695894954062354 0.004295019898563623428344726562 0 0 0 0 
2411333333.3333334923 0.179470002651214599609375000000 0.013399427756667140615443045704 -0.000937043339945375919342041016 0.004473032429814338684082031250 0 0 0 0 
2411500000.0000000000 0.178782835602760287185830634371 0.011090446263551710301409336523 -0.000901975319720804691314697266 0.004526791162788867950439453125 0 0 0 0 
2411666666.6666665077 0.178381532430648803710937500000 0.008588433265686035156250000000 -0.000605756766162812709808349609 0.004550067242234945297241210938 0 0 0 0 
2411833333.3333334923 0.178179502487182589431924384371 0.006111005786806344985961914062 -0.000440651987446472102969569073 0.004536690656095743179321289062 0 0 0 0 
2412000000.0000000000 0.178347066044807406326455634371 0.003594606416299939155578613281 -0.000232347898418083786964416504 0.004477920476347208023071289062 0 0 0 0 
2412166666.6666665077 0.178048297762870788574218750000 0.001139806699939071915270161206 -0.000147412982187233892366132193 0.004509521648287773132324218750 0 0 0 0 
2412333333.3333334923 0.178259775042533902267294365629 -0.001611502142623066902160644531 0.000132177432533353594228467398 0.004550249781459569931030273438 0 0 0 0 
2412500000.0000000000 0.178543254733085604568643134371 -0.003974151331931352615356445312 0.000221607042476534789234715594 0.004478809423744679364676191113 0 0 0 0 
2412666666.6666665077 0.179041221737861605545205634371 -0.006556048989295960340017987988 0.000655630778055638074874877930 0.004367420449852943420410156250 0 0 0 0 
2412833333.3333334923 0.179596021771430996993856865629 -0.008956847712397575378417968750 0.000740554474759846925735473633 0.004297803156077861785888671875 0 0 0 0 
2413000000.0000000000 0.180269747972488403320312500000 -0.011339586228132249659528163477 0.001067486242391169071197509766 0.004341743886470794677734375000 0 0 0 0 
2413166666.6666665077 0.181015372276306207854901231258 -0.013927498832345010584821132227 0.001027827616780996105791401440 0.004232413135468959808349609375 0 0 0 0 
2413333333.3333334923 0.182167991995811490157919365629 -0.016375452280044559133509451954 0.001376325148157774968388222803 0.003923185635358095169067382812 0 0 0 0 
2413500000.0000000000 0.182808965444564791580361884371 -0.018707038834691051137903983204 0.001581499236635863997815776294 0.003977204672992230329031659863 0 0 0 0 
2413666666.6666665077 0.184111952781677301604901231258 -0.020881382748484611511230468750 0.001701915636658668951747275244 0.003903295844793320135829306494 0 0 0 0 
2413833333.3333334923 0.185209125280380304534588731258 -0.023132577538490298879603201954 0.001821555779315531036974262769 0.003719080239534378051757812500 0 0 0 0 
2414000000.0000000000 0.186269685626029996017294365629 -0.025137105956673618661900704296 0.002013572026044129891636513818 0.003416766179725528197047568213 0 0 0 0 
2414166666.6666665077 0.187621757388114901443643134371 -0.026962906122207641601562500000 0.002022418659180403189418173682 0.003249394940212368965148925781 0 0 0 0 
2414333333.3333334923 0.188846826553344698806924384371 -0.029172098264098170888880545704 0.002032321644946932792663574219 0.003041217569261788888218545068 0 0 0 0 
2414500000.0000000000 0.190015718340873690506143134371 -0.030706347897648811340332031250 0.002070648130029439926147460938 0.002922793151810764832737588037 0 0 0 0 
2414666666.6666665077 0.191283643245696993728799384371 -0.032335404306650161743164062500 0.002187886741012334823608398438 0.002892843447625637054443359375 0 0 0 0 
2414833333.3333334923 0.192625164985656710525674384371 -0.033756792545318596576731096093 0.002224733121693133874180459131 0.002678300952538847923278808594 0 0 0 0 
2415000000.0000000000 0.193801864981651306152343750000 -0.034993983805179602886159528907 0.002161531476303935050964355469 0.002672004513442515893223427881 0 0 0 0 
2415166666.6666665077 0.195168301463127108474893134371 -0.036299124360084526752512346093 0.002272311365231872038600302588 0.002751335967332125143763876807 0 0 0 0 
2415333333.3333334923 0.196483716368675204178018134371 -0.037247721105813980102539062500 0.002236211905255914168116904150 0.002638032194226980209350585938 0 0 0 0 
2415500000.0000000000 0.197647139430046109298544365629 -0.038108859211206443096120466407 0.002169687766581774191615439307 0.002316561061888933181762695312 0 0 0 0 
2415666666.6666665077 0.198923364281654413421307481258 -0.038873590528965003276784528907 0.002484962111338973045349121094 0.002329793758690357208251953125 0 0 0 0 
2415833333.3333334923 0.199949532747268704513388115629 -0.039558179676532752300222028907 0.002330342307686806158778525244 0.002156824106350541114807128906 0 0 0 0 
2416000000.0000000000 0.200778886675834711272869981258 -0.040196772664785392070729841407 0.002561241388320922851562500000 0.002076747594401239915135048975 0 0 0 0 
2416166666.6666665077 0.201776430010795593261718750000 -0.040754832327365882183034528907 0.002523097908124328093287802588 0.001928701065480709075927734375 0 0 0 0 
2416333333.3333334923 0.202476873993873596191406250000 -0.041041933000087738037109375000 0.002481885021552443938014365088 0.001804808154702187018153525244 0 0 0 0 
2416500000.0000000000 0.203131407499313410003338731258 -0.041255436837673187255859375000 0.002531159669160842895507812500 0.001585740130394696972490620190 0 0 0 0 
2416666666.6666665077 0.203672662377357510665731865629 -0.041589252650737762451171875000 0.002519901609048246903660439600 0.001528425025753677108167338794 0 0 0 0 
2416833333.3333334923 0.203831672668457003494424384371 -0.041581854224205017089843750000 0.002404996193945407867431640625 0.001366827753372489972355507959 0 0 0 0 
2417000000.0000000000 0.204348519444465609451455634371 -0.041694454848766326904296875000 0.002260067034512757821324013818 0.001364944851957261996028281104 0 0 0 0 
2417166666.6666665077 0.204124107956886291503906250000 -0.041422113776206970214843750000 0.002161255106329917907714843750 0.001208531437441707091090536963 0 0 0 0 
2417333333.3333334923 0.204039782285690307617187500000 -0.041179317981004721904714216407 0.001909396494738758044001913916 0.001193251460790633938433003003 0 0 0 0 
2417500000.0000000000 0.203824251890182495117187500000 -0.041107494384050369262695312500 0.002074087504297494888305664062 0.001379126682877541022059775244 0 0 0 0 
2417666666.6666665077 0.203427270054817199707031250000 -0.040813066065311431884765625000 0.002075074706226586861851357568 0.001255509210750461058375693213 0 0 0 0 
2417833333.3333334923 0.203256860375404413421307481258 -0.040544770658016211772878278907 0.001961555331945418877842568506 0.001397696440108120007755898584 0 0 0 0 
2418000000.0000000000 0.202709272503852788727130018742 -0.040255229920148849487304687500 0.002016126411035656929016113281 0.001582971657626331069348979419 0 0 0 0 
2418166666.6666665077 0.201922804117202786544638115629 -0.040137019008398062969167341407 0.002059756545349955992457724463 0.001443880377337336973903036963 0 0 0 0 
2418333333.3333334923 0.201201751828193692306356865629 -0.039908271282911300659179687500 0.002074998104944825172424316406 0.001608059625141323046443320166 0 0 0 0 
2418500000.0000000000 0.200341373682022094726562500000 -0.039843190461397171020507812500 0.002206741599366068840026855469 0.001550302724353969097137451172 0 0 0 0 
2418666666.6666665077 0.199364453554153386871661268742 -0.039633117616176612163503278907 0.002267367905005813078639365088 0.001551582477986813025233603369 0 0 0 0 
2418833333.3333334923 0.198091626167297391036825615629 -0.039690073579549789428710937500 0.002550903940573335127589560400 0.001698876265436410903930664062 0 0 0 0 
2419000000.0000000000 0.196846887469291687011718750000 -0.039850190281867980957031250000 0.002606235677376389937159872900 0.001608739490620791912078857422 0 0 0 0 
2419166666.6666665077 0.195644274353980990310830634371 -0.040083840489387512207031250000 0.002717276336625217957737588037 0.001576189184561372020124125903 0 0 0 0 
2419333333.3333334923 0.194149032235145596603231865629 -0.040357571095228202129323591407 0.002804408548399806022644042969 0.001339755253866315104840922778 0 0 0 0 
2419500000.0000000000 0.192646309733390808105468750000 -0.040715686976909637451171875000 0.003035231027752161026000976562 0.001401396468281745910644531250 0 0 0 0 
2419666666.6666665077 0.190949365496635409256143134371 -0.041568525135517120361328125000 0.003007737919688224792480468750 0.001356974244117737033246684497 0 0 0 0 
2419833333.3333334923 0.189460739493370111663494981258 -0.041957922279834747314453125000 0.003022988326847552819492959131 0.001032728352583945014356303638 0 0 0 0 
