# Hz S RI R 50
2400000000.0000000000 0.154864892363548306564169365629 0.106360830366611494590678432814 0.001811485853977500958683632959 -0.003329138271510601043701171875 0 0 0 0 
2400166666.6666665077 0.154713854193687411209268134371 0.103896878659725203086772182814 0.001882599084638058922411274487 -0.003037956543266772790196084131 0 0 0 0 
2400333333.3333334923 0.154688343405723599532919365629 0.101644210517406505256410298443 0.001856895047239959023119282300 -0.003110222751274704933166503906 0 0 0 0 
2400500000.0000000000 0.154544159770011901855468750000 0.098805651068687438964843750000 0.001812158268876373984693217700 -0.002929970156401395797729492188 0 0 0 0 
2400666666.6666665077 0.154658138751983587066973768742 0.096265338361263275146484375000 0.001894864486530422947527241284 -0.002684920327737927003147744287 0 0 0 0 
2400833333.3333334923 0.154522225260734613616619981258 0.093572854995727539062500000000 0.002049859846010804176330566406 -0.002568772761151195006129599463 0 0 0 0 
2401000000.0000000000 0.154737025499343899825888115629 0.090625815093517303466796875000 0.002074926160275936126708984375 -0.002775137079879641966578818213 0 0 0 0 
2401166666.6666665077 0.154717445373535211761151231258 0.088031254708766937255859375000 0.002193372929468750953674316406 -0.002631846815347671942469931494 0 0 0 0 
2401333333.3333334923 0.154934883117675809005575615629 0.085134841501712799072265625000 0.002310355426743627028224326025 -0.002601696411147714094874716650 0 0 0 0 
2401500000.0000000000 0.155350670218467712402343750000 0.082328386604785919189453125000 0.002566583920270204977748251807 -0.002796279033645987944362021338 0 0 0 0 
2401666666.6666665077 0.155611723661422701736611884371 0.079428181052207946777343750000 0.002598840044811367988586425781 -0.003035341156646608872654580225 0 0 0 0 
2401833333.3333334923 0.156342253088951110839843750000 0.076642230153083801269531250000 0.002789548831060529188868857275 -0.003298308001831173896789550781 0 0 0 0 
2402000000.0000000000 0.156990230083465603927450615629 0.073867961764335632324218750000 0.002699464093893765969517373193 -0.003387137548997997803928994287 0 0 0 0 
2402166666.6666665077 0.158014610409736605545205634371 0.071293964982032775878906250000 0.002715249778702855110168457031 -0.003633498679846525192260742188 0 0 0 0 
2402333333.3333334923 0.158748179674148587325888115629 0.068820454180240631103515625000 0.002698233816772698922398232568 -0.003913988359272480010986328125 0 0 0 0 
2402500000.0000000000 0.159943073987960787674111884371 0.066291116178035736083984375000 0.002495279768481851057765341650 -0.004019980784505605697631835938 0 0 0 0 
2402666666.6666665077 0.160963773727416992187500000000 0.063827008008956909179687500000 0.002540994435548781914951943506 -0.004054835531860589981079101562 0 0 0 0 
2402833333.3333334923 0.162499949336051913162393134371 0.061566881835460662841796875000 0.002263717120513319969177246094 -0.004455606453120709332937909863 0 0 0 0 
2403000000.0000000000 0.163969099521636990646200615629 0.059311669319868087768554687500 0.002053417963907123045680380713 -0.004549060948193073272705078125 0 0 0 0 
2403166666.6666665077 0.165570616722106905838174384371 0.057116340845823287963867187500 0.001828236388973891951917338794 -0.004749426152557134628295898438 0 0 0 0 
2403333333.3333334923 0.167101964354515103439169365629 0.054763209074735641479492187500 0.001771394279785454056383442456 -0.004690936766564846038818359375 0 0 0 0 
2403500000.0000000000 0.168887570500373812576455634371 0.052695453166961669921875000000 0.001565803424455225901362753760 -0.004997692070901393890380859375 0 0 0 0 
2403666666.6666665077 0.170493125915527288238848768742 0.050814047455787658691406250000 0.001220771577209234020830463940 -0.004763264209032058715820312500 0 0 0 0 
2403833333.3333334923 0.172134518623352106292401231258 0.048877127468585968017578125000 0.001171438605524599985835410010 -0.005125002469867467880249023438 0 0 0 0 
2404000000.0000000000 0.173824936151504488845986884371 0.047299105674028396606445312500 0.001019941642880439975141215747 -0.005045124795287848386282636426 0 0 0 0 
2404166666.6666665077 0.175497829914092989822549384371 0.045686502009630203247070312500 0.000747670826967805624008178711 -0.004954857751727104187011718750 0 0 0 0 
2404333333.3333334923 0.177337467670440701583700615629 0.044199943542480468750000000000 0.000700415635947138071060180664 -0.005161239299923182401175214551 0 0 0 0 
2404500000.0000000000 0.178914606571197509765625000000 0.042980939149856567382812500000 0.000492974475491791963577270508 -0.005048410966992378234863281250 0 0 0 0 
2404666666.6666665077 0.180558353662490789215411268742 0.041810698807239532470703125000 0.000431757915066555088192540302 -0.005179338157176970568185137012 0 0 0 0 
2404833333.3333334923 0.182274147868156405349893134371 0.040793016552925109863281250000 0.000173178705153986811637878418 -0.005303971935063601407522870801 0 0 0 0 
2405000000.0000000000 0.183677047491073608398437500000 0.040111958980560302734375000000 0.000098951917607337236404418945 -0.005333314649760723114013671875 0 0 0 0 
2405166666.6666665077 0.185086742043495205978231865629 0.039470463991165161132812500000 -0.000305293971905484795570373535 -0.005305123515427112579345703125 0 0 0 0 
2405333333.3333334923 0.186606317758560208419638115629 0.038978289812803268432617187500 -0.000430543761467561125755310059 -0.005389275494962930679321289062 0 0 0 0 
2405500000.0000000000 0.188043296337127713302450615629 0.038458075374364852905273437500 -0.000630683440249413251876831055 -0.005124570801854133605957031250 0 0 0 0 
2405666666.6666665077 0.189259901642799405196981865629 0.038141347467899322509765625000 -0.001014742185361682935001992334 -0.005491429008543491363525390625 0 0 0 0 
2405833333.3333334923 0.190526768565177889724893134371 0.037925694137811660766601562500 -0.001062015537172555923461914062 -0.005304339807480573654174804688 0 0 0 0 
2406000000.0000000000 0.191425323486328097244424384371 0.037832207977771759033203125000 -0.001240886398591100952745747144 -0.005245083477348089218139648438 0 0 0 0 
2406166666.6666665077 0.192636013031005887130575615629 0.037620007991790771484375000000 -0.001488107955083250999450683594 -0.005259209312498570355887128613 0 0 0 0 
2406333333.3333334923 0.193355709314346313476562500000 0.037621427327394492412526716407 -0.001827551051974297003505087744 -0.005156947765499353408813476562 0 0 0 0 
2406500000.0000000000 0.194236844778060913085937500000 0.037715543061494827270507812500 -0.001798764802515506961225200122 -0.004942136351019144058227539062 0 0 0 0 
2406666666.6666665077 0.194802641868591308593750000000 0.037781920284032821655273437500 -0.002065255539491773085353232275 -0.004853134043514729413504316113 0 0 0 0 
2406833333.3333334923 0.195353895425796508789062500000 0.037782937288284301757812500000 -0.002296334831044077873229980469 -0.004899342544376850128173828125 0 0 0 0 
2407000000.0000000000 0.195731028914451599121093750000 0.038148526102304458618164062500 -0.002523541217669845061061240088 -0.004535235930234193801879882812 0 0 0 0 
2407166666.6666665077 0.196031719446182306487713731258 0.037776831537485122680664062500 -0.002628403948619962172267294775 -0.004466429352760314941406250000 0 0 0 0 
2407333333.3333334923 0.196070075035095187088174384371 0.038158688694238662719726562500 -0.002875409089028834862949990381 -0.004305640235543251037597656250 0 0 0 0 
2407500000.0000000000 0.195813551545143099685830634371 0.038398299366235733032226562500 -0.002737616188824176788330078125 -0.004375289659947156906127929688 0 0 0 0 
2407666666.6666665077 0.196259379386901910979901231258 0.038271330296993262554128278907 -0.002986540086567401885986328125 -0.004084518644958735379690839551 0 0 0 0 
2407833333.3333334923 0.195592179894447298904580634371 0.038133118301630020141601562500 -0.002983126556500792937037802588 -0.004157190676778554916381835938 0 0 0 0 
2408000000.0000000000 0.195556581020355196853799384371 0.038102116435766220092773437500 -0.003089357633143662972691201318 -0.003893677145242691040039062500 0 0 0 0 
2408166666.6666665077 0.195052877068519592285156250000 0.037887301295995712280273437500 -0.003077888395637273788452148438 -0.003730933647602796988246298682 0 0 0 0 
2408333333.3333334923 0.194653585553169305999432481258 0.037382867187261581420898437500 -0.003388732671737670898437500000 -0.003677668515592813925502158057 0 0 0 0 
2408500000.0000000000 0.193784862756729098220986884371 0.036866620182991027832031250000 -0.003347678110003470940830849756 -0.003493705298751593069789267432 0 0 0 0 
2408666666.6666665077 0.193362817168235806564169365629 0.036564517766237258911132812500 -0.003393035149201751188990927588 -0.003311420558020472960231161963 0 0 0 0 
2408833333.3333334923 0.192678183317184503753338731258 0.035819642245769500732421875000 -0.003294291440397500991821289062 -0.003407395444810390906092978369 0 0 0 0 
2409000000.0000000000 0.191561058163642911056356865629 0.034903652966022491455078125000 -0.003468477865681052207946777344 -0.003208334324881434006931923975 0 0 0 0 
2409166666.6666665077 0.190777704119682312011718750000 0.033865172415971762920339216407 -0.003325852798298000855686806787 -0.003143861191347240967991494287 0 0 0 0 
2409333333.3333334923 0.189795613288879394531250000000 0.032928816974163062358815778907 -0.003499589394778012795689248193 -0.003115797415375709967372275244 0 0 0 0 
2409500000.0000000000 0.188674986362457303146200615629 0.031505744904279708862304687500 -0.003507703077048062844517373193 -0.002935894764959812164306640625 0 0 0 0 
2409666666.6666665077 0.187698826193809509277343750000 0.030013127252459529531458670704 -0.003525667591020464897155761719 -0.002889229916036128997802734375 0 0 0 0 
2409833333.3333334923 0.186656877398490905761718750000 0.028540330007672309875488281250 -0.003720088861882687048671103369 -0.002714135218411684036254882812 0 0 0 0 
2410000000.0000000000 0.185745641589164706131143134371 0.026835521683096889150599295704 -0.003717317944392561912536621094 -0.002720091491937636895420693506 0 0 0 0 
2410166666.6666665077 0.184691816568374606033486884371 0.025064704939723018300989920704 -0.003726951545104383988621377100 -0.002548350486904383139369345557 0 0 0 0 
2410333333.3333334923 0.183745518326759310623330634371 0.023234395310282710683802420704 -0.003734389552846550941467285156 -0.002447148319333792166468954932 0 0 0 0 
2410500000.0000000000 0.182700321078300503829794365629 0.021327823400497439992884451954 -0.003746537957340478897094726562 -0.002218890236690640015843056787 0 0 0 0 
2410666666.6666665077 0.181742072105407687088174384371 0.018961545079946521413782889454 -0.003767832880839705900904990088 -0.002252453472465277151820517432 0 0 0 0 
2410833333.3333334923 0.181190654635429410079794365629 0.016804713755846020090123360546 -0.003816447686403989791870117188 -0.002267597010359168052673339844 0 0 0 0 
2411000000.0000000000 0.180489867925643893142861884371 0.014574253931641580409039882227 -0.003699493827298284010646201025 -0.001963820774108171896693564307 0 0 0 0 
2411166666.6666665077 0.179642975330352810958700615629 0.012426700443029400217076485546 -0.003717801766470075087306357275 -0.001944497576914727904676127856 0 0 0 0 
2411333333.3333334923 0.179181367158889798263388115629 0.009851768612861633300781250000 -0.003698309417814015908482216943 -0.001990045420825480981114052881 0 0 0 0 
2411500000.0000000000 0.178799197077751187423544365629 0.007542070001363754272460937500 -0.003689358942210673852207802881 -0.001937114866450428962707519531 0 0 0 0 
2411666666.6666665077 0.178615808486938504318075615629 0.005198315717279911041259765625 -0.003688870230689644813537597656 -0.001951936632394791083094931494 0 0 0 0 
2411833333.3333334923 0.178222417831420898437500000000 0.002665552310645579858067177881 -0.003624625969678163962123251807 -0.002015681937336922125575400244 0 0 0 0 
2412000000.0000000000 0.178520560264587402343750000000 0.000050154991185991086740086214 -0.003878494258970022201538085938 -0.002007867209613323211669921875 0 0 0 0 
2412166666.6666665077 0.178455069661140386383380018742 -0.002367811743170022964477539062 -0.003863475285470486120936728369 -0.001889414968900382952449179541 0 0 0 0 
2412333333.3333334923 0.178690165281295804122763115629 -0.004816612694412469863891601562 -0.004027571529150009155273437500 -0.001965960254892706871032714844 0 0 0 0 
2412500000.0000000000 0.179075449705123901367187500000 -0.007164074573665857315063476562 -0.004037017934024333953857421875 -0.002050471957772970199584960938 0 0 0 0 
2412666666.6666665077 0.179757744073867797851562500000 -0.009738293476402759552001953125 -0.004061339888721705350393964551 -0.001855868962593377070185995947 0 0 0 0 
2412833333.3333334923 0.180442452430725097656250000000 -0.012157706543803220231025896680 -0.004268841817975044250488281250 -0.001834143535234034061431884766 0 0 0 0 
2413000000.0000000000 0.181113407015800503829794365629 -0.014535928145051000767717930273 -0.004465101286768913269042968750 -0.001857057563029230074641562354 0 0 0 0 
2413166666.6666665077 0.181794464588165310958700615629 -0.016780585050582889211634451954 -0.004595524631440640363211347363 -0.001728781615383923053741455078 0 0 0 0 
2413333333.3333334923 0.182968392968177795410156250000 -0.019137293100357059133509451954 -0.004758424591273069381713867188 -0.001673403545282780907274555737 0 0 0 0 
2413500000.0000000000 0.183830410242080688476562500000 -0.021512651816010478628138358204 -0.004798424430191516876220703125 -0.001509371795691549994825053638 0 0 0 0 
2413666666.6666665077 0.185107931494712801834268134371 -0.023755159229040149343470389454 -0.005033351015299558639526367188 -0.001258614007383584976196289062 0 0 0 0 
2413833333.3333334923 0.186286136507988003829794365629 -0.025590844452381130563756173046 -0.005262112710624933242797851562 -0.001099800923839211897609091650 0 0 0 0 
2414000000.0000000000 0.187376469373703002929687500000 -0.027713494375348091125488281250 -0.005327835679054260253906250000 -0.000765947974286973476409912109 0 0 0 0 
2414166666.6666665077 0.188679039478302001953125000000 -0.029541103169322010385533516796 -0.005228172056376934051513671875 -0.000612019910477101802825927734 0 0 0 0 
2414333333.3333334923 0.189602106809616088867187500000 -0.031451798975467681884765625000 -0.005341341253370046615600585938 -0.000314234202960506081581115723 0 0 0 0 
2414500000.0000000000 0.190985679626464788238848768742 -0.032854441553354263305664062500 -0.005330283194780349731445312500 -0.000049816055252449586987495422 0 0 0 0 
2414666666.6666665077 0.192174509167671203613281250000 -0.034471701830625527118723283593 -0.005378306377679109573364257812 0.000002737118620643741874720297 0 0 0 0 
2414833333.3333334923 0.193237707018852206131143134371 -0.035917732864618301391601562500 -0.005362743977457284927368164062 0.000280715496046468615531921387 0 0 0 0 
2415000000.0000000000 0.194576770067214993575888115629 -0.037175212055444717407226562500 -0.005375320091843605041503906250 0.000565726018976420164108276367 0 0 0 0 
2415166666.6666665077 0.195699751377105712890625000000 -0.038261126726865768432617187500 -0.005096413195133209228515625000 0.000613572017755359411239624023 0 0 0 0 
2415333333.3333334923 0.196909740567207308670205634371 -0.039279580116271972656250000000 -0.005226657725870609283447265625 0.000771529797930270433425903320 0 0 0 0 
2415500000.0000000000 0.197919517755508395095986884371 -0.040028858929872512817382812500 -0.005136502906680107116699218750 0.000875300669576972723007202148 0 0 0 0 
2415666666.6666665077 0.198941692709922790527343750000 -0.040717918425798423076589216407 -0.005213064607232809066772460938 0.001106454408727586052538227612 0 0 0 0 
2415833333.3333334923 0.199866279959678705413494981258 -0.041493613272905349731445312500 -0.005102673079818487167358398438 0.001501125982031225941301655347 0 0 0 0 
2416000000.0000000000 0.200522452592849703689736884371 -0.042069755494594567035715471093 -0.005027513951063156127929687500 0.001530032488517462990404438550 0 0 0 0 
2416166666.6666665077 0.201366946101188687423544365629 -0.042580332607030868530273437500 -0.004997376818209887418265058301 0.001573316985741258101222372900 0 0 0 0 
2416333333.3333334923 0.201978936791420010665731865629 -0.042913731187582022930104841407 -0.004903530701994895935058593750 0.001848460058681667067884135669 0 0 0 0 
2416500000.0000000000 0.202397793531417902190838731258 -0.043012175709009170532226562500 -0.004913539160043001174926757812 0.002025205176323651833775185693 0 0 0 0 
2416666666.6666665077 0.202685371041297912597656250000 -0.043350011110305793071706403907 -0.004895572084933519363403320312 0.002255131024867295785191201318 0 0 0 0 
2416833333.3333334923 0.202720686793327303787393134371 -0.043283123522996902465820312500 -0.004718375392258167266845703125 0.002350382972508668899536132812 0 0 0 0 
2417000000.0000000000 0.202762484550476101974325615629 -0.043410234153270721435546875000 -0.004600272979587317380423261426 0.002587276510894298987147665869 0 0 0 0 
2417166666.6666665077 0.202596619725227411468182481258 -0.043348208069801330566406250000 -0.004600927699357271194458007812 0.002520408015698194937465048682 0 0 0 0 
2417333333.3333334923 0.202314943075180109222088731258 -0.043090224266052253032643903907 -0.004468241240829229354858398438 0.002835364779457449913024902344 0 0 0 0 
2417500000.0000000000 0.202092438936233492752236884371 -0.043078847229480743408203125000 -0.004322135355323553085327148438 0.002991065615788102149963378906 0 0 0 0 
2417666666.6666665077 0.201515138149261502364950615629 -0.042877953499555587768554687500 -0.004097956698387861251831054688 0.002997337607666850090026855469 0 0 0 0 
2417833333.3333334923 0.201135486364364596267861884371 -0.042622908949851989746093750000 -0.004054470453411340713500976562 0.003289659274742006821873330225 0 0 0 0 
2418000000.0000000000 0.200394943356514004806356865629 -0.042355880141258239746093750000 -0.003729241900146007971522665869 0.003359300084412097930908203125 0 0 0 0 
2418166666.6666665077 0.199668362736701993087606865629 -0.042376857250928878784179687500 -0.003699347609654068946838378906 0.003506081411615014076232910156 0 0 0 0 
2418333333.3333334923 0.198700293898582486251669365629 -0.042096860706806182861328125000 -0.003629111684858798980712890625 0.003569242078810929818394326318 0 0 0 0 
2418500000.0000000000 0.197709456086158807952557481258 -0.042027596384286880493164062500 -0.003189383773133159117457724463 0.003480782499536871910095214844 0 0 0 0 
2418666666.6666665077 0.196723788976669311523437500000 -0.041998125612735748291015625000 -0.003154684090986847877502441406 0.003655972424894570870640420068 0 0 0 0 
2418833333.3333334923 0.195364713668823186676348768742 -0.042151771485805511474609375000 -0.002890895120799541907069540869 0.003559782402589917182922363281 0 0 0 0 
2419000000.0000000000 0.194070428609847994705361884371 -0.042442794889211661601979841407 -0.002903443295508623123168945312 0.003646163269877434210536337744 0 0 0 0 
2419166666.6666665077 0.192754209041595486739950615629 -0.042635660618543631816823591407 -0.002698327181860804991481161963 0.003632705425843596892115927588 0 0 0 0 
2419333333.3333334923 0.191317349672317504882812500000 -0.043151598423719413066823591407 -0.002621077466756104989292763818 0.003356856759637593789341591943 0 0 0 0 
2419500000.0000000000 0.189859792590141296386718750000 -0.043577931821346282958984375000 -0.002478908514603972001316689600 0.003349350299686193899867392432 0 0 0 0 
2419666666.6666665077 0.188073575496673611739950615629 -0.044406086206436157226562500000 -0.002522917464375495910644531250 0.003234286094084382057189941406 0 0 0 0 
2419833333.3333334923 0.186649024486541803558026231258 -0.045077454298734671855886091407 -0.002429202198982239203212118994 0.003397670341655611991882324219 0 0 0 0 
