# Hz S RI R 50
2400000000.0000000000 0.167946383357048006912393134371 0.040961783379316329956054687500 0.000696346687618643153845632288 -0.003590672044083476066589355469 0 0 0 0 
2400166666.6666665077 0.168439403176307705978231865629 0.040326904505491256713867187500 0.000681058038026094436645507812 -0.003583500394597650007960654150 0 0 0 0 
2400333333.3333334923 0.168903127312660189529580634371 0.039374232292175292968750000000 0.000401592027628794312477111816 -0.003663807874545454978942871094 0 0 0 0 
2400500000.0000000000 0.169297233223915100097656250000 0.038468901067972183227539062500 0.000240858265897259089067736215 -0.003396532032638787789585732568 0 0 0 0 
2400666666.6666665077 0.169726088643074007888955634371 0.037530139088630683208425153907 0.000204523181309923502519884653 -0.003444323083385825157165527344 0 0 0 0 
2400833333.3333334923 0.170148074626922607421875000000 0.036830004304647452617604841407 0.000041703042370500043034553528 -0.003450922900810838179347372900 0 0 0 0 
2401000000.0000000000 0.170302540063858004470986884371 0.035768937319517142559011091407 -0.000252510391874238902896326886 -0.003521868027746676965000771631 0 0 0 0 
2401166666.6666665077 0.170639723539352389236611884371 0.034779317677021026611328125000 -0.000196168068214319700568598615 -0.003334790933877230124232626807 0 0 0 0 
2401333333.3333334923 0.170771315693855313400106865629 0.034047853201627731323242187500 -0.000169963008374907103463849478 -0.003233126131817698912379599463 0 0 0 0 
2401500000.0000000000 0.170998051762580899337606865629 0.033093102276325232768972028907 -0.000375470641301944906085413800 -0.003245084080845118002650595557 0 0 0 0 
2401666666.6666665077 0.171230003237724304199218750000 0.032329339534044272685964216407 -0.000453707354608923196792602539 -0.003149188356474041938781738281 0 0 0 0 
2401833333.3333334923 0.171261802315712002853231865629 0.031368680298328399658203125000 -0.000390835019061341881752014160 -0.003170722629874945120570517432 0 0 0 0 
2402000000.0000000000 0.171158909797668512542401231258 0.030572114512324329721471016796 -0.000552595767658203840255737305 -0.003298966214060782952549599756 0 0 0 0 
2402166666.6666665077 0.171243444085121210296307481258 0.029563738033175468444824218750 -0.000479883194202557206153869629 -0.003402320435270667076110839844 0 0 0 0 
2402333333.3333334923 0.171293824911117609222088731258 0.028494942933320999145507812500 -0.000581990636419504880905151367 -0.003209187882021069960353232275 0 0 0 0 
2402500000.0000000000 0.171540513634681701660156250000 0.027620829641819000244140625000 -0.000674105423968285322189331055 -0.003376439912244677977321005713 0 0 0 0 
2402666666.6666665077 0.171362146735191400725994981258 0.026532106101512908935546875000 -0.000762582581955939531326293945 -0.003308237297460436820983886719 0 0 0 0 
2402833333.3333334923 0.171386972069740295410156250000 0.025613294914364821697194685157 -0.000727015256416052579879760742 -0.003212365787476301193237304688 0 0 0 0 
2403000000.0000000000 0.171257942914962796310263115629 0.024486426264047619211217110546 -0.000775695953052490949630737305 -0.003359366208314896063563681494 0 0 0 0 
2403166666.6666665077 0.171395167708396911621093750000 0.023326581344008449209193045704 -0.000850416661705821752548217773 -0.003223187988623977141139365088 0 0 0 0 
2403333333.3333334923 0.171119719743728609939736884371 0.022247005254030231130579764454 -0.001029241480864584012272500146 -0.003222418483346701102015829932 0 0 0 0 
2403500000.0000000000 0.171153515577316311935263115629 0.021006809547543529165247733204 -0.001076187589205801920649863135 -0.003398323198780417008640908350 0 0 0 0 
2403666666.6666665077 0.170988202095031710525674384371 0.019828895106911659240722656250 -0.001165978377684951045392680591 -0.003416726598516107039210654150 0 0 0 0 
2403833333.3333334923 0.170822903513908386230468750000 0.018580971285700801504114920704 -0.001326601370237767913221049731 -0.003385162446647882895228720557 0 0 0 0 
2404000000.0000000000 0.170663446187972994705361884371 0.017349047586321830749511718750 -0.001514241099357604980468750000 -0.003340207040309906005859375000 0 0 0 0 
2404166666.6666665077 0.170601323246955899337606865629 0.016009531915187839162806326954 -0.001803989056497812054277729565 -0.003428431460633873939514160156 0 0 0 0 
2404333333.3333334923 0.170661970973014803787393134371 0.014844742603600030381172381055 -0.001959854038432240919825888525 -0.003329031635075808005092001807 0 0 0 0 
2404500000.0000000000 0.170429378747940091232138115629 0.013340256176888939249058907421 -0.001966981915757060050964355469 -0.003208951093256473974940634619 0 0 0 0 
2404666666.6666665077 0.170436844229698208907919365629 0.011955242604017259425153163477 -0.002109617693349719047546386719 -0.003057917114347219900843954932 0 0 0 0 
2404833333.3333334923 0.170460537075996398925781250000 0.010615637525916099548339843750 -0.002150790067389606995823525537 -0.003120004432275890870335244287 0 0 0 0 
2405000000.0000000000 0.170548483729362487792968750000 0.009084805846214294433593750000 -0.002470608102157711982727050781 -0.003076483262702823118922568213 0 0 0 0 
2405166666.6666665077 0.170407101511955288986044365629 0.007564198691397905349731445312 -0.002602380933240056037902832031 -0.002698660828173160986659384619 0 0 0 0 
2405333333.3333334923 0.170399814844131497482138115629 0.005998128559440374374389648438 -0.002445006277412176132202148438 -0.002696245443075894875767373193 0 0 0 0 
2405500000.0000000000 0.170326665043830899337606865629 0.004455389920622110366821289062 -0.002561497269198298887965536963 -0.002557593863457440896275185693 0 0 0 0 
2405666666.6666665077 0.170276671648025512695312500000 0.002826922573149203820469521631 -0.002610244788229465918300009619 -0.002382563659921288923976279150 0 0 0 0 
2405833333.3333334923 0.170207411050796508789062500000 0.001375015941448509909986186450 -0.002783887321129440827610634912 -0.002261876128613948822021484375 0 0 0 0 
2406000000.0000000000 0.170329213142394991775674384371 -0.000396920921048149520724696027 -0.002823626855388284163234091650 -0.002224158728495240211486816406 0 0 0 0 
2406166666.6666665077 0.170028075575828607757244981258 -0.001750069437548517964006733472 -0.002872719895094633102416992188 -0.002198450500145554976222372900 0 0 0 0 
2406333333.3333334923 0.170176416635513305664062500000 -0.003368218895047903060913085938 -0.002682146849110722975489951025 -0.001887435093522072055219340747 0 0 0 0 
2406500000.0000000000 0.169853121042251586914062500000 -0.005066760350018739700317382812 -0.002864512614905834197998046875 -0.001975656487047671838047646631 0 0 0 0 
2406666666.6666665077 0.169604703783989008147869981258 -0.006521335337311028566842363574 -0.002894761739298700852635048975 -0.002047233982011675834655761719 0 0 0 0 
2406833333.3333334923 0.169541254639625604827557481258 -0.008077805861830711364746093750 -0.002931419992819428010227822412 -0.001963142771273850960972451318 0 0 0 0 
2407000000.0000000000 0.169416785240173312088174384371 -0.009506743401288986206054687500 -0.003010132582858204841613769531 -0.001735727884806693033931113135 0 0 0 0 
2407166666.6666665077 0.169437393546104403396768134371 -0.010956306941807270050048828125 -0.003245386295020579858067177881 -0.001780160469934344074846577222 0 0 0 0 
2407333333.3333334923 0.169146284461021395584268134371 -0.012312689796090129507044608204 -0.003151089185848832130432128906 -0.001786328502930700995801616138 0 0 0 0 
2407500000.0000000000 0.168945491313934298416299384371 -0.013555548153817650186558907421 -0.003201056737452745003941201318 -0.001474985387176275036455463940 0 0 0 0 
2407666666.6666665077 0.168739661574363708496093750000 -0.014602134004235269373883632227 -0.003332412103191018104553222656 -0.001439463463611901023267436450 0 0 0 0 
2407833333.3333334923 0.168504223227500887771768134371 -0.016039637848734859121302420704 -0.003277593292295933203456259619 -0.001369383186101914102669740991 0 0 0 0 
2408000000.0000000000 0.168393149971962002853231865629 -0.017060274258255958557128906250 -0.003228296292945743040797568213 -0.001040094066411257007001567310 0 0 0 0 
2408166666.6666665077 0.168235599994659396072549384371 -0.017986362800002101552943045704 -0.003449905896559358076808310400 -0.001186708686873316981671977466 0 0 0 0 
2408333333.3333334923 0.168361216783523587325888115629 -0.018882727250456809997558593750 -0.003286510007455945014953613281 -0.000958320160862058401107788086 0 0 0 0 
2408500000.0000000000 0.168233975768089294433593750000 -0.019900543615221980703333670704 -0.003489887341856956915614462744 -0.000891321396920830011367797852 0 0 0 0 
2408666666.6666665077 0.168317452073097201248330634371 -0.020950607955455780029296875000 -0.003538775257766246795654296875 -0.000714201654773205518722534180 0 0 0 0 
2408833333.3333334923 0.168204948306083706954794365629 -0.021725472062826160085657889454 -0.003596861846745014190673828125 -0.000600579427555203437805175781 0 0 0 0 
2409000000.0000000000 0.168249070644378689864950615629 -0.022533070296049121511439139454 -0.003303251462057232856750488281 -0.000600069761276245117187500000 0 0 0 0 
2409166666.6666665077 0.168379262089729309082031250000 -0.023402104154229160654088204296 -0.003426079405471682982203818213 -0.000246494717430323416560572491 0 0 0 0 
2409333333.3333334923 0.168609887361526489257812500000 -0.024349242448806759225865548046 -0.003352861385792493820190429688 -0.000245424045715480988651829852 0 0 0 0 
2409500000.0000000000 0.168634191155433710296307481258 -0.025298021733760830270787423046 -0.003374397987499833106994628906 -0.000052298619266366592865397794 0 0 0 0 
2409666666.6666665077 0.168745532631874112228231865629 -0.025972802191972729074498360546 -0.003385506104677916006800986182 0.000106044411950279000118532724 0 0 0 0 
2409833333.3333334923 0.168656438589096097091513115629 -0.026977438479661941528320312500 -0.003278237767517567114589072119 0.000006973913968977286396077556 0 0 0 0 
2410000000.0000000000 0.168916419148445101638955634371 -0.027752604335546490060826485546 -0.003146640723571180863621377100 0.000085644460341427475214004517 0 0 0 0 
2410166666.6666665077 0.168927237391471890548544365629 -0.028677148744463920593261718750 -0.003291387343779205842259072412 0.000237119107623584595605573111 0 0 0 0 
2410333333.3333334923 0.168889939785003689864950615629 -0.029669661074876788747767264454 -0.003102567745372653007507324219 0.000391496549127623384625035419 0 0 0 0 
2410500000.0000000000 0.168908998370170593261718750000 -0.030533481389284130441685860546 -0.003098906483501195907592773438 0.000452329317340627312660217285 0 0 0 0 
2410666666.6666665077 0.168905153870582608321981865629 -0.031498558819293982768972028907 -0.003063682233914732933044433594 0.000347983150277286822169703351 0 0 0 0 
2410833333.3333334923 0.168573468923568697830361884371 -0.032314792275428771972656250000 -0.003231835318729280991795205225 0.000499957299325615167617797852 0 0 0 0 
2411000000.0000000000 0.168591096997261102874432481258 -0.033144284039735787128488908593 -0.003171424847096205191371298682 0.000585786066949367523193359375 0 0 0 0 
2411166666.6666665077 0.168473735451698303222656250000 -0.034298609942197799682617187500 -0.003107268828898667855503701318 0.000780518050305545330047607422 0 0 0 0 
2411333333.3333334923 0.168249800801277188400106865629 -0.035062208771705627441406250000 -0.003084041411057115034816122900 0.000794296443928033113479614258 0 0 0 0 
2411500000.0000000000 0.167985036969184903243856865629 -0.036087404936552047729492187500 -0.002902857726439834074733115088 0.000834582082461565732955932617 0 0 0 0 
2411666666.6666665077 0.167865559458732604980468750000 -0.037053372710943222045898437500 -0.002796531887724996046779013525 0.000984054640866816043853759766 0 0 0 0 
2411833333.3333334923 0.167585790157318087478799384371 -0.037637326866388320922851562500 -0.002802762901410460905787802588 0.001097257132641970894457172925 0 0 0 0 
2412000000.0000000000 0.167562797665596008300781250000 -0.038600459694862372661550153907 -0.002710309345275164084193564307 0.001231148024089633984806679834 0 0 0 0 
2412166666.6666665077 0.167138263583183288574218750000 -0.039630740880966193462331403907 -0.002557958010584115982055664062 0.001177537837065756104112934644 0 0 0 0 
2412333333.3333334923 0.166880026459693908691406250000 -0.040669374167919158935546875000 -0.002549313474446535110473632812 0.001234471332281827926635742188 0 0 0 0 
2412500000.0000000000 0.166361778974533108810263115629 -0.041506700217723853374440778907 -0.002469025785103439851048134912 0.001176948193460702896118164062 0 0 0 0 
2412666666.6666665077 0.166109785437583895584268134371 -0.042742315679788589477539062500 -0.002410857006907463073730468750 0.000975974195171147584915161133 0 0 0 0 
2412833333.3333334923 0.165704861283302307128906250000 -0.043609384447336196899414062500 -0.002374264877289534048793173682 0.001132271951064466996433877100 0 0 0 0 
2413000000.0000000000 0.165390953421592712402343750000 -0.044533334672451019287109375000 -0.002226770389825106100795126807 0.001025861711241305091260600513 0 0 0 0 
2413166666.6666665077 0.164850905537605313400106865629 -0.045569855719804756855051408593 -0.002230311976745725111720419775 0.000989770167507231235504150391 0 0 0 0 
2413333333.3333334923 0.164406403899192810058593750000 -0.046635895967483520507812500000 -0.002354666125029325918910361182 0.000819674809463322162628173828 0 0 0 0 
2413500000.0000000000 0.164035052061080904861611884371 -0.047513432800769812847097028907 -0.002345654414966702894923544775 0.000962043937761336565017700195 0 0 0 0 
2413666666.6666665077 0.163578942418098505218182481258 -0.048635244369506842876393903907 -0.002361354418098926977870322119 0.001025899196974932930589985425 0 0 0 0 
2413833333.3333334923 0.163074880838394192794638115629 -0.049732442945241928100585937500 -0.002539198379963635964634560693 0.000911941693630069494247436523 0 0 0 0 
2414000000.0000000000 0.162535160779953002929687500000 -0.050605121999979019165039062500 -0.002640914404764771895167685400 0.001162400119937955899479531396 0 0 0 0 
2414166666.6666665077 0.162350118160247802734375000000 -0.051585223525762557983398437500 -0.002548761665821075005772256006 0.000992841552942991256713867188 0 0 0 0 
2414333333.3333334923 0.161825761198997497558593750000 -0.052611995488405227661132812500 -0.002719732467085123062133789062 0.001157481223344803073285746997 0 0 0 0 
2414500000.0000000000 0.161758691072463989257812500000 -0.053612932562828057025949846093 -0.002604258013889193968531943213 0.001243350328877568028093647534 0 0 0 0 
2414666666.6666665077 0.161406263709068298339843750000 -0.054534133523702621459960937500 -0.002875937614589930014369345557 0.001297627808526157899143838037 0 0 0 0 
2414833333.3333334923 0.161023244261741610428018134371 -0.055409781634807586669921875000 -0.002790322992950677871704101562 0.001458377693779766993281699072 0 0 0 0 
2415000000.0000000000 0.160774156451225308517294365629 -0.056477647274732589721679687500 -0.002879511564970016913173056494 0.001408643322065473036525107275 0 0 0 0 
2415166666.6666665077 0.160573318600654602050781250000 -0.057593081146478652954101562500 -0.002885593799874186949488974463 0.001627207733690738894818950122 0 0 0 0 
2415333333.3333334923 0.160546958446502713302450615629 -0.058663520961999893188476562500 -0.002940053353086113929748535156 0.001759416656568645997288369287 0 0 0 0 
2415500000.0000000000 0.160325214266777010818643134371 -0.059698496013879782939870466407 -0.003054239787161349816563271631 0.001890107756480575041529990088 0 0 0 0 
2415666666.6666665077 0.160241931676864596267861884371 -0.060858290642499916767160783593 -0.002965448424220085144042968750 0.001898003858514129898668598706 0 0 0 0 
2415833333.3333334923 0.159968063235282897949218750000 -0.062054775655269622802734375000 -0.003117318963631988005397177588 0.002099011559039353890659951318 0 0 0 0 
2416000000.0000000000 0.159740984439849909026776231258 -0.063193872570991516113281250000 -0.003087788354605435891392373193 0.002262783935293554826023720850 0 0 0 0 
2416166666.6666665077 0.159708023071289090255575615629 -0.064409621059894561767578125000 -0.003136275568976997895481728662 0.002578593790531158013584756006 0 0 0 0 
2416333333.3333334923 0.159486100077629089355468750000 -0.065571598708629608154296875000 -0.003066133474931120872497558594 0.002752323867753148078918457031 0 0 0 0 
2416500000.0000000000 0.159218415617942810058593750000 -0.066939048469066619873046875000 -0.002954853465780615806579589844 0.002947981469333171844482421875 0 0 0 0 
2416666666.6666665077 0.158990263938903808593750000000 -0.067909501492977142333984375000 -0.002939084544777870178222656250 0.003201913554221392111537314307 0 0 0 0 
2416833333.3333334923 0.158734932541847201248330634371 -0.069367513060569763183593750000 -0.002638019155710936026332236182 0.003401552792638539834263466943 0 0 0 0 
2417000000.0000000000 0.158319443464279202560263115629 -0.070263557136058807373046875000 -0.002626625355333089828491210938 0.003570008324459195137023925781 0 0 0 0 
2417166666.6666665077 0.158004313707351712325888115629 -0.071304671466350555419921875000 -0.002173642395064235167262411963 0.003823911771178245978114462744 0 0 0 0 
2417333333.3333334923 0.157750189304351806640625000000 -0.072222895920276641845703125000 -0.002115946030244230790379189600 0.004134743008762598037719726562 0 0 0 0 
2417500000.0000000000 0.157298326492309598068075615629 -0.073455296456813812255859375000 -0.001905581215396523909327841650 0.004160501994192600250244140625 0 0 0 0 
2417666666.6666665077 0.157064110040664700607138115629 -0.074171543121337890625000000000 -0.001587387057952583052991557544 0.004149787593632937345022870801 0 0 0 0 
2417833333.3333334923 0.156797200441360501388388115629 -0.075003623962402343750000000000 -0.001204943866468966007232666016 0.004278701730072498321533203125 0 0 0 0 
2418000000.0000000000 0.156471177935600308517294365629 -0.075965635478496551513671875000 -0.000961187004577368497848510742 0.004355999641120433807373046875 0 0 0 0 
2418166666.6666665077 0.156229898333549499511718750000 -0.076725237071514129638671875000 -0.000557776540517807006835937500 0.004241385497152805328369140625 0 0 0 0 
2418333333.3333334923 0.156106531620025607010049384371 -0.077600620687007904052734375000 -0.000528882606886327266693115234 0.004197607282549142837524414062 0 0 0 0 
2418500000.0000000000 0.155768975615501403808593750000 -0.078291051089763641357421875000 -0.000351188558852300102084559308 0.004100326914340257644653320312 0 0 0 0 
2418666666.6666665077 0.155451640486717196365518134371 -0.079084753990173339843750000000 -0.000081368103565182536840438843 0.004111960995942354202270507812 0 0 0 0 
2418833333.3333334923 0.154894530773162786285723768742 -0.079828560352325439453125000000 0.000184730204637162387371063232 0.003969218116253614425659179688 0 0 0 0 
2419000000.0000000000 0.154630720615386990646200615629 -0.080618873238563537597656250000 0.000263656052993610501289367676 0.003744408721104263825657509912 0 0 0 0 
2419166666.6666665077 0.154300570487976101974325615629 -0.081396654248237609863281250000 0.000330105656757950782775878906 0.003615751396864653067347861182 0 0 0 0 
2419333333.3333334923 0.153841733932495089431924384371 -0.081683591008186340332031250000 0.000584957539103925228118896484 0.003510204376652836799621582031 0 0 0 0 
2419500000.0000000000 0.153525650501251192947549384371 -0.082578428089618682861328125000 0.000427916791522875373989659442 0.003320663468912243843078613281 0 0 0 0 
2419666666.6666665077 0.153300285339355496505575615629 -0.083159498870372772216796875000 0.000512878235895186662673950195 0.003488613525405526161193847656 0 0 0 0 
2419833333.3333334923 0.152732685208320589920205634371 -0.083581291139125823974609375000 0.000521369336638599634170532227 0.003293556626886128945591591943 0 0 0 0 
