# Hz S RI R 
2400000000.0000000000 0.169565930962562588790731865629 0.045837402343750000000000000000 0.001646977383643388965009379810 -0.004505739081650972366333007812 0 0 0 0 
2400166666.6666665077 0.170535147190093994140625000000 0.044867482036352157592773437500 0.001725089736282825903651572119 -0.004459036514163017272949218750 0 0 0 0 
2400333333.3333334923 0.171350285410880986969317518742 0.043761849403381347656250000000 0.001667456934228539900538779150 -0.004503851756453514099121093750 0 0 0 0 
2400500000.0000000000 0.172462180256843594650106865629 0.042590465396642691875417341407 0.001650801277719438076019287109 -0.004575018305331468582153320312 0 0 0 0 
2400666666.6666665077 0.173168644309043912032919365629 0.041792955249547958374023437500 0.001682542613707483031629252856 -0.004516402725130319595336914062 0 0 0 0 
2400833333.3333334923 0.174139380455017089843750000000 0.041135750710964202880859375000 0.001851417240686715082881308447 -0.004631564021110534667968750000 0 0 0 0 
2401000000.0000000000 0.175023570656776400467080634371 0.040290884673595428466796875000 0.001885327743366361098048544775 -0.004836040083318948745727539062 0 0 0 0 
2401166666.6666665077 0.175849348306655911544638115629 0.039507649838924407958984375000 0.001773583353497087955474853516 -0.004781761206686496734619140625 0 0 0 0 
2401333333.3333334923 0.176455006003379794021768134371 0.038962822407484061504323591407 0.001680119894444942908046103369 -0.004871455952525138854980468750 0 0 0 0 
2401500000.0000000000 0.177300438284873990157919365629 0.038178548216819763183593750000 0.001725796260870992920519184644 -0.005236846860498189926147460938 0 0 0 0 
2401666666.6666665077 0.177878499031066894531250000000 0.037599273025989532470703125000 0.001641064183786510987522744287 -0.005225511733442544937133789062 0 0 0 0 
2401833333.3333334923 0.178209736943244906326455634371 0.037084680050611502910573591407 0.001375965075567364909528422778 -0.005547304637730121612548828125 0 0 0 0 
2402000000.0000000000 0.178629964590072604080361884371 0.036401931196451187133789062500 0.001473648007959126992466591943 -0.005508619360625743865966796875 0 0 0 0 
2402166666.6666665077 0.179093703627586392501669365629 0.035879015922546386718750000000 0.001322886091656982898712158203 -0.005810646340250968933105468750 0 0 0 0 
2402333333.3333334923 0.179399907588958712478799384371 0.035334218293428421020507812500 0.001089749159291387037989951025 -0.006085696630179882049560546875 0 0 0 0 
2402500000.0000000000 0.179812014102935791015625000000 0.034904509782791137695312500000 0.000996989896520972251892089844 -0.006254296284168958663940429688 0 0 0 0 
2402666666.6666665077 0.180080458521843012054119981258 0.034226723015308380126953125000 0.000775553693529218435287475586 -0.006349049974232912063598632812 0 0 0 0 
2402833333.3333334923 0.180009052157402010818643134371 0.033566243946552276611328125000 0.000550034805200994014739990234 -0.006635915953665971755981445312 0 0 0 0 
2403000000.0000000000 0.180072024464607211013955634371 0.032831657677888870239257812500 0.000275312515441328287124633789 -0.006831367965787649154663085938 0 0 0 0 
2403166666.6666665077 0.179940506815910311599893134371 0.032136838883161551738698591407 -0.000124784783110953894540509634 -0.006881861947476863861083984375 0 0 0 0 
2403333333.3333334923 0.180042400956153897384481865629 0.031408909708261489868164062500 -0.000320390594424679875373840332 -0.006987943779677152633666992188 0 0 0 0 
2403500000.0000000000 0.179735079407692011077557481258 0.030581692233681678771972656250 -0.000676463940180838108062744141 -0.006924121174961329373831464551 0 0 0 0 
2403666666.6666665077 0.179326444864273099044638115629 0.029384141787886619567871093750 -0.000875921570695936679840087891 -0.007104984018951653566842363574 0 0 0 0 
2403833333.3333334923 0.179120391607284601409588731258 0.028421558439731601369837576954 -0.001111042685806751034380268628 -0.007048670668154954910278320312 0 0 0 0 
2404000000.0000000000 0.178772106766700689117755018742 0.027289686724543571472167968750 -0.001504748594015836932538676685 -0.007286837790161371231079101562 0 0 0 0 
2404166666.6666665077 0.178214460611343411544638115629 0.026159612461924549448033516796 -0.002023306908085941834690713037 -0.007118160836398602399344159863 0 0 0 0 
2404333333.3333334923 0.177778884768485995193643134371 0.025020653381943699228306954296 -0.002199930371716618971583701025 -0.007272065151482821378225995801 0 0 0 0 
2404500000.0000000000 0.176928386092186001876669365629 0.023297948762774470937708670704 -0.002523604081943631172180175781 -0.007146989461034536361694335938 0 0 0 0 
2404666666.6666665077 0.176614701747894287109375000000 0.022145800292491909372349923046 -0.002934371586889028982875204932 -0.007081526797264814376831054688 0 0 0 0 
2404833333.3333334923 0.175921961665153503417968750000 0.020715398713946338998814766796 -0.003367822850123047828674316406 -0.006974214687943459424490644238 0 0 0 0 
2405000000.0000000000 0.175509259104728698730468750000 0.019168660044670108449915701954 -0.003565787104889750914332724463 -0.006767760030925273895263671875 0 0 0 0 
2405166666.6666665077 0.175053045153617886642294365629 0.017601398751139640808105468750 -0.003956427797675132751464843750 -0.006754435133188962936401367188 0 0 0 0 
2405333333.3333334923 0.174589961767196710784588731258 0.015760336071252819406529610546 -0.004175132140517234802246093750 -0.006510808132588863372802734375 0 0 0 0 
2405500000.0000000000 0.174127608537674005706463731258 0.014264373108744619542131992773 -0.004377299919724464416503906250 -0.006404018029570580396170331738 0 0 0 0 
2405666666.6666665077 0.173702821135520907303018134371 0.012510930188000200444231602148 -0.004921455867588520050048828125 -0.006103005260229110717773437500 0 0 0 0 
2405833333.3333334923 0.173257648944854708572549384371 0.010833456180989740544329258398 -0.005110673606395720568185137012 -0.005981555208563804626464843750 0 0 0 0 
2406000000.0000000000 0.172978639602661105056924384371 0.008839130401611328125000000000 -0.005229349248111248016357421875 -0.005826997105032205581665039062 0 0 0 0 
2406166666.6666665077 0.172649204730987604339276231258 0.007036448456346988677978515625 -0.005569742526859045028686523438 -0.005473196040838956832885742188 0 0 0 0 
2406333333.3333334923 0.172548949718475286285723768742 0.005120270885527133941650390625 -0.005790177267044782638549804688 -0.005337581038475036621093750000 0 0 0 0 
2406500000.0000000000 0.172434598207473810393963731258 0.003003322519361972808837890625 -0.005862650461494922637939453125 -0.005219468381255865097045898438 0 0 0 0 
2406666666.6666665077 0.172104403376579312423544365629 0.000991102424450218677520751953 -0.006218927446752786636352539062 -0.004915007390081883344168378613 0 0 0 0 
2406833333.3333334923 0.172225102782249506194744981258 -0.001089574419893323941471718896 -0.006261625327169895172119140625 -0.004536649677902460098266601562 0 0 0 0 
2407000000.0000000000 0.172243401408195495605468750000 -0.003291839733719826178309775244 -0.006621372886002063751220703125 -0.004407647065818309783935546875 0 0 0 0 
2407166666.6666665077 0.172516375780105590820312500000 -0.005314217880368232727050781250 -0.006804762408137322339529706738 -0.004104090388864278793334960938 0 0 0 0 
2407333333.3333334923 0.172546237707138089279013115629 -0.007412866223603487014770507812 -0.007091044448316097259521484375 -0.003722979687154293060302734375 0 0 0 0 
2407500000.0000000000 0.172807946801185607910156250000 -0.009493313729763031005859375000 -0.007147436030209065351004316113 -0.003437799634411931037902832031 0 0 0 0 
2407666666.6666665077 0.173139199614524813553018134371 -0.011622001416981220245361328125 -0.007446949370205402374267578125 -0.003161082277074456214904785156 0 0 0 0 
2407833333.3333334923 0.173336669802665710449218750000 -0.013854924589395519601842110546 -0.007421628106385468569283769824 -0.002783520147204399108886718750 0 0 0 0 
2408000000.0000000000 0.173916071653366088867187500000 -0.015928866341710090637207031250 -0.007730502169579268369192792676 -0.002383622806519269943237304688 0 0 0 0 
2408166666.6666665077 0.174219429492950411697549384371 -0.017854519188404079782506173046 -0.007652326487004756927490234375 -0.002046157838776708082911826025 0 0 0 0 
2408333333.3333334923 0.174824893474578912933026231258 -0.019884185865521430969238281250 -0.007735432591289281845092773438 -0.001515319454483688094495463794 0 0 0 0 
2408500000.0000000000 0.175154969096183804611044365629 -0.021778350695967670785924141796 -0.007826290093362331390380859375 -0.001050780527293682098388671875 0 0 0 0 
2408666666.6666665077 0.175610229372978210449218750000 -0.023732805624604228628138358204 -0.007717165630310773849487304688 -0.000765768869314342737197875977 0 0 0 0 
2408833333.3333334923 0.175895035266876192947549384371 -0.025486199185252189636230468750 -0.007720805238932371139526367188 -0.000426502432674169486195164813 0 0 0 0 
2409000000.0000000000 0.176329448819160489181356865629 -0.027168026193976398813267891796 -0.007611166220158339414114667676 -0.000142585384310223189279279166 0 0 0 0 
2409166666.6666665077 0.176875337958335904220419365629 -0.028688142076134681701660156250 -0.007583620026707649230957031250 0.000271021650405600721209925519 0 0 0 0 
2409333333.3333334923 0.177419140934944208343182481258 -0.030137170106172561645507812500 -0.007344174664467573165893554688 0.000610072340350598096847534180 0 0 0 0 
2409500000.0000000000 0.177793323993682889083700615629 -0.031600389629602432250976562500 -0.007125996984541416168212890625 0.000886326481122523546218872070 0 0 0 0 
2409666666.6666665077 0.178328260779380798339843750000 -0.032726649194955832744557966407 -0.007089968305081129074096679688 0.001177225727587938091875385815 0 0 0 0 
2409833333.3333334923 0.178702831268310602386151231258 -0.033700373023748397827148437500 -0.006861499510705471038818359375 0.001507676206529140906092978369 0 0 0 0 
2410000000.0000000000 0.179352521896362304687500000000 -0.034728717058897018432617187500 -0.006797553505748510360717773438 0.001725129666738211891771626050 0 0 0 0 
2410166666.6666665077 0.179741188883781405349893134371 -0.035685572773218161846120466407 -0.006489843130111694335937500000 0.001974724233150482177734375000 0 0 0 0 
2410333333.3333334923 0.180115953087806701660156250000 -0.036335870623588562011718750000 -0.006334098521620035171508789062 0.002057638950645924048182822119 0 0 0 0 
2410500000.0000000000 0.180616289377212496658486884371 -0.037239171564579010009765625000 -0.006302673835307359695434570312 0.002534373663365840911865234375 0 0 0 0 
2410666666.6666665077 0.180924654006958007812500000000 -0.037942647933959960937500000000 -0.006110390648245812329764081738 0.002559733111411333084106445312 0 0 0 0 
2410833333.3333334923 0.181456848978996304611044365629 -0.038643047213554382324218750000 -0.005779636558145284652709960938 0.002563202753663063049316406250 0 0 0 0 
2411000000.0000000000 0.181743666529655512054119981258 -0.039066925644874572753906250000 -0.005673970561474561691284179688 0.002835571998730301856994628906 0 0 0 0 
2411166666.6666665077 0.181965321302413912674111884371 -0.039559595286846160888671875000 -0.005683709867298603057861328125 0.002984364517033100128173828125 0 0 0 0 
2411333333.3333334923 0.182092338800430297851562500000 -0.039889663457870483398437500000 -0.005351965315639972686767578125 0.003186939051374793052673339844 0 0 0 0 
2411500000.0000000000 0.182112544775009210784588731258 -0.040520705282688140869140625000 -0.005136080086231231689453125000 0.003342321841046214103698730469 0 0 0 0 
2411666666.6666665077 0.182407185435295104980468750000 -0.040802534669637680053710937500 -0.004995228257030248641967773438 0.003378633176907896995544433594 0 0 0 0 
2411833333.3333334923 0.182187333703041104415731865629 -0.041012883186340332031250000000 -0.004917077254503965377807617188 0.003454896155744791030883789062 0 0 0 0 
2412000000.0000000000 0.182001292705535888671875000000 -0.041558586061000817035715471093 -0.004667415283620358380789472363 0.003546908730641006989720009912 0 0 0 0 
2412166666.6666665077 0.181657195091247586349325615629 -0.041697435081005103374440778907 -0.004588377196341753005981445312 0.003688646946102381186244345557 0 0 0 0 
2412333333.3333334923 0.181442439556121798416299384371 -0.041977599263191223144531250000 -0.004285401199012994766235351562 0.003815011819824575944187783350 0 0 0 0 
2412500000.0000000000 0.180822327733039911468182481258 -0.042423661798238747333567033593 -0.004114404320716857910156250000 0.003917010501027107238769531250 0 0 0 0 
2412666666.6666665077 0.180297091603279113769531250000 -0.042768072336912162090261091407 -0.004171879496425390243530273438 0.003970095422118902206420898438 0 0 0 0 
2412833333.3333334923 0.179689601063728304763955634371 -0.043002355843782431865651716407 -0.003708091098815203146693564307 0.004074772819876670837402343750 0 0 0 0 
2413000000.0000000000 0.178920596837997408767861884371 -0.043324839323759078979492187500 -0.003708905540406703948974609375 0.004120846278965473175048828125 0 0 0 0 
2413166666.6666665077 0.177966609597206087967080634371 -0.043689165264368057250976562500 -0.003534563351422547860386513818 0.004160288721323013305664062500 0 0 0 0 
2413333333.3333334923 0.177271649241447504241619981258 -0.044169716536998748779296875000 -0.003328115679323672814610146631 0.004127377178519964218139648438 0 0 0 0 
2413500000.0000000000 0.176198303699493408203125000000 -0.044702783226966857910156250000 -0.003287978004664183096644736182 0.004218493122607470426077558301 0 0 0 0 
2413666666.6666665077 0.175267741084098788162393134371 -0.045189857482910163188893903907 -0.003185262205079197883605957031 0.004348918795585632324218750000 0 0 0 0 
2413833333.3333334923 0.174014717340469388107138115629 -0.045835614204406738281250000000 -0.003110136138275266127345419775 0.004332309123128652572631835938 0 0 0 0 
2414000000.0000000000 0.172830089926719693282919365629 -0.046483613550662987445871721093 -0.002878249622881412939784384619 0.004180922638624907407278730176 0 0 0 0 
2414166666.6666665077 0.171842038631439208984375000000 -0.047140087932348251342773437500 -0.002786929719150065942051552881 0.004273900762200356397146894238 0 0 0 0 
2414333333.3333334923 0.170524001121520996093750000000 -0.047949582338333129882812500000 -0.002604002365842462019679404150 0.004247837234288454055786132812 0 0 0 0 
2414500000.0000000000 0.169548317790031405349893134371 -0.048680823296308517456054687500 -0.002612760057672857804539345850 0.004366108682006598386282636426 0 0 0 0 
2414666666.6666665077 0.168122947216033907791299384371 -0.049694165587425231933593750000 -0.002669393783435225920436240088 0.004200582858175039291381835938 0 0 0 0 
2414833333.3333334923 0.166763171553611810882244981258 -0.050881326198577880859375000000 -0.002552460646256804899928427588 0.004421656485646963119506835938 0 0 0 0 
2415000000.0000000000 0.165656507015228299239950615629 -0.051797207444906241680104841407 -0.002430573105812073187587118994 0.004476469941437244415283203125 0 0 0 0 
2415166666.6666665077 0.164296746253967312911825615629 -0.053095690906047821044921875000 -0.002245741197839378876927041162 0.004621536470949649810791015625 0 0 0 0 
2415333333.3333334923 0.163164764642715509612713731258 -0.054525326937437057495117187500 -0.002258665626868606047389365088 0.004686600994318723678588867188 0 0 0 0 
2415500000.0000000000 0.162100225687027005294638115629 -0.055896174162626273418386091407 -0.002171161584556103186366415869 0.004516981076449155807495117188 0 0 0 0 
2415666666.6666665077 0.160897806286811800857705634371 -0.057384319603443152690847028907 -0.002094975905492901802062988281 0.004882502835243940353393554688 0 0 0 0 
2415833333.3333334923 0.159872159361839294433593750000 -0.059009861201047897338867187500 -0.001956112915650010108947753906 0.005078201647847890853881835938 0 0 0 0 
2416000000.0000000000 0.158634245395660400390625000000 -0.060760248452425003051757812500 -0.001813306123949586911442422021 0.005143664311617612838745117188 0 0 0 0 
2416166666.6666665077 0.157776921987533597091513115629 -0.062395818531513207172434221093 -0.001732253003865479989292763818 0.005190317519009113311767578125 0 0 0 0 
2416333333.3333334923 0.156813621520996093750000000000 -0.064241431653499603271484375000 -0.001615268061868845982792519678 0.005220429971814155578613281250 0 0 0 0 
2416500000.0000000000 0.155847564339637811858807481258 -0.066233985126018524169921875000 -0.001451958320103585936902690356 0.005488807801157236099243164062 0 0 0 0 
2416666666.6666665077 0.155049130320549011230468750000 -0.067955322563648223876953125000 -0.001150129828602076010463095557 0.005575520452111960324759198926 0 0 0 0 
2416833333.3333334923 0.154265791177749606033486884371 -0.070095717906951904296875000000 -0.001045454875566065094591450269 0.005726123228669167432303144238 0 0 0 0 
2417000000.0000000000 0.153245925903320312500000000000 -0.072086691856384277343750000000 -0.000788899371400475502014160156 0.005704685114324092864990234375 0 0 0 0 
2417166666.6666665077 0.152658715844154413421307481258 -0.073952838778495788574218750000 -0.000640329555608332157135009766 0.005629649851471185684204101562 0 0 0 0 
2417333333.3333334923 0.151981681585311889648437500000 -0.075853057205677032470703125000 -0.000186856152140535387113848276 0.005928024183958768844604492188 0 0 0 0 
2417500000.0000000000 0.151433497667312594314736884371 -0.078126683831214904785156250000 -0.000103708654933143393553872380 0.005814939271658658981323242188 0 0 0 0 
2417666666.6666665077 0.151032418012618990799111884371 -0.079804532229900360107421875000 0.000256290630204603075981140137 0.005873050540685653686523437500 0 0 0 0 
2417833333.3333334923 0.150565296411514309982138115629 -0.081680662930011749267578125000 0.000436783418990671580463963641 0.005845910869538784027099609375 0 0 0 0 
2418000000.0000000000 0.150290384888648986816406250000 -0.083623066544532775878906250000 0.000729599443729966878890991211 0.005927390418946743011474609375 0 0 0 0 
2418166666.6666665077 0.150031179189682006835937500000 -0.085242852568626403808593750000 0.001038925023749470927594829028 0.005939874798059464368338300488 0 0 0 0 
2418333333.3333334923 0.149994179606437710861044365629 -0.087177239358425140380859375000 0.001334570813924073956133198315 0.005769107956439256668090820312 0 0 0 0 
2418500000.0000000000 0.149782836437225286285723768742 -0.088692151010036468505859375000 0.001626443234272300980211567456 0.005656561814248561859130859375 0 0 0 0 
2418666666.6666665077 0.149778515100479098220986884371 -0.090358532965183258056640625000 0.001877592178061604933497763525 0.005645472090691328048706054688 0 0 0 0 
2418833333.3333334923 0.149691015481948908050213731258 -0.091886885464191436767578125000 0.002125446917489171028137207031 0.005341447889804840087890625000 0 0 0 0 
2419000000.0000000000 0.149642333388328607757244981258 -0.093129679560661315917968750000 0.002414262155070900917053222656 0.005259878933429718017578125000 0 0 0 0 
2419166666.6666665077 0.149849161505699213225994981258 -0.094256177544593811035156250000 0.002500386675819755034205771338 0.005070226266980171203613281250 0 0 0 0 
2419333333.3333334923 0.149884134531021090408486884371 -0.095350176095962524414062500000 0.002811206737533212141749716650 0.004866557661443948745727539062 0 0 0 0 
2419500000.0000000000 0.150089502334594698806924384371 -0.096461638808250427246093750000 0.003059640759602189064025878906 0.004524248186498880386352539062 0 0 0 0 
2419666666.6666665077 0.150427430868148803710937500000 -0.097413964569568634033203125000 0.003242241218686103820800781250 0.004506133496761322021484375000 0 0 0 0 
2419833333.3333334923 0.150545299053192110916299384371 -0.098070539534091949462890625000 0.003270950866863131956813193213 0.004176201764494180679321289062 0 0 0 0 
