# Version 1.00
#
freq[Hz];re:Trc1_S11;im:Trc1_S11;re:Trc2_S21;im:Trc2_S21;
2.400000000000000E+009;1.678748875856400E-001;4.114910215139389E-002;7.774056284688413E-004;-3.499691141769290E-003;
2.400166666666667E+009;1.685933917760849E-001;4.032761603593826E-002;5.891911569051445E-004;-3.564919810742140E-003;
2.400333333333334E+009;1.689218729734421E-001;3.938212990760803E-002;4.579350352287293E-004;-3.470742143690586E-003;
2.400500000000000E+009;1.694243550300598E-001;3.843765705823898E-002;1.958450156962499E-004;-3.448924282565713E-003;
2.400666666666667E+009;1.698410212993622E-001;3.754195943474770E-002;1.494893804192543E-004;-3.424287540838122E-003;
2.400833333333334E+009;1.702217757701874E-001;3.672854974865913E-002;7.858985918574035E-005;-3.401183057576418E-003;
2.401000000000000E+009;1.703889220952988E-001;3.575198352336884E-002;1.065438391378848E-005;-3.390391822904348E-003;
2.401166666666667E+009;1.705535650253296E-001;3.489690646529198E-002;-1.710370561340824E-004;-3.278228454291821E-003;
2.401333333333334E+009;1.706945002079010E-001;3.403989225625992E-002;-9.896200936054811E-005;-3.395345294848084E-003;
2.401500000000000E+009;1.712533235549927E-001;3.311241045594215E-002;-2.563514863140881E-004;-3.331332700327039E-003;
2.401666666666667E+009;1.712327152490616E-001;3.235630691051483E-002;-4.082573577761650E-004;-3.285257145762444E-003;
2.401833333333334E+009;1.712749600410461E-001;3.143760934472084E-002;-3.660108486656100E-004;-3.199297701939941E-003;
2.402000000000000E+009;1.712189316749573E-001;3.051883727312088E-002;-4.289273929316551E-004;-3.337078727781773E-003;
2.402166666666667E+009;1.713838428258896E-001;2.948912605643272E-002;-6.656690384261310E-004;-3.221852472051978E-003;
2.402333333333334E+009;1.713014990091324E-001;2.852340415120125E-002;-6.938471924513578E-004;-3.215511329472065E-003;
2.402500000000000E+009;1.714543551206589E-001;2.759042754769325E-002;-6.580092594958842E-004;-3.227275097742677E-003;
2.402666666666667E+009;1.714641153812408E-001;2.645616605877876E-002;-7.793956901878119E-004;-3.289103740826249E-003;
2.402833333333334E+009;1.714900881052017E-001;2.558624930679798E-002;-7.484157686121762E-004;-3.391059581190348E-003;
2.403000000000000E+009;1.712399423122406E-001;2.439433336257935E-002;-7.678472320549190E-004;-3.408617572858930E-003;
2.403166666666667E+009;1.711636781692505E-001;2.331603504717350E-002;-9.127132943831384E-004;-3.219817532226443E-003;
2.403333333333334E+009;1.712156534194946E-001;2.219925262033939E-002;-9.899233700707555E-004;-3.144832793623209E-003;
2.403500000000000E+009;1.708588451147080E-001;2.103883028030396E-002;-1.043054042384028E-003;-3.282424760982394E-003;
2.403666666666667E+009;1.707875877618790E-001;1.974857784807682E-002;-1.259223558008671E-003;-3.520081285387278E-003;
2.403833333333334E+009;1.707100868225098E-001;1.842459663748741E-002;-1.278942450881004E-003;-3.386466763913631E-003;
2.404000000000000E+009;1.706141084432602E-001;1.731140725314617E-002;-1.370106474496424E-003;-3.196461824700236E-003;
2.404166666666667E+009;1.705075949430466E-001;1.600472629070282E-002;-1.588433631695807E-003;-3.264321712777019E-003;
2.404333333333334E+009;1.704806983470917E-001;1.472133491188288E-002;-1.690139994025230E-003;-3.380891401320696E-003;
2.404500000000000E+009;1.703879684209824E-001;1.316891796886921E-002;-2.048654016107321E-003;-3.149126423522830E-003;
2.404666666666667E+009;1.703207790851593E-001;1.183069497346878E-002;-2.225525211542845E-003;-3.174207638949156E-003;
2.404833333333334E+009;1.702799350023270E-001;1.051214616745710E-002;-2.238789573311806E-003;-3.096842439845204E-003;
2.405000000000000E+009;1.703334152698517E-001;8.991519920527935E-003;-2.408961532637477E-003;-2.921844832599163E-003;
2.405166666666667E+009;1.702951341867447E-001;7.590251509100199E-003;-2.512588864192367E-003;-2.778185298666358E-003;
2.405333333333334E+009;1.703759133815765E-001;5.925064906477928E-003;-2.514280844479799E-003;-2.634700154885650E-003;
2.405500000000000E+009;1.703742444515228E-001;4.467310849577189E-003;-2.481745090335608E-003;-2.463820390403271E-003;
2.405666666666667E+009;1.703991144895554E-001;2.908418886363506E-003;-2.654954558238387E-003;-2.483759541064501E-003;
2.405833333333334E+009;1.701953560113907E-001;1.397120999172330E-003;-2.705217571929097E-003;-2.295497572049499E-003;
2.406000000000000E+009;1.701867282390595E-001;-4.504670796450228E-004;-2.758604241535068E-003;-2.292444696649909E-003;
2.406166666666667E+009;1.700681596994400E-001;-1.776216900907457E-003;-2.674841322004795E-003;-2.186539815738797E-003;
2.406333333333334E+009;1.701441258192062E-001;-3.534568473696709E-003;-2.828528406098485E-003;-2.167586004361510E-003;
2.406500000000000E+009;1.698828339576721E-001;-5.144857335835695E-003;-2.707992680370808E-003;-2.125791739672422E-003;
2.406666666666667E+009;1.696484088897705E-001;-6.564183626323938E-003;-2.991911955177784E-003;-2.093427581712604E-003;
2.406833333333334E+009;1.695426255464554E-001;-8.194026537239552E-003;-3.047723555937409E-003;-1.916278968565166E-003;
2.407000000000000E+009;1.696015298366547E-001;-9.548065252602100E-003;-3.201112849637866E-003;-1.846125465817750E-003;
2.407166666666667E+009;1.693466007709503E-001;-1.083352137356997E-002;-3.028268227353692E-003;-1.752399839460850E-003;
2.407333333333334E+009;1.691337525844574E-001;-1.233942899852991E-002;-3.128422889858484E-003;-1.643932075239718E-003;
2.407500000000000E+009;1.689039170742035E-001;-1.353126391768456E-002;-3.096158383414149E-003;-1.594893750734627E-003;
2.407666666666667E+009;1.687323004007340E-001;-1.470291242003441E-002;-3.292794106528163E-003;-1.438312116079032E-003;
2.407833333333334E+009;1.685135364532471E-001;-1.608259789645672E-002;-3.212962532415986E-003;-1.277456409297884E-003;
2.408000000000000E+009;1.684246659278870E-001;-1.724257692694664E-002;-3.332920605316758E-003;-1.174175180494785E-003;
2.408166666666667E+009;1.682913005352020E-001;-1.790009438991547E-002;-3.304904093965888E-003;-1.164085231721401E-003;
2.408333333333334E+009;1.683329045772553E-001;-1.902082003653050E-002;-3.317682305350900E-003;-1.063952338881791E-003;
2.408500000000000E+009;1.682192236185074E-001;-1.998822391033173E-002;-3.344849217683077E-003;-8.475171634927392E-004;
2.408666666666667E+009;1.683560311794281E-001;-2.096810005605221E-002;-3.437043167650700E-003;-8.700187900103629E-004;
2.408833333333334E+009;1.681609302759171E-001;-2.167831733822823E-002;-3.461800515651703E-003;-4.654605581890792E-004;
2.409000000000000E+009;1.682167947292328E-001;-2.253254503011704E-002;-3.458777908235788E-003;-3.646269324235618E-004;
2.409166666666667E+009;1.684943139553070E-001;-2.344986796379089E-002;-3.551541129127145E-003;-4.090814618393779E-004;
2.409333333333334E+009;1.685199737548828E-001;-2.443001233041287E-002;-3.378760302439332E-003;-3.177163016516715E-004;
2.409500000000000E+009;1.686127781867981E-001;-2.541964501142502E-002;-3.466229420155287E-003;-8.526751480530947E-005;
2.409666666666667E+009;1.688027977943420E-001;-2.625585533678532E-002;-3.435219638049603E-003;-4.098042336408980E-005;
2.409833333333334E+009;1.686550229787827E-001;-2.693359553813934E-002;-3.333137836307287E-003;1.786011853255332E-004;
2.410000000000000E+009;1.688138097524643E-001;-2.790167182683945E-002;-3.222414990887046E-003;2.332430740352720E-004;
2.410166666666667E+009;1.689843684434891E-001;-2.878179401159287E-002;-3.183223539963365E-003;2.706389350350946E-004;
2.410333333333334E+009;1.689788550138474E-001;-2.967706322669983E-002;-3.116313135251403E-003;3.769480681512505E-004;
2.410500000000000E+009;1.688551455736160E-001;-3.066817484796047E-002;-3.152967663481832E-003;4.412040289025754E-004;
2.410666666666667E+009;1.687044948339462E-001;-3.161965310573578E-002;-3.108848351985216E-003;4.039859340991825E-004;
2.410833333333334E+009;1.686097532510757E-001;-3.238498046994209E-002;-3.263979917392135E-003;5.311098066158593E-004;
2.411000000000000E+009;1.684892773628235E-001;-3.321533650159836E-002;-3.164652036502957E-003;5.631962558254600E-004;
2.411166666666667E+009;1.682883054018021E-001;-3.414938226342201E-002;-3.069890430197120E-003;7.954031461849809E-004;
2.411333333333334E+009;1.681524068117142E-001;-3.502502292394638E-002;-3.115486120805144E-003;8.552698418498039E-004;
2.411500000000000E+009;1.678832024335861E-001;-3.593656048178673E-002;-2.984170801937580E-003;8.044520509429276E-004;
2.411666666666667E+009;1.677735298871994E-001;-3.683341667056084E-002;-2.854521619156003E-003;1.048861537128687E-003;
2.411833333333334E+009;1.675336360931397E-001;-3.759825229644775E-002;-2.834483981132507E-003;1.065860851667821E-003;
2.412000000000000E+009;1.672940403223038E-001;-3.860604763031006E-002;-2.737087663263083E-003;1.144216977991164E-003;
2.412166666666667E+009;1.670628190040588E-001;-3.946429118514061E-002;-2.626247238367796E-003;1.130878576077521E-003;
2.412333333333334E+009;1.669016331434250E-001;-4.042341560125351E-002;-2.503381576389074E-003;1.068991608917713E-003;
2.412500000000000E+009;1.662196964025497E-001;-4.140017926692963E-002;-2.332844538614154E-003;1.015091431327164E-003;
2.412666666666667E+009;1.661562770605087E-001;-4.252989217638969E-002;-2.394506474956870E-003;1.264250488020480E-003;
2.412833333333334E+009;1.656878739595413E-001;-4.355468600988388E-002;-2.322920830920339E-003;8.545581949874759E-004;
2.413000000000000E+009;1.651804149150848E-001;-4.448029398918152E-002;-2.259895205497742E-003;9.626182727515698E-004;
2.413166666666667E+009;1.647597998380661E-001;-4.562022164463997E-002;-2.438897732645273E-003;1.067775301635265E-003;
2.413333333333334E+009;1.643781214952469E-001;-4.652770608663559E-002;-2.362756757065654E-003;1.069577061571181E-003;
2.413500000000000E+009;1.638457626104355E-001;-4.759087041020393E-002;-2.342628315091133E-003;9.772194316610694E-004;
2.413666666666667E+009;1.635087132453919E-001;-4.866720363497734E-002;-2.402309328317642E-003;1.040341565385461E-003;
2.413833333333334E+009;1.630142480134964E-001;-4.963387921452522E-002;-2.656973898410797E-003;1.017577713355422E-003;
2.414000000000000E+009;1.624477058649063E-001;-5.067535862326622E-002;-2.549447352066636E-003;9.791081538423896E-004;
2.414166666666667E+009;1.621472537517548E-001;-5.153267085552216E-002;-2.808746648952365E-003;1.017807051539421E-003;
2.414333333333334E+009;1.618065237998962E-001;-5.247152224183083E-002;-2.804144751280546E-003;1.035430817864835E-003;
2.414500000000000E+009;1.617416888475418E-001;-5.349818989634514E-002;-2.612983109429479E-003;1.107894699089229E-003;
2.414666666666667E+009;1.611848026514053E-001;-5.446461215615273E-002;-2.723610494285822E-003;1.218978082761169E-003;
2.414833333333334E+009;1.611209958791733E-001;-5.550977587699890E-002;-3.008120693266392E-003;1.426946138963103E-003;
2.415000000000000E+009;1.606291979551315E-001;-5.646987631917000E-002;-2.934248652309179E-003;1.486482797190547E-003;
2.415166666666667E+009;1.605193018913269E-001;-5.759904161095619E-002;-3.023818833753467E-003;1.648603123612702E-003;
2.415333333333334E+009;1.605292856693268E-001;-5.857750773429871E-002;-2.910275012254715E-003;1.711269374936819E-003;
2.415500000000000E+009;1.603616774082184E-001;-5.980504304170609E-002;-2.920721191912890E-003;1.889906357973814E-003;
2.415666666666667E+009;1.601857095956802E-001;-6.082488968968391E-002;-3.164393128827214E-003;1.939314184710383E-003;
2.415833333333334E+009;1.600409448146820E-001;-6.204137951135635E-002;-3.139273263514042E-003;2.141112694516778E-003;
2.416000000000000E+009;1.597105413675308E-001;-6.322830915451050E-002;-3.191000549122691E-003;2.199016977101564E-003;
2.416166666666667E+009;1.597277671098709E-001;-6.442440301179886E-002;-3.006460610777140E-003;2.480974653735757E-003;
2.416333333333334E+009;1.594547331333160E-001;-6.558527052402496E-002;-2.990956651046872E-003;2.803257200866938E-003;
2.416500000000000E+009;1.592764854431152E-001;-6.685290485620499E-002;-3.018548944965005E-003;2.993436763063073E-003;
2.416666666666667E+009;1.590065509080887E-001;-6.786201149225235E-002;-2.918320009484887E-003;3.301264252513647E-003;
2.416833333333334E+009;1.587630361318588E-001;-6.914951652288437E-002;-2.914713695645332E-003;3.477212740108371E-003;
2.417000000000000E+009;1.582317501306534E-001;-7.026106119155884E-002;-2.454923465847969E-003;3.585938829928637E-003;
2.417166666666667E+009;1.580287665128708E-001;-7.122728973627091E-002;-2.351368777453899E-003;3.904045326635242E-003;
2.417333333333334E+009;1.577238142490387E-001;-7.222178578376770E-002;-2.191409002989531E-003;4.131449386477470E-003;
2.417500000000000E+009;1.573299318552017E-001;-7.339684665203095E-002;-1.875513931736350E-003;4.300632979720831E-003;
2.417666666666667E+009;1.572092026472092E-001;-7.425018399953842E-002;-1.611400395631790E-003;4.242066759616137E-003;
2.417833333333334E+009;1.570049375295639E-001;-7.499023526906967E-002;-1.253411988727748E-003;4.379011224955320E-003;
2.418000000000000E+009;1.564495116472244E-001;-7.615153491497040E-002;-1.051595783792436E-003;4.353710915893316E-003;
2.418166666666667E+009;1.562168747186661E-001;-7.677945494651794E-002;-7.091221050359309E-004;4.454136826097965E-003;
2.418333333333334E+009;1.560658514499664E-001;-7.761880010366440E-002;-5.211565876379609E-004;4.225819371640682E-003;
2.418500000000000E+009;1.556552201509476E-001;-7.843344658613205E-002;-2.059417311102152E-004;4.135943949222565E-003;
2.418666666666667E+009;1.554892957210541E-001;-7.921607047319412E-002;-5.017867442802526E-005;4.079640377312899E-003;
2.418833333333334E+009;1.548533141613007E-001;-7.996100187301636E-002;1.562585384817794E-004;3.607824211940169E-003;
2.419000000000000E+009;1.545367687940598E-001;-8.063971251249313E-002;1.617101515876129E-004;3.783467924222350E-003;
2.419166666666667E+009;1.543967872858048E-001;-8.132706582546234E-002;3.001608420163393E-004;3.649372840300202E-003;
2.419333333333334E+009;1.537305116653442E-001;-8.167169243097305E-002;4.100819642189890E-004;3.467229893431068E-003;
2.419500000000000E+009;1.534556448459625E-001;-8.262789249420166E-002;5.603079334832728E-004;3.381384536623955E-003;
2.419666666666667E+009;1.532057970762253E-001;-8.307541161775589E-002;5.322853103280067E-004;3.374496707692742E-003;
2.419833333333334E+009;1.527386754751205E-001;-8.362533897161484E-002;5.046494188718498E-004;3.270687069743872E-003;
2.420000000000000E+009;1.525234431028366E-001;-8.425249904394150E-002;5.621887394227088E-004;3.127090632915497E-003;
2.420166666666667E+009;1.521461009979248E-001;-8.471111953258514E-002;4.572643083520234E-004;3.144562244415283E-003;
2.420333333333334E+009;1.517679244279862E-001;-8.532483130693436E-002;4.951191949658096E-004;3.146215109154582E-003;
2.420500000000000E+009;1.514731496572495E-001;-8.581501990556717E-002;5.295469891279936E-004;3.104042261838913E-003;
2.420666666666667E+009;1.509823203086853E-001;-8.630430698394775E-002;4.443851066753268E-004;3.038050839677453E-003;
2.420833333333334E+009;1.507444679737091E-001;-8.708222955465317E-002;6.013622623868287E-004;2.972456160932779E-003;
2.421000000000000E+009;1.502052396535873E-001;-8.792033046483994E-002;5.202105385251343E-004;3.075163578614593E-003;
2.421166666666667E+009;1.497341394424439E-001;-8.840738981962204E-002;6.475830450654030E-004;3.080254886299372E-003;
2.421333333333334E+009;1.492860764265060E-001;-8.904808759689331E-002;6.056983838789165E-004;2.997168572619557E-003;
2.421500000000000E+009;1.486823707818985E-001;-8.958046883344650E-002;8.653879631310701E-004;3.181174164637923E-003;
2.421666666666667E+009;1.483986079692841E-001;-9.055024385452271E-002;8.176981355063617E-004;3.136757062748075E-003;
2.421833333333334E+009;1.478595733642578E-001;-9.104059636592865E-002;9.836901444941759E-004;3.231965936720371E-003;
2.422000000000000E+009;1.470910459756851E-001;-9.193851053714752E-002;1.016272930428386E-003;3.356759902089834E-003;
2.422166666666667E+009;1.465172767639160E-001;-9.293699264526367E-002;1.102966838516295E-003;3.285980550572276E-003;
2.422333333333334E+009;1.460666656494141E-001;-9.348697215318680E-002;1.071916776709259E-003;3.314034547656775E-003;
2.422500000000000E+009;1.453406810760498E-001;-9.423580020666122E-002;1.260506687685847E-003;3.367783268913627E-003;
2.422666666666667E+009;1.447325050830841E-001;-9.515747427940369E-002;1.476659672334790E-003;3.561882534995675E-003;
2.422833333333334E+009;1.440528184175491E-001;-9.609542042016983E-002;1.584360841661692E-003;3.466872964054346E-003;
2.423000000000000E+009;1.433591991662979E-001;-9.683917462825775E-002;1.775221084244549E-003;3.345536300912499E-003;
2.423166666666667E+009;1.428898870944977E-001;-9.786309301853180E-002;1.861647237092257E-003;3.441683249548078E-003;
2.423333333333334E+009;1.423468738794327E-001;-9.852859377861023E-002;1.996126491576433E-003;3.130484605208039E-003;
2.423500000000000E+009;1.416250765323639E-001;-9.957037866115570E-002;2.297028899192810E-003;3.242961829528213E-003;
2.423666666666667E+009;1.408019512891769E-001;-1.006600335240364E-001;2.285219263285399E-003;3.042379161342979E-003;
2.423833333333334E+009;1.402792185544968E-001;-1.015498191118240E-001;2.614790340885520E-003;2.985546831041575E-003;
2.424000000000000E+009;1.396077424287796E-001;-1.025499850511551E-001;2.699262695387006E-003;2.819871529936791E-003;
2.424166666666667E+009;1.388454437255859E-001;-1.035937219858170E-001;2.751546679064632E-003;2.721575088799000E-003;
2.424333333333334E+009;1.383189707994461E-001;-1.044007018208504E-001;2.843342255800962E-003;2.829068573191762E-003;
2.424500000000000E+009;1.376187801361084E-001;-1.054903790354729E-001;2.938851248472929E-003;2.606256632134318E-003;
2.424666666666667E+009;1.372446417808533E-001;-1.062678620219231E-001;3.162450855597854E-003;2.461739582940936E-003;
2.424833333333334E+009;1.364265978336334E-001;-1.073428615927696E-001;3.085159230977297E-003;2.231620717793703E-003;
2.425000000000000E+009;1.360091269016266E-001;-1.082289367914200E-001;3.212523879483342E-003;2.233309671282768E-003;
2.425166666666667E+009;1.352499425411224E-001;-1.093153282999992E-001;3.243173239752650E-003;2.018724568188191E-003;
2.425333333333334E+009;1.348365098237991E-001;-1.103807613253593E-001;3.326175967231393E-003;1.869070343673229E-003;
2.425500000000000E+009;1.344940364360809E-001;-1.112442389130592E-001;3.452337812632322E-003;1.877320930361748E-003;
2.425666666666667E+009;1.337497979402542E-001;-1.121710538864136E-001;3.488132962957025E-003;1.609275816008449E-003;
2.425833333333334E+009;1.333698928356171E-001;-1.131538748741150E-001;3.787464462220669E-003;1.473900396376848E-003;
2.426000000000000E+009;1.328414678573608E-001;-1.143185347318649E-001;3.728762967512012E-003;1.376247848384082E-003;
2.426166666666667E+009;1.326793432235718E-001;-1.151818111538887E-001;3.815472358837724E-003;1.061567920260131E-003;
2.426333333333334E+009;1.320613771677017E-001;-1.161255612969399E-001;3.832530928775668E-003;9.897053241729736E-004;
2.426500000000000E+009;1.316587626934052E-001;-1.170210391283035E-001;3.911301493644714E-003;6.951815448701382E-004;
2.426666666666667E+009;1.314284056425095E-001;-1.178731843829155E-001;3.837310476228595E-003;3.964988864026964E-004;
2.426833333333334E+009;1.309654861688614E-001;-1.186429113149643E-001;3.771304385736585E-003;8.272116974694654E-005;
2.427000000000000E+009;1.305826157331467E-001;-1.194884479045868E-001;3.703386988490820E-003;-1.566810969961807E-004;
2.427166666666667E+009;1.302092522382736E-001;-1.201334521174431E-001;3.454312682151794E-003;-2.481140545569360E-004;
2.427333333333334E+009;1.298065036535263E-001;-1.208784878253937E-001;3.457485232502222E-003;-6.080588791519404E-004;
2.427500000000000E+009;1.296339929103851E-001;-1.214809939265251E-001;3.111712867394090E-003;-6.481938180513680E-004;
2.427666666666667E+009;1.291806250810623E-001;-1.223280429840088E-001;2.945834072306752E-003;-6.708793807774782E-004;
