# Hz S RI R 50
2400000000.0000000000 0.155198246240615789215411268742 0.107238307595253004600444057814 -0.003808890469372272925135947119 0.000929292815271764993667602539 0 0 0 0 
2400166666.6666665077 0.154808431863784790039062500000 0.104818530380725902229066548443 -0.003725373651832342147827148438 0.001047423109412193081499409253 0 0 0 0 
2400333333.3333334923 0.154858797788619995117187500000 0.102445371448993696739115932814 -0.003753616707399487929103232275 0.001036741305142641067504882812 0 0 0 0 
2400500000.0000000000 0.154720544815063504318075615629 0.099849738180637359619140625000 -0.003614017507061361832859658350 0.001133249374106525941136025537 0 0 0 0 
2400666666.6666665077 0.154887810349464388748330634371 0.097451783716678619384765625000 -0.003557209856808186011073447119 0.001379637862555683092830038916 0 0 0 0 
2400833333.3333334923 0.154966294765472412109375000000 0.094390898942947387695312500000 -0.003640247974544763998744345557 0.001148340175859630107879638672 0 0 0 0 
2401000000.0000000000 0.155055522918701199630575615629 0.091451838612556457519531250000 -0.003507927758619188828709267725 0.001516791176982223987579345703 0 0 0 0 
2401166666.6666665077 0.155278280377388000488281250000 0.088616043329238891601562500000 -0.003464286448433994813206338037 0.001559057855047285990474081885 0 0 0 0 
2401333333.3333334923 0.155639916658401489257812500000 0.085906647145748138427734375000 -0.003450363175943493843078613281 0.001622673938982188918470073169 0 0 0 0 
2401500000.0000000000 0.156032577157020596603231865629 0.083020485937595367431640625000 -0.003501975676044822172877646338 0.001884078490547836043714213794 0 0 0 0 
2401666666.6666665077 0.156372711062431307693643134371 0.080110661685466766357421875000 -0.003331935266032814979553222656 0.002095070434734224839451455225 0 0 0 0 
2401833333.3333334923 0.156766340136527987381143134371 0.077272139489650726318359375000 -0.003246543230488895936253213037 0.001988258911296724839451455225 0 0 0 0 
2402000000.0000000000 0.157787680625915499588174384371 0.074666798114776611328125000000 -0.003286107676103711128234863281 0.002121360274031757874729775537 0 0 0 0 
2402166666.6666665077 0.158399879932403592208700615629 0.072058007121086120605468750000 -0.003031000494956970214843750000 0.002187107456848024888279580225 0 0 0 0 
2402333333.3333334923 0.159566789865493802169638115629 0.069276593625545501708984375000 -0.002988533582538365884068154443 0.002249328419566154913661337744 0 0 0 0 
2402500000.0000000000 0.160728052258491488357705634371 0.066607877612113952636718750000 -0.003007104620337485833408974756 0.002397983567789196968078613281 0 0 0 0 
2402666666.6666665077 0.161815434694290188888388115629 0.064359076321125030517578125000 -0.002897339640185236930847167969 0.002347630215808749198913574219 0 0 0 0 
2402833333.3333334923 0.163153842091560391525106865629 0.061836928129196166992187500000 -0.002861517248675227165222167969 0.002411594614386558966395712744 0 0 0 0 
2403000000.0000000000 0.164666369557380704025106865629 0.059587728232145309448242187500 -0.002895844634622335000279091943 0.002515839645639061927795410156 0 0 0 0 
2403166666.6666665077 0.166361987590789794921875000000 0.057298101484775543212890625000 -0.002771227853372693061828613281 0.002686605788767337799072265625 0 0 0 0 
2403333333.3333334923 0.167950898408889798263388115629 0.055109951645135879516601562500 -0.002892985474318265914916992188 0.002674143761396408081054687500 0 0 0 0 
2403500000.0000000000 0.169617235660553006271200615629 0.052955538034439086914062500000 -0.002862201537936925888061523438 0.002682498656213283972499228369 0 0 0 0 
2403666666.6666665077 0.171486616134643610198651231258 0.051024217158555977558176408593 -0.002682915190234779877903603662 0.002944407518953084945678710938 0 0 0 0 
2403833333.3333334923 0.173080697655677795410156250000 0.049144539982080459594726562500 -0.002830270212143660025355673682 0.002960392972454429106471396338 0 0 0 0 
2404000000.0000000000 0.174702122807502802093182481258 0.047538246959447860717773437500 -0.002756076399236917929408408057 0.003265201346948742866516113281 0 0 0 0 
2404166666.6666665077 0.176416128873825100997763115629 0.045900747179985053325612653907 -0.002644514199346303939819335938 0.003367882687598466873168945312 0 0 0 0 
2404333333.3333334923 0.177851855754852294921875000000 0.044362585991621017456054687500 -0.002558022039011120796203613281 0.003518835408613086180446005713 0 0 0 0 
2404500000.0000000000 0.179814442992210388183593750000 0.043132033199071877216379533593 -0.002405403414741158919093466650 0.003670363919809461073634482275 0 0 0 0 
2404666666.6666665077 0.181342914700508089920205634371 0.041835512965917587280273437500 -0.002301991684362291856053017725 0.003915837500244379043579101562 0 0 0 0 
2404833333.3333334923 0.182833716273307800292968750000 0.040816076099872589111328125000 -0.002155524911358952955958701025 0.004004902206361293792724609375 0 0 0 0 
2405000000.0000000000 0.184427365660667391678018134371 0.039773449301719672466237653907 -0.001905917190015316009521484375 0.004223693627864122390747070312 0 0 0 0 
2405166666.6666665077 0.185583889484405489822549384371 0.039531290531158447265625000000 -0.001617828151211142973658896338 0.004310164134949445724487304688 0 0 0 0 
2405333333.3333334923 0.187527820467948913574218750000 0.038736522197723388671875000000 -0.001513024792075156948686909253 0.004315869882702828320975019238 0 0 0 0 
2405500000.0000000000 0.189065769314765902420205634371 0.038017261773347861553151716407 -0.001370794838294387080548930591 0.004214412067085505399222089551 0 0 0 0 
2405666666.6666665077 0.190050438046455411056356865629 0.038060881197452552104909528907 -0.001068885088898241953608847510 0.004301805980503559112548828125 0 0 0 0 
2405833333.3333334923 0.191369831562042208572549384371 0.037813946604728698730468750000 -0.000791004335042089223861694336 0.004312397912144660949707031250 0 0 0 0 
2406000000.0000000000 0.192374646663665799239950615629 0.037653472274541861797292341407 -0.000622185412794351577758789062 0.004428478889167308807373046875 0 0 0 0 
2406166666.6666665077 0.193440809845924405196981865629 0.037427294999361038208007812500 -0.000402198260417208075523376465 0.004285772796720266342163085938 0 0 0 0 
2406333333.3333334923 0.194365888833999606033486884371 0.037594471126794822002370466407 -0.000370444584405049681663513184 0.004167975392192602157592773438 0 0 0 0 
2406500000.0000000000 0.195086017251014709472656250000 0.037662431597709662700612653907 -0.000220236659515649107381543570 0.004115293733775615692138671875 0 0 0 0 
2406666666.6666665077 0.195714488625526400467080634371 0.037569202482700347900390625000 -0.000134242698550224304199218750 0.004102238453924655914306640625 0 0 0 0 
2406833333.3333334923 0.196354016661644009689169365629 0.037675496190786361694335937500 0.000059975689509883522987365723 0.003882548771798611120936728369 0 0 0 0 
2407000000.0000000000 0.196539342403411892989950615629 0.037997268140316009521484375000 0.000217237960896454805701655255 0.003976560663431882858276367188 0 0 0 0 
2407166666.6666665077 0.196890532970428494552450615629 0.037640031427144997333567033593 0.000314672273816540783077794208 0.004010834731161594390869140625 0 0 0 0 
2407333333.3333334923 0.196913868188858004470986884371 0.037742782384157180786132812500 0.000476561574032530188560485840 0.003941033501178026199340820312 0 0 0 0 
2407500000.0000000000 0.196733951568603487869424384371 0.037880070507526397705078125000 0.000550868688151240348815917969 0.003814250463619827790501259912 0 0 0 0 
2407666666.6666665077 0.196698203682899502853231865629 0.037921562790870673442800153907 0.000575081736315041780471801758 0.003787260036915541128871298682 0 0 0 0 
2407833333.3333334923 0.196284651756286593338174384371 0.037764679640531539916992187500 0.000697724346537142992019653320 0.003723952453583478927612304688 0 0 0 0 
2408000000.0000000000 0.195990249514579800704794365629 0.037473898380994796752929687500 0.000739567447453737258911132812 0.003790083108469843864440917969 0 0 0 0 
2408166666.6666665077 0.195328265428543090820312500000 0.037238970398902893066406250000 0.000941933190915733575820922852 0.003785458393394947052001953125 0 0 0 0 
2408333333.3333334923 0.195123091340065002441406250000 0.036883652210235602642018903907 0.000995643204078078269958496094 0.003614767221733928160426474463 0 0 0 0 
2408500000.0000000000 0.194275721907615689376669365629 0.036363802850246429443359375000 0.000723172153811901807785034180 0.003447454422712326049804687500 0 0 0 0 
2408666666.6666665077 0.193646639585494995117187500000 0.036152806133031852031667341407 0.001303606317378581003901816260 0.003286636201664804978611611475 0 0 0 0 
2408833333.3333334923 0.192916020750999506194744981258 0.035065930336713790893554687500 0.001064971904270350933074951172 0.003332213964313269095179892432 0 0 0 0 
2409000000.0000000000 0.191791176795959500411825615629 0.034156974405050277709960937500 0.000893420539796352386474609375 0.003497832221910357908961630713 0 0 0 0 
2409166666.6666665077 0.190893486142158508300781250000 0.033189266920089721679687500000 0.000986486673355102539062500000 0.003118055174127221107482910156 0 0 0 0 
2409333333.3333334923 0.190149664878845187088174384371 0.032352302223443991924245466407 0.001182874781079590103746723706 0.003213417250663042068481445312 0 0 0 0 
2409500000.0000000000 0.188904732465743990799111884371 0.031020266935229301452636718750 0.001116224797442554993870400537 0.003220108104869722886326455225 0 0 0 0 
2409666666.6666665077 0.187824681401252802093182481258 0.029710497707128531719167341407 0.001036092988215387084363627856 0.003235468175262213186976767432 0 0 0 0 
2409833333.3333334923 0.186605945229530306717080634371 0.028153263032436370849609375000 0.001111491816118359999415732275 0.003456292441114782853367470850 0 0 0 0 
2410000000.0000000000 0.185673549771308898925781250000 0.026557086035609248769739920704 0.001274308073334396102307963794 0.003346646903082727952244423975 0 0 0 0 
2410166666.6666665077 0.184562936425209100921307481258 0.024621890857815739023228829296 0.001292398199439048983930278247 0.003244761843234301047084189307 0 0 0 0 
2410333333.3333334923 0.183622762560844393631143134371 0.022849902510643008840540701954 0.001359533867798746065852499854 0.003511972725391387939453125000 0 0 0 0 
2410500000.0000000000 0.182631745934486389160156250000 0.020918127149343490600585937500 0.001403663191013037941576313550 0.003468690905719995932338095557 0 0 0 0 
2410666666.6666665077 0.181594595313072204589843750000 0.018526617437601089477539062500 0.001516113872639835097669291919 0.003508769441395998001098632812 0 0 0 0 
2410833333.3333334923 0.180988937616348294357138115629 0.016459299251437190664271170704 0.001612752676010132052777934497 0.003487523179501295089721679688 0 0 0 0 
2411000000.0000000000 0.180205866694450406173544365629 0.014217377640306949615478515625 0.002003142144531012015101767432 0.003503890940919518904445029150 0 0 0 0 
2411166666.6666665077 0.179543256759643610198651231258 0.012079825624823570251464843750 0.002065610140562057928798056494 0.003552066860720514817478798975 0 0 0 0 
2411333333.3333334923 0.179066136479377802093182481258 0.009504782035946846008300781250 0.002215510234236716790440224756 0.003589581465348600907566689600 0 0 0 0 
2411500000.0000000000 0.178500026464462308029013115629 0.007106267381459475430960370801 0.002252436475828289985656738281 0.003592168446630239920375204932 0 0 0 0 
2411666666.6666665077 0.178270012140274103362713731258 0.004725797101855278015136718750 0.002452828688547015190124511719 0.003270806511864066123962402344 0 0 0 0 
2411833333.3333334923 0.178049474954605102539062500000 0.002435692120343447165248251807 0.002492919098585844039916992188 0.003451670752838253974914550781 0 0 0 0 
2412000000.0000000000 0.178125604987144497970419365629 -0.000250699813477694988250732422 0.002787108765915036201477050781 0.003379361703991889953613281250 0 0 0 0 
2412166666.6666665077 0.178106859326362609863281250000 -0.002494342159479856924769736182 0.002933685202151536941528320312 0.003159212879836558861973427881 0 0 0 0 
2412333333.3333334923 0.178461998701095608810263115629 -0.004980499856173992156982421875 0.003159312764182686805725097656 0.003026739694178103966953896631 0 0 0 0 
2412500000.0000000000 0.178845778107643099685830634371 -0.007404012139886617660522460938 0.003288023173809051947352743994 0.003098881104961038069484091650 0 0 0 0 
2412666666.6666665077 0.179333254694938687423544365629 -0.009950234554708003997802734375 0.003382528899237513975856161963 0.002878565108403563933131552588 0 0 0 0 
2412833333.3333334923 0.180049434304237393478231865629 -0.012416034005582329141637032421 0.003510903799906373023986816406 0.002719917567446827888488769531 0 0 0 0 
2413000000.0000000000 0.180719599127769497970419365629 -0.014710306189954280853271484375 0.003559559118002653121948242188 0.002479427959769963784458779443 0 0 0 0 
2413166666.6666665077 0.181560695171356201171875000000 -0.017003133893013000488281250000 0.003854347625747323036193847656 0.002375038573518394990208291162 0 0 0 0 
2413333333.3333334923 0.182521924376487704178018134371 -0.019113484770059589040736014454 0.003875297494232655005214072119 0.002105519874021410942077636719 0 0 0 0 
2413500000.0000000000 0.183365851640701293945312500000 -0.021485550329089171672780622657 0.003914492204785346984863281250 0.001914600143209099986432719653 0 0 0 0 
2413666666.6666665077 0.184598252177238492111044365629 -0.023624891415238380432128906250 0.004020278807729482650756835938 0.001759696169756352901458740234 0 0 0 0 
2413833333.3333334923 0.185746192932128906250000000000 -0.025629341602325439453125000000 0.003961051348596811294555664062 0.001659846049733459949493408203 0 0 0 0 
2414000000.0000000000 0.186808153986930902679119981258 -0.027620898559689518320103829296 0.003888579783961176872253417969 0.001464959117583930926081992041 0 0 0 0 
2414166666.6666665077 0.188050314784049987792968750000 -0.029351638630032539367675781250 0.003910653293132781982421875000 0.001271337154321372942683554541 0 0 0 0 
2414333333.3333334923 0.189327821135520907303018134371 -0.031404580920934677124023437500 0.003893217537552117867710732568 0.001232567476108670017839741284 0 0 0 0 
2414500000.0000000000 0.190747112035751287262286268742 -0.032872576266527182842214216407 0.003777217585593461990356445312 0.001083354698494076945661235278 0 0 0 0 
2414666666.6666665077 0.191688984632492093185263115629 -0.034290965646505362773854841407 0.003780294908210635185241699219 0.000876123260241001844406127930 0 0 0 0 
2414833333.3333334923 0.192939117550849886795205634371 -0.035726319998502731323242187500 0.003854792332276701927185058594 0.000778565357904881238937377930 0 0 0 0 
2415000000.0000000000 0.193966150283813504318075615629 -0.036937322467565543437917341407 0.004018344916403293609619140625 0.000799367029685527086257934570 0 0 0 0 
2415166666.6666665077 0.195428252220153808593750000000 -0.038123827427625663066823591407 0.003914910834282636642456054688 0.000520714442245662212371826172 0 0 0 0 
2415333333.3333334923 0.196346417069435091873330634371 -0.038915533572435379028320312500 0.003988519776612520217895507812 0.000428281666245311498641967773 0 0 0 0 
2415500000.0000000000 0.197652772068977411468182481258 -0.039616242051124572753906250000 0.003828734857961535887477255713 0.000205898628337308791562756949 0 0 0 0 
2415666666.6666665077 0.198658287525177001953125000000 -0.040447756648063659667968750000 0.003824810963124036788940429688 0.000183794487384147887856084003 0 0 0 0 
2415833333.3333334923 0.199449360370635986328125000000 -0.040993787348270423198659528907 0.003804620588198304176330566406 -0.000025219875169568698516095809 0 0 0 0 
2416000000.0000000000 0.200257852673530606368856865629 -0.041616592556238167499582658593 0.003783628111705183982849121094 0.000063172454247251152992248535 0 0 0 0 
2416166666.6666665077 0.201094403862953213790731865629 -0.042164921760559082031250000000 0.003646830562502146200892783057 -0.000106599341961555196486334529 0 0 0 0 
2416333333.3333334923 0.201712295413017300704794365629 -0.042383000254631042480468750000 0.003717542625963687896728515625 -0.000158280337927863001823425293 0 0 0 0 
2416500000.0000000000 0.202199369668960599044638115629 -0.042497731745243072509765625000 0.003627808066084980964660644531 -0.000335082906531170010566711426 0 0 0 0 
2416666666.6666665077 0.202440068125724792480468750000 -0.042960293591022491455078125000 0.003548262873664497895481728662 -0.000371736008673906326293945312 0 0 0 0 
2416833333.3333334923 0.202621266245842007736044365629 -0.042950578033924102783203125000 0.003496128832921386198756552588 -0.000407122948672622388035374774 0 0 0 0 
2417000000.0000000000 0.202607572078704806228799384371 -0.043121382594108581542968750000 0.003579411888495088057277060400 -0.000648195156827569007873535156 0 0 0 0 
2417166666.6666665077 0.202481374144554110428018134371 -0.042995691299438476562500000000 0.003609950421378016905543661963 -0.000656930846162140369415283203 0 0 0 0 
2417333333.3333334923 0.202245175838470486739950615629 -0.042709525674581527709960937500 0.003627975238487124009373330225 -0.000700013188179582357406616211 0 0 0 0 
2417500000.0000000000 0.201949223875999506194744981258 -0.042790293693542480468750000000 0.003581819357350469069239951025 -0.000723227683920413255691528320 0 0 0 0 
2417666666.6666665077 0.201423525810241699218750000000 -0.042485795915126800537109375000 0.003604224650189280943629599463 -0.000908638758119195699691772461 0 0 0 0 
2417833333.3333334923 0.201044335961341913421307481258 -0.042288847267627723003347028907 0.003392417915165423913242959131 -0.001061751390807331042048788916 0 0 0 0 
2418000000.0000000000 0.200351044535636901855468750000 -0.042121592909097671508789062500 0.003505946835502982139587402344 -0.001089734956622123935102153247 0 0 0 0 
2418166666.6666665077 0.199547082185745211502236884371 -0.041907679289579391479492187500 0.003433603793382645087001181494 -0.001093380618840456008911132812 0 0 0 0 
2418333333.3333334923 0.198628246784210205078125000000 -0.041749648749828338623046875000 0.003502647625282406806945800781 -0.001321891788393259048461914062 0 0 0 0 
2418500000.0000000000 0.197501122951507596114950615629 -0.041747789829969413066823591407 0.003463024040684103965759277344 -0.001495425589382648901698447119 0 0 0 0 
2418666666.6666665077 0.196613475680351312835369981258 -0.041638009250164031982421875000 0.003302798839285970167872763525 -0.001692284364253282980677939307 0 0 0 0 
2418833333.3333334923 0.195369258522987393478231865629 -0.041711915284395217895507812500 0.003193436888977884812595986475 -0.001596714952029288031934428638 0 0 0 0 
2419000000.0000000000 0.194008603692054804046307481258 -0.041932504624128341674804687500 0.003028753446415067152736044775 -0.001698194071650505065917968750 0 0 0 0 
2419166666.6666665077 0.192701607942581204513388115629 -0.042324826121330261230468750000 0.002999301534146070914027548682 -0.001864049234427511908887553638 0 0 0 0 
2419333333.3333334923 0.191250920295715304275674384371 -0.042666248977184302593190778907 0.002957083750516175790074013818 -0.001882588141597806973698281396 0 0 0 0 
2419500000.0000000000 0.189857572317123413085937500000 -0.043220642954111099243164062500 0.002816131105646491050720214844 -0.001902657910250127098680805737 0 0 0 0 
2419666666.6666665077 0.188318401575088500976562500000 -0.043851181864738457416574846093 0.002780036535114049911499023438 -0.002030091825872660116908408057 0 0 0 0 
2419833333.3333334923 0.186719894409179687500000000000 -0.044596586376428597187082658593 0.002647074870765209197998046875 -0.001894566579721868038177490234 0 0 0 0 
2420000000.0000000000 0.185110315680503900725994981258 -0.045515522360801696777343750000 0.002785600023344159126281738281 -0.001973017118871212005615234375 0 0 0 0 
