# Hz S RI R 50
2400000000.0000000000 0.168813273310661288162393134371 0.046954791992902762676198591407 -0.001109766308218240954755473560 0.002492616418749094009399414062 0 0 0 0 
2400166666.6666665077 0.169797211885452298263388115629 0.046118620783090591430664062500 -0.001114428043365478949305868994 0.002510251710191369056701660156 0 0 0 0 
2400333333.3333334923 0.170579746365547207931356865629 0.044825680553913123393972028907 -0.001330301980488002083422016675 0.002516562584787607192993164062 0 0 0 0 
2400500000.0000000000 0.171692118048667907714843750000 0.043904520571231842041015625000 -0.001299986033700406985041952979 0.002538838656619191169738769531 0 0 0 0 
2400666666.6666665077 0.172315478324890108963174384371 0.042996600270271301269531250000 -0.001396926003508270003675151294 0.002415358321741222901585244287 0 0 0 0 
2400833333.3333334923 0.173207238316536005218182481258 0.042327661067247390747070312500 -0.001601459807716310024261474609 0.002511393278837203979492187500 0 0 0 0 
2401000000.0000000000 0.173960998654365511795205634371 0.041530236601829528808593750000 -0.001499554375186562971827841650 0.002612212439998983903172158350 0 0 0 0 
2401166666.6666665077 0.174782991409301813323651231258 0.040788270533084869384765625000 -0.001713542966172098896623920972 0.002519658301025629043579101562 0 0 0 0 
2401333333.3333334923 0.175443604588508605957031250000 0.040063221007585532451589216407 -0.001718374202027916908264160156 0.002757215639576315879821777344 0 0 0 0 
2401500000.0000000000 0.176081031560897799392861884371 0.039518885314464569091796875000 -0.001634789630770683071733784253 0.002673245733603835105895996094 0 0 0 0 
2401666666.6666665077 0.176728129386901910979901231258 0.038992211222648620605468750000 -0.001755209756083786921260214697 0.002972231945022941069362021338 0 0 0 0 
2401833333.3333334923 0.177238598465919494628906250000 0.038170397281646728515625000000 -0.001809632754884660027147602612 0.003015230176970363096949911963 0 0 0 0 
2402000000.0000000000 0.177656009793281610686932481258 0.037621095776557922363281250000 -0.001630637911148369095445942456 0.003056748071685432954075478662 0 0 0 0 
2402166666.6666665077 0.178039267659187289138955634371 0.036871924996376037597656250000 -0.001534891081973909898045205225 0.003354467451572418212890625000 0 0 0 0 
2402333333.3333334923 0.178309008479118402679119981258 0.036246865987777709960937500000 -0.001465228153392672972438193213 0.003472927259281278090236044775 0 0 0 0 
2402500000.0000000000 0.179078429937362698654013115629 0.035645689815282821655273437500 -0.001583037199452518983128213037 0.003432953497394918961765908350 0 0 0 0 
2402666666.6666665077 0.179088383913040188888388115629 0.035210445523262016986887346093 -0.001546694315038620991947793115 0.003549617249518632888793945312 0 0 0 0 
2402833333.3333334923 0.179111808538436889648437500000 0.034326724708080291748046875000 -0.001314918277785181999206542969 0.003645578632131218910217285156 0 0 0 0 
2403000000.0000000000 0.179226323962211608886718750000 0.033487163484096527099609375000 -0.001253931084647774913190532153 0.003751185024157166914698935400 0 0 0 0 
2403166666.6666665077 0.179494708776473999023437500000 0.032522991299629211425781250000 -0.001207587425597012042999267578 0.003804427804425359205958701025 0 0 0 0 
2403333333.3333334923 0.179317310452461187164630018742 0.031687088310718543315847028907 -0.001022868789732455990434956128 0.003829604014754294915440224756 0 0 0 0 
2403500000.0000000000 0.179089546203613309005575615629 0.030725106596946719778040701954 -0.000910029280930757522583007812 0.003977333661168813705444335938 0 0 0 0 
2403666666.6666665077 0.178673699498176602462606865629 0.029586300253868099557896798046 -0.000700245145708322525024414062 0.004115366376936435699462890625 0 0 0 0 
2403833333.3333334923 0.178668722510337801834268134371 0.028499936684966090810755545704 -0.000750487146433442831039428711 0.004155798815190792083740234375 0 0 0 0 
2404000000.0000000000 0.178376287221908597091513115629 0.027554895728826519357701485546 -0.000668379652779549360275268555 0.004396185278892517089843750000 0 0 0 0 
2404166666.6666665077 0.177776992321014404296875000000 0.026203611865639690053919608204 -0.000420885073253884911537170410 0.004432101268321275711059570312 0 0 0 0 
2404333333.3333334923 0.177429020404815701583700615629 0.024887681007385250436803048046 -0.000326252542436122894287109375 0.004454561509191989898681640625 0 0 0 0 
2404500000.0000000000 0.176778107881545992752236884371 0.023334236815571788442591483204 -0.000136233837110921713426867075 0.004599730949848890304565429688 0 0 0 0 
2404666666.6666665077 0.176500290632247897049111884371 0.022070705890655521047571951954 0.000044279218855081132870128019 0.004730608314275741577148437500 0 0 0 0 
2404833333.3333334923 0.175880387425422696212606865629 0.020619062706828120840052420704 0.000353826064383611083030700684 0.004835738334804773330688476562 0 0 0 0 
2405000000.0000000000 0.175732165575027493575888115629 0.019089480862021449697474295704 0.000319836370181292295455932617 0.004806678742170333862304687500 0 0 0 0 
2405166666.6666665077 0.175175815820693997482138115629 0.017320074141025539743443673046 0.000581383996177464723587036133 0.004833896178752183914184570312 0 0 0 0 
2405333333.3333334923 0.174747213721275301834268134371 0.015610426664352420461634451954 0.000703549652826040983200073242 0.004876062739640474319458007812 0 0 0 0 
2405500000.0000000000 0.174400612711906405349893134371 0.014019229449331760406494140625 0.001041101873852312998530722510 0.004754720721393823623657226562 0 0 0 0 
2405666666.6666665077 0.173975884914398193359375000000 0.012415244244039060420026210352 0.001229730900377034924150776440 0.004909859970211982727050781250 0 0 0 0 
2405833333.3333334923 0.173614576458930996993856865629 0.010508088394999500619908516796 0.001395574887283145947697304834 0.004960373044013977050781250000 0 0 0 0 
2406000000.0000000000 0.173483848571777288238848768742 0.008466593921184539794921875000 0.001740464475005865097045898438 0.004785516764968633651733398438 0 0 0 0 
2406166666.6666665077 0.173005074262618990799111884371 0.006673672236502171430105878613 0.001863156096078455014469765771 0.004886096809059382352347089551 0 0 0 0 
2406333333.3333334923 0.173066914081573486328125000000 0.004654080606997013092041015625 0.002110690809786320166346884619 0.004915337078273296356201171875 0 0 0 0 
2406500000.0000000000 0.172853052616119412521200615629 0.002683135913684964179992675781 0.002157889772206544876098632812 0.004908373579382896423339843750 0 0 0 0 
2406666666.6666665077 0.172659873962402288238848768742 0.000666959502268582582473754883 0.002587104449048637910130166162 0.004826029296964406967163085938 0 0 0 0 
2406833333.3333334923 0.172944828867912292480468750000 -0.001472506555728613896610879053 0.002868111245334147973301552881 0.004689581692218781384939862988 0 0 0 0 
2407000000.0000000000 0.172947421669959994217080634371 -0.003429251490160822868347167969 0.002912444295361638069152832031 0.004704065155237913131713867188 0 0 0 0 
2407166666.6666665077 0.173157274723053006271200615629 -0.005473125260323286056518554688 0.003134843893349171118495322119 0.004615740384906530380249023438 0 0 0 0 
2407333333.3333334923 0.173188656568527193924111884371 -0.007749097887426614761352539062 0.003469733288511633872985839844 0.004425541963428258895874023438 0 0 0 0 
2407500000.0000000000 0.173534899950027493575888115629 -0.009683127515017986297607421875 0.003670851932838559150695800781 0.004270043224096298217773437500 0 0 0 0 
2407666666.6666665077 0.173843592405319213867187500000 -0.011757165193557739257812500000 0.004033070057630538940429687500 0.004025420174002647399902343750 0 0 0 0 
2407833333.3333334923 0.174120694398880004882812500000 -0.013920787721872329711914062500 0.004156358074396848678588867188 0.003943283110857009887695312500 0 0 0 0 
2408000000.0000000000 0.174468919634819003006143134371 -0.015959989279508590698242187500 0.004394412972033023834228515625 0.003512878902256488800048828125 0 0 0 0 
2408166666.6666665077 0.174896672368049593826455634371 -0.017739027738571170461634451954 0.004549808800220490369314862988 0.003124122973531485037562704932 0 0 0 0 
2408333333.3333334923 0.175453886389732388595419365629 -0.019708827137947079050084298046 0.004632406868040561676025390625 0.003030237508937716917750693213 0 0 0 0 
2408500000.0000000000 0.175686553120613098144531250000 -0.021644696593284610403040701954 0.004788042977452278137207031250 0.002720203716307878927943564307 0 0 0 0 
2408666666.6666665077 0.176245003938674899002236884371 -0.023630471900105479848841483204 0.004726944025605916976928710938 0.002436019945889710946324013818 0 0 0 0 
2408833333.3333334923 0.176743477582931490799111884371 -0.025288375094532970083216483204 0.004757029470056295394897460938 0.002206754870712757110595703125 0 0 0 0 
2409000000.0000000000 0.177151843905448913574218750000 -0.026697697117924690246582031250 0.004756836686283349990844726562 0.002036153338849544958827353369 0 0 0 0 
2409166666.6666665077 0.177403107285499600509481865629 -0.028234124183654788625696951954 0.004828455392271280288696289062 0.001778215402737260081647563403 0 0 0 0 
2409333333.3333334923 0.177912443876266507247763115629 -0.029730267822742458688756173046 0.004898257553577423095703125000 0.001399811822921038107631064307 0 0 0 0 
2409500000.0000000000 0.178353026509285000900106865629 -0.031109165400266650808314139454 0.004875386133790016174316406250 0.001230957219377160072326660156 0 0 0 0 
2409666666.6666665077 0.178674966096878107268963731258 -0.032142978161573410034179687500 0.004755802918225526809692382812 0.001118392217904329083086323315 0 0 0 0 
2409833333.3333334923 0.179053202271461486816406250000 -0.033008977770805358886718750000 0.004709949251264333724975585938 0.001083757611922919967054057544 0 0 0 0 
2410000000.0000000000 0.179673790931701687911825615629 -0.034156206995248801494557966407 0.004509964026510716351980878613 0.000719679810572415590286254883 0 0 0 0 
2410166666.6666665077 0.180137962102889986892861884371 -0.034937180578708648681640625000 0.004665446002036333084106445312 0.000537256011739373207092285156 0 0 0 0 
2410333333.3333334923 0.180482208728790310958700615629 -0.035754747688770287250559221093 0.004500187467783690366263105176 0.000458344497019424980312901630 0 0 0 0 
2410500000.0000000000 0.180746406316757202148437500000 -0.036384318023920059204101562500 0.004502505064010620117187500000 0.000314212345983833074569702148 0 0 0 0 
2410666666.6666665077 0.181242331862449701507244981258 -0.037129919975996017456054687500 0.004428761079907417297363281250 0.000172600441146641996785840445 0 0 0 0 
2410833333.3333334923 0.181613877415656987945880018742 -0.037676326930522918701171875000 0.004513437859714031219482421875 0.000033106596674770116806030273 0 0 0 0 
2411000000.0000000000 0.182065859436988802810830634371 -0.038246240466833121562917341407 0.004295270889997482299804687500 -0.000157455680891871506541651593 0 0 0 0 
2411166666.6666665077 0.181943401694297790527343750000 -0.038724675774574279785156250000 0.004143083002418279647827148438 -0.000319380167638882994651794434 0 0 0 0 
2411333333.3333334923 0.182078555226325988769531250000 -0.039198145270347602153737653907 0.004267067648470401763916015625 -0.000334472715621814077526646747 0 0 0 0 
2411500000.0000000000 0.182107672095298794845419365629 -0.039689086377620697021484375000 0.004142016638070344924926757812 -0.000499906716868281364440917969 0 0 0 0 
2411666666.6666665077 0.182091176509857205489950615629 -0.039932351559400558471679687500 0.003893693210557103157043457031 -0.000522317714057862758636474609 0 0 0 0 
2411833333.3333334923 0.182044833898544311523437500000 -0.040468327701091773296315778907 0.003986586350947619351858808301 -0.000722108117770403623580932617 0 0 0 0 
2412000000.0000000000 0.181894779205322293380575615629 -0.040903039276599877094309221093 0.003804697422310709953308105469 -0.000520406290888786315917968750 0 0 0 0 
2412166666.6666665077 0.181429311633110101897869981258 -0.041279178112745291973073591407 0.003851697780191897912266396631 -0.000730053754523396492004394531 0 0 0 0 
2412333333.3333334923 0.181088238954544095138388115629 -0.041416268795728676532785783593 0.003742554457858204841613769531 -0.000880192092154175043106079102 0 0 0 0 
2412500000.0000000000 0.180422380566597012618856865629 -0.041751846671104431152343750000 0.003613365348428488211390829932 -0.000712273060344159603118896484 0 0 0 0 
2412666666.6666665077 0.180012121796607998946981865629 -0.042264994233846657489817033593 0.003723099362105131149291992188 -0.000893034273758530616760253906 0 0 0 0 
2412833333.3333334923 0.179253622889518710037393134371 -0.042678833007812500000000000000 0.003693588543683290915248251807 -0.000828694726806133985519409180 0 0 0 0 
2413000000.0000000000 0.178509145975112887283486884371 -0.042931757867336273193359375000 0.003583750221878290176391601562 -0.000969356449786573648452758789 0 0 0 0 
2413166666.6666665077 0.177701115608215304275674384371 -0.043516770005226142192800153907 0.003505552420392632918116904150 -0.001081516849808394908905029297 0 0 0 0 
2413333333.3333334923 0.176523327827453613281250000000 -0.043920103460550308227539062500 0.003514510579407215118408203125 -0.001027970574796200015424418872 0 0 0 0 
2413500000.0000000000 0.175627946853637695312500000000 -0.044522937387228012084960937500 0.003455638419836760000941611182 -0.000911239068955183029174804688 0 0 0 0 
2413666666.6666665077 0.174461752176284790039062500000 -0.045094568282365798950195312500 0.003625170560553669929504394531 -0.000976850860752165317535400391 0 0 0 0 
2413833333.3333334923 0.173387974500656100174111884371 -0.045680157840251922607421875000 0.003557609859853982925415039062 -0.001020478899590671062469482422 0 0 0 0 
2414000000.0000000000 0.172146007418632507324218750000 -0.046368133276700966571848283593 0.003598473500460385842564248193 -0.001069331658072770075557089697 0 0 0 0 
2414166666.6666665077 0.171144336462020901779013115629 -0.047058504074811942363698591407 0.003682522801682353019714355469 -0.001173445838503539995906210791 0 0 0 0 
2414333333.3333334923 0.169836729764938410003338731258 -0.047831904143095023418386091407 0.003820403013378382162806845557 -0.001284089172258972904802631909 0 0 0 0 
2414500000.0000000000 0.168793424963951110839843750000 -0.048775721341371543193776716407 0.003916528075933456420898437500 -0.001405787770636379935620952075 0 0 0 0 
2414666666.6666665077 0.167599335312843294998330634371 -0.049620579928159706806223283593 0.003856903873383998870849609375 -0.001503572799265385107753134619 0 0 0 0 
2414833333.3333334923 0.166251376271247891525106865629 -0.050893712788820266723632812500 0.003980948124080896377563476562 -0.001539595075882971069933247144 0 0 0 0 
2415000000.0000000000 0.165055483579635592361611884371 -0.051941916346549987792968750000 0.003929089289158582687377929688 -0.001787487766705452962162636865 0 0 0 0 
2415166666.6666665077 0.163929045200347900390625000000 -0.053410310298204421997070312500 0.004084615036845207214355468750 -0.001871556974947452978846884619 0 0 0 0 
2415333333.3333334923 0.162840351462364196777343750000 -0.054633520543575286865234375000 0.003933240659534931182861328125 -0.002184947952628136114833212744 0 0 0 0 
2415500000.0000000000 0.161533236503601101974325615629 -0.056010898202657699584960937500 0.004059507045894861221313476562 -0.002186157042160629792454384912 0 0 0 0 
2415666666.6666665077 0.160568952560424804687500000000 -0.057540494948625571514089216407 0.004004102665930986404418945312 -0.002476963447406888008117675781 0 0 0 0 
2415833333.3333334923 0.159429937601089505294638115629 -0.059235904365777969360351562500 0.003952103666961193084716796875 -0.002586926100775599913356161963 0 0 0 0 
2416000000.0000000000 0.158326938748359707931356865629 -0.060783043503761291503906250000 0.003873656038194894790649414062 -0.002764266682788730101344443213 0 0 0 0 
2416166666.6666665077 0.157543361186981201171875000000 -0.062600500881671905517578125000 0.003923868760466575622558593750 -0.002971137175336480140686035156 0 0 0 0 
2416333333.3333334923 0.156516835093498202224893134371 -0.064377777278423309326171875000 0.003734005149453877969029091943 -0.003256453434005380110499716650 0 0 0 0 
2416500000.0000000000 0.155616924166679410079794365629 -0.066339731216430664062500000000 0.003661233931779861883876181494 -0.003229126334190369086024618994 0 0 0 0 
2416666666.6666665077 0.154642075300216702560263115629 -0.068107888102531433105468750000 0.003667356446385384039637900244 -0.003467857372015715079066611182 0 0 0 0 
2416833333.3333334923 0.154008239507675198654013115629 -0.070127539336681365966796875000 0.003351817606016993956324911963 -0.003602428361773490905761718750 0 0 0 0 
2417000000.0000000000 0.153129577636718805511151231258 -0.072190336883068084716796875000 0.003292585723102093176600790869 -0.003771986346691846847534179688 0 0 0 0 
2417166666.6666665077 0.152619719505310086349325615629 -0.073989115655422210693359375000 0.003169383620843290848972939600 -0.004002532456070184707641601562 0 0 0 0 
2417333333.3333334923 0.151968777179717989822549384371 -0.075850136578083038330078125000 0.003070193110033870177028036963 -0.004082791507244110107421875000 0 0 0 0 
2417500000.0000000000 0.151531487703323392013388115629 -0.077955126762390136718750000000 0.002870960161089897155761718750 -0.004381770268082618713378906250 0 0 0 0 
2417666666.6666665077 0.151189029216766412933026231258 -0.079722814261913299560546875000 0.002771274885162711143493652344 -0.004570837598294019699096679688 0 0 0 0 
2417833333.3333334923 0.150641024112701388260049384371 -0.081424333155155181884765625000 0.002618265105411409898045205225 -0.004600399173796176910400390625 0 0 0 0 
2418000000.0000000000 0.150309428572654696365518134371 -0.083520092070102691650390625000 0.002553675789386034011840820312 -0.004721599631011486053466796875 0 0 0 0 
2418166666.6666665077 0.150114059448242187500000000000 -0.085136562585830688476562500000 0.002247876953333615823032998193 -0.004849685821682214736938476562 0 0 0 0 
2418333333.3333334923 0.150197386741638211349325615629 -0.086801573634147644042968750000 0.002132798079401255087611533057 -0.005009823944419622421264648438 0 0 0 0 
2418500000.0000000000 0.149938359856605502029580634371 -0.088424704968929290771484375000 0.001890123705379664897918701172 -0.005098749417811632156372070312 0 0 0 0 
2418666666.6666665077 0.150017991662025507171307481258 -0.089975923299789428710937500000 0.001664062147028744003893208081 -0.005251246504485607147216796875 0 0 0 0 
2418833333.3333334923 0.149840936064720209319744981258 -0.091390803456306457519531250000 0.001416730112396181063411093604 -0.005471858195960521697998046875 0 0 0 0 
2419000000.0000000000 0.149914965033531188964843750000 -0.092710644006729125976562500000 0.001180651248432696082471538013 -0.005497479345649480819702148438 0 0 0 0 
2419166666.6666665077 0.150068998336791992187500000000 -0.093816868960857391357421875000 0.000880660081747919321060180664 -0.005568282213062047958374023438 0 0 0 0 
2419333333.3333334923 0.150137692689895602127236884371 -0.094802148640155792236328125000 0.000463393284007906913757324219 -0.005471332930028438568115234375 0 0 0 0 
2419500000.0000000000 0.150411039590835599044638115629 -0.096063010394573211669921875000 0.000314126722514629418223780499 -0.005483761895447968569283769824 0 0 0 0 
2419666666.6666665077 0.150714084506034906585369981258 -0.097094736993312835693359375000 -0.000070739260991103947162628174 -0.005570284090936183929443359375 0 0 0 0 
2419833333.3333334923 0.150880038738250704666299384371 -0.097597524523735046386718750000 -0.000321329891448840498924255371 -0.005554526578634977340698242188 0 0 0 0 
