# Hz S RI R 
2400000000.0000000000 0.154754251241683987716513115629 0.111506439745426205734091240629 0.005535585340112447738647460938 0.004663916770368815335745527051 0 0 0 0 
2400166666.6666665077 0.154187321662902804275674384371 0.109306491911411299278178432814 0.005515617784112691879272460938 0.004478136077523232373709394238 0 0 0 0 
2400333333.3333334923 0.153930723667144803146200615629 0.107100509107112898399272182814 0.005703460890799760818481445312 0.004175900481641292572021484375 0 0 0 0 
2400500000.0000000000 0.153712198138236999511718750000 0.104462981224060100227113423443 0.005753665696829557418823242188 0.004018274135887622833251953125 0 0 0 0 
2400666666.6666665077 0.153586179018020602127236884371 0.102122120559215601165448106258 0.005922289565205574035644531250 0.003727537579834461212158203125 0 0 0 0 
2400833333.3333334923 0.153301581740379305740518134371 0.099348917603492736816406250000 0.005963228177279233932495117188 0.003644449636340140862705849756 0 0 0 0 
2401000000.0000000000 0.153355121612548800369424384371 0.096374221146106719970703125000 0.006029794458299875259399414062 0.003319536102935671806335449219 0 0 0 0 
2401166666.6666665077 0.153101995587348910232705634371 0.093752063810825347900390625000 0.006013817619532346725463867188 0.003283299971371889114379882812 0 0 0 0 
2401333333.3333334923 0.153345823287963894943075615629 0.090716429054737091064453125000 0.006095717195421457290649414062 0.003097417065873742103576660156 0 0 0 0 
2401500000.0000000000 0.153563767671585110763388115629 0.087602391839027404785156250000 0.006244402844458817568307207324 0.002889973344281315803527832031 0 0 0 0 
2401666666.6666665077 0.153689056634903009612713731258 0.084714114665985107421875000000 0.006307116709649562835693359375 0.002818021923303604125976562500 0 0 0 0 
2401833333.3333334923 0.154039397835731506347656250000 0.081640832126140594482421875000 0.006407202221453189849853515625 0.002338241320103406906127929688 0 0 0 0 
2402000000.0000000000 0.154797822237014798263388115629 0.078790292143821716308593750000 0.006314728409051895141601562500 0.002235825872048736052272177588 0 0 0 0 
2402166666.6666665077 0.155243754386901910979901231258 0.076004773378372192382812500000 0.006439403630793094635009765625 0.001907332683913409926770854419 0 0 0 0 
2402333333.3333334923 0.156212687492370605468750000000 0.073230184614658355712890625000 0.006548910867422819137573242188 0.001723542227409780025482177734 0 0 0 0 
2402500000.0000000000 0.157311961054801913162393134371 0.070365399122238159179687500000 0.006412828806787729263305664062 0.001611795625649393038508749854 0 0 0 0 
2402666666.6666665077 0.158433407545089693924111884371 0.067909210920333862304687500000 0.006448720581829547882080078125 0.001270135981030761978746723706 0 0 0 0 
2402833333.3333334923 0.159688055515289306640625000000 0.065268218517303466796875000000 0.006425757892429828643798828125 0.001138359075412153980852436597 0 0 0 0 
2403000000.0000000000 0.161191388964652987381143134371 0.062653861939907073974609375000 0.006483336910605430603027343750 0.000917356461286544799804687500 0 0 0 0 
2403166666.6666665077 0.162808790802955599685830634371 0.060154542326927191997487653907 0.006476494483649730682373046875 0.000913226511329412460327148438 0 0 0 0 
2403333333.3333334923 0.164437443017959594726562500000 0.057668261229991912841796875000 0.006343007553368806838989257812 0.000579762272536754608154296875 0 0 0 0 
2403500000.0000000000 0.166172713041305486481036268742 0.055287163704633712768554687500 0.006497741676867008209228515625 0.000337934383423999006122034894 0 0 0 0 
2403666666.6666665077 0.167783275246620205978231865629 0.053283631801605231548268903907 0.006497111171483994397635175488 0.000093600559921469539403915405 0 0 0 0 
2403833333.3333334923 0.169841721653938293457031250000 0.051083918660879142070729841407 0.006532300729304552078247070312 -0.000089978108007926493883132935 0 0 0 0 
2404000000.0000000000 0.171406313776969909667968750000 0.049251474440097808837890625000 0.006573440972715616226196289062 -0.000265242037130519801944178448 0 0 0 0 
2404166666.6666665077 0.173490479588508605957031250000 0.047422178089618682861328125000 0.006626643240451812744140625000 -0.000532166508492082357406616211 0 0 0 0 
2404333333.3333334923 0.175312370061874389648437500000 0.045618008822202682495117187500 0.006539983674883843335623456738 -0.000743373704608529806137084961 0 0 0 0 
2404500000.0000000000 0.177033156156539889236611884371 0.043871916830539703369140625000 0.006382404360920190811157226562 -0.000894105178304016590118408203 0 0 0 0 
2404666666.6666665077 0.178982973098754910568075615629 0.042827375233173370361328125000 0.006498211994767189025878906250 -0.001288832165300846099853515625 0 0 0 0 
2404833333.3333334923 0.180786117911338806152343750000 0.041434351354837417602539062500 0.006439332384616137418265058301 -0.001239944132976233959197998047 0 0 0 0 
2405000000.0000000000 0.182392537593841608245526231258 0.040769062936305999755859375000 0.006217759568244218826293945312 -0.001590316882357001087786030347 0 0 0 0 
2405166666.6666665077 0.184067755937576293945312500000 0.039834652096033103252370466407 0.006120878737419843673706054688 -0.001827204134315252087236713940 0 0 0 0 
2405333333.3333334923 0.185858100652694702148437500000 0.039191514253616333007812500000 0.006028269417583942413330078125 -0.002087302040308713912963867188 0 0 0 0 
2405500000.0000000000 0.187518179416656494140625000000 0.038761824369430541992187500000 0.005774075631052255630493164062 -0.002181137446314096884486533057 0 0 0 0 
2405666666.6666665077 0.189043879508972195724325615629 0.038188017904758453369140625000 0.005819691345095635327810956738 -0.002459560520946979956385947119 0 0 0 0 
2405833333.3333334923 0.190563648939132690429687500000 0.038031887263059623027761091407 0.005620437208563089370727539062 -0.002506507094949483871459960938 0 0 0 0 
2406000000.0000000000 0.191840618848800686935263115629 0.037829838693141937255859375000 0.005461223423480988416189862988 -0.002670170506462454795837402344 0 0 0 0 
2406166666.6666665077 0.193142369389533996582031250000 0.037735916674137122417409528907 0.005344299599528312683105468750 -0.002759996103122829957249306787 0 0 0 0 
2406333333.3333334923 0.194329649209976196289062500000 0.037940502166748046875000000000 0.005336495582014322280883789062 -0.002906111301854252815246582031 0 0 0 0 
2406500000.0000000000 0.195367068052291897872763115629 0.038074512034654617309570312500 0.005105249118059873580932617188 -0.003066833363845943970921181787 0 0 0 0 
2406666666.6666665077 0.196247637271881103515625000000 0.038236044347286217426340471093 0.005138623993843793869018554688 -0.003051647450774908065795898438 0 0 0 0 
2406833333.3333334923 0.197090879082679804046307481258 0.038541339337825782085378278907 0.004829200450330972671508789062 -0.003221548395231366157531738281 0 0 0 0 
2407000000.0000000000 0.197511002421379089355468750000 0.038939476013183586811106096093 0.004908119793981313705444335938 -0.003312611021101475195643759619 0 0 0 0 
2407166666.6666665077 0.198169574141502408126669365629 0.038890205323696143413503278907 0.004817507695406675338745117188 -0.003331048879772425131556845557 0 0 0 0 
2407333333.3333334923 0.198367908596992492675781250000 0.039319593459367752075195312500 0.004838756285607814788818359375 -0.003296722192317246957066201318 0 0 0 0 
2407500000.0000000000 0.198465883731842013260049384371 0.039715040475130081176757812500 0.004653167910873889923095703125 -0.003524480387568473815917968750 0 0 0 0 
2407666666.6666665077 0.198793455958366394042968750000 0.039966654032468802715261091407 0.004466062877327203750610351562 -0.003664088668301701979396201025 0 0 0 0 
2407833333.3333334923 0.198304802179336603362713731258 0.040100820362567901611328125000 0.004441515542566776275634765625 -0.003744513262063264846801757812 0 0 0 0 
2408000000.0000000000 0.198413133621215792556924384371 0.040307663381099700927734375000 0.004441211000084877014160156250 -0.003770908806473017172572470557 0 0 0 0 
2408166666.6666665077 0.197849601507186889648437500000 0.040298238396644592285156250000 0.004597578197717666625976562500 -0.003810439258813858032226562500 0 0 0 0 
2408333333.3333334923 0.197565183043479891678018134371 0.040080953389406197284738908593 0.004371758084744215011596679688 -0.004280930384993553161621093750 0 0 0 0 
2408500000.0000000000 0.196900933980941800216513115629 0.040174666792154312133789062500 0.004315495956689119338989257812 -0.004053726326674222946166992188 0 0 0 0 
2408666666.6666665077 0.196236431598663302322549384371 0.039836380630731582641601562500 0.004124294035136699676513671875 -0.004104818683117628097534179688 0 0 0 0 
2408833333.3333334923 0.195593148469924899002236884371 0.039460975676774978637695312500 0.004134652204811573028564453125 -0.004288227763026952743530273438 0 0 0 0 
2409000000.0000000000 0.194584622979164095779580634371 0.038919869810342788696289062500 0.004095204174518585205078125000 -0.004409872926771640777587890625 0 0 0 0 
2409166666.6666665077 0.193621695041656494140625000000 0.038165308535099029541015625000 0.004298937041312456130981445312 -0.004608278628438711166381835938 0 0 0 0 
2409333333.3333334923 0.192567333579063387771768134371 0.037527762353420257568359375000 0.004064641892910003662109375000 -0.004693678114563226699829101562 0 0 0 0 
2409500000.0000000000 0.191438153386116000076455634371 0.036425858736038208007812500000 0.004146293736994267377371503613 -0.005049202125519514083862304688 0 0 0 0 
2409666666.6666665077 0.190231949090957613845986884371 0.035190813243389129638671875000 0.004088526591658592224121093750 -0.005050900857895612716674804688 0 0 0 0 
2409833333.3333334923 0.188996762037277193924111884371 0.034038137644529342651367187500 0.003996828570961952209472656250 -0.005317518487572669982910156250 0 0 0 0 
2410000000.0000000000 0.187969133257865905761718750000 0.032573316246271133422851562500 0.003622750984504818916320800781 -0.005499178078025580319876386426 0 0 0 0 
2410166666.6666665077 0.186628550291061401367187500000 0.030956681817770000803013985546 0.003709703451022506193873740088 -0.005653239320963621139526367188 0 0 0 0 
2410333333.3333334923 0.185534879565239008147869981258 0.029420573264360431325892264454 0.003456128994002937836887978662 -0.005963942501693964004516601562 0 0 0 0 
2410500000.0000000000 0.184388145804405212402343750000 0.027489334344863891601562500000 0.003435537219047545953037881006 -0.006244068965315818786621093750 0 0 0 0 
2410666666.6666665077 0.183275565505027798751669365629 0.025302223861217498779296875000 0.003044265089556574821472167969 -0.006355707533657550811767578125 0 0 0 0 
2410833333.3333334923 0.182428777217864990234375000000 0.023308157920837398874303048046 0.002929319627583026885986328125 -0.006395855452865362167358398438 0 0 0 0 
2411000000.0000000000 0.181383803486824007888955634371 0.021012222394347190856933593750 0.002617154037579894065856933594 -0.006654568947851657867431640625 0 0 0 0 
2411166666.6666665077 0.180467724800109891036825615629 0.018792936578392979013463204296 0.002389975124970078902003622900 -0.006786850281059741973876953125 0 0 0 0 
2411333333.3333334923 0.179886609315872192382812500000 0.016267076134681701660156250000 0.002204054268077015876770019531 -0.007027551066130399703979492188 0 0 0 0 
2411500000.0000000000 0.179027155041694613357705634371 0.013808099552989009511927420704 0.001829182729125023105024028247 -0.007137486245483160018920898438 0 0 0 0 
2411666666.6666665077 0.178748026490211486816406250000 0.011328435502946380269984061329 0.001625058823265135071398090894 -0.007045637816190719604492187500 0 0 0 0 
2411833333.3333334923 0.178239032626152010818643134371 0.008903826586902141571044921875 0.001351645449176430919049907153 -0.007167631760239601135253906250 0 0 0 0 
2412000000.0000000000 0.178090631961822509765625000000 0.006063679233193398389334394238 0.001083238748833537101745605469 -0.007272758055478334426879882812 0 0 0 0 
2412166666.6666665077 0.178047448396682711502236884371 0.003652455052360891862156533350 0.000719288422260433435440063477 -0.007435338106006383895874023438 0 0 0 0 
2412333333.3333334923 0.178022027015686007400674384371 0.000805912946816533803939819336 0.000379939039703458601802271710 -0.007274901028722524642944335938 0 0 0 0 
2412500000.0000000000 0.178390756249427795410156250000 -0.001780319144017993970158242334 -0.000021732299501309171319007874 -0.007334455382078886032104492188 0 0 0 0 
2412666666.6666665077 0.178867265582084711272869981258 -0.004467133432626724243164062500 -0.000208303274121135500356397086 -0.007248587440699338912963867188 0 0 0 0 
2412833333.3333334923 0.179229602217674310882244981258 -0.007207221817225217819213867188 -0.000485705561004579121440333234 -0.007436536718159914016723632812 0 0 0 0 
2413000000.0000000000 0.179904714226722689529580634371 -0.009734393097460269927978515625 -0.000846614828333258628845214844 -0.007277855183929204940795898438 0 0 0 0 
2413166666.6666665077 0.180640757083892794510049384371 -0.012349098920822140085240548046 -0.001238071126863359971287392725 -0.007240049540996552381033612988 0 0 0 0 
2413333333.3333334923 0.181655541062355013748330634371 -0.014881015755236150568951991602 -0.001416024402715265967725444263 -0.007062797900289297103881835938 0 0 0 0 
2413500000.0000000000 0.182411924004554804046307481258 -0.017544539645314220083216483204 -0.001522438018582761070848774487 -0.006991216447204351425170898438 0 0 0 0 
2413666666.6666665077 0.183819457888603210449218750000 -0.020019957795739170419713204296 -0.001967181218788028197047568213 -0.006854439154267311096191406250 0 0 0 0 
2413833333.3333334923 0.184752985835075406173544365629 -0.022100221365690231323242187500 -0.002114801900461316108703613281 -0.006747005041688680648803710938 0 0 0 0 
2414000000.0000000000 0.186186194419860812088174384371 -0.024446804076433178293248360546 -0.002322381362318993048426962744 -0.006694330368191003799438476562 0 0 0 0 
2414166666.6666665077 0.187360525131225613693075615629 -0.026510309427976608276367187500 -0.002497158944606781005859375000 -0.006520128808915615081787109375 0 0 0 0 
2414333333.3333334923 0.188593387603759793380575615629 -0.028858711943030360830286795704 -0.002815879182890057997462607275 -0.006379725877195596694946289062 0 0 0 0 
2414500000.0000000000 0.189870938658714294433593750000 -0.030353507027029991149902343750 -0.003103592665866016907932900537 -0.006280111614614725112915039062 0 0 0 0 
2414666666.6666665077 0.191264465451240511795205634371 -0.032203048467636108398437500000 -0.003102335846051574187037802588 -0.006337123923003674420828534863 0 0 0 0 
2414833333.3333334923 0.192528203129768399337606865629 -0.033824771642684943462331403907 -0.003240523161366581916809082031 -0.005895121023058891296386718750 0 0 0 0 
2415000000.0000000000 0.194009810686111505706463731258 -0.035453487187623977661132812500 -0.003546451684087514877319335938 -0.005883354227989912033081054688 0 0 0 0 
2415166666.6666665077 0.195322602987289400955361884371 -0.036550380289554602886159528907 -0.003826931118965148925781250000 -0.005770210642367601394653320312 0 0 0 0 
2415333333.3333334923 0.196758553385734613616619981258 -0.037705745548009872436523437500 -0.004030250944197177886962890625 -0.005537217482924461364746093750 0 0 0 0 
2415500000.0000000000 0.198060423135757501800213731258 -0.038522526621818542480468750000 -0.004146379884332417574410722949 -0.005420457571744918823242187500 0 0 0 0 
2415666666.6666665077 0.199377462267875699142294365629 -0.039594560861587517475168596093 -0.004279793240129947662353515625 -0.005281951744109392166137695312 0 0 0 0 
2415833333.3333334923 0.200482159852981595138388115629 -0.040304180234670639038085937500 -0.004516491200774908065795898438 -0.005136976949870586395263671875 0 0 0 0 
2416000000.0000000000 0.201582357287406893631143134371 -0.041035916656255722045898437500 -0.004573850892484188079833984375 -0.004873170051723718643188476562 0 0 0 0 
2416166666.6666665077 0.202456742525100708007812500000 -0.041716538369655609130859375000 -0.004805950913578271865844726562 -0.004722200334072113037109375000 0 0 0 0 
2416333333.3333334923 0.203537121415138189117755018742 -0.041941914707422263408620466407 -0.004886329639703035354614257812 -0.004443933721631765365600585938 0 0 0 0 
2416500000.0000000000 0.204173326492309598068075615629 -0.042148001492023468017578125000 -0.005085784010589122772216796875 -0.004381966311484575271606445312 0 0 0 0 
2416666666.6666665077 0.204705655574798611739950615629 -0.042585000395774841308593750000 -0.005190713796764612197875976562 -0.004317023791372776031494140625 0 0 0 0 
2416833333.3333334923 0.205175876617431612869424384371 -0.042498063296079642559011091407 -0.005261700134724378585815429688 -0.004032789263874292373657226562 0 0 0 0 
2417000000.0000000000 0.205502986907959012130575615629 -0.042685132473707199096679687500 -0.005368152633309364318847656250 -0.003915140870958566665649414062 0 0 0 0 
2417166666.6666665077 0.205534502863883999923544365629 -0.042496833950281143188476562500 -0.005625868681818246841430664062 -0.003620241535827517943141318213 0 0 0 0 
2417333333.3333334923 0.205510303378105191329794365629 -0.042179532349109649658203125000 -0.005552978254854679107666015625 -0.003426935523748397827148437500 0 0 0 0 
2417500000.0000000000 0.205497488379478510100994981258 -0.042121190577745437622070312500 -0.005691095720976591110229492188 -0.003171627875417470932006835938 0 0 0 0 
2417666666.6666665077 0.205123260617256192306356865629 -0.041741333901882171630859375000 -0.005756684113293886184692382812 -0.003025341546162962913513183594 0 0 0 0 
2417833333.3333334923 0.204887688159942599197549384371 -0.041315414011478417133371721093 -0.005819329991936683654785156250 -0.002766769146546721892115927588 0 0 0 0 
2418000000.0000000000 0.204446166753768893142861884371 -0.040935438126325607299804687500 -0.005954842548817396163940429688 -0.002573363715782762007472372900 0 0 0 0 
2418166666.6666665077 0.203711420297622708419638115629 -0.040592540055513381958007812500 -0.005842289887368679046630859375 -0.002312469296157360076904296875 0 0 0 0 
2418333333.3333334923 0.202923566102981595138388115629 -0.040402747690677642822265625000 -0.005832185968756675720214843750 -0.002108499407768249945399618994 0 0 0 0 
2418500000.0000000000 0.202111825346946688553018134371 -0.040224779397249221801757812500 -0.005851872265338897705078125000 -0.001913160551339387893676757812 0 0 0 0 
2418666666.6666665077 0.201329737901687594314736884371 -0.039860211312770836566965471093 -0.005893967114388942718505859375 -0.001651351107284426905988383716 0 0 0 0 
2418833333.3333334923 0.200041845440864590743856865629 -0.039769217371940612792968750000 -0.005895100068300961580758379199 -0.001464897766709327914594340747 0 0 0 0 
2419000000.0000000000 0.198863908648490905761718750000 -0.039636723697185523296315778907 -0.005775294732302427291870117188 -0.001412584213539958000183105469 0 0 0 0 
2419166666.6666665077 0.197544321417808504959268134371 -0.039734769612550742412526716407 -0.005809471011161804199218750000 -0.001253844355233014063594199072 0 0 0 0 
2419333333.3333334923 0.196037113666534396072549384371 -0.039977382868528373027761091407 -0.005674614105373620986938476562 -0.001131907221861184077021933447 0 0 0 0 
2419500000.0000000000 0.194498211145401000976562500000 -0.040155611932277679443359375000 -0.005677026230841875076293945312 -0.000814151950180530548095703125 0 0 0 0 
2419666666.6666665077 0.192874014377593994140625000000 -0.040857419371604919433593750000 -0.005634259898215532302856445312 -0.000691499386448413133621215820 0 0 0 0 
2419833333.3333334923 0.191111907362937899490518134371 -0.041357059031724929809570312500 -0.005545891821384429931640625000 -0.000602023268584161996841430664 0 0 0 0 
