# Version 1.00
#
freq[Hz];re:Trc1_S11;im:Trc1_S11;re:Trc2_S21;im:Trc2_S21;
2.400000000000000E+009;1.561041623353958E-001;6.206072866916657E-002;-2.685224753804505E-004;2.832802478224039E-003;
2.400166666666667E+009;1.559038907289505E-001;6.032742187380791E-002;-1.927128178067505E-004;2.698359312489629E-003;
2.400333333333334E+009;1.560635417699814E-001;5.819256603717804E-002;1.660163616179489E-005;2.625152934342623E-003;
2.400500000000000E+009;1.560223400592804E-001;5.624203756451607E-002;1.205779553856701E-004;2.582965884357691E-003;
2.400666666666667E+009;1.561570018529892E-001;5.408409237861633E-002;1.420040789525956E-004;2.723242621868849E-003;
2.400833333333334E+009;1.564314514398575E-001;5.208737030625343E-002;3.227021079510450E-004;2.700066659599543E-003;
2.401000000000000E+009;1.566917300224304E-001;4.987768456339836E-002;4.198378883302212E-004;2.686158288270235E-003;
2.401166666666667E+009;1.568689942359924E-001;4.762323945760727E-002;5.109486519359052E-004;2.524534473195672E-003;
2.401333333333334E+009;1.572992056608200E-001;4.559471085667610E-002;7.721119327470660E-004;2.597870305180550E-003;
2.401500000000000E+009;1.575764417648315E-001;4.330303892493248E-002;7.046569371595979E-004;2.697664313018322E-003;
2.401666666666667E+009;1.582277864217758E-001;4.146873950958252E-002;8.132824441418052E-004;2.557927044108510E-003;
2.401833333333334E+009;1.586524546146393E-001;3.938466683030129E-002;8.113796357065439E-004;2.660978119820356E-003;
2.402000000000000E+009;1.591891795396805E-001;3.729562088847160E-002;9.754798375070095E-004;2.384859370067716E-003;
2.402166666666667E+009;1.599363684654236E-001;3.527293354272842E-002;1.128296251408756E-003;2.432188717648387E-003;
2.402333333333334E+009;1.606373041868210E-001;3.332110494375229E-002;1.154778059571981E-003;2.429555403068662E-003;
2.402500000000000E+009;1.616011857986450E-001;3.165081515908241E-002;1.260922523215413E-003;2.237865002825856E-003;
2.402666666666667E+009;1.624467223882675E-001;2.984856069087982E-002;1.380847184918821E-003;2.212494611740112E-003;
2.402833333333334E+009;1.633879840373993E-001;2.832248061895371E-002;1.489389571361244E-003;2.246253658086062E-003;
2.403000000000000E+009;1.643352359533310E-001;2.663037367165089E-002;1.476458040997386E-003;2.149545820429921E-003;
2.403166666666667E+009;1.652203053236008E-001;2.501699700951576E-002;1.622925396077335E-003;2.071090741083026E-003;
2.403333333333334E+009;1.662934273481369E-001;2.384154312312603E-002;1.670156023465097E-003;1.888216938823462E-003;
2.403500000000000E+009;1.673447489738464E-001;2.258505672216415E-002;1.837866962887347E-003;1.877243863418698E-003;
2.403666666666667E+009;1.686112433671951E-001;2.114840410649777E-002;1.796439639292657E-003;1.820531440898776E-003;
2.403833333333334E+009;1.697038114070892E-001;2.007963694632053E-002;1.716402242891491E-003;1.703265472315252E-003;
2.404000000000000E+009;1.708207577466965E-001;1.908676698803902E-002;1.798112643882632E-003;1.711449702270329E-003;
2.404166666666667E+009;1.715833395719528E-001;1.803779974579811E-002;1.837063697166741E-003;1.483928528614342E-003;
2.404333333333334E+009;1.727104038000107E-001;1.723957806825638E-002;2.048543188720942E-003;1.585443154908717E-003;
2.404500000000000E+009;1.735690087080002E-001;1.632692292332649E-002;2.071012277156115E-003;1.314911874942482E-003;
2.404666666666667E+009;1.745559722185135E-001;1.581255532801151E-002;2.021039370447397E-003;1.320152543485165E-003;
2.404833333333334E+009;1.755397617816925E-001;1.517120748758316E-002;2.118899719789624E-003;1.267705578356981E-003;
2.405000000000000E+009;1.764202564954758E-001;1.444223709404469E-002;2.219210844486952E-003;1.121033332310617E-003;
2.405166666666667E+009;1.772962063550949E-001;1.404075231403112E-002;2.153708599507809E-003;1.052369596436620E-003;
2.405333333333334E+009;1.780841797590256E-001;1.343472115695477E-002;2.066366607323289E-003;1.055276254191995E-003;
2.405500000000000E+009;1.787953376770020E-001;1.320121902972460E-002;2.205339260399342E-003;1.015970716252923E-003;
2.405666666666667E+009;1.794286817312241E-001;1.296801678836346E-002;2.254846505820751E-003;9.042399469763041E-004;
2.405833333333334E+009;1.798276156187058E-001;1.270179450511932E-002;2.148033119738102E-003;7.103754323907197E-004;
2.406000000000000E+009;1.804653406143189E-001;1.240424532443285E-002;2.224455587565899E-003;8.201224845834076E-004;
2.406166666666667E+009;1.806594431400299E-001;1.228423509746790E-002;2.230080543085933E-003;6.709829322062433E-004;
2.406333333333334E+009;1.810104250907898E-001;1.191246323287487E-002;2.339065074920654E-003;5.348749691620469E-004;
2.406500000000000E+009;1.812375932931900E-001;1.174349430948496E-002;2.291739452630281E-003;5.065857549197972E-004;
2.406666666666667E+009;1.811830103397369E-001;1.159443240612745E-002;2.322565997019410E-003;1.863199286162853E-004;
2.406833333333334E+009;1.813773065805435E-001;1.125702261924744E-002;2.253170358017087E-003;3.179361519869417E-004;
2.407000000000000E+009;1.812227368354797E-001;1.096010394394398E-002;2.381784841418266E-003;1.966486306628212E-004;
2.407166666666667E+009;1.812020540237427E-001;1.071025896817446E-002;2.229817910119891E-003;1.332565443590283E-004;
2.407333333333334E+009;1.809362322092056E-001;1.029936131089926E-002;2.401296282187104E-003;-4.244883893989027E-005;
2.407500000000000E+009;1.806087940931320E-001;9.986454620957375E-003;2.477094996720552E-003;-2.421170211164281E-004;
2.407666666666667E+009;1.802372932434082E-001;9.466462768614292E-003;2.384262625128031E-003;-3.260108642280102E-004;
2.407833333333334E+009;1.795622557401657E-001;8.719841949641705E-003;2.069622511044145E-003;-3.120382316410542E-004;
2.408000000000000E+009;1.791926026344299E-001;8.128567598760128E-003;2.301068976521492E-003;-5.419141380116344E-004;
2.408166666666667E+009;1.785166561603546E-001;7.490692194551230E-003;2.321511507034302E-003;-7.860273472033441E-004;
2.408333333333334E+009;1.780256628990173E-001;6.549265235662460E-003;2.202631672844291E-003;-8.819573558866978E-004;
2.408500000000000E+009;1.772734373807907E-001;5.748704541474581E-003;2.192273270338774E-003;-7.491468568332493E-004;
2.408666666666667E+009;1.765488088130951E-001;4.650573246181011E-003;2.037916099652648E-003;-8.830215083435178E-004;
2.408833333333334E+009;1.757057756185532E-001;3.673139493912458E-003;1.925397780723870E-003;-9.547558729536831E-004;
2.409000000000000E+009;1.750146597623825E-001;2.655248157680035E-003;1.874834764748812E-003;-1.211800728924573E-003;
2.409166666666667E+009;1.741890311241150E-001;1.189971459098160E-003;1.867216546088457E-003;-1.299778814427555E-003;
2.409333333333334E+009;1.734788864850998E-001;-2.182689495384693E-004;1.692558289505541E-003;-1.380193396471441E-003;
2.409500000000000E+009;1.726162284612656E-001;-1.564188278280199E-003;1.576990936882794E-003;-1.388656673952937E-003;
2.409666666666667E+009;1.719731390476227E-001;-3.134736092761159E-003;1.548574888147414E-003;-1.480355276726186E-003;
2.409833333333334E+009;1.710431575775147E-001;-4.753846209496260E-003;1.304826000705361E-003;-1.429696101695299E-003;
2.410000000000000E+009;1.705076396465302E-001;-6.279187276959419E-003;1.344052492640913E-003;-1.541923033073545E-003;
2.410166666666667E+009;1.699177026748657E-001;-8.046186529099941E-003;1.307998551055789E-003;-1.577301067300141E-003;
2.410333333333334E+009;1.693636327981949E-001;-9.758761152625084E-003;1.011845539323986E-003;-1.739436876960099E-003;
2.410500000000000E+009;1.687806397676468E-001;-1.174150127917528E-002;9.380409610457718E-004;-1.710013137198985E-003;
2.410666666666667E+009;1.684028655290604E-001;-1.396301016211510E-002;8.743954240344465E-004;-1.709358650259674E-003;
2.410833333333334E+009;1.679454892873764E-001;-1.559124235063791E-002;6.908787181600928E-004;-1.727966242469847E-003;
2.411000000000000E+009;1.675458401441574E-001;-1.777458749711514E-002;5.165809998288751E-004;-1.824475009925664E-003;
2.411166666666667E+009;1.672888398170471E-001;-1.968240179121494E-002;4.853385325986892E-004;-1.884944969788194E-003;
2.411333333333334E+009;1.671726852655411E-001;-2.168350666761398E-002;4.354302654974163E-004;-1.775418291799724E-003;
2.411500000000000E+009;1.669349819421768E-001;-2.396795712411404E-002;2.166523772757500E-004;-1.757988589815795E-003;
2.411666666666667E+009;1.669871360063553E-001;-2.596823498606682E-002;1.521814410807565E-004;-1.774146920070052E-003;
2.411833333333334E+009;1.672002822160721E-001;-2.788166143000126E-002;6.030109580024146E-005;-1.660160487517715E-003;
2.412000000000000E+009;1.674161255359650E-001;-2.995576709508896E-002;-1.849958935054019E-004;-1.769551890902221E-003;
2.412166666666667E+009;1.674705147743225E-001;-3.205089271068573E-002;-3.062039613723755E-004;-1.605530502274633E-003;
2.412333333333334E+009;1.680388450622559E-001;-3.396888449788094E-002;-3.285064594820142E-004;-1.445181202143431E-003;
2.412500000000000E+009;1.681625247001648E-001;-3.573109209537506E-002;-3.882816818077117E-004;-1.488089445047081E-003;
2.412666666666667E+009;1.686478555202484E-001;-3.782489895820618E-002;-4.859055625274777E-004;-1.430241041816771E-003;
2.412833333333334E+009;1.692310422658920E-001;-3.963857889175415E-002;-5.411896272562444E-004;-1.233624410815537E-003;
2.413000000000000E+009;1.696706265211105E-001;-4.136015474796295E-002;-6.144308717921376E-004;-1.288405037485063E-003;
2.413166666666667E+009;1.700683981180191E-001;-4.318216070532799E-002;-6.941239116713405E-004;-1.133879413828254E-003;
2.413333333333334E+009;1.707002818584442E-001;-4.485550895333290E-002;-8.098240359686315E-004;-9.963709162548184E-004;
2.413500000000000E+009;1.713728755712509E-001;-4.622302949428558E-002;-8.203553152270615E-004;-1.056649838574231E-003;
2.413666666666667E+009;1.720680296421051E-001;-4.801407083868980E-002;-9.596495656296611E-004;-7.756527047604322E-004;
2.413833333333334E+009;1.726080626249313E-001;-4.924160614609718E-002;-1.018100767396390E-003;-7.375845452770591E-004;
2.414000000000000E+009;1.732110083103180E-001;-5.053611844778061E-002;-8.485592552460730E-004;-6.685612024739385E-004;
2.414166666666667E+009;1.739752143621445E-001;-5.183870717883110E-002;-8.906265720725060E-004;-5.626365891657770E-004;
2.414333333333334E+009;1.745303720235825E-001;-5.284219235181809E-002;-1.121669192798436E-003;-4.903862136416137E-004;
2.414500000000000E+009;1.753389537334442E-001;-5.390664935112000E-002;-9.950728854164481E-004;-4.196564550511539E-004;
2.414666666666667E+009;1.758029460906982E-001;-5.475393310189247E-002;-9.608922991901636E-004;-2.459487586747855E-004;
2.414833333333334E+009;1.763937324285507E-001;-5.559162423014641E-002;-9.781609987840056E-004;-3.301028336863965E-004;
2.415000000000000E+009;1.767040342092514E-001;-5.626104027032852E-002;-9.440504363738000E-004;-1.533399627078325E-004;
2.415166666666667E+009;1.771681606769562E-001;-5.690703168511391E-002;-9.287088178098202E-004;1.552756293676794E-005;
2.415333333333334E+009;1.777325272560120E-001;-5.749017745256424E-002;-8.585687028244138E-004;1.285621547140181E-004;
2.415500000000000E+009;1.780608296394348E-001;-5.793106555938721E-002;-8.778468472883105E-004;1.573587360326201E-004;
2.415666666666667E+009;1.782985478639603E-001;-5.824798345565796E-002;-8.193763205781579E-004;1.763318723533303E-004;
2.415833333333334E+009;1.784650087356567E-001;-5.858831107616425E-002;-9.686575504019857E-004;3.567996027413756E-004;
2.416000000000000E+009;1.784738302230835E-001;-5.885507538914681E-002;-7.119821384549141E-004;4.301349690649658E-004;
2.416166666666667E+009;1.786118447780609E-001;-5.917884409427643E-002;-7.739068823866546E-004;3.176748869009316E-004;
2.416333333333334E+009;1.785483360290527E-001;-5.932623893022537E-002;-8.038568194024265E-004;4.166393773630261E-004;
2.416500000000000E+009;1.783385276794434E-001;-5.948583409190178E-002;-7.777916616760194E-004;4.957802593708038E-004;
2.416666666666667E+009;1.780335307121277E-001;-5.955753847956657E-002;-5.247605149634183E-004;4.813475243281573E-004;
2.416833333333334E+009;1.778028458356857E-001;-5.973631143569946E-002;-6.598467007279396E-004;5.629317020066083E-004;
2.417000000000000E+009;1.771508157253265E-001;-5.989240482449532E-002;-5.816548364236951E-004;5.752491997554898E-004;
2.417166666666667E+009;1.765010207891464E-001;-5.988357588648796E-002;-3.393494116608053E-004;6.865907926112413E-004;
2.417333333333334E+009;1.759344935417175E-001;-5.995379760861397E-002;-6.100847385823727E-004;6.601167842745781E-004;
2.417500000000000E+009;1.751779466867447E-001;-6.026094034314156E-002;-3.807377652265132E-004;7.276451215147972E-004;
2.417666666666667E+009;1.743977814912796E-001;-6.027405336499214E-002;-4.772256943397224E-004;6.338737439364195E-004;
2.417833333333334E+009;1.735719889402390E-001;-6.058773398399353E-002;-2.707007515709847E-004;7.235221564769745E-004;
2.418000000000000E+009;1.723707467317581E-001;-6.086032837629318E-002;-3.640985523816198E-004;6.266719428822398E-004;
2.418166666666667E+009;1.712043881416321E-001;-6.112142652273178E-002;-3.019394935108721E-004;7.341566379182041E-004;
2.418333333333334E+009;1.703881472349167E-001;-6.157867982983589E-002;-2.673137059900910E-004;7.637410890311003E-004;
2.418500000000000E+009;1.691567450761795E-001;-6.192922592163086E-002;-2.605027693789452E-004;6.910059601068497E-004;
2.418666666666667E+009;1.680333465337753E-001;-6.245170906186104E-002;-1.963747490663081E-004;8.515149820595980E-004;
2.418833333333334E+009;1.665474176406860E-001;-6.303748488426209E-002;-1.009860861813650E-004;7.696891552768648E-004;
2.419000000000000E+009;1.654269397258759E-001;-6.356295198202133E-002;-1.989455922739580E-004;7.093076710589230E-004;
2.419166666666667E+009;1.641059368848801E-001;-6.436198949813843E-002;-1.562885590828955E-004;8.988345507532358E-004;
2.419333333333334E+009;1.626796424388886E-001;-6.502270698547363E-002;-1.159761377493851E-004;8.301249472424388E-004;
2.419500000000000E+009;1.614757180213928E-001;-6.620663404464722E-002;-7.320666918531060E-005;8.811196894384921E-004;
2.419666666666667E+009;1.602455377578735E-001;-6.714929640293121E-002;-1.591140753589571E-004;1.152138342149556E-003;
2.419833333333334E+009;1.589032411575317E-001;-6.813581287860870E-002;-1.083790557458997E-004;1.108262920752168E-003;
2.420000000000000E+009;1.576966941356659E-001;-6.928490847349167E-002;3.005927828780841E-005;1.032108673825860E-003;
2.420166666666667E+009;1.567246466875076E-001;-7.042890787124634E-002;5.349165439838544E-005;1.217856188304722E-003;
2.420333333333334E+009;1.555864661931992E-001;-7.187587022781372E-002;7.595608622068539E-005;1.223501982167363E-003;
2.420500000000000E+009;1.546365320682526E-001;-7.295992970466614E-002;3.814697629422881E-005;1.197628909721971E-003;
2.420666666666667E+009;1.535850763320923E-001;-7.446812838315964E-002;3.250833542551845E-004;1.224653678946197E-003;
2.420833333333334E+009;1.527187526226044E-001;-7.602222263813019E-002;2.691706758923829E-004;1.241523073986173E-003;
2.421000000000000E+009;1.517111361026764E-001;-7.767413556575775E-002;2.489099279046059E-004;1.407674280926585E-003;
2.421166666666667E+009;1.511453390121460E-001;-7.921262830495834E-002;4.664377775043249E-004;1.421577995643020E-003;
2.421333333333334E+009;1.506741344928742E-001;-8.111268281936646E-002;5.325887468643487E-004;1.348435180261731E-003;
2.421500000000000E+009;1.499977856874466E-001;-8.257927000522614E-002;5.882851546630263E-004;1.530318520963192E-003;
2.421666666666667E+009;1.495017260313034E-001;-8.441597968339920E-002;5.868441076017916E-004;1.403374597430229E-003;
2.421833333333334E+009;1.493732929229736E-001;-8.620437979698181E-002;7.292627124115825E-004;1.284854370169342E-003;
2.422000000000000E+009;1.489266455173492E-001;-8.798854053020477E-002;7.930334541015327E-004;1.515187555924058E-003;
2.422166666666667E+009;1.486946940422058E-001;-8.998129516839981E-002;9.609191329218447E-004;1.413131365552545E-003;
2.422333333333334E+009;1.488013714551926E-001;-9.153904765844345E-002;1.129685435444117E-003;1.357086934149265E-003;
2.422500000000000E+009;1.486217379570007E-001;-9.319258481264114E-002;1.187525340355933E-003;1.384183415211737E-003;
2.422666666666667E+009;1.486940383911133E-001;-9.512635320425034E-002;1.372311264276505E-003;1.369637786410749E-003;
2.422833333333334E+009;1.490066945552826E-001;-9.694359451532364E-002;1.379874418489635E-003;1.260328455828130E-003;
2.423000000000000E+009;1.490745693445206E-001;-9.864042699337006E-002;1.491858041845262E-003;1.225259853526950E-003;
2.423166666666667E+009;1.495938748121262E-001;-1.001720726490021E-001;1.696695107966662E-003;1.307423575781286E-003;
2.423333333333334E+009;1.499758064746857E-001;-1.015659049153328E-001;1.681404188275337E-003;1.227273955009878E-003;
2.423500000000000E+009;1.503352522850037E-001;-1.033797487616539E-001;1.664514187723398E-003;1.028543221764267E-003;
2.423666666666667E+009;1.505688130855560E-001;-1.049387976527214E-001;1.828201464377344E-003;9.541775798425078E-004;
2.423833333333334E+009;1.513248831033707E-001;-1.063296273350716E-001;1.871258951723576E-003;8.846788550727069E-004;
2.424000000000000E+009;1.517027467489243E-001;-1.075965687632561E-001;2.119758632034063E-003;6.998624303378165E-004;
2.424166666666667E+009;1.523651629686356E-001;-1.087901517748833E-001;1.904367236420512E-003;5.632758256979287E-004;
2.424333333333334E+009;1.530272215604782E-001;-1.099300608038902E-001;2.050428884103894E-003;6.292231846600771E-004;
2.424500000000000E+009;1.533585488796234E-001;-1.111457720398903E-001;2.165759680792689E-003;5.453375633805990E-004;
2.424666666666667E+009;1.542316228151321E-001;-1.119226589798927E-001;2.162588294595480E-003;4.969197325408459E-004;
2.424833333333334E+009;1.546309143304825E-001;-1.129895895719528E-001;2.335109282284975E-003;3.287571016699076E-004;
2.425000000000000E+009;1.551301032304764E-001;-1.138612031936646E-001;2.073365496471524E-003;2.288862160639837E-004;
2.425166666666667E+009;1.555813401937485E-001;-1.145654469728470E-001;2.290525007992983E-003;1.428873074473813E-004;
2.425333333333334E+009;1.560533046722412E-001;-1.152347773313522E-001;2.213239669799805E-003;2.913603793786024E-006;
2.425500000000000E+009;1.564883738756180E-001;-1.159209087491036E-001;2.398963086307049E-003;-1.364847266813740E-004;
2.425666666666667E+009;1.566210240125656E-001;-1.162866428494453E-001;2.285882132127881E-003;-1.778621663106605E-004;
2.425833333333334E+009;1.568571031093597E-001;-1.167442128062248E-001;2.318789251148701E-003;-3.226491971872747E-004;
2.426000000000000E+009;1.571101397275925E-001;-1.171256229281426E-001;2.535093342885375E-003;-3.986966039519757E-004;
2.426166666666667E+009;1.574021428823471E-001;-1.174309626221657E-001;2.516194246709347E-003;-4.852399870287627E-004;
2.426333333333334E+009;1.572823524475098E-001;-1.176453679800034E-001;2.421932062134147E-003;-5.672468105331063E-004;
2.426500000000000E+009;1.572632789611816E-001;-1.177796423435211E-001;2.404619473963976E-003;-7.279957062564790E-004;
2.426666666666667E+009;1.572137475013733E-001;-1.178087219595909E-001;2.382043981924653E-003;-8.454393828287721E-004;
2.426833333333334E+009;1.569818556308746E-001;-1.179558485746384E-001;2.363996347412467E-003;-8.491857443004847E-004;
2.427000000000000E+009;1.566086411476135E-001;-1.181296929717064E-001;2.363670151680708E-003;-9.294258779846132E-004;
2.427166666666667E+009;1.560591757297516E-001;-1.179929673671722E-001;2.218852518126369E-003;-1.027233782224357E-003;
2.427333333333334E+009;1.554380804300308E-001;-1.180393099784851E-001;2.379260025918484E-003;-1.123117748647928E-003;
2.427500000000000E+009;1.549809277057648E-001;-1.181263551115990E-001;2.347318921238184E-003;-1.244271872565150E-003;
2.427666666666667E+009;1.540888547897339E-001;-1.181894689798355E-001;2.201501978561282E-003;-1.227591536007822E-003;
2.427833333333334E+009;1.531815081834793E-001;-1.182313486933708E-001;2.217360539361835E-003;-1.437536790035665E-003;
