# Version 1.00
#
freq[Hz];re:Trc1_S11;im:Trc1_S11;re:Trc2_S21;im:Trc2_S21;
2.400000000000000E+009;1.561480462551117E-001;6.211966648697853E-002;-5.149660501047038E-005;2.724488265812397E-003;
2.400166666666667E+009;1.559887677431107E-001;6.032503396272659E-002;1.211810158565640E-004;2.741198055446148E-003;
2.400333333333334E+009;1.560695022344589E-001;5.823472142219544E-002;6.079880040488206E-005;2.727447310462594E-003;
2.400500000000000E+009;1.561119109392166E-001;5.623559281229973E-002;2.213991974713281E-004;2.793588675558567E-003;
2.400666666666667E+009;1.560814827680588E-001;5.420004576444626E-002;2.862809633370489E-004;2.716606948524714E-003;
2.400833333333334E+009;1.563320159912109E-001;5.214785039424896E-002;5.600895383395255E-004;2.621202729642391E-003;
2.401000000000000E+009;1.567292362451553E-001;4.982850328087807E-002;6.831006030552089E-004;2.708960091695190E-003;
2.401166666666667E+009;1.568818241357803E-001;4.761053621768951E-002;6.417373660951853E-004;2.563209505751729E-003;
2.401333333333334E+009;1.570798307657242E-001;4.548025503754616E-002;6.688148132525384E-004;2.537369960919023E-003;
2.401500000000000E+009;1.575455665588379E-001;4.347019270062447E-002;9.040866862051189E-004;2.586865564808250E-003;
2.401666666666667E+009;1.580151617527008E-001;4.132994636893272E-002;9.454311802983284E-004;2.460059011355043E-003;
2.401833333333334E+009;1.587017178535461E-001;3.922808542847633E-002;9.620442870073021E-004;2.476039808243513E-003;
2.402000000000000E+009;1.591568589210510E-001;3.733140230178833E-002;1.327044446952641E-003;2.401727950200439E-003;
2.402166666666667E+009;1.599949896335602E-001;3.545364364981651E-002;1.298806746490300E-003;2.408325206488371E-003;
2.402333333333334E+009;1.606879532337189E-001;3.343847766518593E-002;1.301010022871196E-003;2.397564239799976E-003;
2.402500000000000E+009;1.616737395524979E-001;3.169302269816399E-002;1.458423677831888E-003;2.086944878101349E-003;
2.402666666666667E+009;1.624382585287094E-001;3.004282712936401E-002;1.634904067032039E-003;2.215327695012093E-003;
2.402833333333334E+009;1.633640676736832E-001;2.820236235857010E-002;1.511680311523378E-003;1.933805411681533E-003;
2.403000000000000E+009;1.643276959657669E-001;2.662729844450951E-002;1.611044630408287E-003;2.083148574456573E-003;
2.403166666666667E+009;1.653283685445786E-001;2.518189884722233E-002;1.656273961998522E-003;1.995495520532131E-003;
2.403333333333334E+009;1.661997735500336E-001;2.399770915508270E-002;1.795406918972731E-003;1.964214490726590E-003;
2.403500000000000E+009;1.672020107507706E-001;2.261096797883511E-002;1.742898602969945E-003;1.721053151413798E-003;
2.403666666666667E+009;1.684877872467041E-001;2.136107161641121E-002;1.863974612206221E-003;1.719097490422428E-003;
2.403833333333334E+009;1.696516424417496E-001;2.014763094484806E-002;1.908634556457400E-003;1.577649032697082E-003;
2.404000000000000E+009;1.707561165094376E-001;1.913510449230671E-002;1.941472874023020E-003;1.349267200566828E-003;
2.404166666666667E+009;1.716454029083252E-001;1.803199946880341E-002;2.206651959568262E-003;1.520088058896363E-003;
2.404333333333334E+009;1.727301776409149E-001;1.739693433046341E-002;1.898765447549522E-003;1.572700217366219E-003;
2.404500000000000E+009;1.736797541379929E-001;1.630663871765137E-002;2.239379566162825E-003;1.315657747909427E-003;
2.404666666666667E+009;1.745910495519638E-001;1.566706225275993E-002;1.752540236338973E-003;1.390862045809627E-003;
2.404833333333334E+009;1.755608618259430E-001;1.524789445102215E-002;2.005275571718812E-003;1.518740900792182E-003;
2.405000000000000E+009;1.765492856502533E-001;1.457653008401394E-002;2.194076776504517E-003;6.047772476449609E-004;
2.405166666666667E+009;1.773511767387390E-001;1.409134361892939E-002;2.303236396983266E-003;1.214067218825221E-003;
2.405333333333334E+009;1.781729757785797E-001;1.351765356957912E-002;2.216435503214598E-003;9.959385497495532E-004;
2.405500000000000E+009;1.787306964397430E-001;1.319654844701290E-002;1.862186705693603E-003;9.428221383132041E-004;
2.405666666666667E+009;1.793475747108460E-001;1.300452742725611E-002;2.308939583599567E-003;5.512214265763760E-004;
2.405833333333334E+009;1.798828244209290E-001;1.272598840296269E-002;2.473771804943681E-003;5.554204690270126E-004;
2.406000000000000E+009;1.804471015930176E-001;1.227210275828838E-002;2.152341185137630E-003;5.576596013270319E-004;
2.406166666666667E+009;1.805938482284546E-001;1.226795837283135E-002;2.520136069506407E-003;4.069562128279358E-004;
2.406333333333334E+009;1.811398714780808E-001;1.201997883617878E-002;2.110347617417574E-003;3.172666765749455E-004;
2.406500000000000E+009;1.812833696603775E-001;1.189191546291113E-002;2.672986360266805E-003;4.074462340213358E-004;
2.406666666666667E+009;1.811570376157761E-001;1.151902228593826E-002;2.381014171987772E-003;1.593609777046368E-004;
2.406833333333334E+009;1.813748478889465E-001;1.126973982900381E-002;2.304092282429338E-003;-6.016718907631002E-005;
2.407000000000000E+009;1.812919229269028E-001;1.086880452930927E-002;2.180112060159445E-003;9.711021994007751E-005;
2.407166666666667E+009;1.812159270048142E-001;1.070478931069374E-002;2.368035260587931E-003;5.179097934160382E-005;
2.407333333333334E+009;1.808371394872665E-001;1.015102956444025E-002;2.414491493254900E-003;-8.721234917175025E-005;
2.407500000000000E+009;1.806001663208008E-001;9.885577484965324E-003;2.333194250240922E-003;-2.466866862960160E-004;
2.407666666666667E+009;1.802198588848114E-001;9.361119009554386E-003;2.445968566462398E-003;-3.851587243843824E-004;
2.407833333333334E+009;1.796577423810959E-001;8.653962984681130E-003;2.344584790989757E-003;-5.221957690082490E-004;
2.408000000000000E+009;1.791874915361404E-001;8.057097904384136E-003;2.259716624394059E-003;-6.928018992766738E-004;
2.408166666666667E+009;1.785763204097748E-001;7.622131612151861E-003;2.226185752078891E-003;-6.934046978130937E-004;
2.408333333333334E+009;1.780551820993424E-001;6.730367895215750E-003;2.199260285124183E-003;-8.703113417141140E-004;
2.408500000000000E+009;1.773292273283005E-001;5.696310196071863E-003;2.031484618782997E-003;-1.037238980643451E-003;
2.408666666666667E+009;1.765464842319489E-001;4.728122614324093E-003;2.023904351517558E-003;-1.040700939483941E-003;
2.408833333333334E+009;1.757294535636902E-001;3.833318362012506E-003;1.909182406961918E-003;-1.144216977991164E-003;
2.409000000000000E+009;1.750345677137375E-001;2.542345551773906E-003;2.023852197453380E-003;-1.236462034285069E-003;
2.409166666666667E+009;1.743073016405106E-001;1.195670804008842E-003;1.700538676232100E-003;-1.238070544786751E-003;
2.409333333333334E+009;1.736530065536499E-001;-1.125465059885755E-004;1.694408128969371E-003;-1.389989163726568E-003;
2.409500000000000E+009;1.726638674736023E-001;-1.711960299871862E-003;1.511528505943716E-003;-1.441250555217266E-003;
2.409666666666667E+009;1.719672381877899E-001;-3.085095901042223E-003;1.595545676536858E-003;-1.609098748303950E-003;
2.409833333333334E+009;1.712309569120407E-001;-4.611450713127852E-003;1.278960960917175E-003;-1.599033363163471E-003;
2.410000000000000E+009;1.706318408250809E-001;-6.305535789579153E-003;1.338628935627639E-003;-1.660540001466870E-003;
2.410166666666667E+009;1.700719147920609E-001;-8.008402772247791E-003;1.098934793844819E-003;-1.735684927552939E-003;
2.410333333333334E+009;1.694203615188599E-001;-9.913695044815540E-003;9.514112025499344E-004;-1.724007423035801E-003;
2.410500000000000E+009;1.687182039022446E-001;-1.178123336285353E-002;1.041796756908298E-003;-1.755376812070608E-003;
2.410666666666667E+009;1.683431714773178E-001;-1.383591350167990E-002;7.124706753529608E-004;-1.782804960384965E-003;
2.410833333333334E+009;1.679514199495316E-001;-1.573459990322590E-002;6.892954697832465E-004;-1.726746093481779E-003;
2.411000000000000E+009;1.675379574298859E-001;-1.773203164339066E-002;6.295809289440513E-004;-1.773979747667909E-003;
2.411166666666667E+009;1.673937886953354E-001;-1.984566636383534E-002;3.677915956359357E-004;-1.884011318907142E-003;
2.411333333333334E+009;1.671395003795624E-001;-2.168039977550507E-002;7.465812814189121E-005;-1.812558504752815E-003;
2.411500000000000E+009;1.671511083841324E-001;-2.394803613424301E-002;2.374653558945283E-004;-1.757780672051013E-003;
2.411666666666667E+009;1.671868860721588E-001;-2.578379586338997E-002;5.461147520691156E-005;-1.746149617247284E-003;
2.411833333333334E+009;1.671110242605209E-001;-2.792342193424702E-002;-6.641322215727996E-006;-1.736895064823329E-003;
2.412000000000000E+009;1.673311144113541E-001;-2.999335713684559E-002;-8.759595220908523E-005;-1.720106345601380E-003;
2.412166666666667E+009;1.674117594957352E-001;-3.199492767453194E-002;-2.038201491814107E-004;-1.698052044957876E-003;
2.412333333333334E+009;1.679123938083649E-001;-3.400578722357750E-002;-3.758549864869565E-004;-1.607754151336849E-003;
2.412500000000000E+009;1.681798100471497E-001;-3.586414456367493E-002;-5.808094283565879E-004;-1.515997340902686E-003;
2.412666666666667E+009;1.686064898967743E-001;-3.781532496213913E-002;-4.442724748514593E-004;-1.304393168538809E-003;
2.412833333333334E+009;1.691960245370865E-001;-3.974889963865280E-002;-6.938459118828178E-004;-1.377746462821960E-003;
2.413000000000000E+009;1.696123331785202E-001;-4.132944718003273E-002;-8.330986602231860E-004;-1.229488640092313E-003;
2.413166666666667E+009;1.703002899885178E-001;-4.313699528574944E-002;-8.489041938446462E-004;-1.288319006562233E-003;
2.413333333333334E+009;1.707926094532013E-001;-4.477466642856598E-002;-8.264529751613736E-004;-1.043506781570613E-003;
2.413500000000000E+009;1.715067028999329E-001;-4.636213555932045E-002;-1.031930209137499E-003;-1.007050741463900E-003;
2.413666666666667E+009;1.719673722982407E-001;-4.803349450230598E-002;-8.840958471409977E-004;-8.728842367418110E-004;
2.413833333333334E+009;1.726022511720657E-001;-4.925242066383362E-002;-1.010295818559825E-003;-8.122971048578620E-004;
2.414000000000000E+009;1.732622981071472E-001;-5.069049075245857E-002;-1.100359717383981E-003;-6.050142110325396E-004;
2.414166666666667E+009;1.739353537559509E-001;-5.174452438950539E-002;-1.095145824365318E-003;-5.404562689363957E-004;
2.414333333333334E+009;1.746340692043304E-001;-5.283047631382942E-002;-1.094316714443266E-003;-5.777853075414896E-004;
2.414500000000000E+009;1.754296272993088E-001;-5.387129262089729E-002;-1.013670931570232E-003;-2.889256284106523E-004;
2.414666666666667E+009;1.757864058017731E-001;-5.473602563142777E-002;-1.081888680346310E-003;-2.935703960247338E-004;
2.414833333333334E+009;1.762697547674179E-001;-5.566224828362465E-002;-1.057918998412788E-003;-1.185401197290048E-004;
2.415000000000000E+009;1.768843084573746E-001;-5.622457340359688E-002;-1.030699466355145E-003;3.501878745737486E-005;
2.415166666666667E+009;1.771619468927383E-001;-5.686817318201065E-002;-1.163658103905618E-003;5.521278580999933E-005;
2.415333333333334E+009;1.776906400918961E-001;-5.753340199589729E-002;-9.505312773399055E-004;9.380152187077329E-005;
2.415500000000000E+009;1.780559569597244E-001;-5.788615718483925E-002;-9.561898186802864E-004;1.023157019517385E-004;
2.415666666666667E+009;1.782157123088837E-001;-5.826222151517868E-002;-9.421304566785693E-004;1.270983921131119E-004;
2.415833333333334E+009;1.784334927797318E-001;-5.864102765917778E-002;-8.285561343654990E-004;4.369591770227999E-004;
2.416000000000000E+009;1.783983409404755E-001;-5.884284153580666E-002;-1.026016543619335E-003;3.551631525624543E-004;
2.416166666666667E+009;1.787317693233490E-001;-5.918526276946068E-002;-7.328970241360366E-004;4.042489745188505E-004;
2.416333333333334E+009;1.783955544233322E-001;-5.927994474768639E-002;-7.173657068051398E-004;5.684455973096192E-004;
2.416500000000000E+009;1.782651543617249E-001;-5.947105213999748E-002;-7.021816563792527E-004;5.172307137399912E-004;
2.416666666666667E+009;1.778797060251236E-001;-5.949478596448898E-002;-7.345395279116929E-004;5.409063887782395E-004;
2.416833333333334E+009;1.777537763118744E-001;-5.976174771785736E-002;-5.212413379922509E-004;6.049307994544506E-004;
2.417000000000000E+009;1.770713627338409E-001;-5.993321537971497E-002;-6.019962020218372E-004;6.438232958316803E-004;
2.417166666666667E+009;1.765833348035812E-001;-5.984823405742645E-002;-5.021640681661665E-004;6.305340793915093E-004;
2.417333333333334E+009;1.759254187345505E-001;-5.996189266443253E-002;-5.461761611513794E-004;6.829071207903326E-004;
2.417500000000000E+009;1.751237064599991E-001;-6.039644405245781E-002;-4.643852007575333E-004;5.612786626443267E-004;
2.417666666666667E+009;1.744283735752106E-001;-6.032193824648857E-002;-3.602077777031809E-004;6.432566442526877E-004;
2.417833333333334E+009;1.734421998262405E-001;-6.060806661844254E-002;-4.394619318190962E-004;7.423370843753219E-004;
2.418000000000000E+009;1.724423915147781E-001;-6.089659780263901E-002;-2.015534118982032E-004;7.238068501465023E-004;
2.418166666666667E+009;1.713234782218933E-001;-6.104799360036850E-002;-2.582556335255504E-004;8.309285622090101E-004;
2.418333333333334E+009;1.704234331846237E-001;-6.141544505953789E-002;-2.040200342889875E-004;7.313290843740106E-004;
2.418500000000000E+009;1.691545397043228E-001;-6.188801303505898E-002;-3.551284899003804E-004;7.686208700761199E-004;
2.418666666666667E+009;1.681079715490341E-001;-6.243314966559410E-002;-2.902272972278297E-004;8.453018381260335E-004;
2.418833333333334E+009;1.665370613336563E-001;-6.298087537288666E-002;-1.857401948655024E-004;8.620315347798169E-004;
2.419000000000000E+009;1.653204858303070E-001;-6.365912407636643E-002;-2.465547586325556E-004;8.123222505673766E-004;
2.419166666666667E+009;1.639092564582825E-001;-6.428264081478119E-002;-2.172653767047450E-004;9.153602877631784E-004;
2.419333333333334E+009;1.626388281583786E-001;-6.496988236904144E-002;-1.878785587905441E-005;9.198143961839378E-004;
2.419500000000000E+009;1.614213883876801E-001;-6.618091464042664E-002;-2.284050278831273E-004;9.546614019200206E-004;
2.419666666666667E+009;1.602061092853546E-001;-6.723303347826004E-002;-1.355922286165878E-004;1.094462117180228E-003;
2.419833333333334E+009;1.588570624589920E-001;-6.793628633022308E-002;-1.221405254909769E-004;1.045419252477586E-003;
2.420000000000000E+009;1.578413397073746E-001;-6.913169473409653E-002;5.711431003874168E-005;1.046361983753741E-003;
2.420166666666667E+009;1.566249430179596E-001;-7.038682699203491E-002;-8.705840446054936E-005;1.186594832688570E-003;
2.420333333333334E+009;1.556199491024017E-001;-7.180970907211304E-002;7.156692299759015E-005;1.190833398140967E-003;
2.420500000000000E+009;1.545712500810623E-001;-7.307177782058716E-002;1.244918239535764E-004;1.320478506386280E-003;
2.420666666666667E+009;1.534763127565384E-001;-7.440553605556488E-002;1.421932247467339E-004;1.230686204507947E-003;
2.420833333333334E+009;1.527630537748337E-001;-7.606334239244461E-002;2.942789578810334E-004;1.309989020228386E-003;
2.421000000000000E+009;1.518459618091583E-001;-7.771605998277664E-002;3.311862237751484E-004;1.519945100881159E-003;
2.421166666666667E+009;1.511700898408890E-001;-7.909581810235977E-002;4.018604231532663E-004;1.415606937371194E-003;
2.421333333333334E+009;1.505857855081558E-001;-8.097941428422928E-002;3.963771450798959E-004;1.423445879481733E-003;
2.421500000000000E+009;1.500029116868973E-001;-8.264870941638947E-002;6.202677614055574E-004;1.453820499591529E-003;
2.421666666666667E+009;1.495698839426041E-001;-8.447137475013733E-002;6.027400377206504E-004;1.522322650998831E-003;
2.421833333333334E+009;1.493138819932938E-001;-8.622317761182785E-002;7.804151973687112E-004;1.463048742152751E-003;
2.422000000000000E+009;1.489884555339813E-001;-8.791671693325043E-002;9.125240030698478E-004;1.491372589953244E-003;
2.422166666666667E+009;1.487275511026382E-001;-8.983528614044190E-002;8.769705309532583E-004;1.488987472839654E-003;
2.422333333333334E+009;1.486397236585617E-001;-9.155609458684921E-002;1.057870336808264E-003;1.314846565946937E-003;
2.422500000000000E+009;1.486584842205048E-001;-9.330883622169495E-002;9.999996982514858E-004;1.351105165667832E-003;
2.422666666666667E+009;1.486223787069321E-001;-9.516098350286484E-002;1.338603789918125E-003;1.472658710554242E-003;
2.422833333333334E+009;1.490315347909927E-001;-9.678196161985397E-002;1.315882080234587E-003;1.240412471815944E-003;
2.423000000000000E+009;1.491536796092987E-001;-9.841965883970261E-002;1.372663653455675E-003;1.303846831433475E-003;
2.423166666666667E+009;1.494747400283814E-001;-1.002695411443710E-001;1.519540324807167E-003;1.250151195563376E-003;
2.423333333333334E+009;1.500220745801926E-001;-1.016631126403809E-001;1.547650783322752E-003;1.150841242633760E-003;
2.423500000000000E+009;1.501472890377045E-001;-1.034392341971397E-001;1.603412209078670E-003;1.178343663923442E-003;
2.423666666666667E+009;1.506783068180084E-001;-1.048969253897667E-001;1.844725920818746E-003;1.076373155228794E-003;
2.423833333333334E+009;1.513249278068543E-001;-1.064161732792854E-001;1.899400958791375E-003;9.786259615793824E-004;
2.424000000000000E+009;1.516954898834229E-001;-1.075878217816353E-001;1.926771365106106E-003;8.812175947241485E-004;
2.424166666666667E+009;1.523729264736176E-001;-1.089150905609131E-001;2.156237838789821E-003;7.938840426504612E-004;
2.424333333333334E+009;1.528501063585281E-001;-1.099699959158897E-001;2.056994009763002E-003;6.709394510835409E-004;
2.424500000000000E+009;1.535250246524811E-001;-1.111416667699814E-001;2.177882706746459E-003;5.286039668135345E-004;
2.424666666666667E+009;1.542489379644394E-001;-1.119201406836510E-001;2.229354111477733E-003;4.404132487252355E-004;
2.424833333333334E+009;1.546523123979569E-001;-1.128407567739487E-001;2.383404644206166E-003;4.881109925918281E-004;
2.425000000000000E+009;1.551355719566345E-001;-1.137763336300850E-001;2.286181552335620E-003;2.955468371510506E-004;
2.425166666666667E+009;1.554470211267471E-001;-1.145047992467880E-001;2.380208345130086E-003;1.881766365841031E-004;
2.425333333333334E+009;1.560426205396652E-001;-1.151631996035576E-001;2.406300744041801E-003;5.910551772103645E-005;
2.425500000000000E+009;1.564958393573761E-001;-1.158424094319344E-001;2.283275127410889E-003;-9.609906555851921E-006;
2.425666666666667E+009;1.565815210342407E-001;-1.162394359707832E-001;2.342393854632974E-003;-1.749132352415472E-004;
2.425833333333334E+009;1.569372415542603E-001;-1.166668981313705E-001;2.392434515058994E-003;-1.589266030350700E-004;
2.426000000000000E+009;1.571361422538757E-001;-1.170998662710190E-001;2.477587899193168E-003;-3.548108506947756E-004;
2.426166666666667E+009;1.573641151189804E-001;-1.174448803067207E-001;2.370617352426052E-003;-4.173723573330790E-004;
2.426333333333334E+009;1.573175489902496E-001;-1.176146864891052E-001;2.504194388166070E-003;-4.389784298837185E-004;
2.426500000000000E+009;1.572908908128738E-001;-1.177954822778702E-001;2.411197638139129E-003;-5.437168292701244E-004;
2.426666666666667E+009;1.572638750076294E-001;-1.177456825971603E-001;2.372305607423186E-003;-7.930605206638575E-004;
2.426833333333334E+009;1.569654345512390E-001;-1.179213896393776E-001;2.387653337791562E-003;-9.775245562195778E-004;
2.427000000000000E+009;1.565667092800140E-001;-1.180614531040192E-001;2.387398853898048E-003;-1.021926407702267E-003;
2.427166666666667E+009;1.560778915882111E-001;-1.178937777876854E-001;2.456662943586707E-003;-9.467627387493849E-004;
2.427333333333334E+009;1.554905325174332E-001;-1.180205792188644E-001;2.356162993237376E-003;-1.211261376738548E-003;
2.427500000000000E+009;1.549757272005081E-001;-1.180738508701325E-001;2.236153464764357E-003;-1.077034976333380E-003;
2.427666666666667E+009;1.541780829429627E-001;-1.182411015033722E-001;2.319608349353075E-003;-1.209631329402328E-003;
2.427833333333334E+009;1.530979424715042E-001;-1.181799471378326E-001;2.177770016714931E-003;-1.243768027052283E-003;
