# Hz S RI R 50
2400000000.0000000000 0.173564925789833096603231865629 0.048970278352499008178710937500 -0.000763919844757765531539916992 0.006183121819049119949340820312 0 0 0 0 
2400166666.6666665077 0.174127519130706787109375000000 0.048522099852561950683593750000 -0.000642870028968900442123413086 0.006266394630074501037597656250 0 0 0 0 
2400333333.3333334923 0.174618542194366510589276231258 0.047640535980463027954101562500 -0.000613256881479173898696899414 0.006310109049081802368164062500 0 0 0 0 
2400500000.0000000000 0.175203517079353304763955634371 0.047024518251419067382812500000 -0.000380896031856536919444483624 0.006268909201025962829589843750 0 0 0 0 
2400666666.6666665077 0.175565883517265292068643134371 0.046286676079034812236745466407 -0.000353455339791253209114074707 0.006245808210223913192749023438 0 0 0 0 
2400833333.3333334923 0.176002353429794311523437500000 0.045805074274539947509765625000 -0.000302561616990715319484156476 0.006260014604777097702026367188 0 0 0 0 
2401000000.0000000000 0.176139712333679199218750000000 0.045022945851087570190429687500 -0.000147020269650965901926317758 0.006408484652638435363769531250 0 0 0 0 
2401166666.6666665077 0.176251515746116610428018134371 0.044426262378692626953125000000 0.000046854001993779093027114868 0.006577802356332541379446698926 0 0 0 0 
2401333333.3333334923 0.176342606544494601150674384371 0.043825417757034301757812500000 0.000208152952836826389462071552 0.006572748534381389617919921875 0 0 0 0 
2401500000.0000000000 0.176632508635520907303018134371 0.043139718472957611083984375000 0.000323770043905824422836303711 0.006682518403977155685424804688 0 0 0 0 
2401666666.6666665077 0.176674172282218905349893134371 0.042524673044681549072265625000 0.000572313438169658184051513672 0.006859218701720237731933593750 0 0 0 0 
2401833333.3333334923 0.176561504602432306487713731258 0.041686840355396270751953125000 0.000861514534335583448410034180 0.006791128776967526349539472363 0 0 0 0 
2402000000.0000000000 0.176303982734680203536825615629 0.041075434535741812969167341407 0.001186756300739943981170654297 0.006857705302536487579345703125 0 0 0 0 
2402166666.6666665077 0.176159486174583407303018134371 0.040059015154838562011718750000 0.001497592311352490945103310693 0.006960690487176179885864257812 0 0 0 0 
2402333333.3333334923 0.175976052880287198165731865629 0.039089161902666091918945312500 0.001721858512610197067260742188 0.006801812443882226943969726562 0 0 0 0 
2402500000.0000000000 0.176041752099990789215411268742 0.038208756595849990844726562500 0.002128000138327478928806923975 0.006823592819273471832275390625 0 0 0 0 
2402666666.6666665077 0.175547569990158108810263115629 0.037299502640962600708007812500 0.002292888471856712861302041162 0.006934348493814468383789062500 0 0 0 0 
2402833333.3333334923 0.175320133566856412032919365629 0.036130405962467186664621721093 0.002603224245831369920017861475 0.006728751584887504577636718750 0 0 0 0 
2403000000.0000000000 0.174917101860046386718750000000 0.034814950078725821758229841407 0.002911700634285808043238974463 0.006492639891803264617919921875 0 0 0 0 
2403166666.6666665077 0.174640104174614008147869981258 0.033589139580726616596262346093 0.003180764615535736083984375000 0.006439568940550088882446289062 0 0 0 0 
2403333333.3333334923 0.174167186021804809570312500000 0.032227735966444022441823591407 0.003527231281623243851902627100 0.006292344070971012115478515625 0 0 0 0 
2403500000.0000000000 0.173655152320861788650674384371 0.030784675851464271545410156250 0.003769011469557880921604775537 0.006129879970103502273559570312 0 0 0 0 
2403666666.6666665077 0.173222437500953702071981865629 0.029090246185660358774205391796 0.003917000256478787335867597363 0.005986555945128201570992754199 0 0 0 0 
2403833333.3333334923 0.172785878181457491775674384371 0.027392506599426269531250000000 0.004187050275504589080810546875 0.005801646970212460431570722363 0 0 0 0 
2404000000.0000000000 0.172476530075073186676348768742 0.025830948725342750549316406250 0.004269930534064769744873046875 0.005642616190016269683837890625 0 0 0 0 
2404166666.6666665077 0.171977698802947998046875000000 0.024001711979508399963378906250 0.004606688395142555236816406250 0.005366330500692129135131835938 0 0 0 0 
2404333333.3333334923 0.171624779701232910156250000000 0.022187167778611179697056954296 0.004596820101141929626464843750 0.005136553663760423660278320312 0 0 0 0 
2404500000.0000000000 0.171092212200164794921875000000 0.020170038565993309020996093750 0.004816721193492412567138671875 0.005138926673680543899536132812 0 0 0 0 
2404666666.6666665077 0.170988261699676513671875000000 0.018357435241341590881347656250 0.004917648155242204666137695312 0.004876500926911830902099609375 0 0 0 0 
2404833333.3333334923 0.170592620968818692306356865629 0.016503287479281428945521170704 0.005206101574003695574288652637 0.004688782151788473129272460938 0 0 0 0 
2405000000.0000000000 0.170380875468254089355468750000 0.014403864741325380152692225977 0.005450064316391944885253906250 0.004503380507230758666992187500 0 0 0 0 
2405166666.6666665077 0.170103311538696289062500000000 0.012394945137202739715576171875 0.005559572018682956695556640625 0.004338606260716915130615234375 0 0 0 0 
2405333333.3333334923 0.170102298259735107421875000000 0.010264228098094459878941719921 0.005553952418267726898193359375 0.003924102056771516799926757812 0 0 0 0 
2405500000.0000000000 0.170102372765541104415731865629 0.008323642425239086151123046875 0.005579004529863595962524414062 0.003742124186828732924220419775 0 0 0 0 
2405666666.6666665077 0.170114025473594693282919365629 0.006232679355889558792114257812 0.005829493049532175064086914062 0.003603466786444187164306640625 0 0 0 0 
2405833333.3333334923 0.170101597905158996582031250000 0.004300070460885763168334960938 0.005710473284125328063964843750 0.003522700164467095895054482568 0 0 0 0 
2406000000.0000000000 0.170294016599655206878338731258 0.002067278837785125212428427588 0.005995000246912240982055664062 0.003424003720283507867100381006 0 0 0 0 
2406166666.6666665077 0.170550391077995300292968750000 0.000221358175622299313545227051 0.006244827527552843093872070312 0.003182094777002931074855185400 0 0 0 0 
2406333333.3333334923 0.171011596918106106857138115629 -0.001830363180488348007202148438 0.006159974262118340405935956738 0.002803807379677892164943076025 0 0 0 0 
2406500000.0000000000 0.171282052993774386306924384371 -0.004004738293588162335867597363 0.006499438546597957611083984375 0.002738081617280840873718261719 0 0 0 0 
2406666666.6666665077 0.171663865447044400314169365629 -0.005878966767340899381155683301 0.006540898233652114868164062500 0.002514509018510580062866210938 0 0 0 0 
2406833333.3333334923 0.172235697507858304122763115629 -0.007907143794000148773193359375 0.006593591533601284027099609375 0.002078603254631162123439169775 0 0 0 0 
2407000000.0000000000 0.172850131988525390625000000000 -0.009946833364665508270263671875 0.006821032613515853881835937500 0.001976390602067112922668457031 0 0 0 0 
2407166666.6666665077 0.173594087362289400955361884371 -0.011750667355954650533655936329 0.006756774149835109710693359375 0.001739467727020383098004985278 0 0 0 0 
2407333333.3333334923 0.174203902482986505706463731258 -0.013843918219208720815638358204 0.006946579553186894330496503613 0.001480651437304913997650146484 0 0 0 0 
2407500000.0000000000 0.174961075186729403396768134371 -0.015430616214871410024622733204 0.007077367976307868957519531250 0.001056641107425094084498740088 0 0 0 0 
2407666666.6666665077 0.175696715712547302246093750000 -0.017109723761677738534947579296 0.007070312742143869400024414062 0.000895732140634208917617797852 0 0 0 0 
2407833333.3333334923 0.176239535212516812423544365629 -0.018997725099325180053710937500 0.007196908351033926010131835938 0.000548119773156940937042236328 0 0 0 0 
2408000000.0000000000 0.177096530795097406585369981258 -0.020676137879490848886510079296 0.007336844690144062042236328125 0.000124157653772272196695050650 0 0 0 0 
2408166666.6666665077 0.177774235606193486969317518742 -0.022001454606652259826660156250 0.007212214171886444091796875000 -0.000134711764985695508405408316 0 0 0 0 
2408333333.3333334923 0.178707286715507507324218750000 -0.023633340373635288583775704296 0.007119088899344205856323242188 -0.000482397939777001684338170184 0 0 0 0 
2408500000.0000000000 0.179299637675285311599893134371 -0.025040144100785258901575858204 0.007001997437328100204467773438 -0.000838997657410800457000732422 0 0 0 0 
2408666666.6666665077 0.179966568946838406661825615629 -0.026428762823343280446986014454 0.007024626713246107101440429688 -0.001368123572319746017456054688 0 0 0 0 
2408833333.3333334923 0.180460065603256197830361884371 -0.027634963393211371684987653907 0.006825085729360579576974199512 -0.001662097405642271041870117188 0 0 0 0 
2409000000.0000000000 0.180981814861297607421875000000 -0.028528995811939239501953125000 0.006640376057475805282592773438 -0.001996861770749092102050781250 0 0 0 0 
2409166666.6666665077 0.181467771530151394943075615629 -0.029676470905542370187779610546 0.006413650233298540115356445312 -0.002259257482364774183986044775 0 0 0 0 
2409333333.3333334923 0.182055845856666592696981865629 -0.030500473454594608652135079296 0.006261088885366916656494140625 -0.002635566517710686163661337744 0 0 0 0 
2409500000.0000000000 0.182381257414817810058593750000 -0.031588628888130187988281250000 0.006098890677094460401053144238 -0.002678280463442205949070595850 0 0 0 0 
2409666666.6666665077 0.182746797800064086914062500000 -0.031968612223863601684570312500 0.005711129866540431976318359375 -0.003007919760420918898341513525 0 0 0 0 
2409833333.3333334923 0.183020830154419000823651231258 -0.032528322190046310424804687500 0.005663279909640550613403320312 -0.003267591819167137145996093750 0 0 0 0 
2410000000.0000000000 0.183387830853462191482705634371 -0.033109087496995932842214216407 0.005411186721175909042358398438 -0.003406584262847899956944131006 0 0 0 0 
2410166666.6666665077 0.183701917529106112381143134371 -0.033449612557888031005859375000 0.005105942022055388364309980176 -0.003417697735130786895751953125 0 0 0 0 
2410333333.3333334923 0.183748051524162292480468750000 -0.033903628587722778320312500000 0.004810455255210399627685546875 -0.003707587486132978959324502100 0 0 0 0 
2410500000.0000000000 0.183849677443504305740518134371 -0.034299332648515701293945312500 0.004682041238993406295776367188 -0.003972320817410945892333984375 0 0 0 0 
2410666666.6666665077 0.183739632368087796310263115629 -0.034646939486265182495117187500 0.004479057155549526214599609375 -0.004198499023914337158203125000 0 0 0 0 
2410833333.3333334923 0.183786198496818486969317518742 -0.034712228924036032939870466407 0.004102585837244988355154706738 -0.004248129669576883316040039062 0 0 0 0 
2411000000.0000000000 0.183742478489875793457031250000 -0.035036835819482803344726562500 0.003903950797393918037414550781 -0.004135488532483577728271484375 0 0 0 0 
2411166666.6666665077 0.183400899171829195877236884371 -0.035520561039447777484934221093 0.003553143469616771178004599463 -0.004306734073907136917114257812 0 0 0 0 
2411333333.3333334923 0.182946413755416897872763115629 -0.035630472004413611675222028907 0.003294676309451460838317871094 -0.004442139063030481338500976562 0 0 0 0 
2411500000.0000000000 0.182537615299224909026776231258 -0.036177158355712890625000000000 0.003061534604057670073268271338 -0.004449385683983564376831054688 0 0 0 0 
2411666666.6666665077 0.182027846574783297439736884371 -0.036380767822265631938893903907 0.002861027140170336203334189307 -0.004412464797496795654296875000 0 0 0 0 
2411833333.3333334923 0.181287348270416287521200615629 -0.036474887281656272197682966407 0.002528856275603175163269042969 -0.004446011036634445190429687500 0 0 0 0 
2412000000.0000000000 0.180829063057899502853231865629 -0.037032589316368103027343750000 0.002210231032222508950474404443 -0.004464535042643547058105468750 0 0 0 0 
2412166666.6666665077 0.179797977209091186523437500000 -0.037489447742700576782226562500 0.002118435455486177964451455225 -0.004291423596441745758056640625 0 0 0 0 
2412333333.3333334923 0.179027199745178194900674384371 -0.037823472172021872783620466407 0.001909034443087876059888530200 -0.004197926260530948638916015625 0 0 0 0 
2412500000.0000000000 0.178060218691825894454794365629 -0.038242764770984649658203125000 0.001526770065538584969164204175 -0.004055319353938102722167968750 0 0 0 0 
2412666666.6666665077 0.176930412650108309646768134371 -0.039061844348907470703125000000 0.001456496305763721899745322119 -0.003964414820075035095214843750 0 0 0 0 
2412833333.3333334923 0.175832301378250094314736884371 -0.039683800190687179565429687500 0.001178520731627940914751362378 -0.003650903468951582908630371094 0 0 0 0 
2413000000.0000000000 0.174689963459968594650106865629 -0.040328815579414367675781250000 0.000980623648501932621002197266 -0.003600967815145850181579589844 0 0 0 0 
2413166666.6666665077 0.173335134983062688629473768742 -0.041164457798004150390625000000 0.000995691167190670967102050781 -0.003393234685063362121582031250 0 0 0 0 
2413333333.3333334923 0.172014564275741604904013115629 -0.041865892708301537250559221093 0.000990578322671353816986083984 -0.003196410834789276123046875000 0 0 0 0 
2413500000.0000000000 0.170736551284790011306924384371 -0.042956590652465820312500000000 0.000739776063710451126098632812 -0.003063934622332454161403036963 0 0 0 0 
2413666666.6666665077 0.169437989592552212814169365629 -0.043955665081739432598073591407 0.000751672836486250162124633789 -0.003061110386624931855442666162 0 0 0 0 
2413833333.3333334923 0.168092653155326787750567518742 -0.045053530484437942504882812500 0.000833919970318675041198730469 -0.002774347783997654914855957031 0 0 0 0 
2414000000.0000000000 0.166639342904090909103231865629 -0.046280067414045326923410783593 0.000879257684573531150817871094 -0.002670726273208857016322470557 0 0 0 0 
2414166666.6666665077 0.165573507547378512283486884371 -0.047447018325328826904296875000 0.000753162952605634927749633789 -0.002448573708534241156337118994 0 0 0 0 
2414333333.3333334923 0.164315715432167108733807481258 -0.048774350434541702270507812500 0.000911167706362903118133544922 -0.002339333528652787208557128906 0 0 0 0 
2414500000.0000000000 0.163182184100151089767294365629 -0.050122011452913277362863908593 0.000987727427855134010314941406 -0.002339983824640512900111533057 0 0 0 0 
2414666666.6666665077 0.162013962864875793457031250000 -0.051648844033479690551757812500 0.001227290835231543020961142432 -0.002262106863781809806823730469 0 0 0 0 
2414833333.3333334923 0.160813629627227810958700615629 -0.053196452558040618896484375000 0.001110101933591068007825541919 -0.002385029336437582969665527344 0 0 0 0 
2415000000.0000000000 0.159709990024566705901776231258 -0.054845467209815979003906250000 0.001352061051875353076337504810 -0.002330844290554523901698447119 0 0 0 0 
2415166666.6666665077 0.158719003200531005859375000000 -0.056675415486097342754323591407 0.001314579742029309055925678784 -0.002294484525918961004969931494 0 0 0 0 
2415333333.3333334923 0.157826334238052395919638115629 -0.058377269655466079711914062500 0.001386228366754949092864990234 -0.002319949213415383858921670068 0 0 0 0 
2415500000.0000000000 0.156924620270729092696981865629 -0.060248367488384246826171875000 0.001617681700736284039141010815 -0.002464700024574995040893554688 0 0 0 0 
2415666666.6666665077 0.156144648790359497070312500000 -0.062038637697696692729909528907 0.001562744029797614054438925635 -0.002555378479883075194117880713 0 0 0 0 
2415833333.3333334923 0.155407831072807312011718750000 -0.064124725759029388427734375000 0.001607032143510878086090087891 -0.002719101496040821075439453125 0 0 0 0 
2416000000.0000000000 0.154623597860336303710937500000 -0.066130124032497406005859375000 0.001739050494506954929949116284 -0.002860592911019920869114541162 0 0 0 0 
2416166666.6666665077 0.154246255755424499511718750000 -0.067984722554683685302734375000 0.001876450027339160008671425928 -0.002865364775061606927158974756 0 0 0 0 
2416333333.3333334923 0.153660655021667508224325615629 -0.070018351078033447265625000000 0.001850396976806222958805703271 -0.002878784667700529098510742188 0 0 0 0 
2416500000.0000000000 0.153244450688362093826455634371 -0.071971833705902099609375000000 0.001687374431639909961103129810 -0.003083158051595091819763183594 0 0 0 0 
2416666666.6666665077 0.152772068977356012542401231258 -0.073916494846343994140625000000 0.001654591993428766944287944263 -0.003269890090450644926783896338 0 0 0 0 
2416833333.3333334923 0.152595072984695406814736884371 -0.076172359287738800048828125000 0.001819481607526540973066020435 -0.003412307705730199813842773438 0 0 0 0 
2417000000.0000000000 0.152135998010635403732138115629 -0.078119188547134399414062500000 0.001758318510837852954864501953 -0.003656418062746524810791015625 0 0 0 0 
2417166666.6666665077 0.151847973465919494628906250000 -0.079849936068058013916015625000 0.001650785678066313049913715894 -0.003717663930729031996486044775 0 0 0 0 
2417333333.3333334923 0.151829093694686889648437500000 -0.081668011844158172607421875000 0.001619058544747530980351113428 -0.003714803140610456900355673682 0 0 0 0 
2417500000.0000000000 0.151731073856353787521200615629 -0.083637960255146026611328125000 0.001502670696936547973035502856 -0.004038277547806501388549804688 0 0 0 0 
2417666666.6666665077 0.151828989386558504959268134371 -0.085186295211315155029296875000 0.001496426295489073016523051685 -0.004113641101866961392874433301 0 0 0 0 
2417833333.3333334923 0.151857674121856689453125000000 -0.086705043911933898925781250000 0.001365598640404642061946249854 -0.004268553107976914319510175488 0 0 0 0 
2418000000.0000000000 0.151743635535240201095419365629 -0.088344521820545196533203125000 0.001234287163242697932599711841 -0.004498479422181844711303710938 0 0 0 0 
2418166666.6666665077 0.151973009109497098068075615629 -0.089638419449329376220703125000 0.000987633131444454193115234375 -0.004633593373000621795654296875 0 0 0 0 
2418333333.3333334923 0.152344703674316406250000000000 -0.091013684868812561035156250000 0.000883696775417774915695190430 -0.004830175079405307769775390625 0 0 0 0 
2418500000.0000000000 0.152448683977127102950888115629 -0.092320300638675689697265625000 0.000555718143004924058914184570 -0.005001293960958719253540039062 0 0 0 0 
2418666666.6666665077 0.152662798762321499923544365629 -0.093426540493965148925781250000 0.000532923615537583827972412109 -0.004937620367854833602905273438 0 0 0 0 
2418833333.3333334923 0.152684643864631708343182481258 -0.094494193792343139648437500000 0.000119559379527345299720764160 -0.005219149868935346603393554688 0 0 0 0 
2419000000.0000000000 0.152907088398933410644531250000 -0.095228709280490875244140625000 -0.000040615272155264392495155334 -0.005285901483148336410522460938 0 0 0 0 
2419166666.6666665077 0.153085187077522305587606865629 -0.096001572906970977783203125000 -0.000420261058025062084197998047 -0.005414347629994153976440429688 0 0 0 0 
2419333333.3333334923 0.153302833437919588943643134371 -0.096567511558532714843750000000 -0.000752983149141073226928710938 -0.005408519878983497619628906250 0 0 0 0 
2419500000.0000000000 0.153617426753044100662393134371 -0.097160272300243377685546875000 -0.001006524311378597996355366284 -0.005151512101292610168457031250 0 0 0 0 
2419666666.6666665077 0.153958380222320612151776231258 -0.097593851387500762939453125000 -0.001249900320544838905334472656 -0.005358033813536167144775390625 0 0 0 0 
2419833333.3333334923 0.154052197933196993728799384371 -0.097682632505893707275390625000 -0.001414514495991169972660683740 -0.005248618777841329574584960938 0 0 0 0 
