# Version 1.00
#
freq[Hz];re:Trc1_S11;im:Trc1_S11;re:Trc2_S21;im:Trc2_S21;
2.400000000000000E+009;1.572515368461609E-001;6.019258499145508E-002;-1.048156293109059E-003;-5.143482703715563E-004;
2.400166666666667E+009;1.575228869915009E-001;5.855153501033783E-002;-1.105725765228272E-003;-5.080068367533386E-004;
2.400333333333334E+009;1.574124842882156E-001;5.668609589338303E-002;-1.101512927561998E-003;-5.209757364355028E-004;
2.400500000000000E+009;1.577995866537094E-001;5.471963435411453E-002;-1.031390391290188E-003;-2.867683942895383E-004;
2.400666666666667E+009;1.579906642436981E-001;5.286021530628204E-002;-1.011312357150018E-003;-3.616052563302219E-004;
2.400833333333334E+009;1.580879539251328E-001;5.093624070286751E-002;-9.383347351104021E-004;-2.750654821284115E-004;
2.401000000000000E+009;1.584377884864807E-001;4.886391386389732E-002;-8.995224488899112E-004;-3.530806861817837E-004;
2.401166666666667E+009;1.589425802230835E-001;4.679644107818604E-002;-8.191601955331862E-004;-2.259641332784668E-004;
2.401333333333334E+009;1.591320037841797E-001;4.480112716555595E-002;-5.711212288588285E-004;-9.992388368118554E-005;
2.401500000000000E+009;1.597744822502136E-001;4.287414252758026E-002;-6.083284970372915E-004;-1.293089735554531E-004;
2.401666666666667E+009;1.601535379886627E-001;4.104782268404961E-002;-5.921415286138654E-004;-2.247216762043536E-004;
2.401833333333334E+009;1.607767939567566E-001;3.908730298280716E-002;-5.202303873375058E-004;-2.255260769743472E-004;
2.402000000000000E+009;1.613480299711227E-001;3.725409135222435E-002;-3.497929428704083E-004;-1.810301619116217E-004;
2.402166666666667E+009;1.619600206613541E-001;3.532490506768227E-002;-3.067826037295163E-004;-2.459128154441714E-004;
2.402333333333334E+009;1.625570207834244E-001;3.354931250214577E-002;-1.501299411756918E-004;-2.387285203440115E-004;
2.402500000000000E+009;1.634713262319565E-001;3.204230964183807E-002;-2.018135710386559E-004;-3.752518096007407E-004;
2.402666666666667E+009;1.641687154769898E-001;3.052695654332638E-002;-1.762017564033158E-005;-4.327997157815844E-004;
2.402833333333334E+009;1.648949980735779E-001;2.885666303336620E-002;-2.020821411861107E-004;-6.554141873493791E-004;
2.403000000000000E+009;1.657694131135941E-001;2.758210152387619E-002;-1.690777135081589E-004;-6.139890756458044E-004;
2.403166666666667E+009;1.668212711811066E-001;2.616980858147144E-002;-1.351737737422809E-004;-7.281469879671931E-004;
2.403333333333334E+009;1.675032526254654E-001;2.483270876109600E-002;2.485658114892431E-005;-7.980552036315203E-004;
2.403500000000000E+009;1.683692783117294E-001;2.364722639322281E-002;8.511984196957201E-005;-8.111095521599054E-004;
2.403666666666667E+009;1.693661510944367E-001;2.245014533400536E-002;1.632889870961662E-005;-7.573251496069133E-004;
2.403833333333334E+009;1.703097373247147E-001;2.144739404320717E-002;-5.119480556459166E-005;-1.002139993943274E-003;
2.404000000000000E+009;1.711009293794632E-001;2.039608359336853E-002;-2.120191493304446E-004;-8.894811035133898E-004;
2.404166666666667E+009;1.720634549856186E-001;1.941163092851639E-002;-1.771691604517400E-004;-9.777152445167303E-004;
2.404333333333334E+009;1.727252453565598E-001;1.862041652202606E-002;-2.413280890323222E-004;-1.000325079075992E-003;
2.404500000000000E+009;1.734484881162643E-001;1.765013113617897E-002;1.110605262510944E-005;-1.127330702729523E-003;
2.404666666666667E+009;1.742981076240540E-001;1.708584651350975E-002;-3.191134310327470E-004;-1.340814749710262E-003;
2.404833333333334E+009;1.751417070627213E-001;1.644012145698071E-002;-1.956115302164108E-004;-1.342162606306374E-003;
2.405000000000000E+009;1.756407022476196E-001;1.593092828989029E-002;-3.653114836197346E-004;-1.211171736940742E-003;
2.405166666666667E+009;1.765360534191132E-001;1.517998520284891E-002;-5.130718927830458E-004;-1.426854403689504E-003;
2.405333333333334E+009;1.769919246435165E-001;1.467432454228401E-002;-4.542443784885109E-004;-1.383603550493717E-003;
2.405500000000000E+009;1.776663810014725E-001;1.427730545401573E-002;-6.123554776422679E-004;-1.523475861176848E-003;
2.405666666666667E+009;1.780364811420441E-001;1.387058291584253E-002;-5.315735470503569E-004;-1.315973000600934E-003;
2.405833333333334E+009;1.784085184335709E-001;1.356077659875155E-002;-7.034352165646851E-004;-1.271187327802181E-003;
2.406000000000000E+009;1.787814497947693E-001;1.299176272004843E-002;-8.767772233113647E-004;-1.460011582821608E-003;
2.406166666666667E+009;1.789012104272842E-001;1.286127418279648E-002;-9.046855848282576E-004;-1.282573794014752E-003;
2.406333333333334E+009;1.792142093181610E-001;1.247267704457045E-002;-1.070406986400485E-003;-1.424087327904999E-003;
2.406500000000000E+009;1.792547404766083E-001;1.216097082942724E-002;-1.100523862987757E-003;-1.445320551283658E-003;
2.406666666666667E+009;1.791314780712128E-001;1.178284920752049E-002;-1.181514933705330E-003;-1.415076083503664E-003;
2.406833333333334E+009;1.791968196630478E-001;1.126745343208313E-002;-1.140758045949042E-003;-1.190034556202591E-003;
2.407000000000000E+009;1.791094243526459E-001;1.088116317987442E-002;-1.327703590504825E-003;-1.382645918056369E-003;
2.407166666666667E+009;1.790653616189957E-001;1.051309425383806E-002;-1.381813664920628E-003;-1.375861233100295E-003;
2.407333333333334E+009;1.787233203649521E-001;9.708747267723084E-003;-1.523378072306514E-003;-1.238057739101350E-003;
2.407500000000000E+009;1.783810555934906E-001;9.331708773970604E-003;-1.530594774521887E-003;-1.025535399094224E-003;
2.407666666666667E+009;1.781280189752579E-001;8.697474375367165E-003;-1.585919060744345E-003;-1.026868587359786E-003;
2.407833333333334E+009;1.776186376810074E-001;7.886284030973911E-003;-1.708096242509782E-003;-1.090830308385193E-003;
2.408000000000000E+009;1.773250550031662E-001;7.072934880852699E-003;-1.602069824002683E-003;-1.106491079553962E-003;
2.408166666666667E+009;1.767799407243729E-001;6.347910966724157E-003;-1.788920722901821E-003;-1.053816871717572E-003;
2.408333333333334E+009;1.763704270124435E-001;5.474106408655644E-003;-1.713269972242415E-003;-9.462165180593729E-004;
2.408500000000000E+009;1.756179481744766E-001;4.396047908812761E-003;-1.635555061511695E-003;-8.668546215631068E-004;
2.408666666666667E+009;1.751454919576645E-001;3.169656265527010E-003;-1.757739577442408E-003;-9.836208773776889E-004;
2.408833333333334E+009;1.744376420974731E-001;2.174910157918930E-003;-1.773150754161179E-003;-8.728106040507555E-004;
2.409000000000000E+009;1.737220436334610E-001;9.683405514806509E-004;-1.804285100661218E-003;-8.942820713855326E-004;
2.409166666666667E+009;1.732552647590637E-001;-3.107316733803600E-004;-1.820623874664307E-003;-7.947242120280862E-004;
2.409333333333334E+009;1.727804392576218E-001;-1.900049974210560E-003;-1.742098480463028E-003;-7.225308218039572E-004;
2.409500000000000E+009;1.720284819602966E-001;-3.316134912893176E-003;-1.665222691372037E-003;-7.521956576965749E-004;
2.409666666666667E+009;1.715263873338699E-001;-4.721492063254118E-003;-1.795679796487093E-003;-7.977343630045652E-004;
2.409833333333334E+009;1.709002554416657E-001;-6.231739651411772E-003;-1.930014463141561E-003;-7.873866125009954E-004;
2.410000000000000E+009;1.704547405242920E-001;-7.966412231326103E-003;-1.849966240115464E-003;-7.185462745837867E-004;
2.410166666666667E+009;1.701116859912872E-001;-9.592415764927864E-003;-2.039550803601742E-003;-7.792989490553737E-004;
2.410333333333334E+009;1.695050001144409E-001;-1.123708114027977E-002;-1.929152058437467E-003;-6.327952723950148E-004;
2.410500000000000E+009;1.692142486572266E-001;-1.313982810825110E-002;-2.075688447803259E-003;-5.033469060435891E-004;
2.410666666666667E+009;1.687846183776856E-001;-1.499376352876425E-002;-2.130764303728938E-003;-5.887188599444926E-004;
2.410833333333334E+009;1.685216128826141E-001;-1.665882207453251E-002;-2.085817512124777E-003;-5.265747313387692E-004;
2.411000000000000E+009;1.684557199478149E-001;-1.861046068370342E-002;-1.950455131009221E-003;-6.239842041395605E-004;
2.411166666666667E+009;1.683610826730728E-001;-2.052943035960197E-002;-2.370883943513036E-003;-5.928818718530238E-004;
2.411333333333334E+009;1.683379113674164E-001;-2.234023623168469E-002;-2.312887925654650E-003;-5.874860216863453E-004;
2.411500000000000E+009;1.682529747486115E-001;-2.419070340692997E-002;-2.308064606040716E-003;-4.817861190531403E-004;
2.411666666666667E+009;1.685124784708023E-001;-2.610303275287151E-002;-2.539072185754776E-003;-4.502894880715758E-004;
2.411833333333334E+009;1.687847375869751E-001;-2.787090092897415E-002;-2.550674602389336E-003;-3.093479026574642E-004;
2.412000000000000E+009;1.688118278980255E-001;-2.992242015898228E-002;-2.617246471345425E-003;-1.573861663928255E-004;
2.412166666666667E+009;1.690067499876022E-001;-3.163212165236473E-002;-2.615955891087651E-003;-2.160508593078703E-004;
2.412333333333334E+009;1.693796962499619E-001;-3.341713175177574E-002;-2.892765682190657E-003;-2.872711338568479E-004;
2.412500000000000E+009;1.698194444179535E-001;-3.512181714177132E-002;-2.732998458668590E-003;-7.136695785447955E-006;
2.412666666666667E+009;1.701592206954956E-001;-3.696657344698906E-002;-2.889026422053576E-003;5.371109364205040E-005;
2.412833333333334E+009;1.707338839769363E-001;-3.866390883922577E-002;-2.862371504306793E-003;2.168251521652564E-004;
2.413000000000000E+009;1.712150126695633E-001;-4.031473398208618E-002;-2.860173350200057E-003;2.545297611504793E-004;
2.413166666666667E+009;1.717510819435120E-001;-4.199370741844177E-002;-2.970726694911718E-003;4.585740389302373E-004;
2.413333333333334E+009;1.719781011343002E-001;-4.326856136322022E-002;-3.130158409476280E-003;5.784661625511944E-004;
2.413500000000000E+009;1.726488023996353E-001;-4.482843354344368E-002;-3.160606138408184E-003;7.690368220210075E-004;
2.413666666666667E+009;1.733835935592651E-001;-4.623895511031151E-002;-3.166392911225557E-003;7.984592230059207E-004;
2.413833333333334E+009;1.736532002687454E-001;-4.741641134023666E-002;-3.106833202764392E-003;1.038027694448829E-003;
2.414000000000000E+009;1.742338538169861E-001;-4.890950024127960E-002;-3.146459348499775E-003;1.171285635791719E-003;
2.414166666666667E+009;1.748471707105637E-001;-4.989207163453102E-002;-3.073742380365729E-003;1.289057312533259E-003;
2.414333333333334E+009;1.754287034273148E-001;-5.097950249910355E-002;-2.935779280960560E-003;1.404718728736043E-003;
2.414500000000000E+009;1.760820597410202E-001;-5.190999060869217E-002;-3.081467468291521E-003;1.605901168659329E-003;
2.414666666666667E+009;1.762857735157013E-001;-5.261294171214104E-002;-3.016897942870855E-003;1.701215631328523E-003;
2.414833333333334E+009;1.767362505197525E-001;-5.357037484645844E-002;-3.005336038768292E-003;1.817815937101841E-003;
2.415000000000000E+009;1.770991384983063E-001;-5.428219959139824E-002;-2.954258816316724E-003;2.181391697376967E-003;
2.415166666666667E+009;1.774256378412247E-001;-5.509144440293312E-002;-2.890392672270536E-003;2.217185217887163E-003;
2.415333333333334E+009;1.778251677751541E-001;-5.569127202033997E-002;-2.653686329722405E-003;2.289341529831290E-003;
2.415500000000000E+009;1.779028028249741E-001;-5.619573593139648E-002;-2.886197529733181E-003;2.448121085762978E-003;
2.415666666666667E+009;1.780478060245514E-001;-5.662978813052177E-002;-2.586490940302610E-003;2.563681919127703E-003;
2.415833333333334E+009;1.781841665506363E-001;-5.690952762961388E-002;-2.447895472869277E-003;2.641783095896244E-003;
2.416000000000000E+009;1.780003309249878E-001;-5.749111995100975E-002;-2.387983025982976E-003;2.831346122547984E-003;
2.416166666666667E+009;1.781162023544312E-001;-5.786040425300598E-002;-2.332109957933426E-003;2.930836752057076E-003;
2.416333333333334E+009;1.778454184532166E-001;-5.814959481358528E-002;-2.201373688876629E-003;3.081561997532845E-003;
2.416500000000000E+009;1.775627285242081E-001;-5.847427248954773E-002;-2.102191094309092E-003;3.091359278187156E-003;
2.416666666666667E+009;1.770825535058975E-001;-5.859830975532532E-002;-2.000236185267568E-003;3.248221939429641E-003;
2.416833333333334E+009;1.768218427896500E-001;-5.922450125217438E-002;-1.704131369479001E-003;3.288641804829240E-003;
2.417000000000000E+009;1.759871840476990E-001;-5.950752273201942E-002;-1.807975699193776E-003;3.508848603814840E-003;
2.417166666666667E+009;1.754846274852753E-001;-5.963627249002457E-002;-1.498338882811368E-003;3.347373567521572E-003;
2.417333333333334E+009;1.748430281877518E-001;-5.988230928778648E-002;-1.502084312960506E-003;3.413350787013769E-003;
2.417500000000000E+009;1.739842742681503E-001;-6.035775318741798E-002;-1.323415082879365E-003;3.619046416133642E-003;
2.417666666666667E+009;1.733369678258896E-001;-6.048500537872315E-002;-1.178916078060865E-003;3.588388441130519E-003;
2.417833333333334E+009;1.723193377256393E-001;-6.101455166935921E-002;-9.275071788579226E-004;3.578758100047708E-003;
2.418000000000000E+009;1.713403314352036E-001;-6.155296787619591E-002;-9.470576187595725E-004;3.653746098279953E-003;
2.418166666666667E+009;1.702288091182709E-001;-6.192186102271080E-002;-9.770976612344384E-004;3.630999708548188E-003;
2.418333333333334E+009;1.695222854614258E-001;-6.245250627398491E-002;-6.938242586329579E-004;3.664375748485327E-003;
2.418500000000000E+009;1.682544797658920E-001;-6.314869225025177E-002;-5.402188980951905E-004;3.627531230449677E-003;
2.418666666666667E+009;1.672033220529556E-001;-6.379234045743942E-002;-3.954562707804143E-004;3.825991181656718E-003;
2.418833333333334E+009;1.658610850572586E-001;-6.445851922035217E-002;-1.673789374763146E-004;3.654509317129850E-003;
2.419000000000000E+009;1.646786332130432E-001;-6.521815061569214E-002;-1.428623636456905E-005;3.746716072782874E-003;
2.419166666666667E+009;1.636567413806915E-001;-6.611993908882141E-002;4.436032395460643E-005;3.676721826195717E-003;
2.419333333333334E+009;1.621943265199661E-001;-6.681065261363983E-002;1.023074000841007E-004;3.557636402547360E-003;
2.419500000000000E+009;1.612837016582489E-001;-6.809135526418686E-002;1.771643146639690E-004;3.676005406305194E-003;
2.419666666666667E+009;1.601992398500443E-001;-6.905488669872284E-002;2.933370415121317E-004;3.655422478914261E-003;
2.419833333333334E+009;1.589410901069641E-001;-7.012744247913361E-002;5.377050256356597E-004;3.612378146499395E-003;
2.420000000000000E+009;1.580269336700440E-001;-7.117903232574463E-002;7.852786802686751E-004;3.487006295472384E-003;
2.420166666666667E+009;1.569484621286392E-001;-7.244510203599930E-002;7.825189386494458E-004;3.493614494800568E-003;
2.420333333333334E+009;1.559909731149674E-001;-7.379113137722015E-002;7.905405946075916E-004;3.431962570175529E-003;
2.420500000000000E+009;1.552636474370956E-001;-7.513730973005295E-002;8.748053805902600E-004;3.484285669401288E-003;
2.420666666666667E+009;1.542496234178543E-001;-7.649205625057221E-002;1.116681611165404E-003;3.197850892320275E-003;
2.420833333333334E+009;1.535371541976929E-001;-7.802667468786240E-002;1.176727353595197E-003;3.316775662824512E-003;
2.421000000000000E+009;1.525573879480362E-001;-7.958966493606567E-002;1.160967745818198E-003;3.159661078825593E-003;
2.421166666666667E+009;1.521327346563339E-001;-8.111039549112320E-002;1.384292030707002E-003;3.167049959301949E-003;
2.421333333333334E+009;1.517972052097321E-001;-8.266791701316834E-002;1.350853941403329E-003;3.137778723612428E-003;
2.421500000000000E+009;1.511625796556473E-001;-8.406116813421249E-002;1.600048504769802E-003;3.008870640769601E-003;
2.421666666666667E+009;1.508192867040634E-001;-8.585202693939209E-002;1.665306044742465E-003;3.126227064058185E-003;
2.421833333333334E+009;1.505289226770401E-001;-8.739003539085388E-002;1.627063378691673E-003;3.022342221811414E-003;
2.422000000000000E+009;1.501800566911697E-001;-8.907172083854675E-002;1.775899669155479E-003;2.983738901093602E-003;
2.422166666666667E+009;1.498897075653076E-001;-9.091503173112869E-002;1.750643132254481E-003;2.866728464141488E-003;
2.422333333333334E+009;1.500649601221085E-001;-9.237515181303024E-002;1.815037452615798E-003;2.799751702696085E-003;
2.422500000000000E+009;1.499568372964859E-001;-9.386151283979416E-002;1.923466683365405E-003;2.633645664900541E-003;
2.422666666666667E+009;1.499893814325333E-001;-9.565909951925278E-002;1.931471051648259E-003;2.729883417487145E-003;
2.422833333333334E+009;1.502068638801575E-001;-9.715935587882996E-002;1.984962960705161E-003;2.664555329829454E-003;
2.423000000000000E+009;1.504762321710587E-001;-9.864597022533417E-002;1.972225960344076E-003;2.599122934043407E-003;
2.423166666666667E+009;1.506616324186325E-001;-1.001490131020546E-001;2.171120140701532E-003;2.460205461829901E-003;
2.423333333333334E+009;1.511638462543488E-001;-1.014173701405525E-001;2.088460372760892E-003;2.550574718043208E-003;
2.423500000000000E+009;1.512943208217621E-001;-1.029694154858589E-001;2.409326611086726E-003;2.483947202563286E-003;
2.423666666666667E+009;1.514530479907990E-001;-1.042095720767975E-001;2.534179948270321E-003;2.349482383579016E-003;
2.423833333333334E+009;1.521698236465454E-001;-1.055907085537911E-001;2.418995136395097E-003;2.215249463915825E-003;
2.424000000000000E+009;1.524524390697479E-001;-1.064766570925713E-001;2.566819544881582E-003;2.245048293843865E-003;
2.424166666666667E+009;1.529428064823151E-001;-1.078367009758949E-001;2.610074589028955E-003;2.172870095819235E-003;
2.424333333333334E+009;1.534309536218643E-001;-1.088030636310577E-001;2.666219370439649E-003;2.170914551243186E-003;
2.424500000000000E+009;1.538477391004562E-001;-1.098264753818512E-001;2.831414341926575E-003;2.159907715395093E-003;
2.424666666666667E+009;1.543691456317902E-001;-1.105547249317169E-001;2.828560303896666E-003;1.931364531628788E-003;
2.424833333333334E+009;1.545759290456772E-001;-1.115243434906006E-001;2.874514553695917E-003;1.947744516655803E-003;
2.425000000000000E+009;1.551867723464966E-001;-1.123763397336006E-001;2.779410686343908E-003;1.692490768618882E-003;
2.425166666666667E+009;1.552662849426270E-001;-1.129235848784447E-001;3.101937007158995E-003;1.649880199693143E-003;
2.425333333333334E+009;1.556988656520844E-001;-1.136296764016151E-001;3.100182395428419E-003;1.511897193267942E-003;
2.425500000000000E+009;1.560047864913940E-001;-1.142678335309029E-001;3.243512939661741E-003;1.551157562062144E-003;
2.425666666666667E+009;1.559407263994217E-001;-1.146736368536949E-001;3.269046079367399E-003;1.316585927270353E-003;
2.425833333333334E+009;1.561650931835175E-001;-1.150920093059540E-001;3.251337446272373E-003;1.352577586658299E-003;
2.426000000000000E+009;1.562223881483078E-001;-1.156151443719864E-001;3.288245527073741E-003;1.090500736609101E-003;
2.426166666666667E+009;1.563837081193924E-001;-1.159607321023941E-001;3.352788276970387E-003;1.076826942153275E-003;
2.426333333333334E+009;1.562202870845795E-001;-1.161876544356346E-001;3.266790183261037E-003;1.013949513435364E-003;
2.426500000000000E+009;1.562257260084152E-001;-1.164227277040482E-001;3.372477367520332E-003;8.803750388324261E-004;
2.426666666666667E+009;1.560925096273422E-001;-1.165311932563782E-001;3.253695322200656E-003;8.784761885181069E-004;
2.426833333333334E+009;1.556901335716248E-001;-1.168035343289375E-001;3.344562137499452E-003;6.288677104748786E-004;
2.427000000000000E+009;1.552471965551376E-001;-1.171075627207756E-001;3.469078335911036E-003;4.549058212433010E-004;
2.427166666666667E+009;1.546944230794907E-001;-1.171453967690468E-001;3.342266194522381E-003;4.047996771987528E-004;
2.427333333333334E+009;1.541197299957275E-001;-1.173135042190552E-001;3.491208190098405E-003;2.808941062539816E-004;
2.427500000000000E+009;1.535298675298691E-001;-1.175117492675781E-001;3.452153177931905E-003;1.527812855783850E-004;
2.427666666666667E+009;1.526367217302322E-001;-1.177141889929771E-001;3.418584587052465E-003;6.296068022493273E-005;
