# Version 1.00
#
freq[Hz];re:Trc1_S11;im:Trc1_S11;re:Trc2_S21;im:Trc2_S21;
2.400000000000000E+009;1.689134091138840E-001;4.579681903123856E-002;-5.774878431111574E-003;-1.169275492429733E-003;
2.400166666666667E+009;1.699138432741165E-001;4.488072916865349E-002;-5.790932569652796E-003;-9.064039331860840E-004;
2.400333333333334E+009;1.707178503274918E-001;4.372714087367058E-002;-5.989596713334322E-003;-9.026188636198640E-004;
2.400500000000000E+009;1.717302799224854E-001;4.278863221406937E-002;-6.032271776348352E-003;-6.916839047335088E-004;
2.400666666666667E+009;1.726244837045670E-001;4.175755009055138E-002;-6.166662089526653E-003;-5.073970532976091E-004;
2.400833333333334E+009;1.735788732767105E-001;4.103942587971687E-002;-6.325863767415285E-003;-4.213590000290424E-004;
2.401000000000000E+009;1.744515597820282E-001;4.020683467388153E-002;-6.322194822132587E-003;-1.905793469632044E-004;
2.401166666666667E+009;1.751214712858200E-001;3.955971822142601E-002;-6.584250833839178E-003;3.918079892173410E-005;
2.401333333333334E+009;1.759315133094788E-001;3.877609595656395E-002;-6.504451390355825E-003;3.345578152220696E-004;
2.401500000000000E+009;1.767292171716690E-001;3.819326683878899E-002;-6.696926429867744E-003;4.672510840464383E-004;
2.401666666666667E+009;1.772079020738602E-001;3.781791776418686E-002;-6.637907121330500E-003;6.842701113782823E-004;
2.401833333333334E+009;1.778632402420044E-001;3.690332174301148E-002;-6.714006885886192E-003;9.388798498548567E-004;
2.402000000000000E+009;1.781296283006668E-001;3.647292777895927E-002;-6.731492001563311E-003;1.273696543648839E-003;
2.402166666666667E+009;1.786638200283051E-001;3.590009734034538E-002;-6.852145772427321E-003;1.717445789836347E-003;
2.402333333333334E+009;1.788215041160584E-001;3.521627187728882E-002;-6.905206479132175E-003;1.836593961343169E-003;
2.402500000000000E+009;1.795418709516525E-001;3.468010202050209E-002;-6.802598945796490E-003;2.143977908417583E-003;
2.402666666666667E+009;1.796095967292786E-001;3.396179527044296E-002;-6.802527233958244E-003;2.268163720145822E-003;
2.402833333333334E+009;1.796769052743912E-001;3.334984183311462E-002;-6.762806326150894E-003;2.600938081741333E-003;
2.403000000000000E+009;1.799796968698502E-001;3.245313465595245E-002;-6.816508248448372E-003;2.937180455774069E-003;
2.403166666666667E+009;1.797602474689484E-001;3.179053589701653E-002;-6.641790736466646E-003;3.225588938221335E-003;
2.403333333333334E+009;1.799311190843582E-001;3.113472834229469E-002;-6.558974273502827E-003;3.467282047495246E-003;
2.403500000000000E+009;1.796929836273193E-001;3.012430854141712E-002;-6.379278376698494E-003;3.842263016849756E-003;
2.403666666666667E+009;1.793076395988464E-001;2.909473143517971E-002;-6.446372717618942E-003;4.028774797916412E-003;
2.403833333333334E+009;1.791484057903290E-001;2.802297472953796E-002;-6.177923642098904E-003;4.458149895071983E-003;
2.404000000000000E+009;1.788674592971802E-001;2.714190073311329E-002;-6.014355923980475E-003;4.417223390191793E-003;
2.404166666666667E+009;1.782578825950623E-001;2.590274997055531E-002;-5.863478872925043E-003;4.742809105664492E-003;
2.404333333333334E+009;1.780475229024887E-001;2.440846338868141E-002;-5.714904051274061E-003;5.221303086727858E-003;
2.404500000000000E+009;1.773612350225449E-001;2.310894243419170E-002;-5.497237667441368E-003;5.426766350865364E-003;
2.404666666666667E+009;1.769305467605591E-001;2.182783931493759E-002;-5.347080994397402E-003;5.832207389175892E-003;
2.404833333333334E+009;1.762202531099320E-001;2.037966996431351E-002;-4.979663994163275E-003;6.021282169967890E-003;
2.405000000000000E+009;1.759086847305298E-001;1.894804090261459E-002;-4.666171967983246E-003;6.165559869259596E-003;
2.405166666666667E+009;1.755119860172272E-001;1.719385571777821E-002;-4.374912008643150E-003;6.386141292750835E-003;
2.405333333333334E+009;1.752534955739975E-001;1.569988578557968E-002;-4.344286397099495E-003;6.279488094151020E-003;
2.405500000000000E+009;1.745464205741882E-001;1.419916562736034E-002;-3.869724692776799E-003;6.575242150574923E-003;
2.405666666666667E+009;1.743164658546448E-001;1.253394410014153E-002;-3.728655399754643E-003;6.564310751855373E-003;
2.405833333333334E+009;1.737453788518906E-001;1.073983404785395E-002;-3.512562019750476E-003;6.708543282002211E-003;
2.406000000000000E+009;1.736893206834793E-001;8.585410192608833E-003;-2.914036391302943E-003;6.883859168738127E-003;
2.406166666666667E+009;1.731335520744324E-001;6.994268856942654E-003;-2.702735364437103E-003;6.996138021349907E-003;
2.406333333333334E+009;1.732382476329804E-001;5.049953702837229E-003;-2.515713917091489E-003;6.881417706608772E-003;
2.406500000000000E+009;1.729378849267960E-001;2.956853713840246E-003;-2.208896679803729E-003;7.013376802206039E-003;
2.406666666666667E+009;1.725974231958389E-001;1.020054565742612E-003;-1.895196619443595E-003;6.982231047004461E-003;
2.406833333333334E+009;1.728877127170563E-001;-1.163436449132860E-003;-1.666314085014164E-003;7.105829194188118E-003;
2.407000000000000E+009;1.728200167417526E-001;-3.226140979677439E-003;-1.439572195522487E-003;7.069190032780170E-003;
2.407166666666667E+009;1.730801761150360E-001;-5.300671327859163E-003;-1.078356523066759E-003;7.125488016754389E-003;
2.407333333333334E+009;1.731054335832596E-001;-7.483358494937420E-003;-1.015942892991006E-003;6.900087930262089E-003;
2.407500000000000E+009;1.733714938163757E-001;-9.595147334039211E-003;-5.142337759025395E-004;7.003112230449915E-003;
2.407666666666667E+009;1.736209094524384E-001;-1.161565724760294E-002;-3.126862284261733E-004;6.844802293926477E-003;
2.407833333333334E+009;1.737162768840790E-001;-1.392712444067001E-002;-1.015994857880287E-004;6.799326278269291E-003;
2.408000000000000E+009;1.742536723613739E-001;-1.592721045017242E-002;3.029101935680956E-004;6.783244200050831E-003;
2.408166666666667E+009;1.745914667844772E-001;-1.792915537953377E-002;3.699094813782722E-004;6.547793280333281E-003;
2.408333333333334E+009;1.751414686441422E-001;-1.989474520087242E-002;5.627757636830211E-004;6.700938567519188E-003;
2.408500000000000E+009;1.754478216171265E-001;-2.190233021974564E-002;7.067400147207081E-004;6.429335568100214E-003;
2.408666666666667E+009;1.758363842964172E-001;-2.379764430224896E-002;7.915337337180972E-004;6.503441371023655E-003;
2.408833333333334E+009;1.759607493877411E-001;-2.559539489448071E-002;1.039007445797324E-003;6.443564314395189E-003;
2.409000000000000E+009;1.764204651117325E-001;-2.709241211414337E-002;1.133282901719213E-003;6.391064729541540E-003;
2.409166666666667E+009;1.768725961446762E-001;-2.875792793929577E-002;1.200530561618507E-003;6.182407960295677E-003;
2.409333333333334E+009;1.773538291454315E-001;-3.008694201707840E-002;1.450612093321979E-003;6.041879765689373E-003;
2.409500000000000E+009;1.777298301458359E-001;-3.155884891748428E-002;1.591720967553556E-003;6.243185140192509E-003;
2.409666666666667E+009;1.780893802642822E-001;-3.275312483310700E-002;1.716045197099447E-003;5.944778211414814E-003;
2.409833333333334E+009;1.785754114389420E-001;-3.382441774010658E-002;1.787590095773339E-003;6.018639542162418E-003;
2.410000000000000E+009;1.790451854467392E-001;-3.473014757037163E-002;1.978170825168490E-003;6.067507900297642E-003;
2.410166666666667E+009;1.796411722898483E-001;-3.563707694411278E-002;2.074508462101221E-003;5.914174020290375E-003;
2.410333333333334E+009;1.799747943878174E-001;-3.652616217732430E-002;2.033302793279290E-003;6.031987722963095E-003;
2.410500000000000E+009;1.803721189498901E-001;-3.726974502205849E-002;2.311726799234748E-003;5.965231917798519E-003;
2.410666666666667E+009;1.806814223527908E-001;-3.798514232039452E-002;2.563541987910867E-003;5.905572790652514E-003;
2.410833333333334E+009;1.810801476240158E-001;-3.866722807288170E-002;2.732435008510947E-003;5.898608360439539E-003;
2.411000000000000E+009;1.812504976987839E-001;-3.919046372175217E-002;2.877507824450731E-003;5.882033146917820E-003;
2.411166666666667E+009;1.816660910844803E-001;-3.986286371946335E-002;3.096193075180054E-003;5.965638905763626E-003;
2.411333333333334E+009;1.818064600229263E-001;-4.032209888100624E-002;3.219772828742862E-003;5.803875159472227E-003;
2.411500000000000E+009;1.817122846841812E-001;-4.096842929720879E-002;3.515299409627914E-003;5.783568136394024E-003;
2.411666666666667E+009;1.818718165159226E-001;-4.120203480124474E-002;3.592160996049643E-003;5.738623440265656E-003;
2.411833333333334E+009;1.816988587379456E-001;-4.143810644745827E-002;3.918488044291735E-003;5.727798677980900E-003;
2.412000000000000E+009;1.816583573818207E-001;-4.205417633056641E-002;4.141570534557104E-003;5.752169527113438E-003;
2.412166666666667E+009;1.812752783298492E-001;-4.230019822716713E-002;4.473803099244833E-003;5.758369807153940E-003;
2.412333333333334E+009;1.813027858734131E-001;-4.264254122972488E-002;4.848330281674862E-003;5.501841194927692E-003;
2.412500000000000E+009;1.805109232664108E-001;-4.292443022131920E-002;5.007989238947630E-003;5.456052254885435E-003;
2.412666666666667E+009;1.798941195011139E-001;-4.338750615715981E-002;5.369504448026419E-003;5.264028906822205E-003;
2.412833333333334E+009;1.793043315410614E-001;-4.374352470040321E-002;5.546377971768379E-003;5.141697824001312E-003;
2.413000000000000E+009;1.787288635969162E-001;-4.402729123830795E-002;5.811145994812250E-003;4.932857584208250E-003;
2.413166666666667E+009;1.778479069471359E-001;-4.448210075497627E-002;5.998515058308840E-003;4.705784376710653E-003;
2.413333333333334E+009;1.767014116048813E-001;-4.490097239613533E-002;6.278594955801964E-003;4.487947095185518E-003;
2.413500000000000E+009;1.760243177413940E-001;-4.536047205328941E-002;6.458562333136797E-003;4.244310315698385E-003;
2.413666666666667E+009;1.748864352703095E-001;-4.583964869379997E-002;6.675448734313250E-003;3.834150498732925E-003;
2.413833333333334E+009;1.738370060920715E-001;-4.644226655364037E-002;6.799122318625450E-003;3.759040730074048E-003;
2.414000000000000E+009;1.725768446922302E-001;-4.720778390765190E-002;6.994605995714665E-003;3.313355846330524E-003;
2.414166666666667E+009;1.716628670692444E-001;-4.789777100086212E-002;7.208009716123343E-003;3.129489952698350E-003;
2.414333333333334E+009;1.704129576683044E-001;-4.870850592851639E-002;7.344993762671948E-003;2.738822018727660E-003;
2.414500000000000E+009;1.694664210081101E-001;-4.957280680537224E-002;7.487089373171330E-003;2.360409358516336E-003;
2.414666666666667E+009;1.680776327848434E-001;-5.037448182702065E-002;7.516576442867518E-003;2.114624483510852E-003;
2.414833333333334E+009;1.670007109642029E-001;-5.144703388214111E-002;7.521531078964472E-003;1.842979690991342E-003;
2.415000000000000E+009;1.656501889228821E-001;-5.250598490238190E-002;7.771496661007404E-003;1.452304539270699E-003;
2.415166666666667E+009;1.645452231168747E-001;-5.381742864847183E-002;7.702995557337999E-003;1.220460864715278E-003;
2.415333333333334E+009;1.634455025196075E-001;-5.524356290698052E-002;7.707776501774788E-003;8.271884871646762E-004;
2.415500000000000E+009;1.623335778713226E-001;-5.646952986717224E-002;7.837357930839062E-003;7.196537335403264E-004;
2.415666666666667E+009;1.612304598093033E-001;-5.787843093276024E-002;7.683838251978159E-003;1.517637574579567E-004;
2.415833333333334E+009;1.602176874876022E-001;-5.956319719552994E-002;7.714710198342800E-003;-7.312701200135052E-005;
2.416000000000000E+009;1.589177548885346E-001;-6.126030161976814E-002;7.607181090861559E-003;-3.052460961043835E-004;
2.416166666666667E+009;1.581737548112869E-001;-6.300804018974304E-002;7.585951127111912E-003;-6.352208438329399E-004;
2.416333333333334E+009;1.570649594068527E-001;-6.481206417083740E-002;7.675361819565296E-003;-1.049134181812406E-003;
2.416500000000000E+009;1.561963260173798E-001;-6.671886146068573E-002;7.404296658933163E-003;-1.340555725619197E-003;
2.416666666666667E+009;1.551511883735657E-001;-6.856984645128250E-002;7.281278260052204E-003;-1.445078756660223E-003;
2.416833333333334E+009;1.544844061136246E-001;-7.059922814369202E-002;7.172337267547846E-003;-1.731398515403271E-003;
2.417000000000000E+009;1.535197645425797E-001;-7.253520190715790E-002;6.962582934647799E-003;-2.002538647502661E-003;
2.417166666666667E+009;1.529081612825394E-001;-7.427667081356049E-002;6.908123381435871E-003;-2.147914841771126E-003;
2.417333333333334E+009;1.521340012550354E-001;-7.621654123067856E-002;6.739371921867132E-003;-2.391128335148096E-003;
2.417500000000000E+009;1.515771895647049E-001;-7.829057425260544E-002;6.812714040279388E-003;-2.685165032744408E-003;
2.417666666666667E+009;1.511839330196381E-001;-8.002229034900665E-002;6.407862994819880E-003;-2.754979301244021E-003;
2.417833333333334E+009;1.507490277290344E-001;-8.187882602214813E-002;6.434685550630093E-003;-3.074365435168147E-003;
2.418000000000000E+009;1.502701640129089E-001;-8.376909047365189E-002;6.158891599625349E-003;-3.172528464347124E-003;
2.418166666666667E+009;1.499795913696289E-001;-8.538944274187088E-002;6.228015758097172E-003;-3.269254695624113E-003;
2.418333333333334E+009;1.499197036027908E-001;-8.719219267368317E-002;6.031087599694729E-003;-3.577400464564562E-003;
2.418500000000000E+009;1.496751010417938E-001;-8.867454528808594E-002;5.950324703007937E-003;-3.771492978557944E-003;
2.418666666666667E+009;1.495643705129623E-001;-9.024051576852799E-002;5.738163832575083E-003;-3.888924140483141E-003;
2.418833333333334E+009;1.493714153766632E-001;-9.171400219202042E-002;5.537794437259436E-003;-4.179574549198151E-003;
2.419000000000000E+009;1.493343114852905E-001;-9.284941852092743E-002;5.433502607047558E-003;-4.370021168142557E-003;
2.419166666666667E+009;1.494333446025848E-001;-9.433114528656006E-002;5.213090218603611E-003;-4.519405309110880E-003;
2.419333333333334E+009;1.492883563041687E-001;-9.516412019729614E-002;5.071732681244612E-003;-4.759787116199732E-003;
2.419500000000000E+009;1.496534794569016E-001;-9.639101475477219E-002;4.824332427233458E-003;-4.944218322634697E-003;
2.419666666666667E+009;1.498913168907166E-001;-9.725465625524521E-002;4.761739168316126E-003;-5.011887289583683E-003;
2.419833333333334E+009;1.499436199665070E-001;-9.797159582376480E-002;4.436973016709089E-003;-5.195766221731901E-003;
2.420000000000000E+009;1.503559648990631E-001;-9.860898554325104E-002;4.302132874727249E-003;-5.112038925290108E-003;
2.420166666666667E+009;1.505366414785385E-001;-9.912509471178055E-002;4.077007994055748E-003;-5.355273373425007E-003;
2.420333333333334E+009;1.508693248033524E-001;-9.970340132713318E-002;3.844311693683267E-003;-5.515698809176683E-003;
2.420500000000000E+009;1.511541903018951E-001;-9.993631392717362E-002;3.729918273165822E-003;-5.656368099153042E-003;
2.420666666666667E+009;1.514052003622055E-001;-1.000231727957726E-001;3.626139834523201E-003;-5.756056401878595E-003;
2.420833333333334E+009;1.515362709760666E-001;-1.001963466405869E-001;3.359755035489798E-003;-5.940884817391634E-003;
2.421000000000000E+009;1.516492962837219E-001;-1.005099862813950E-001;3.115023719146848E-003;-6.025125272572041E-003;
2.421166666666667E+009;1.521849632263184E-001;-1.003700792789459E-001;2.961269114166498E-003;-6.062736734747887E-003;
2.421333333333334E+009;1.523177176713944E-001;-1.004968285560608E-001;2.897665603086352E-003;-6.220792420208454E-003;
2.421500000000000E+009;1.523431986570358E-001;-1.002441197633743E-001;2.590457210317254E-003;-6.295856554061174E-003;
2.421666666666667E+009;1.523601263761520E-001;-1.001088693737984E-001;2.503275638446212E-003;-6.363633088767529E-003;
2.421833333333334E+009;1.522902548313141E-001;-9.998887032270432E-002;2.196115674450994E-003;-6.618504878133535E-003;
2.422000000000000E+009;1.521252542734146E-001;-9.966170787811279E-002;1.964616589248180E-003;-6.666000466793776E-003;
2.422166666666667E+009;1.517951637506485E-001;-9.970095008611679E-002;1.777969999238849E-003;-6.827992852777243E-003;
2.422333333333334E+009;1.515271961688995E-001;-9.917923063039780E-002;1.538772718049586E-003;-6.820186972618103E-003;
2.422500000000000E+009;1.510187238454819E-001;-9.887697547674179E-002;1.329817110672593E-003;-7.054251618683338E-003;
2.422666666666667E+009;1.503562927246094E-001;-9.863802790641785E-002;1.015625079162419E-003;-7.040692027658224E-003;
2.422833333333334E+009;1.498864889144898E-001;-9.846159070730209E-002;7.429711404256523E-004;-7.181179244071245E-003;
2.423000000000000E+009;1.488527059555054E-001;-9.786789864301682E-002;3.413154918234795E-004;-7.164833135902882E-003;
2.423166666666667E+009;1.481038779020309E-001;-9.757583588361740E-002;6.824006413808093E-005;-7.359688635915518E-003;
2.423333333333334E+009;1.472036540508270E-001;-9.714934229850769E-002;-2.147082705050707E-004;-7.360378745943308E-003;
2.423500000000000E+009;1.460248380899429E-001;-9.703356027603149E-002;-5.179328727535904E-004;-7.487686350941658E-003;
2.423666666666667E+009;1.448187679052353E-001;-9.674800187349320E-002;-9.665356483310461E-004;-7.517326157540083E-003;
2.423833333333334E+009;1.437079608440399E-001;-9.636363387107849E-002;-1.284322002902627E-003;-7.313324604183435E-003;
2.424000000000000E+009;1.422477811574936E-001;-9.607111662626267E-002;-1.708372496068478E-003;-7.316516246646643E-003;
2.424166666666667E+009;1.409839093685150E-001;-9.578221291303635E-002;-2.051878022029996E-003;-7.310633547604084E-003;
2.424333333333334E+009;1.397059261798859E-001;-9.580484032630920E-002;-2.373224589973688E-003;-7.117040921002626E-003;
2.424500000000000E+009;1.383184939622879E-001;-9.583124518394470E-002;-2.804227173328400E-003;-6.982048973441124E-003;
2.424666666666667E+009;1.370622515678406E-001;-9.568767994642258E-002;-3.332754597067833E-003;-6.783567368984222E-003;
2.424833333333334E+009;1.355703622102737E-001;-9.614947438240051E-002;-3.594539826735854E-003;-6.541353650391102E-003;
2.425000000000000E+009;1.341301351785660E-001;-9.644441306591034E-002;-3.903025062754750E-003;-6.435550283640623E-003;
2.425166666666667E+009;1.324026286602020E-001;-9.664813429117203E-002;-4.006254486739636E-003;-5.997879430651665E-003;
2.425333333333334E+009;1.311533898115158E-001;-9.727917611598969E-002;-4.318781197071075E-003;-5.747420713305473E-003;
2.425500000000000E+009;1.297794729471207E-001;-9.794293344020844E-002;-4.722428042441607E-003;-5.408642347902060E-003;
2.425666666666667E+009;1.280783861875534E-001;-9.871376305818558E-002;-4.757635295391083E-003;-4.922890104353428E-003;
2.425833333333334E+009;1.267824023962021E-001;-9.969713538885117E-002;-5.076654721051455E-003;-4.801791161298752E-003;
2.426000000000000E+009;1.253693699836731E-001;-1.007307469844818E-001;-5.356451030820608E-003;-4.293849691748619E-003;
2.426166666666667E+009;1.243244856595993E-001;-1.018746942281723E-001;-5.456947721540928E-003;-3.997672814875841E-003;
2.426333333333334E+009;1.228007376194000E-001;-1.030083373188973E-001;-5.477841943502426E-003;-3.752905875444412E-003;
2.426500000000000E+009;1.216041594743729E-001;-1.042088866233826E-001;-5.569432396441698E-003;-3.262063022702932E-003;
2.426666666666667E+009;1.205778196454048E-001;-1.056046187877655E-001;-5.681189708411694E-003;-2.770301420241594E-003;
2.426833333333334E+009;1.193367019295692E-001;-1.070077493786812E-001;-5.514156073331833E-003;-2.324943197891116E-003;
2.427000000000000E+009;1.183692812919617E-001;-1.087416261434555E-001;-5.445250310003758E-003;-1.937780762091279E-003;
2.427166666666667E+009;1.173146143555641E-001;-1.102226972579956E-001;-5.521951243281364E-003;-1.869250438176096E-003;
2.427333333333334E+009;1.163576319813728E-001;-1.117473989725113E-001;-5.317634902894497E-003;-1.450797542929649E-003;
2.427500000000000E+009;1.156226024031639E-001;-1.135460361838341E-001;-5.050295032560825E-003;-1.233363291248679E-003;
2.427666666666667E+009;1.148210540413857E-001;-1.153200045228005E-001;-4.959915764629841E-003;-7.795579149387777E-004;
