# Hz S RI R 
2400000000.0000000000 0.160928979516029413421307481258 0.056733999401330947875976562500 0.000563607551157474517822265625 0.005164785310626029968261718750 0 0 0 0 
2400166666.6666665077 0.160926133394241305252236884371 0.055192328989505767822265625000 0.000635109783615916967391967773 0.005228846333920955657958984375 0 0 0 0 
2400333333.3333334923 0.161156982183456393142861884371 0.053533043712377548217773437500 0.000904942105989903211593627930 0.005301263183355331420898437500 0 0 0 0 
2400500000.0000000000 0.161174058914184598068075615629 0.051612168550491333007812500000 0.000918135803658515214920043945 0.005380698479712009429931640625 0 0 0 0 
2400666666.6666665077 0.161253780126571710784588731258 0.049602024257183081890065778907 0.001145126298069953918457031250 0.005513939540833234786987304688 0 0 0 0 
2400833333.3333334923 0.161666423082351712325888115629 0.047858361154794692993164062500 0.001282264594919980005977011572 0.005596153438091278076171875000 0 0 0 0 
2401000000.0000000000 0.161650255322456387618856865629 0.046020094305276870727539062500 0.001536831725388764901402138818 0.005792642943561077117919921875 0 0 0 0 
2401166666.6666665077 0.161960497498512295821981865629 0.044065695255994796752929687500 0.001680678455159068107604980469 0.005694017279893159866333007812 0 0 0 0 
2401333333.3333334923 0.162123546004295404632244981258 0.042296465486288070678710937500 0.002120207762345672087428427588 0.005736764520406723022460937500 0 0 0 0 
2401500000.0000000000 0.162412181496620205978231865629 0.040311664342880249023437500000 0.002225525444373487992527627100 0.005835904274135828018188476562 0 0 0 0 
2401666666.6666665077 0.162710011005401611328125000000 0.038439042866230010986328125000 0.002517614513635634942295693506 0.005846749991178512573242187500 0 0 0 0 
2401833333.3333334923 0.163314700126648004729901231258 0.036474276334047317504882812500 0.002843530382961035208461142432 0.005923991091549397382254316113 0 0 0 0 
2402000000.0000000000 0.163567632436752291580361884371 0.034836027771234512329101562500 0.003269489156082272963282919775 0.005948036443442106246948242188 0 0 0 0 
2402166666.6666665077 0.164344534277916010100994981258 0.033228091895580291748046875000 0.003574651665985583825352334131 0.005926473066210746765136718750 0 0 0 0 
2402333333.3333334923 0.164504393935203607757244981258 0.031420495361089713359792341407 0.003773845266550778908970498193 0.005822387989610433578491210938 0 0 0 0 
2402500000.0000000000 0.165486946702003506759481865629 0.029856719076633449899693673046 0.004125808365643023577218340137 0.005533539224416018399710370801 0 0 0 0 
2402666666.6666665077 0.165761560201644897460937500000 0.028463730588555339467982108204 0.004514238331466913223266601562 0.005479259882122278213500976562 0 0 0 0 
2402833333.3333334923 0.166489243507385309417401231258 0.027029791846871379507044608204 0.004915899597108364105224609375 0.005170903168618679046630859375 0 0 0 0 
2403000000.0000000000 0.167026072740554809570312500000 0.025485275313258171081542968750 0.005205676425248385343069745801 0.005048660095781087875366210938 0 0 0 0 
2403166666.6666665077 0.167796939611434908767861884371 0.024154465645551681518554687500 0.005542198661714792251586914062 0.004871780052781105041503906250 0 0 0 0 
2403333333.3333334923 0.168474242091178894042968750000 0.022931398823857310903528983204 0.005918635986745358380789472363 0.004598352126777172088623046875 0 0 0 0 
2403500000.0000000000 0.169208467006683405120526231258 0.021414209157228469848632812500 0.006005203817039728164672851562 0.004299053456634283065795898438 0 0 0 0 
2403666666.6666665077 0.169836208224296597579794365629 0.020211596041917800903320312500 0.006443405523896217346191406250 0.003937090281397104263305664062 0 0 0 0 
2403833333.3333334923 0.170604363083839388748330634371 0.019004648551344871520996093750 0.006535592954605817794799804688 0.003729431657120585007908486475 0 0 0 0 
2404000000.0000000000 0.171281397342681912521200615629 0.018016144633293148386021798046 0.006671805400401353836059570312 0.003367359982803463935852050781 0 0 0 0 
2404166666.6666665077 0.171997159719467190841513115629 0.017011817544698718679407889454 0.007041045930236577987670898438 0.003099883673712611198425292969 0 0 0 0 
2404333333.3333334923 0.172591447830200195312500000000 0.016167704015970230102539062500 0.007259885314851999282836914062 0.002607950707897543907165527344 0 0 0 0 
2404500000.0000000000 0.173363640904426602462606865629 0.015132390893995760136614414648 0.007288228720426558580880449512 0.002345737535506486892700195312 0 0 0 0 
2404666666.6666665077 0.173978924751281710525674384371 0.014444286935031410562535469921 0.007382990326732397079467773438 0.001809440902434290105935121851 0 0 0 0 
2404833333.3333334923 0.174447759985923794845419365629 0.013729485683143140620221522852 0.007499596104025840759277343750 0.001444382010959089019178080981 0 0 0 0 
2405000000.0000000000 0.175060957670211791992187500000 0.012926297262310980015764805273 0.007301525212824344635009765625 0.000930513138882815837860107422 0 0 0 0 
2405166666.6666665077 0.175614416599273709396200615629 0.012352189980447290593157383398 0.007352103013545274734497070312 0.000601427105721086263656616211 0 0 0 0 
2405333333.3333334923 0.176345050334930392166299384371 0.011656472459435459482213204296 0.007443326991051436337942792676 0.000243023823713883811801356183 0 0 0 0 
2405500000.0000000000 0.176657959818839999099893134371 0.011364407837390899658203125000 0.007285473402589560422415448926 -0.000110485751065425601884564810 0 0 0 0 
2405666666.6666665077 0.176977097988128689864950615629 0.010836418718099590646763985546 0.007326207589358091354370117188 -0.000503084505908191204071044922 0 0 0 0 
2405833333.3333334923 0.177237302064895602127236884371 0.010378876700997350865374180273 0.007203109562397003173828125000 -0.000791344384197145700454711914 0 0 0 0 
2406000000.0000000000 0.177733376622200012207031250000 0.009893190115690231323242187500 0.007073235232383012771606445312 -0.001208081957884133078931498950 0 0 0 0 
2406166666.6666665077 0.177787140011787386795205634371 0.009643707424402236938476562500 0.006906977389007806777954101562 -0.001346586504951118989231728662 0 0 0 0 
2406333333.3333334923 0.178129926323890713790731865629 0.009095706976950168609619140625 0.006890975870192050933837890625 -0.001889317994937300898908305591 0 0 0 0 
2406500000.0000000000 0.178154647350311307052450615629 0.008763847872614860534667968750 0.006697564851492643356323242188 -0.002043490996584295792820595850 0 0 0 0 
2406666666.6666665077 0.177981406450271606445312500000 0.008398336358368396759033203125 0.006555534433573484420776367188 -0.002333114389330149130580283057 0 0 0 0 
2406833333.3333334923 0.178235620260238702972088731258 0.007891747169196605682373046875 0.006421689875423908233642578125 -0.002570269862189888954162597656 0 0 0 0 
2407000000.0000000000 0.178140938282012911697549384371 0.007428717799484729766845703125 0.006087501998990774154663085938 -0.002889471594244242148158408057 0 0 0 0 
2407166666.6666665077 0.178172767162322998046875000000 0.007151964586228132247924804688 0.005933949258178473386282636426 -0.003159280400723218917846679688 0 0 0 0 
2407333333.3333334923 0.177752494812011690994424384371 0.006340894382447004318237304688 0.005696837790310382843017578125 -0.003456912934780120849609375000 0 0 0 0 
2407500000.0000000000 0.177589446306228609939736884371 0.005948659498244524002075195312 0.005264176055788993835449218750 -0.003611268242821096940281533350 0 0 0 0 
2407666666.6666665077 0.177434235811233492752236884371 0.005371156148612499237060546875 0.005187010858207941055297851562 -0.003666212549433112144470214844 0 0 0 0 
2407833333.3333334923 0.176905214786529513260049384371 0.004624729044735431671142578125 0.004911329597234725952148437500 -0.003882836084812879996058798682 0 0 0 0 
2408000000.0000000000 0.176605701446533203125000000000 0.003889707848429679870605468750 0.004712149966508150100708007812 -0.003909070044755935668945312500 0 0 0 0 
2408166666.6666665077 0.176080688834190396407919365629 0.003192121163010596795323037256 0.004498360212892293930053710938 -0.004148638341575860977172851562 0 0 0 0 
2408333333.3333334923 0.175776928663253811935263115629 0.002321504289284348921534872900 0.004203205462545157346243573926 -0.004185600671917200088500976562 0 0 0 0 
2408500000.0000000000 0.175298631191253689864950615629 0.001308106933720410086988139575 0.004037139471620321273803710938 -0.004402207676321268081665039062 0 0 0 0 
2408666666.6666665077 0.174731627106666592696981865629 0.000306510424707084894180297852 0.003560642246156930923461914062 -0.004454759415239095687866210938 0 0 0 0 
2408833333.3333334923 0.174082860350608797928018134371 -0.000853165402077138423919677734 0.003636820241808890862705849756 -0.004462779033929109573364257812 0 0 0 0 
2409000000.0000000000 0.173583462834358187576455634371 -0.001897190697491168975830078125 0.003246407257393002943751669775 -0.004489887505769729614257812500 0 0 0 0 
2409166666.6666665077 0.173303648829460088531817518742 -0.003134463680908083915710449219 0.002957165241241455078125000000 -0.004619588609784842404837323926 0 0 0 0 
2409333333.3333334923 0.172735691070556612869424384371 -0.004455822985619307431692792676 0.002787755336612462997436523438 -0.004501424729824066162109375000 0 0 0 0 
2409500000.0000000000 0.172073259949684087555255018742 -0.006000298541039227571969316699 0.002534118713811039924621582031 -0.004492809530347585678100585938 0 0 0 0 
2409666666.6666665077 0.171368733048438998123330634371 -0.007360971532762050628662109375 0.002236105734482408003566122900 -0.004385401494801045331473066113 0 0 0 0 
2409833333.3333334923 0.170893996953964205642861884371 -0.008746508508920669555664062500 0.002108984626829624176025390625 -0.004450808744877576828002929688 0 0 0 0 
2410000000.0000000000 0.170431062579154996017294365629 -0.010167982429265979421595389454 0.001998951891437172889709472656 -0.004307471215724945068359375000 0 0 0 0 
2410166666.6666665077 0.169995412230491610428018134371 -0.011947610415518280374547188671 0.001783325918950140909907675635 -0.004271871410310268402099609375 0 0 0 0 
2410333333.3333334923 0.169717207551002502441406250000 -0.013522315770387649536132812500 0.001670437981374562003492045825 -0.004346432164311408996582031250 0 0 0 0 
2410500000.0000000000 0.169309169054031399825888115629 -0.015288860537111759185791015625 0.001446672715246676965000771631 -0.004231840837746858596801757812 0 0 0 0 
2410666666.6666665077 0.168798044323921203613281250000 -0.017231822013854980468750000000 0.001496934215538203933118510669 -0.004132333677262067794799804688 0 0 0 0 
2410833333.3333334923 0.168669775128364590743856865629 -0.018775250762701041484792341407 0.001372460857965051910997700269 -0.004052434582263231277465820312 0 0 0 0 
2411000000.0000000000 0.168333664536476107498330634371 -0.020590193569660190237025076954 0.001255713868886231942417763818 -0.004211563151329755783081054688 0 0 0 0 
2411166666.6666665077 0.168208688497543307205361884371 -0.022601937875151630746861641796 0.001244115759618579907658242334 -0.004010335076600313186645507812 0 0 0 0 
2411333333.3333334923 0.168149158358573913574218750000 -0.024449350312352180480957031250 0.001182218431495130062103271484 -0.004021836910396814346313476562 0 0 0 0 
2411500000.0000000000 0.168087214231491088867187500000 -0.026300374418497089040736014454 0.001215729280374943993212055737 -0.003980992827564477920532226562 0 0 0 0 
2411666666.6666665077 0.168138414621353204925213731258 -0.028235577046871188772181326954 0.001015845453366637013078999097 -0.003942764829844236373901367188 0 0 0 0 
2411833333.3333334923 0.168172582983970586578692518742 -0.030051607638597488403320312500 0.000981601071543991565704345703 -0.003952291328459978103637695312 0 0 0 0 
2412000000.0000000000 0.168287202715873690506143134371 -0.031979132443666458129882812500 0.000807187054306268692016601562 -0.003786799730733036994934082031 0 0 0 0 
2412166666.6666665077 0.168422013521194513518963731258 -0.033848378807306289672851562500 0.000793589104432612657546997070 -0.003916316200047731399536132812 0 0 0 0 
2412333333.3333334923 0.168728977441787691970986884371 -0.035470526665449142456054687500 0.000817467283923178911209106445 -0.003959319554269313812255859375 0 0 0 0 
2412500000.0000000000 0.168848544359207208831463731258 -0.037374075502157211303710937500 0.000720767886377871036529541016 -0.003861637320369482040405273438 0 0 0 0 
2412666666.6666665077 0.169265821576118496993856865629 -0.039191044867038726806640625000 0.000506158219650387763977050781 -0.004044861532747746381277753613 0 0 0 0 
2412833333.3333334923 0.169706061482429504394531250000 -0.041032683104276657104492187500 0.000558191852178424596786499023 -0.004093499388545751571655273438 0 0 0 0 
2413000000.0000000000 0.170011848211288507659588731258 -0.042666908353567123413085937500 0.000482210685731843113899230957 -0.004085486289113759994506835938 0 0 0 0 
2413166666.6666665077 0.170375794172286987304687500000 -0.044286634773015982891042341407 0.000129941530758515000343322754 -0.004078728612512350082397460938 0 0 0 0 
2413333333.3333334923 0.170727446675300598144531250000 -0.045782871544361121440847028907 0.000204613243113271892070770264 -0.004039851482957602414602948926 0 0 0 0 
2413500000.0000000000 0.171438485383987399002236884371 -0.047350656241178512573242187500 0.000070977192081045359373092651 -0.004056618083268404006958007812 0 0 0 0 
2413666666.6666665077 0.171842128038406399825888115629 -0.048730287700891501689870466407 -0.000076010721386410295963287354 -0.004044098313897848129272460938 0 0 0 0 
2413833333.3333334923 0.172169595956802395919638115629 -0.049926180392503738403320312500 -0.000258589774603024125099182129 -0.004187426064163446426391601562 0 0 0 0 
2414000000.0000000000 0.172682821750640896896200615629 -0.051313702017068862915039062500 -0.000306012749206274802058619366 -0.004012734629213809967041015625 0 0 0 0 
2414166666.6666665077 0.173201918601989801604901231258 -0.052507240325212478637695312500 -0.000545036280527710914611816406 -0.004157647956162691116333007812 0 0 0 0 
2414333333.3333334923 0.173670738935470608810263115629 -0.053610250353813171386718750000 -0.000611627765465527772903442383 -0.004070589784532785415649414062 0 0 0 0 
2414500000.0000000000 0.174255087971687289138955634371 -0.054566636681556701660156250000 -0.000556166865862905979156494141 -0.003975950647145509719848632812 0 0 0 0 
2414666666.6666665077 0.174647867679596002776776231258 -0.055572059005498893047292341407 -0.000868870760314166545867919922 -0.004086295608431100845336914062 0 0 0 0 
2414833333.3333334923 0.174884781241416903396768134371 -0.056356064975261688232421875000 -0.000999819952994585037231445312 -0.003820111742243171171901083838 0 0 0 0 
2415000000.0000000000 0.175284549593925503829794365629 -0.057049691677093512798268903907 -0.001144173205830157019971538013 -0.003936251625418663024902343750 0 0 0 0 
2415166666.6666665077 0.175650432705879211425781250000 -0.057897355407476432109792341407 -0.001244463841430843093274760669 -0.003916596993803977966308593750 0 0 0 0 
2415333333.3333334923 0.175960510969161987304687500000 -0.058612048625946051860768903907 -0.001331702573224901936174702222 -0.003881704760715364976170205225 0 0 0 0 
2415500000.0000000000 0.176283955574035589020098768742 -0.059202425181865692138671875000 -0.001516026793979107899906777490 -0.003818671219050883813145302881 0 0 0 0 
2415666666.6666665077 0.176258519291877802093182481258 -0.059508442878723151470143903907 -0.001610587933100759983062744141 -0.003809594549238681793212890625 0 0 0 0 
2415833333.3333334923 0.176398858428001403808593750000 -0.059970870614051818847656250000 -0.001874938956461847045301127856 -0.003694341983646153970005654443 0 0 0 0 
2416000000.0000000000 0.176369249820709200760049384371 -0.060450643301010131835937500000 -0.001842524856328964016558003003 -0.003743421053513884978053427588 0 0 0 0 
2416166666.6666665077 0.176535949110984802246093750000 -0.060719534754753112792968750000 -0.002084108069539070129394531250 -0.003556258976459503173828125000 0 0 0 0 
2416333333.3333334923 0.176407396793365506271200615629 -0.061022449284791953350026716407 -0.002133448375388979911804199219 -0.003397857770323752923252724756 0 0 0 0 
2416500000.0000000000 0.176185414195060702224893134371 -0.061275858432054519653320312500 -0.002312934491783380942103720557 -0.003324987133964896202087402344 0 0 0 0 
2416666666.6666665077 0.175833702087402288238848768742 -0.061476435512304312969167341407 -0.002524044830352067947387695312 -0.003135150996968150138854980469 0 0 0 0 
2416833333.3333334923 0.175660401582717895507812500000 -0.061845581978559487079660783593 -0.002590904245153069929835654150 -0.003137172199785708947422646631 0 0 0 0 
2417000000.0000000000 0.174954935908317593673544365629 -0.062053583562374121929128278907 -0.002599090337753295898437500000 -0.003009195905178784890415810693 0 0 0 0 
2417166666.6666665077 0.174520418047904996017294365629 -0.062144618481397628784179687500 -0.002746520563960074944737099756 -0.002806936856359242959263466943 0 0 0 0 
2417333333.3333334923 0.173963457345962496658486884371 -0.062298472970724112773854841407 -0.002934987191110848946812295068 -0.002769951010122894807102822412 0 0 0 0 
2417500000.0000000000 0.173237919807434109786825615629 -0.062878444790840148925781250000 -0.002775819506496191024780273438 -0.002633321098983287811279296875 0 0 0 0 
2417666666.6666665077 0.172569230198860196212606865629 -0.062815025448799133300781250000 -0.002964187879115343093872070312 -0.002519811969250441031215048682 0 0 0 0 
2417833333.3333334923 0.171740800142288208007812500000 -0.063194580376148223876953125000 -0.002965457970276474952697753906 -0.002330759074538946151733398438 0 0 0 0 
2418000000.0000000000 0.170776501297950689117755018742 -0.063673593103885650634765625000 -0.002930402057245374159571982275 -0.002291015814989804787876748193 0 0 0 0 
2418166666.6666665077 0.169753581285476712325888115629 -0.063714183866977691650390625000 -0.003111059544607996940612792969 -0.002061831299215555191040039062 0 0 0 0 
2418333333.3333334923 0.169086247682571411132812500000 -0.064400874078273773193359375000 -0.003034923924133182005641318213 -0.002045975998044013977050781250 0 0 0 0 
2418500000.0000000000 0.167905718088149996658486884371 -0.064753480255603790283203125000 -0.003091605380177497863769531250 -0.001821195008233190016505576025 0 0 0 0 
2418666666.6666665077 0.166762396693229703048544365629 -0.065251424908638000488281250000 -0.003215514356270432905909872900 -0.001724935136735439083696674878 0 0 0 0 
2418833333.3333334923 0.165620341897010803222656250000 -0.065890766680240631103515625000 -0.003009382635354996161219931494 -0.001494224881753325896022177588 0 0 0 0 
2419000000.0000000000 0.164300918579101590255575615629 -0.066381365060806274414062500000 -0.003189293900504707856419228662 -0.001349400263279676003697060693 0 0 0 0 
2419166666.6666665077 0.163246810436248807052450615629 -0.067045673727989196777343750000 -0.003148359013721346855163574219 -0.001321124960668385028839111328 0 0 0 0 
2419333333.3333334923 0.161984249949455288986044365629 -0.067705437541007995605468750000 -0.003168358467519282860996865381 -0.001095262472517787976505898584 0 0 0 0 
2419500000.0000000000 0.160778954625129699707031250000 -0.068765498697757720947265625000 -0.003029834711924194855930947412 -0.001085674040950834967969584888 0 0 0 0 
2419666666.6666665077 0.159797295928001403808593750000 -0.069740220904350280761718750000 -0.003132113022729754014256142725 -0.000964547216426581144332885742 0 0 0 0 
2419833333.3333334923 0.158386647701263399978799384371 -0.070519670844078063964843750000 -0.003241730388253926797154091943 -0.000899745034985244274139404297 0 0 0 0 
