# Hz S RI R 50
2400000000.0000000000 0.168687567114829989334268134371 0.046887271106243126606027971093 0.000141290409374050796031951904 0.003428127150982617898228310693 0 0 0 0 
2400166666.6666665077 0.169597759842872591873330634371 0.045875377953052520751953125000 0.000093405993538908660411834717 0.003319066949188708825352334131 0 0 0 0 
2400333333.3333334923 0.170642167329788208007812500000 0.044982425868511199951171875000 0.000230084493523463606834411621 0.003316226182505487962010048975 0 0 0 0 
2400500000.0000000000 0.171612471342086791992187500000 0.043874096125364296649973283593 -0.000020987254174542609939371415 0.003081476315855979919433593750 0 0 0 0 
2400666666.6666665077 0.172225773334503201583700615629 0.043067485094070441509206403907 -0.000006829088761151069775223732 0.003111749654635787010192871094 0 0 0 0 
2400833333.3333334923 0.173310667276382501800213731258 0.042089968919754028320312500000 -0.000180136863491497906759539194 0.002980595454573630852940224756 0 0 0 0 
2401000000.0000000000 0.173901870846748407561932481258 0.041566707193851470947265625000 0.000027007024982594888320172957 0.003029528539627790884730673682 0 0 0 0 
2401166666.6666665077 0.174957320094108609298544365629 0.040744852274656302715261091407 -0.000124251979286782389313298358 0.002939124125987290902378701318 0 0 0 0 
2401333333.3333334923 0.175216495990753201583700615629 0.039879407733678817749023437500 -0.000117666575533803606599253522 0.002989004598930478096008300781 0 0 0 0 
2401500000.0000000000 0.176044955849647494217080634371 0.039344411343336112285573591407 -0.000155374917085282504558563232 0.003033978631719946861267089844 0 0 0 0 
2401666666.6666665077 0.176483884453773498535156250000 0.038755189627408981323242187500 -0.000327063404256478006213587628 0.002975008916109799905064248193 0 0 0 0 
2401833333.3333334923 0.177158161997795104980468750000 0.038159698247909552837331403907 -0.000305516907246783375740051270 0.003152608405798674063441611182 0 0 0 0 
2402000000.0000000000 0.177627846598625210861044365629 0.037575010210275650024414062500 -0.000361120968591421788364964618 0.003263232298195362091064453125 0 0 0 0 
2402166666.6666665077 0.177798956632614107986611884371 0.036710567772388458251953125000 -0.000237248663324862691477099008 0.003414921229705214934108115088 0 0 0 0 
2402333333.3333334923 0.178298667073249789138955634371 0.036371670663356781005859375000 -0.000421894219471141695976257324 0.003477281890809535980224609375 0 0 0 0 
2402500000.0000000000 0.178734183311462402343750000000 0.035517521202564239501953125000 -0.000110005756141617894172668457 0.003469919553026556968688964844 0 0 0 0 
2402666666.6666665077 0.178873270750045804122763115629 0.035110905766487121582031250000 -0.000072868184361141175031661987 0.003433586563915013833286904443 0 0 0 0 
2402833333.3333334923 0.178970023989677401443643134371 0.034330680966377258300781250000 -0.000175981564098037806436261588 0.003501758445054293112513876807 0 0 0 0 
2403000000.0000000000 0.179228290915489196777343750000 0.033499259501695632934570312500 -0.000105808001535479006454190665 0.003662889124825596809387207031 0 0 0 0 
2403166666.6666665077 0.178991734981536892989950615629 0.032406359910964972759206403907 -0.000109732784039806601688107901 0.003953609615564346313476562500 0 0 0 0 
2403333333.3333334923 0.178946331143379211425781250000 0.031670261174440376972238908593 0.000207099466933868798330584116 0.003856458002701402144191122900 0 0 0 0 
2403500000.0000000000 0.178739920258522005935830634371 0.030877325683832168579101562500 0.000030237513783504258504117659 0.003877633484080433845520019531 0 0 0 0 
2403666666.6666665077 0.178675025701522799392861884371 0.029565995559096339834193045704 0.000241419707890599993154248648 0.003880300559103488922119140625 0 0 0 0 
2403833333.3333334923 0.178446829319000188629473768742 0.028703415766358379018763358204 0.000239360684645362198352813721 0.004110312089323998364920331738 0 0 0 0 
2404000000.0000000000 0.178054824471473693847656250000 0.027539957314729690551757812500 0.000301429477985948324203491211 0.004261832218617200851440429688 0 0 0 0 
2404166666.6666665077 0.177529811859130887130575615629 0.026161439716815948486328125000 0.000442203221609816009372156964 0.004181130323559045791625976562 0 0 0 0 
2404333333.3333334923 0.177228704094886807540731865629 0.025073552504181858407994454296 0.000528728705830872058868408203 0.004441622179001569747924804688 0 0 0 0 
2404500000.0000000000 0.176720455288886996170205634371 0.023610863834619518625279610546 0.000708332168869674205780029297 0.004528238903731107711791992188 0 0 0 0 
2404666666.6666665077 0.176290079951286288162393134371 0.022157870233058929443359375000 0.000865624984726309776306152344 0.004597830120474100112915039062 0 0 0 0 
2404833333.3333334923 0.175858303904533386230468750000 0.020664932206273078918457031250 0.001113566569983958981157612378 0.004824945703148841857910156250 0 0 0 0 
2405000000.0000000000 0.175450995564460809905682481258 0.019124191254377368581751639454 0.001072151120752095959307026440 0.004962494596838951110839843750 0 0 0 0 
2405166666.6666665077 0.175008624792098999023437500000 0.017543327063322070730189139454 0.001429314608685672066332172925 0.004976227879524230957031250000 0 0 0 0 
2405333333.3333334923 0.174638494849204989334268134371 0.015883186832070350646972656250 0.001566658378578722910640097510 0.004901796113699674606323242188 0 0 0 0 
2405500000.0000000000 0.174235552549362210372763115629 0.014257854782044889277448085352 0.001920130220241845087764120947 0.004967694170773029327392578125 0 0 0 0 
2405666666.6666665077 0.173921585083007812500000000000 0.012466652318835260218610194727 0.002145086182281374931335449219 0.005184280686080455780029296875 0 0 0 0 
2405833333.3333334923 0.173504993319511413574218750000 0.010691015049815179652203944727 0.002316838596016169028041220557 0.005203641019761562347412109375 0 0 0 0 
2406000000.0000000000 0.173274546861648587325888115629 0.008721198886632919311523437500 0.002575827995315194129943847656 0.005175628233700990676879882812 0 0 0 0 
2406166666.6666665077 0.172988727688789395431356865629 0.006894248072057962417602539062 0.002953599905595182938816689600 0.005294210277497768402099609375 0 0 0 0 
2406333333.3333334923 0.173054471611976595779580634371 0.004975043237209320068359375000 0.003243491984903811974766396631 0.005221072584390640258789062500 0 0 0 0 
2406500000.0000000000 0.172819867730140713790731865629 0.002888550283387302918675088037 0.003569772001355886893031454932 0.005263543687760829925537109375 0 0 0 0 
2406666666.6666665077 0.172585681080818204025106865629 0.000948843488004058599472045898 0.003992623183876276016235351562 0.005017689429223536577706621387 0 0 0 0 
2406833333.3333334923 0.172975972294807406326455634371 -0.001248793792910874106763530200 0.004283449612557888031005859375 0.005054132081568241119384765625 0 0 0 0 
2407000000.0000000000 0.172994926571846008300781250000 -0.003267850261181592941284179688 0.004521062597632408142089843750 0.004835773725062608718872070312 0 0 0 0 
2407166666.6666665077 0.173209279775619506835937500000 -0.005300856195390225324148847363 0.004894936457276344299316406250 0.004617217462509871396536542676 0 0 0 0 
2407333333.3333334923 0.173246711492538507659588731258 -0.007423500530421733856201171875 0.005172094795852900418753339551 0.004438399337232112884521484375 0 0 0 0 
2407500000.0000000000 0.173536226153373690506143134371 -0.009434062987565994262695312500 0.005494535434991121292114257812 0.004072428215295076370239257812 0 0 0 0 
2407666666.6666665077 0.173942044377326993087606865629 -0.011401825584471229207972342579 0.005862555932253599166870117188 0.003729329211637378172633505713 0 0 0 0 
2407833333.3333334923 0.174116194248199490646200615629 -0.013621922582387920724888985546 0.006063356995582580566406250000 0.003589784260839223861694335938 0 0 0 0 
2408000000.0000000000 0.174531459808349609375000000000 -0.015709057450294501567800153907 0.006437324918806552886962890625 0.003258463228121399879455566406 0 0 0 0 
2408166666.6666665077 0.174991697072982788085937500000 -0.017519291490316390991210937500 0.006584753282368183135986328125 0.002967413049191236929652548682 0 0 0 0 
2408333333.3333334923 0.175573408603668212890625000000 -0.019536064937710758554478829296 0.006764880847185850143432617188 0.002532791811972856955287314307 0 0 0 0 
2408500000.0000000000 0.175932541489601107498330634371 -0.021422795951366431499440778907 0.006947014480829238891601562500 0.001942349015735089995740580981 0 0 0 0 
2408666666.6666665077 0.176437914371490506271200615629 -0.023192748427391048776646798046 0.007005193736404181394095136426 0.001709526171907782988307333838 0 0 0 0 
2408833333.3333334923 0.176660001277923611739950615629 -0.024947006255388259887695312500 0.007148188073188067349905683301 0.001282100798562169075012207031 0 0 0 0 
2409000000.0000000000 0.177075549960136413574218750000 -0.026428716257214549673060233204 0.007013364229351282119750976562 0.000720173004083335399627685547 0 0 0 0 
2409166666.6666665077 0.177531287074089105804119981258 -0.027942754328250888479212576954 0.007087167352437973022460937500 0.000468079553684219717979431152 0 0 0 0 
2409333333.3333334923 0.178232029080390902420205634371 -0.029406070709228519094446951954 0.006857441272586584091186523438 0.000002349038368265610188245773 0 0 0 0 
2409500000.0000000000 0.178498283028602600097656250000 -0.030906671658158298837681954296 0.006936748512089253339285566113 -0.000404939986765384674072265625 0 0 0 0 
2409666666.6666665077 0.178925037384033203125000000000 -0.032039407640695571899414062500 0.006662949919700623425955487988 -0.000491142447572201490402221680 0 0 0 0 
2409833333.3333334923 0.179232522845268305022869981258 -0.032885137945413589477539062500 0.006517607253044843673706054688 -0.000939570949412882328033447266 0 0 0 0 
2410000000.0000000000 0.179856538772583007812500000000 -0.033855699002742767333984375000 0.006525738630443811416625976562 -0.001334787346422672054888081128 0 0 0 0 
2410166666.6666665077 0.180324777960777310470419365629 -0.034973245114088058471679687500 0.006172389723360539350027753613 -0.001459700637497008063672709888 0 0 0 0 
2410333333.3333334923 0.180701583623886108398437500000 -0.035596102476120002056081403907 0.006094939075410366058349609375 -0.001794273732230067036272358472 0 0 0 0 
2410500000.0000000000 0.181220754981041010100994981258 -0.036417566239833831787109375000 0.005819025449454784393310546875 -0.001943808514624834060668945312 0 0 0 0 
2410666666.6666665077 0.181294932961463900467080634371 -0.037097331136465072631835937500 0.005678016692399978637695312500 -0.002164766890928148789646767725 0 0 0 0 
2410833333.3333334923 0.181809589266777010818643134371 -0.037657905369997031475026716407 0.005505443084985017776489257812 -0.002225523814558982849121093750 0 0 0 0 
2411000000.0000000000 0.182176917791366604904013115629 -0.038127910345792770385742187500 0.005368364509195089340209960938 -0.002403435995802282853367470850 0 0 0 0 
2411166666.6666665077 0.182367235422134399414062500000 -0.038719967007637016986887346093 0.005196264944970607757568359375 -0.002701723715290427207946777344 0 0 0 0 
2411333333.3333334923 0.182432681322097806075888115629 -0.039132151752710342407226562500 0.004988763947039842605590820312 -0.002783336676657199859619140625 0 0 0 0 
2411500000.0000000000 0.182433262467384310623330634371 -0.039723969995975487445871721093 0.005082185380160809430594159863 -0.002753621665760875181910849463 0 0 0 0 
2411666666.6666665077 0.182447209954261807540731865629 -0.039990376681089401245117187500 0.004797839559614658355712890625 -0.002923139138147234916687011719 0 0 0 0 
2411833333.3333334923 0.182280391454696710784588731258 -0.040284469723701477050781250000 0.004681586287915706634521484375 -0.003039355156943202018737792969 0 0 0 0 
2412000000.0000000000 0.182114675641059903243856865629 -0.040870904922485351562500000000 0.004403804894536733627319335938 -0.003231914481148124174830771338 0 0 0 0 
2412166666.6666665077 0.181693390011787386795205634371 -0.041308593004941940307617187500 0.004109474830329418182373046875 -0.003419270506128668785095214844 0 0 0 0 
2412333333.3333334923 0.181538850069045992752236884371 -0.041432257741689682006835937500 0.003972799517214298248291015625 -0.003448810428380966186523437500 0 0 0 0 
2412500000.0000000000 0.180716067552566500564736884371 -0.041744980961084372783620466407 0.003741615451872348785400390625 -0.003555841278284788131713867188 0 0 0 0 
2412666666.6666665077 0.180171877145767211914062500000 -0.042480222880840301513671875000 0.003696968080475925965550088037 -0.003583632409572600884678506006 0 0 0 0 
2412833333.3333334923 0.179683372378349304199218750000 -0.042813975363969802856445312500 0.003612531116232275962829589844 -0.003557400079444050788879394531 0 0 0 0 
2413000000.0000000000 0.178686216473579406738281250000 -0.043192505836486823345143903907 0.003445834852755070166346884619 -0.003659076057374476952793740381 0 0 0 0 
2413166666.6666665077 0.177860602736473111251669365629 -0.043604530394077301025390625000 0.003366569289937614960911416162 -0.003562800819054245948791503906 0 0 0 0 
2413333333.3333334923 0.176774531602859497070312500000 -0.044058959931135177612304687500 0.003093515988439321951625204932 -0.003665699390694499015808105469 0 0 0 0 
2413500000.0000000000 0.175828129053115789215411268742 -0.044701457023620612407643903907 0.003173845820128918127772665869 -0.003756586927920579910278320312 0 0 0 0 
2413666666.6666665077 0.174905151128768893142861884371 -0.045064281672239296649973283593 0.002951869508251547813415527344 -0.003889704355970025062561035156 0 0 0 0 
2413833333.3333334923 0.173700407147407503982705634371 -0.045797418802976608276367187500 0.002815729007124900817871093750 -0.003797753248363732857945107568 0 0 0 0 
2414000000.0000000000 0.172484740614891107757244981258 -0.046571895480155951763112653907 0.002580403117462993101832724463 -0.003887122496962546868565224756 0 0 0 0 
2414166666.6666665077 0.171241909265518188476562500000 -0.047314140945672988891601562500 0.002621740102767943902256631006 -0.004053338430821895599365234375 0 0 0 0 
2414333333.3333334923 0.169994667172432001311932481258 -0.048191063106060028076171875000 0.002453766763210297064540243994 -0.004059149883687496185302734375 0 0 0 0 
2414500000.0000000000 0.168946996331214904785156250000 -0.048965312540531158447265625000 0.002323144813999534086940146338 -0.004243580624461174011230468750 0 0 0 0 
2414666666.6666665077 0.167606875300407409667968750000 -0.049884658306837081909179687500 0.002179456874728202819824218750 -0.004234754480421543121337890625 0 0 0 0 
2414833333.3333334923 0.166424706578254699707031250000 -0.051096834242343902587890625000 0.002176338806748390197753906250 -0.004133642185479403409475995801 0 0 0 0 
2415000000.0000000000 0.165124371647834805587606865629 -0.052145201712846762920339216407 0.002194002503529191017150878906 -0.004255067557096481323242187500 0 0 0 0 
2415166666.6666665077 0.163908183574676513671875000000 -0.053551930934190750122070312500 0.001905135461129247925401997144 -0.004439194686710835370535566113 0 0 0 0 
2415333333.3333334923 0.162781760096549987792968750000 -0.054833691567182540893554687500 0.001751146861352026896235800635 -0.004213158972561359405517578125 0 0 0 0 
2415500000.0000000000 0.161642715334892300704794365629 -0.056195821613073348999023437500 0.001805041800253093025804829175 -0.004199540242552757263183593750 0 0 0 0 
2415666666.6666665077 0.160518869757652310470419365629 -0.057704333215951919555664062500 0.001488257548771799044368124854 -0.004461171105504035949707031250 0 0 0 0 
2415833333.3333334923 0.159534513950347900390625000000 -0.059363197535276412963867187500 0.001515294658020138957379985278 -0.004460618365556001663208007812 0 0 0 0 
2416000000.0000000000 0.158360436558723505218182481258 -0.061052713543176651000976562500 0.001508428715169429995893168872 -0.004493144806474447250366210938 0 0 0 0 
2416166666.6666665077 0.157477974891662597656250000000 -0.062907211482524871826171875000 0.001288314000703393979313515771 -0.004565554205328226089477539062 0 0 0 0 
2416333333.3333334923 0.156560480594635009765625000000 -0.064571261405944824218750000000 0.001287150429561733982683491284 -0.004499377682805061340332031250 0 0 0 0 
2416500000.0000000000 0.155569687485694913009481865629 -0.066550098359584808349609375000 0.001210691058076917908312153394 -0.004498999565839768323416425488 0 0 0 0 
2416666666.6666665077 0.154640808701515197753906250000 -0.068330347537994384765625000000 0.000935700023546814918518066406 -0.004594865255057811737060546875 0 0 0 0 
2416833333.3333334923 0.154074653983116205413494981258 -0.070442907512187957763671875000 0.000898937694728374481201171875 -0.004656577482819557189941406250 0 0 0 0 
2417000000.0000000000 0.153084844350814791580361884371 -0.072340272367000579833984375000 0.000927909277379512786865234375 -0.004637950100004673004150390625 0 0 0 0 
2417166666.6666665077 0.152498275041580200195312500000 -0.074222065508365631103515625000 0.000611815834417939186096191406 -0.004704882856458426389212323926 0 0 0 0 
2417333333.3333334923 0.151869535446166992187500000000 -0.076086990535259246826171875000 0.000483393465401604825824183331 -0.004793174564838409423828125000 0 0 0 0 
2417500000.0000000000 0.151336356997489901443643134371 -0.078254081308841705322265625000 0.000280948966974392479092198505 -0.004910896066576241579537676074 0 0 0 0 
2417666666.6666665077 0.151024088263511713225994981258 -0.079909555613994598388671875000 0.000190975784789770787388402118 -0.004862038418650627136230468750 0 0 0 0 
2417833333.3333334923 0.150741517543792696853799384371 -0.081845432519912719726562500000 0.000192615203559398705333155499 -0.004841808695346117019653320312 0 0 0 0 
2418000000.0000000000 0.150408759713172912597656250000 -0.083594650030136108398437500000 0.000020744166249642148613929749 -0.004900229629129171371459960938 0 0 0 0 
2418166666.6666665077 0.150087743997573908050213731258 -0.085259877145290374755859375000 -0.000170183964655734598636627197 -0.005031092092394828796386718750 0 0 0 0 
2418333333.3333334923 0.150103315711021395584268134371 -0.087046556174755096435546875000 -0.000316964258672669475704747333 -0.004979062825441361340994550488 0 0 0 0 
2418500000.0000000000 0.149858847260475186446981865629 -0.088592059910297393798828125000 -0.000505807576701045036315917969 -0.005058142822235822677612304688 0 0 0 0 
2418666666.6666665077 0.149890810251235989669638115629 -0.090228177607059478759765625000 -0.000862184504512697458267211914 -0.005172813311219215393066406250 0 0 0 0 
2418833333.3333334923 0.149754136800765991210937500000 -0.091584950685501098632812500000 -0.000988690531812608242034912109 -0.005158032756298779573922441699 0 0 0 0 
2419000000.0000000000 0.149816423654556302169638115629 -0.093012742698192596435546875000 -0.001170452800579369068145751953 -0.005164354108273983001708984375 0 0 0 0 
2419166666.6666665077 0.149882510304450988769531250000 -0.094279669225215911865234375000 -0.001550149521790445067762065356 -0.005102765746414661407470703125 0 0 0 0 
2419333333.3333334923 0.149907529354095486739950615629 -0.095082506537437438964843750000 -0.001710780430585145950317382812 -0.005179592873901128768920898438 0 0 0 0 
2419500000.0000000000 0.150133147835731506347656250000 -0.096303388476371765136718750000 -0.002011829754337667985203408350 -0.004990382585674524307250976562 0 0 0 0 
2419666666.6666665077 0.150480985641479492187500000000 -0.097275651991367340087890625000 -0.002251809462904930114746093750 -0.005008451174944639205932617188 0 0 0 0 
2419833333.3333334923 0.150499016046524103362713731258 -0.097884647548198699951171875000 -0.002505460986867547035217285156 -0.004790696315467357635498046875 0 0 0 0 
