# Version 1.00
#
freq[Hz];re:Trc1_S11;im:Trc1_S11;re:Trc2_S21;im:Trc2_S21;
2.400000000000000E+009;1.561691015958786E-001;6.030383706092835E-002;-3.025482408702374E-003;2.821110829245299E-004;
2.400166666666667E+009;1.562351137399674E-001;5.868850648403168E-002;-3.148363903164864E-003;3.209960996173322E-004;
2.400333333333334E+009;1.562094837427139E-001;5.638253316283226E-002;-3.197283716872335E-003;4.220975970383734E-004;
2.400500000000000E+009;1.566871255636215E-001;5.454906076192856E-002;-3.183608874678612E-003;4.436663002707064E-004;
2.400666666666667E+009;1.567567884922028E-001;5.234997346997261E-002;-3.000644501298666E-003;4.782337928190827E-004;
2.400833333333334E+009;1.571466475725174E-001;5.052161589264870E-002;-3.150876378640533E-003;6.478493451140821E-004;
2.401000000000000E+009;1.575092375278473E-001;4.839002713561058E-002;-3.156807506456971E-003;6.530273822136223E-004;
2.401166666666667E+009;1.579157859086990E-001;4.625466093420982E-002;-2.978025237098336E-003;7.507220725528896E-004;
2.401333333333334E+009;1.583432853221893E-001;4.435098916292191E-002;-2.792088780552149E-003;7.326020859181881E-004;
2.401500000000000E+009;1.589536070823669E-001;4.218384250998497E-002;-2.766926772892475E-003;8.295362931676209E-004;
2.401666666666667E+009;1.594055593013763E-001;4.034016281366348E-002;-2.858014311641455E-003;9.384895674884319E-004;
2.401833333333334E+009;1.601570695638657E-001;3.834624961018562E-002;-2.742268377915025E-003;1.047015772201121E-003;
2.402000000000000E+009;1.606531441211700E-001;3.632113337516785E-002;-2.681305399164558E-003;1.150886411778629E-003;
2.402166666666667E+009;1.615093350410461E-001;3.452095761895180E-002;-2.739544492214918E-003;1.070576836355031E-003;
2.402333333333334E+009;1.620860546827316E-001;3.275413811206818E-002;-2.489838283509016E-003;1.171808107756078E-003;
2.402500000000000E+009;1.632059812545776E-001;3.108607791364193E-002;-2.466135425493121E-003;1.317972084507346E-003;
2.402666666666667E+009;1.638488024473190E-001;2.960934303700924E-002;-2.471736632287502E-003;1.247971435077488E-003;
2.402833333333334E+009;1.647919565439224E-001;2.798419818282127E-002;-2.237678738310933E-003;1.247956068255007E-003;
2.403000000000000E+009;1.656979173421860E-001;2.659587189555168E-002;-2.183943288400769E-003;1.261733355931938E-003;
2.403166666666667E+009;1.665651649236679E-001;2.529496513307095E-002;-2.243347233161330E-003;1.308515202254057E-003;
2.403333333333334E+009;1.675390005111694E-001;2.396292425692082E-002;-2.202803734689951E-003;1.368632423691452E-003;
2.403500000000000E+009;1.684956997632980E-001;2.299993485212326E-002;-2.131945453584194E-003;1.431513112038374E-003;
2.403666666666667E+009;1.694355159997940E-001;2.169490046799183E-002;-2.087819622829557E-003;1.462971908040345E-003;
2.403833333333334E+009;1.704263836145401E-001;2.070026658475399E-002;-1.995022874325514E-003;1.510616508312523E-003;
2.404000000000000E+009;1.714750826358795E-001;1.969682238996029E-002;-1.887120655737817E-003;1.367771415971220E-003;
2.404166666666667E+009;1.721770316362381E-001;1.879596896469593E-002;-1.908503239974380E-003;1.543011399917305E-003;
2.404333333333334E+009;1.731423139572144E-001;1.820519380271435E-002;-1.866215141490102E-003;1.453542383387685E-003;
2.404500000000000E+009;1.739011108875275E-001;1.744349673390389E-002;-1.800785772502422E-003;1.527124899439514E-003;
2.404666666666667E+009;1.747598946094513E-001;1.658424735069275E-002;-1.793567324057221E-003;1.591946114785969E-003;
2.404833333333334E+009;1.756363660097122E-001;1.613531820476055E-002;-1.741282059811056E-003;1.463363412767649E-003;
2.405000000000000E+009;1.762715131044388E-001;1.549793314188719E-002;-1.710739918053150E-003;1.555145718157291E-003;
2.405166666666667E+009;1.769087761640549E-001;1.525261532515287E-002;-1.457944279536605E-003;1.580105745233595E-003;
2.405333333333334E+009;1.776062101125717E-001;1.461250241845846E-002;-1.561520621180534E-003;1.540855620987713E-003;
2.405500000000000E+009;1.781204938888550E-001;1.445034705102444E-002;-1.486244145780802E-003;1.438467763364315E-003;
2.405666666666667E+009;1.786315292119980E-001;1.405714172869921E-002;-1.273208064958453E-003;1.484800712205470E-003;
2.405833333333334E+009;1.788579523563385E-001;1.386229787021875E-002;-1.327535952441394E-003;1.472010044381023E-003;
2.406000000000000E+009;1.792281419038773E-001;1.337112393230200E-002;-1.292893895879388E-003;1.551866414956749E-003;
2.406166666666667E+009;1.793800890445709E-001;1.339814905077219E-002;-1.344915712252259E-003;1.371079008094966E-003;
2.406333333333334E+009;1.796628236770630E-001;1.297117862850428E-002;-1.178366132080555E-003;1.532990252599120E-003;
2.406500000000000E+009;1.796623319387436E-001;1.262834575027227E-002;-1.192193012684584E-003;1.345260068774223E-003;
2.406666666666667E+009;1.794980615377426E-001;1.238328125327826E-002;-1.176993246190250E-003;1.433648983947933E-003;
2.406833333333334E+009;1.796664744615555E-001;1.202736515551806E-002;-1.084496616385877E-003;1.498298486694694E-003;
2.407000000000000E+009;1.794843375682831E-001;1.167922560125589E-002;-1.130109652876854E-003;1.295886700972915E-003;
2.407166666666667E+009;1.793444305658341E-001;1.132383383810520E-002;-1.041696057654917E-003;1.302687800489366E-003;
2.407333333333334E+009;1.788608878850937E-001;1.066530961543322E-002;-1.166882691904903E-003;1.177909318357706E-003;
2.407500000000000E+009;1.785800755023956E-001;1.022532768547535E-002;-1.037136884406209E-003;1.340147806331515E-003;
2.407666666666667E+009;1.782445162534714E-001;9.665787220001221E-003;-1.088866381905973E-003;1.116822706535459E-003;
2.407833333333334E+009;1.775437444448471E-001;8.936398662626743E-003;-1.035142107866705E-003;1.148680341430008E-003;
2.408000000000000E+009;1.769615560770035E-001;8.029727265238762E-003;-1.051716157235205E-003;1.165643334388733E-003;
2.408166666666667E+009;1.765472292900085E-001;7.394006941467524E-003;-1.051888451911509E-003;1.221563783474267E-003;
2.408333333333334E+009;1.760612428188324E-001;6.438138429075480E-003;-1.052587409503758E-003;1.271536457352340E-003;
2.408500000000000E+009;1.753401309251785E-001;5.392026156187058E-003;-1.068825717084110E-003;1.082709175534546E-003;
2.408666666666667E+009;1.746881008148193E-001;4.312215838581324E-003;-1.205283566378057E-003;1.214707619510591E-003;
2.408833333333334E+009;1.740244626998901E-001;3.087442368268967E-003;-1.303113298490644E-003;1.264936756342650E-003;
2.409000000000000E+009;1.732386797666550E-001;1.976373605430126E-003;-1.112712081521750E-003;1.239930745214224E-003;
2.409166666666667E+009;1.725556850433350E-001;4.522505041677505E-004;-1.340275048278272E-003;1.227107713930309E-003;
2.409333333333334E+009;1.720359474420548E-001;-1.025097444653511E-003;-1.371102640405297E-003;1.167009701021016E-003;
2.409500000000000E+009;1.714221388101578E-001;-2.576147206127644E-003;-1.291580963879824E-003;1.293033943511546E-003;
2.409666666666667E+009;1.706893742084503E-001;-4.115690477192402E-003;-1.218498568050563E-003;1.410650904290378E-003;
2.409833333333334E+009;1.701001673936844E-001;-5.640659946948290E-003;-1.362807117402554E-003;1.486696070060134E-003;
2.410000000000000E+009;1.697495132684708E-001;-7.278835400938988E-003;-1.449107658118010E-003;1.398311462253332E-003;
2.410166666666667E+009;1.689960211515427E-001;-9.223301894962788E-003;-1.379222958348692E-003;1.426006434485316E-003;
2.410333333333334E+009;1.686998307704926E-001;-1.096119266003370E-002;-1.490960479713976E-003;1.642167218960822E-003;
2.410500000000000E+009;1.683772355318070E-001;-1.271122787147760E-002;-1.349489088170230E-003;1.609748462215066E-003;
2.410666666666667E+009;1.679840981960297E-001;-1.477784849703312E-002;-1.387770520523191E-003;1.652296399697661E-003;
2.410833333333334E+009;1.679382324218750E-001;-1.657111756503582E-002;-1.518741832114756E-003;1.698553329333663E-003;
2.411000000000000E+009;1.676611900329590E-001;-1.855112053453922E-002;-1.520974561572075E-003;1.757509075105190E-003;
2.411166666666667E+009;1.676604896783829E-001;-2.066346071660519E-002;-1.548095722682774E-003;1.765458495356143E-003;
2.411333333333334E+009;1.673558056354523E-001;-2.229744382202625E-002;-1.291848719120026E-003;1.942365430295467E-003;
2.411500000000000E+009;1.675792038440704E-001;-2.468699775636196E-002;-1.503350795246661E-003;1.918161287903786E-003;
2.411666666666667E+009;1.677411496639252E-001;-2.658033929765225E-002;-1.394285471178591E-003;2.132694935426116E-003;
2.411833333333334E+009;1.680132597684860E-001;-2.819836512207985E-002;-1.345218392089009E-003;2.236644970253110E-003;
2.412000000000000E+009;1.683548837900162E-001;-3.047363087534905E-002;-1.323509495705366E-003;2.275514416396618E-003;
2.412166666666667E+009;1.685154438018799E-001;-3.232891485095024E-002;-1.270966371521354E-003;2.372350543737412E-003;
2.412333333333334E+009;1.690884381532669E-001;-3.409884870052338E-002;-1.250914880074561E-003;2.381830010563135E-003;
2.412500000000000E+009;1.693708747625351E-001;-3.586972504854202E-002;-1.191170071251690E-003;2.401773817837238E-003;
2.412666666666667E+009;1.700663417577744E-001;-3.775620833039284E-002;-1.191363902762532E-003;2.635671291500330E-003;
2.412833333333334E+009;1.704928278923035E-001;-3.942641615867615E-002;-1.034336048178375E-003;2.614274388179183E-003;
2.413000000000000E+009;1.709537059068680E-001;-4.099676385521889E-002;-9.192248689942062E-004;2.834981307387352E-003;
2.413166666666667E+009;1.714846342802048E-001;-4.267130419611931E-002;-8.552953950129449E-004;2.728688064962626E-003;
2.413333333333334E+009;1.719540804624558E-001;-4.428091645240784E-002;-6.654520402662456E-004;2.880639163777232E-003;
2.413500000000000E+009;1.728417426347733E-001;-4.568278044462204E-002;-7.332424283958972E-004;2.935015130788088E-003;
2.413666666666667E+009;1.735369414091110E-001;-4.710090532898903E-002;-4.931721487082541E-004;2.815608400851488E-003;
2.413833333333334E+009;1.740788966417313E-001;-4.828420281410217E-002;-5.031894543208182E-004;2.914049662649632E-003;
2.414000000000000E+009;1.745840758085251E-001;-4.963988065719605E-002;-4.690016503445804E-004;2.989370143041015E-003;
2.414166666666667E+009;1.753917932510376E-001;-5.049793422222138E-002;-3.973632119596005E-004;3.076162887737155E-003;
2.414333333333334E+009;1.758497506380081E-001;-5.165938660502434E-002;-7.093523890944198E-005;3.044530516490340E-003;
2.414500000000000E+009;1.765947490930557E-001;-5.248973891139031E-002;-5.336439426173456E-005;2.961780875921249E-003;
2.414666666666667E+009;1.769551634788513E-001;-5.329521745443344E-002;4.560849993140437E-005;2.978614531457424E-003;
2.414833333333334E+009;1.772881001234055E-001;-5.414381623268127E-002;1.955571351572871E-004;3.055932233110070E-003;
2.415000000000000E+009;1.776465028524399E-001;-5.489757284522057E-002;2.657106379047036E-004;3.115373663604260E-003;
2.415166666666667E+009;1.779214888811112E-001;-5.536855012178421E-002;2.114641974912956E-004;3.070276929065585E-003;
2.415333333333334E+009;1.783864200115204E-001;-5.605586990714073E-002;4.980038502253592E-004;2.981193363666534E-003;
2.415500000000000E+009;1.785381138324738E-001;-5.644328892230988E-002;5.069211474619806E-004;2.979990793392062E-003;
2.415666666666667E+009;1.787515431642532E-001;-5.687268078327179E-002;6.196077447384596E-004;2.986265113577247E-003;
2.415833333333334E+009;1.787212491035461E-001;-5.719884485006332E-002;7.525972905568779E-004;2.935795579105616E-003;
2.416000000000000E+009;1.785512715578079E-001;-5.747336894273758E-002;6.491109961643815E-004;3.009561449289322E-003;
2.416166666666667E+009;1.786801964044571E-001;-5.770134180784226E-002;8.245133794844151E-004;2.884651767089963E-003;
2.416333333333334E+009;1.784260869026184E-001;-5.796727165579796E-002;9.209980489686132E-004;2.915014745667577E-003;
2.416500000000000E+009;1.780807375907898E-001;-5.823382362723351E-002;9.458409040234983E-004;2.864641137421131E-003;
2.416666666666667E+009;1.776483654975891E-001;-5.836128070950508E-002;1.010670093819499E-003;2.779909875243902E-003;
2.416833333333334E+009;1.772425025701523E-001;-5.862881615757942E-002;1.088664750568569E-003;2.849857090041041E-003;
2.417000000000000E+009;1.764813363552094E-001;-5.885444954037666E-002;1.208572066389024E-003;2.786013763397932E-003;
2.417166666666667E+009;1.758542507886887E-001;-5.905123800039291E-002;1.307745114900172E-003;2.615101169794798E-003;
2.417333333333334E+009;1.751171648502350E-001;-5.926128476858139E-002;1.189475413411856E-003;2.712153363972902E-003;
2.417500000000000E+009;1.743259280920029E-001;-5.974991247057915E-002;1.350687816739082E-003;2.657542005181313E-003;
2.417666666666667E+009;1.735348552465439E-001;-5.978979915380478E-002;1.352379447780550E-003;2.627693349495530E-003;
2.417833333333334E+009;1.724555790424347E-001;-6.017920747399330E-002;1.417987747117877E-003;2.573293168097735E-003;
2.418000000000000E+009;1.714550107717514E-001;-6.066989526152611E-002;1.452190917916596E-003;2.570641227066517E-003;
2.418166666666667E+009;1.702258884906769E-001;-6.093505769968033E-002;1.460602739825845E-003;2.562812296673656E-003;
2.418333333333334E+009;1.694840937852860E-001;-6.150652095675468E-002;1.669580815359950E-003;2.477909205481410E-003;
2.418500000000000E+009;1.680831015110016E-001;-6.214582547545433E-002;1.685357536189258E-003;2.588146133348346E-003;
2.418666666666667E+009;1.669493466615677E-001;-6.278919428586960E-002;1.610897830687463E-003;2.579144667834044E-003;
2.418833333333334E+009;1.655466258525848E-001;-6.352923065423966E-002;1.825852086767554E-003;2.359931357204914E-003;
2.419000000000000E+009;1.643297225236893E-001;-6.424442678689957E-002;1.862198580056429E-003;2.470072358846664E-003;
2.419166666666667E+009;1.632674932479858E-001;-6.502058357000351E-002;1.779225538484752E-003;2.466298174113035E-003;
2.419333333333334E+009;1.617170125246048E-001;-6.578224152326584E-002;2.112608635798097E-003;2.401762641966343E-003;
2.419500000000000E+009;1.606007963418961E-001;-6.713761389255524E-002;1.944006537087262E-003;2.457120688632131E-003;
2.419666666666667E+009;1.595340669155121E-001;-6.828409433364868E-002;1.982372254133225E-003;2.367488574236631E-003;
2.419833333333334E+009;1.582787036895752E-001;-6.919228285551071E-002;2.084838226437569E-003;2.414080314338207E-003;
2.420000000000000E+009;1.572685688734055E-001;-7.061652094125748E-002;2.197462134063244E-003;2.515841741114855E-003;
2.420166666666667E+009;1.562615185976028E-001;-7.180739939212799E-002;2.240275032818317E-003;2.327530179172754E-003;
2.420333333333334E+009;1.551149785518646E-001;-7.334937155246735E-002;2.280375454574823E-003;2.303679939359427E-003;
2.420500000000000E+009;1.544566452503204E-001;-7.460539788007736E-002;2.496088622137904E-003;2.253111451864243E-003;
2.420666666666667E+009;1.534932255744934E-001;-7.583134621381760E-002;2.597021870315075E-003;2.172981854528189E-003;
2.420833333333334E+009;1.524783968925476E-001;-7.758235931396484E-002;2.602986292913556E-003;2.156056696549058E-003;
2.421000000000000E+009;1.518360078334808E-001;-7.922502607107163E-002;2.693488495424390E-003;2.104412531480193E-003;
2.421166666666667E+009;1.513481736183167E-001;-8.078582584857941E-002;3.041967982426286E-003;1.979191321879625E-003;
2.421333333333334E+009;1.509038805961609E-001;-8.242144435644150E-002;2.924169646576047E-003;2.118402626365423E-003;
2.421500000000000E+009;1.503856331110001E-001;-8.408552408218384E-002;3.065722528845072E-003;1.939435256645083E-003;
2.421666666666667E+009;1.499511599540710E-001;-8.584668487310410E-002;2.963023725897074E-003;1.748798764310777E-003;
2.421833333333334E+009;1.497790515422821E-001;-8.751784265041351E-002;3.259889548644424E-003;1.723032561130822E-003;
2.422000000000000E+009;1.494521051645279E-001;-8.908795565366745E-002;3.270585089921951E-003;1.682476024143398E-003;
2.422166666666667E+009;1.494778841733933E-001;-9.113766998052597E-002;3.414526116102934E-003;1.400893088430166E-003;
2.422333333333334E+009;1.494601815938950E-001;-9.253115206956863E-002;3.268742468208075E-003;1.461879233829677E-003;
2.422500000000000E+009;1.495399922132492E-001;-9.425196796655655E-002;3.596345428377390E-003;1.269835978746414E-003;
2.422666666666667E+009;1.495216935873032E-001;-9.600728750228882E-002;3.466814756393433E-003;1.298023737035692E-003;
2.422833333333334E+009;1.499812752008438E-001;-9.768870472908020E-002;3.594071371480823E-003;1.031932421028614E-003;
2.423000000000000E+009;1.500383466482163E-001;-9.908049553632736E-002;3.599942661821842E-003;9.427184122614563E-004;
2.423166666666667E+009;1.505102515220642E-001;-1.006988137960434E-001;3.543585771694779E-003;9.059302392415702E-004;
2.423333333333334E+009;1.509139239788055E-001;-1.020290553569794E-001;3.707120660692453E-003;8.600620203651488E-004;
2.423500000000000E+009;1.512735188007355E-001;-1.036471799015999E-001;3.544575301930308E-003;6.619706400670111E-004;
2.423666666666667E+009;1.516169011592865E-001;-1.050073504447937E-001;3.757568076252937E-003;3.831119975075126E-004;
2.423833333333334E+009;1.522104591131210E-001;-1.062832698225975E-001;3.707627533003688E-003;3.485456691123545E-004;
2.424000000000000E+009;1.526005864143372E-001;-1.072118878364563E-001;3.684016643092036E-003;1.731226802803576E-004;
2.424166666666667E+009;1.530777812004089E-001;-1.084472984075546E-001;3.682817332446575E-003;6.620451313210651E-005;
2.424333333333334E+009;1.536974757909775E-001;-1.094793304800987E-001;3.640190232545137E-003;1.913331798277795E-004;
2.424500000000000E+009;1.541230529546738E-001;-1.105292066931725E-001;3.594886511564255E-003;-1.877191389212385E-004;
2.424666666666667E+009;1.548504978418350E-001;-1.112084165215492E-001;3.726150607690215E-003;-3.386469907127321E-004;
2.424833333333334E+009;1.550081521272659E-001;-1.121589168906212E-001;3.644774667918682E-003;-3.709143784362823E-004;
2.425000000000000E+009;1.556986272335053E-001;-1.127836331725121E-001;3.694524290040135E-003;-5.590069340541959E-004;
2.425166666666667E+009;1.557915359735489E-001;-1.135130971670151E-001;3.662800882011652E-003;-6.877490668557584E-004;
2.425333333333334E+009;1.562486588954926E-001;-1.139956563711166E-001;3.433709964156151E-003;-8.021895773708820E-004;
2.425500000000000E+009;1.566334813833237E-001;-1.145989075303078E-001;3.598833922296763E-003;-1.003692857921124E-003;
2.425666666666667E+009;1.566830426454544E-001;-1.149537190794945E-001;3.496355144307017E-003;-1.007703715004027E-003;
2.425833333333334E+009;1.568972021341324E-001;-1.154532507061958E-001;3.564353100955486E-003;-9.072993416339159E-004;
2.426000000000000E+009;1.570507586002350E-001;-1.158808171749115E-001;3.339458955451846E-003;-1.224279636517167E-003;
2.426166666666667E+009;1.571247428655624E-001;-1.160807162523270E-001;3.367876866832376E-003;-1.163199427537620E-003;
2.426333333333334E+009;1.569909602403641E-001;-1.163299903273583E-001;3.288567764684558E-003;-1.329019898548722E-003;
2.426500000000000E+009;1.568252146244049E-001;-1.163880378007889E-001;3.138335421681404E-003;-1.518578385002911E-003;
2.426666666666667E+009;1.567144542932510E-001;-1.165092736482620E-001;3.124051727354527E-003;-1.554647693410516E-003;
2.426833333333334E+009;1.562800407409668E-001;-1.166466996073723E-001;3.043183358386159E-003;-1.565111801028252E-003;
2.427000000000000E+009;1.559887230396271E-001;-1.167733147740364E-001;3.169020405039191E-003;-1.624908181838691E-003;
2.427166666666667E+009;1.552625447511673E-001;-1.167645752429962E-001;2.909153001382947E-003;-1.700644614174962E-003;
2.427333333333334E+009;1.547401845455170E-001;-1.169582381844521E-001;2.952322596684098E-003;-1.895776716992259E-003;
2.427500000000000E+009;1.540202349424362E-001;-1.170543581247330E-001;2.851332072168589E-003;-1.841805176809430E-003;
2.427666666666667E+009;1.532385200262070E-001;-1.172870919108391E-001;2.858335385099053E-003;-1.873240922577679E-003;
2.427833333333334E+009;1.521548032760620E-001;-1.174170076847076E-001;2.932372270151973E-003;-1.914572552777827E-003;
