# Version 1.00
#
freq[Hz];re:Trc1_S11;im:Trc1_S11;re:Trc2_S21;im:Trc2_S21;
2.400000000000000E+009;1.561508625745773E-001;6.034876778721809E-002;-3.100386355072260E-003;-1.625958248041570E-005;
2.400166666666667E+009;1.562660932540894E-001;5.858892947435379E-002;-2.987940330058336E-003;1.274912938242778E-004;
2.400333333333334E+009;1.563006639480591E-001;5.644663795828819E-002;-3.046795027330518E-003;9.408708865521476E-005;
2.400500000000000E+009;1.565502285957336E-001;5.458800494670868E-002;-3.021324751898646E-003;2.626759815029800E-004;
2.400666666666667E+009;1.568049937486649E-001;5.246299505233765E-002;-2.977736061438918E-003;3.501193714328110E-004;
2.400833333333334E+009;1.570255011320114E-001;5.055786669254303E-002;-2.916113007813692E-003;3.614936140365899E-004;
2.401000000000000E+009;1.575022935867310E-001;4.833125323057175E-002;-2.925768494606018E-003;3.655768523458391E-004;
2.401166666666667E+009;1.579555571079254E-001;4.626425728201866E-002;-2.994445385411382E-003;3.993835707660765E-004;
2.401333333333334E+009;1.581725925207138E-001;4.411596059799194E-002;-2.859031315892935E-003;5.009663873352110E-004;
2.401500000000000E+009;1.586672365665436E-001;4.219732806086540E-002;-2.975269919261336E-003;4.899747436866164E-004;
2.401666666666667E+009;1.593994200229645E-001;4.016335308551788E-002;-2.850416116416454E-003;7.449642289429903E-004;
2.401833333333334E+009;1.601706445217133E-001;3.825833648443222E-002;-2.769851125776768E-003;7.421813206747174E-004;
2.402000000000000E+009;1.607052236795425E-001;3.639158979058266E-002;-2.554357517510653E-003;8.701671613380313E-004;
2.402166666666667E+009;1.612772941589356E-001;3.444866463541985E-002;-2.578244777396321E-003;9.577682358212769E-004;
2.402333333333334E+009;1.619822829961777E-001;3.278701007366180E-002;-2.513137646019459E-003;1.050092279911041E-003;
2.402500000000000E+009;1.631086319684982E-001;3.121481835842133E-002;-2.485328353941441E-003;1.097499858587980E-003;
2.402666666666667E+009;1.638333797454834E-001;2.951095066964626E-002;-2.410353627055883E-003;1.023491262458265E-003;
2.402833333333334E+009;1.647370606660843E-001;2.821637876331806E-002;-2.518152119591832E-003;1.119537046179175E-003;
2.403000000000000E+009;1.655367761850357E-001;2.657012082636356E-002;-2.245741896331310E-003;1.161590451374650E-003;
2.403166666666667E+009;1.665994673967362E-001;2.519799210131168E-002;-2.286339411512017E-003;1.136126229539514E-003;
2.403333333333334E+009;1.676695346832275E-001;2.399352006614208E-002;-2.249032957479358E-003;1.202075858600438E-003;
2.403500000000000E+009;1.684470772743225E-001;2.292103879153729E-002;-2.005479997023940E-003;9.992354316636920E-004;
2.403666666666667E+009;1.694978028535843E-001;2.162310481071472E-002;-2.140492899343371E-003;1.019965973682702E-003;
2.403833333333334E+009;1.705280542373657E-001;2.078730054199696E-002;-1.989961136132479E-003;1.167473732493818E-003;
2.404000000000000E+009;1.714341491460800E-001;1.959373615682125E-002;-1.896252622827888E-003;1.242849626578391E-003;
2.404166666666667E+009;1.723814904689789E-001;1.871626451611519E-002;-2.037696307525039E-003;1.334196422249079E-003;
2.404333333333334E+009;1.730905473232269E-001;1.816232502460480E-002;-1.985403709113598E-003;1.158909988589585E-003;
2.404500000000000E+009;1.740576922893524E-001;1.719399727880955E-002;-1.771185896359384E-003;1.268408726900816E-003;
2.404666666666667E+009;1.748095601797104E-001;1.655019260942936E-002;-1.824400853365660E-003;1.299476833082736E-003;
2.404833333333334E+009;1.756198853254318E-001;1.623556017875671E-002;-1.975554041564465E-003;1.345698838122189E-003;
2.405000000000000E+009;1.762222349643707E-001;1.563376374542713E-002;-1.725053880363703E-003;1.351935788989067E-003;
2.405166666666667E+009;1.769532561302185E-001;1.514717284590006E-002;-1.646272256039083E-003;1.476981909945607E-003;
2.405333333333334E+009;1.776200979948044E-001;1.468671113252640E-002;-1.644861651584506E-003;1.322345458902419E-003;
2.405500000000000E+009;1.781443655490875E-001;1.447951421141625E-002;-1.566152786836028E-003;1.304094796068966E-003;
2.405666666666667E+009;1.785275191068649E-001;1.415859628468752E-002;-1.763439388014376E-003;1.389628858305514E-003;
2.405833333333334E+009;1.788373738527298E-001;1.378572452813387E-002;-1.630466547794640E-003;1.503451727330685E-003;
2.406000000000000E+009;1.792371273040772E-001;1.342069730162621E-002;-1.591170206665993E-003;1.353203901089728E-003;
2.406166666666667E+009;1.791669279336929E-001;1.331351604312658E-002;-1.297579496167600E-003;1.327358535490930E-003;
2.406333333333334E+009;1.797422468662262E-001;1.310672704130411E-002;-1.449706382118166E-003;1.267304178327322E-003;
2.406500000000000E+009;1.797714531421661E-001;1.273684296756983E-002;-1.251596957445145E-003;1.389681710861623E-003;
2.406666666666667E+009;1.795509010553360E-001;1.257170643657446E-002;-1.278904383070767E-003;1.326423953287303E-003;
2.406833333333334E+009;1.796391010284424E-001;1.211301144212484E-002;-1.387748168781400E-003;1.366513315588236E-003;
2.407000000000000E+009;1.794951558113098E-001;1.167460624128580E-002;-1.387558877468109E-003;1.364069059491158E-003;
2.407166666666667E+009;1.793610304594040E-001;1.137444842606783E-002;-1.367285032756627E-003;1.346383476629853E-003;
2.407333333333334E+009;1.789778769016266E-001;1.084592100232840E-002;-1.241329475305975E-003;1.316728652454913E-003;
2.407500000000000E+009;1.786068379878998E-001;1.022161636501551E-002;-1.182438805699348E-003;1.274208305403590E-003;
2.407666666666667E+009;1.781125664710999E-001;9.735491126775742E-003;-1.309144543483853E-003;1.190889859572053E-003;
2.407833333333334E+009;1.775500625371933E-001;8.894826285541058E-003;-1.226837048307061E-003;1.294206827878952E-003;
2.408000000000000E+009;1.771449595689774E-001;8.171909488737583E-003;-1.277380157262087E-003;1.286028884351254E-003;
2.408166666666667E+009;1.764936298131943E-001;7.432075683027506E-003;-1.219619647599757E-003;1.154736150056124E-003;
2.408333333333334E+009;1.760536879301071E-001;6.508675869554281E-003;-1.263824058696628E-003;1.270339009352028E-003;
2.408500000000000E+009;1.754105538129807E-001;5.499259568750858E-003;-1.181654632091522E-003;1.243437291122973E-003;
2.408666666666667E+009;1.746487021446228E-001;4.254555795341730E-003;-1.205249107442796E-003;1.190115930512548E-003;
2.408833333333334E+009;1.739661842584610E-001;3.038612427189946E-003;-1.342127216048539E-003;1.154443947598338E-003;
2.409000000000000E+009;1.732232719659805E-001;1.878379844129086E-003;-1.422328641638160E-003;1.139829284511507E-003;
2.409166666666667E+009;1.727233380079269E-001;7.288752240128815E-004;-1.307086902670562E-003;1.342507428489626E-003;
2.409333333333334E+009;1.721652150154114E-001;-8.525781449861825E-004;-1.352968276478350E-003;1.260971650481224E-003;
2.409500000000000E+009;1.713818013668060E-001;-2.461567986756563E-003;-1.394535298459232E-003;1.324417535215616E-003;
2.409666666666667E+009;1.706791520118713E-001;-4.178296774625778E-003;-1.355839893221855E-003;1.250694273039699E-003;
2.409833333333334E+009;1.701211631298065E-001;-5.657961126416922E-003;-1.530471257865429E-003;1.559877768158913E-003;
2.410000000000000E+009;1.696387678384781E-001;-7.341259624809027E-003;-1.573686837218702E-003;1.395656494423747E-003;
2.410166666666667E+009;1.692660450935364E-001;-9.078416042029858E-003;-1.550394226796925E-003;1.557121751829982E-003;
2.410333333333334E+009;1.687873005867004E-001;-1.083638239651918E-002;-1.521844184026122E-003;1.485481625422835E-003;
2.410500000000000E+009;1.682610064744949E-001;-1.281810086220503E-002;-1.574758323840797E-003;1.589345862157643E-003;
2.410666666666667E+009;1.680276691913605E-001;-1.478206180036068E-002;-1.468094531446695E-003;1.728325383737683E-003;
2.410833333333334E+009;1.679060906171799E-001;-1.684543676674366E-002;-1.652777427807450E-003;1.698462059721351E-003;
2.411000000000000E+009;1.676561087369919E-001;-1.839482784271240E-002;-1.663367496803403E-003;1.955346437171102E-003;
2.411166666666667E+009;1.675631999969482E-001;-2.051528729498386E-002;-1.449930365197361E-003;1.955342246219516E-003;
2.411333333333334E+009;1.675292998552322E-001;-2.243041805922985E-002;-1.638188958168030E-003;1.969651551917195E-003;
2.411500000000000E+009;1.675562560558319E-001;-2.441948466002941E-002;-1.635366468690336E-003;2.136954572051764E-003;
2.411666666666667E+009;1.676564514636993E-001;-2.642580494284630E-002;-1.654068822972477E-003;2.326254500076175E-003;
2.411833333333334E+009;1.679451912641525E-001;-2.830030024051666E-002;-1.574364490807056E-003;2.261771587654948E-003;
2.412000000000000E+009;1.684628874063492E-001;-3.025068715214729E-002;-1.375759253278375E-003;2.356370212510228E-003;
2.412166666666667E+009;1.684598028659821E-001;-3.223795816302300E-002;-1.541276229545474E-003;2.517641754820943E-003;
2.412333333333334E+009;1.691397279500961E-001;-3.405575826764107E-002;-1.406467403285205E-003;2.493500243872404E-003;
2.412500000000000E+009;1.693425029516220E-001;-3.575967252254486E-002;-1.267976593226194E-003;2.569496864452958E-003;
2.412666666666667E+009;1.698019206523895E-001;-3.778586909174919E-002;-1.175429322756827E-003;2.723157871514559E-003;
2.412833333333334E+009;1.705214232206345E-001;-3.951214998960495E-002;-1.214302494190633E-003;2.748713130131364E-003;
2.413000000000000E+009;1.709787994623184E-001;-4.112628847360611E-002;-1.057692104950547E-003;2.692760899662972E-003;
2.413166666666667E+009;1.714434325695038E-001;-4.285450652241707E-002;-9.898244170472026E-004;2.901738742366433E-003;
2.413333333333334E+009;1.720640659332275E-001;-4.414276778697968E-002;-8.419759105890989E-004;2.917592413723469E-003;
2.413500000000000E+009;1.728713065385819E-001;-4.558751359581947E-002;-7.235176744870842E-004;2.965077525004745E-003;
2.413666666666667E+009;1.734899282455444E-001;-4.703638702630997E-002;-7.115900516510010E-004;3.022459801286459E-003;
2.413833333333334E+009;1.740306913852692E-001;-4.824955761432648E-002;-6.281330133788288E-004;3.035158850252628E-003;
2.414000000000000E+009;1.745514571666718E-001;-4.942248016595841E-002;-4.007158568128943E-004;3.213945543393493E-003;
2.414166666666667E+009;1.751635074615479E-001;-5.042372643947601E-002;-3.372091741766781E-004;3.116825362667441E-003;
2.414333333333334E+009;1.757542043924332E-001;-5.165893957018852E-002;-1.267606712644920E-004;3.124554175883532E-003;
2.414500000000000E+009;1.764492243528366E-001;-5.245258659124374E-002;-3.853934686048888E-005;3.079838585108519E-003;
2.414666666666667E+009;1.770491600036621E-001;-5.327408015727997E-002;-1.021289790514857E-004;3.268636530265212E-003;
2.414833333333334E+009;1.773108392953873E-001;-5.401312932372093E-002;-2.128260712197516E-005;3.203417873010039E-003;
2.415000000000000E+009;1.776366978883743E-001;-5.470464751124382E-002;1.952639722730964E-004;3.122931346297264E-003;
2.415166666666667E+009;1.780321002006531E-001;-5.544197186827660E-002;3.369401092641056E-004;3.084454452618957E-003;
2.415333333333334E+009;1.783340424299240E-001;-5.610340088605881E-002;3.533834242261946E-004;3.121634479612112E-003;
2.415500000000000E+009;1.784537434577942E-001;-5.646037682890892E-002;3.987508243881166E-004;3.044391749426723E-003;
2.415666666666667E+009;1.785605102777481E-001;-5.679252743721008E-002;5.725811934098601E-004;3.151452168822289E-003;
2.415833333333334E+009;1.786550730466843E-001;-5.721810460090637E-002;7.397036533802748E-004;3.064421238377690E-003;
2.416000000000000E+009;1.785635501146317E-001;-5.751454085111618E-002;6.639830535277724E-004;2.907446352764964E-003;
2.416166666666667E+009;1.785915791988373E-001;-5.768462643027306E-002;9.294418850913644E-004;3.002610988914967E-003;
2.416333333333334E+009;1.783435940742493E-001;-5.800256878137589E-002;9.241292718797922E-004;2.931945491582155E-003;
2.416500000000000E+009;1.781120151281357E-001;-5.827477574348450E-002;1.061509945429862E-003;2.895537996664643E-003;
2.416666666666667E+009;1.775841265916824E-001;-5.831537395715714E-002;1.134459511376917E-003;2.884179120883346E-003;
2.416833333333334E+009;1.771931201219559E-001;-5.872961878776550E-002;1.138778054155409E-003;2.765777520835400E-003;
2.417000000000000E+009;1.765077561140060E-001;-5.881337076425552E-002;1.253419206477702E-003;2.871288685128093E-003;
2.417166666666667E+009;1.758941709995270E-001;-5.903829634189606E-002;1.238982309587300E-003;2.894315635785461E-003;
2.417333333333334E+009;1.751283109188080E-001;-5.919253081083298E-002;1.236693584360182E-003;2.787317149341106E-003;
2.417500000000000E+009;1.742389053106308E-001;-5.957276001572609E-002;1.339823123998940E-003;2.665050094947219E-003;
2.417666666666667E+009;1.734107583761215E-001;-5.986158549785614E-002;1.543625490739942E-003;2.637830330058932E-003;
2.417833333333334E+009;1.724364161491394E-001;-6.009055674076080E-002;1.446611131541431E-003;2.700895303860307E-003;
2.418000000000000E+009;1.712889373302460E-001;-6.061710044741631E-002;1.602966221980751E-003;2.544631715863943E-003;
2.418166666666667E+009;1.702879220247269E-001;-6.074828654527664E-002;1.484028412960470E-003;2.721484750509262E-003;
2.418333333333334E+009;1.693057417869568E-001;-6.147361174225807E-002;1.695521408692002E-003;2.593702403828502E-003;
2.418500000000000E+009;1.680686026811600E-001;-6.205088272690773E-002;1.703825080767274E-003;2.581128384917975E-003;
2.418666666666667E+009;1.669887304306030E-001;-6.276289373636246E-002;1.785927917808294E-003;2.515649655833840E-003;
2.418833333333334E+009;1.655734926462174E-001;-6.347973644733429E-002;1.700815395452082E-003;2.410113811492920E-003;
2.419000000000000E+009;1.642428040504456E-001;-6.422627717256546E-002;1.801325939595699E-003;2.550184261053801E-003;
2.419166666666667E+009;1.630567014217377E-001;-6.506425887346268E-002;1.953046652488411E-003;2.540538320317864E-003;
2.419333333333334E+009;1.619019806385040E-001;-6.585931032896042E-002;2.026651054620743E-003;2.472970634698868E-003;
2.419500000000000E+009;1.606298387050629E-001;-6.705266982316971E-002;2.033545169979334E-003;2.412718720734119E-003;
2.419666666666667E+009;1.594370007514954E-001;-6.806004047393799E-002;2.053382806479931E-003;2.369657158851624E-003;
2.419833333333334E+009;1.582391709089279E-001;-6.927042454481125E-002;2.198879839852452E-003;2.515098080039024E-003;
2.420000000000000E+009;1.573543548583984E-001;-7.044693827629089E-002;2.210168633610010E-003;2.386265201494098E-003;
2.420166666666667E+009;1.562090367078781E-001;-7.172856479883194E-002;2.346009016036987E-003;2.465439494699240E-003;
2.420333333333334E+009;1.552024632692337E-001;-7.318723946809769E-002;2.494495827704668E-003;2.366134431213141E-003;
2.420500000000000E+009;1.542888879776001E-001;-7.454863935709000E-002;2.583983587101102E-003;2.295197220519185E-003;
2.420666666666667E+009;1.534226387739182E-001;-7.590109109878540E-002;2.693118760362268E-003;2.382053062319756E-003;
2.420833333333334E+009;1.527334600687027E-001;-7.755766808986664E-002;2.655879361554980E-003;2.104834187775850E-003;
2.421000000000000E+009;1.517902165651321E-001;-7.906322926282883E-002;2.729148603975773E-003;2.148364670574665E-003;
2.421166666666667E+009;1.512012779712677E-001;-8.075530081987381E-002;2.912349533289671E-003;2.109551802277565E-003;
2.421333333333334E+009;1.508948355913162E-001;-8.255890756845474E-002;3.003519261255860E-003;2.045905916020274E-003;
2.421500000000000E+009;1.502659320831299E-001;-8.419691771268845E-002;3.024417441338301E-003;1.897333306260407E-003;
2.421666666666667E+009;1.500243395566940E-001;-8.577328920364380E-002;3.144168993458152E-003;1.821788027882576E-003;
2.421833333333334E+009;1.497871130704880E-001;-8.752340078353882E-002;3.176286583766341E-003;1.608683494850993E-003;
2.422000000000000E+009;1.494433730840683E-001;-8.917919546365738E-002;3.245302475988865E-003;1.566883292980492E-003;
2.422166666666667E+009;1.494281440973282E-001;-9.118353575468063E-002;3.313587279990315E-003;1.570895081385970E-003;
2.422333333333334E+009;1.495379954576492E-001;-9.264055639505386E-002;3.400906920433044E-003;1.440049149096012E-003;
2.422500000000000E+009;1.493897736072540E-001;-9.418270736932755E-002;3.557767020538449E-003;1.133615034632385E-003;
2.422666666666667E+009;1.494252085685730E-001;-9.588097780942917E-002;3.436113474890590E-003;1.166942529380322E-003;
2.422833333333334E+009;1.495882421731949E-001;-9.761947393417358E-002;3.442561253905296E-003;1.088074059225619E-003;
2.423000000000000E+009;1.499929726123810E-001;-9.912197291851044E-002;3.670271486043930E-003;9.092334657907486E-004;
2.423166666666667E+009;1.505199670791626E-001;-1.007101312279701E-001;3.701773937791586E-003;7.935269386507571E-004;
2.423333333333334E+009;1.509094089269638E-001;-1.019268110394478E-001;3.738041501492262E-003;7.209894829429686E-004;
2.423500000000000E+009;1.511971801519394E-001;-1.033015847206116E-001;3.658515634015203E-003;6.386158056557179E-004;
2.423666666666667E+009;1.515600234270096E-001;-1.048503145575523E-001;3.732823766767979E-003;5.475516663864255E-004;
2.423833333333334E+009;1.520767360925674E-001;-1.061340719461441E-001;3.713279729709029E-003;2.886017609853298E-004;
2.424000000000000E+009;1.525932550430298E-001;-1.071512177586556E-001;3.710648510605097E-003;2.875623758882284E-004;
2.424166666666667E+009;1.529318839311600E-001;-1.083726137876511E-001;3.692788537591696E-003;1.218268953380175E-004;
2.424333333333334E+009;1.536370217800140E-001;-1.094234958291054E-001;3.640878945589066E-003;-2.266708543174900E-005;
2.424500000000000E+009;1.542064249515533E-001;-1.103447899222374E-001;3.552784444764257E-003;-7.697019464103505E-005;
2.424666666666667E+009;1.547701209783554E-001;-1.111588329076767E-001;3.587433369830251E-003;-2.183995238738135E-004;
2.424833333333334E+009;1.551737040281296E-001;-1.120137348771095E-001;3.701614448800683E-003;-3.593854198697954E-004;
2.425000000000000E+009;1.556082814931870E-001;-1.126991286873817E-001;3.586971666663885E-003;-5.001019453629851E-004;
2.425166666666667E+009;1.559083014726639E-001;-1.134783923625946E-001;3.490917384624481E-003;-7.204760331660509E-004;
2.425333333333334E+009;1.562471240758896E-001;-1.139128580689430E-001;3.578165546059609E-003;-5.982075817883015E-004;
2.425500000000000E+009;1.565815210342407E-001;-1.144907921552658E-001;3.467560280114412E-003;-7.893103756941855E-004;
2.425666666666667E+009;1.565860360860825E-001;-1.150306835770607E-001;3.469475079327822E-003;-9.670585277490318E-004;
2.425833333333334E+009;1.568598449230194E-001;-1.154378950595856E-001;3.356884233653545E-003;-1.039494993165135E-003;
2.426000000000000E+009;1.568566560745239E-001;-1.157965511083603E-001;3.455356694757938E-003;-1.031913794577122E-003;
2.426166666666667E+009;1.571363508701325E-001;-1.159517616033554E-001;3.256598720327020E-003;-1.199144753627479E-003;
2.426333333333334E+009;1.569260060787201E-001;-1.163461804389954E-001;3.350222716107965E-003;-1.410323078744113E-003;
2.426500000000000E+009;1.567969620227814E-001;-1.163954958319664E-001;3.078424371778965E-003;-1.455007353797555E-003;
2.426666666666667E+009;1.567810922861099E-001;-1.164644733071327E-001;3.170818090438843E-003;-1.437801169231534E-003;
2.426833333333334E+009;1.563334316015244E-001;-1.165893897414208E-001;3.062887582927942E-003;-1.440034364350140E-003;
2.427000000000000E+009;1.558123528957367E-001;-1.168281063437462E-001;3.017892828211188E-003;-1.611780608072877E-003;
2.427166666666667E+009;1.553386151790619E-001;-1.167950555682182E-001;3.017341718077660E-003;-1.546566258184612E-003;
2.427333333333334E+009;1.546506285667419E-001;-1.169995591044426E-001;3.019623225554824E-003;-1.725625712424517E-003;
2.427500000000000E+009;1.541463434696198E-001;-1.171482056379318E-001;2.824995899572969E-003;-1.743021071888506E-003;
2.427666666666667E+009;1.531274318695068E-001;-1.173074916005135E-001;2.928560832515359E-003;-1.721951412037015E-003;
2.427833333333334E+009;1.520942896604538E-001;-1.174746081233025E-001;2.723760902881622E-003;-1.711475895717740E-003;
