# Version 1.00
#
freq[Hz];re:Trc1_S11;im:Trc1_S11;re:Trc2_S21;im:Trc2_S21;
2.400000000000000E+009;1.554393917322159E-001;1.107491329312325E-001;-1.486066495999694E-003;2.527680946514010E-003;
2.400166666666667E+009;1.548934131860733E-001;1.085518673062325E-001;-1.209771144203842E-003;2.689903834834695E-003;
2.400333333333334E+009;1.547563821077347E-001;1.064587682485580E-001;-1.162391970865428E-003;2.724231220781803E-003;
2.400500000000000E+009;1.543138176202774E-001;1.038568317890167E-001;-1.055739121511579E-003;2.640551887452602E-003;
2.400666666666667E+009;1.540382951498032E-001;1.011116430163384E-001;-9.258530917577446E-004;2.619834616780281E-003;
2.400833333333334E+009;1.536665111780167E-001;9.824434667825699E-002;-9.344306308776140E-004;2.731566783040762E-003;
2.401000000000000E+009;1.537770181894302E-001;9.540678560733795E-002;-7.839906029403210E-004;2.783878706395626E-003;
2.401166666666667E+009;1.535042375326157E-001;9.264237433671951E-002;-4.968852736055851E-004;2.765395678579807E-003;
2.401333333333334E+009;1.536723524332047E-001;8.979773521423340E-002;-4.613933269865811E-004;2.889441791921854E-003;
2.401500000000000E+009;1.539426594972611E-001;8.665423095226288E-002;-2.812144812196493E-004;3.013099776580930E-003;
2.401666666666667E+009;1.540298461914063E-001;8.361433446407318E-002;-2.308465627720580E-004;2.815783955156803E-003;
2.401833333333334E+009;1.543573588132858E-001;8.084394037723541E-002;-9.567644156049937E-005;3.085271921008825E-003;
2.402000000000000E+009;1.550510525703430E-001;7.772524654865265E-002;-9.678592505224515E-006;3.088404657319188E-003;
2.402166666666667E+009;1.555991470813751E-001;7.499807327985764E-002;2.581447479315102E-004;3.001017030328512E-003;
2.402333333333334E+009;1.563615053892136E-001;7.227037847042084E-002;5.503942957147956E-004;2.983469050377607E-003;
2.402500000000000E+009;1.576555520296097E-001;6.935598701238632E-002;7.740888395346701E-004;3.066464560106397E-003;
2.402666666666667E+009;1.584445089101791E-001;6.673607230186462E-002;1.123112393543124E-003;2.976861316710711E-003;
2.402833333333334E+009;1.597677469253540E-001;6.390361487865448E-002;1.272858818992972E-003;2.765234326943755E-003;
2.403000000000000E+009;1.610899418592453E-001;6.144044175744057E-002;1.575322239659727E-003;2.851492958143354E-003;
2.403166666666667E+009;1.628556549549103E-001;5.893638357520104E-002;1.773882890120149E-003;2.540635177865624E-003;
2.403333333333334E+009;1.643759906291962E-001;5.649865418672562E-002;2.057808218523860E-003;2.462573116645217E-003;
2.403500000000000E+009;1.659888774156570E-001;5.410786718130112E-002;2.030220581218600E-003;2.350985538214445E-003;
2.403666666666667E+009;1.678452193737030E-001;5.204448476433754E-002;2.423911122605205E-003;1.871973741799593E-003;
2.403833333333334E+009;1.694425642490387E-001;4.986699298024178E-002;2.450752537697554E-003;1.531263813376427E-003;
2.404000000000000E+009;1.712390482425690E-001;4.788904264569283E-002;2.493514213711023E-003;1.308405306190252E-003;
2.404166666666667E+009;1.730782538652420E-001;4.622672870755196E-002;2.462492557242513E-003;8.526576566509903E-004;
2.404333333333334E+009;1.749558597803116E-001;4.468010738492012E-002;2.293289871886373E-003;6.008489290252328E-004;
2.404500000000000E+009;1.767520457506180E-001;4.290344938635826E-002;2.256510313600302E-003;3.956664877478033E-004;
2.404666666666667E+009;1.785051673650742E-001;4.164950549602509E-002;2.038734033703804E-003;2.188831858802587E-004;
2.404833333333334E+009;1.804035454988480E-001;4.054023325443268E-002;1.776925520971417E-003;-1.171959047496785E-005;
2.405000000000000E+009;1.819310039281845E-001;3.963588178157806E-002;1.628193189390004E-003;-2.272048441227526E-004;
2.405166666666667E+009;1.836903393268585E-001;3.902931138873100E-002;1.391583820804954E-003;-3.774473443627358E-004;
2.405333333333334E+009;1.855235695838928E-001;3.839503228664398E-002;1.367113785818219E-003;-3.914296394214034E-004;
2.405500000000000E+009;1.869733035564423E-001;3.800142928957939E-002;1.185198547318578E-003;-6.740063545294106E-004;
2.405666666666667E+009;1.885620504617691E-001;3.745379298925400E-002;1.046815072186291E-003;-4.596557992044836E-004;
2.405833333333334E+009;1.900563389062882E-001;3.726177290081978E-002;7.252149516716600E-004;-4.913344746455550E-004;
2.406000000000000E+009;1.913785934448242E-001;3.716194257140160E-002;6.940563907846808E-004;-6.092166295275092E-004;
2.406166666666667E+009;1.924856603145599E-001;3.707549348473549E-002;5.942228599451482E-004;-4.535867483355105E-004;
2.406333333333334E+009;1.938450038433075E-001;3.730550035834312E-002;3.653608728200197E-004;-4.581076209433377E-004;
2.406500000000000E+009;1.948600560426712E-001;3.743626922369003E-002;7.591539906570688E-005;-4.991258610971272E-004;
2.406666666666667E+009;1.956246793270111E-001;3.757128864526749E-002;1.727144845062867E-004;-2.579139836598188E-004;
2.406833333333334E+009;1.964542865753174E-001;3.792783617973328E-002;-5.153774691279978E-005;-3.861930454149842E-004;
2.407000000000000E+009;1.970401108264923E-001;3.810643404722214E-002;-2.592282544355840E-004;-3.597073373384774E-004;
2.407166666666667E+009;1.976599246263504E-001;3.830819204449654E-002;-3.992986166849732E-004;-2.985826286021620E-004;
2.407333333333334E+009;1.977315843105316E-001;3.865141049027443E-002;-4.960230435244739E-004;-2.012669865507633E-004;
2.407500000000000E+009;1.978045403957367E-001;3.910323232412338E-002;-5.717629683203995E-004;-6.091885370551609E-005;
2.407666666666667E+009;1.979349255561829E-001;3.931649774312973E-002;-7.630247273482382E-004;1.150924290413968E-004;
2.407833333333334E+009;1.976512074470520E-001;3.944884985685349E-002;-8.676472352817655E-004;1.723014138406143E-004;
2.408000000000000E+009;1.975742876529694E-001;3.972683846950531E-002;-9.386127931065857E-004;3.086628858000040E-004;
2.408166666666667E+009;1.971511691808701E-001;3.977055475115776E-002;-9.429610217921436E-004;5.422310205176473E-004;
2.408333333333334E+009;1.966528743505478E-001;3.957726806402206E-002;-8.796749752946198E-004;7.461548666469753E-004;
2.408500000000000E+009;1.961359679698944E-001;3.960119187831879E-002;-1.150690950453281E-003;9.543914347887039E-004;
2.408666666666667E+009;1.954724788665772E-001;3.946169465780258E-002;-9.894828544929624E-004;1.043747062794864E-003;
2.408833333333334E+009;1.947237849235535E-001;3.895652666687965E-002;-9.737370419315994E-004;1.225011656060815E-003;
2.409000000000000E+009;1.935030221939087E-001;3.853195160627365E-002;-9.469336946494877E-004;1.339884591288865E-003;
2.409166666666667E+009;1.928043514490128E-001;3.787902742624283E-002;-8.373154560104013E-004;1.565043698064983E-003;
2.409333333333334E+009;1.916817128658295E-001;3.723277151584625E-002;-8.356384932994843E-004;1.817978685721755E-003;
2.409500000000000E+009;1.903873085975647E-001;3.627544641494751E-002;-6.956399884074926E-004;1.916353241540492E-003;
2.409666666666667E+009;1.892426460981369E-001;3.507421538233757E-002;-6.039724103175104E-004;1.977690029889345E-003;
2.409833333333334E+009;1.880566626787186E-001;3.382948413491249E-002;-3.156826714985073E-004;2.146540675312281E-003;
2.410000000000000E+009;1.870172321796417E-001;3.247498348355293E-002;-5.354012319003232E-005;2.195783192291856E-003;
2.410166666666667E+009;1.856939196586609E-001;3.084776923060417E-002;-9.132104605669156E-005;2.179515548050404E-003;
2.410333333333334E+009;1.845407634973526E-001;2.933191135525703E-002;1.130331293097697E-004;2.177265705540776E-003;
2.410500000000000E+009;1.832726448774338E-001;2.744492515921593E-002;2.862588735297322E-004;2.368517918512225E-003;
2.410666666666667E+009;1.822190582752228E-001;2.518549934029579E-002;2.373033057665452E-004;2.551564481109381E-003;
2.410833333333334E+009;1.813116818666458E-001;2.326018922030926E-002;4.478207847569138E-004;2.312199678272009E-003;
2.411000000000000E+009;1.803156733512878E-001;2.119608223438263E-002;5.965093150734901E-004;2.344829961657524E-003;
2.411166666666667E+009;1.794811785221100E-001;1.899812929332256E-002;6.036616978235543E-004;2.409781329333782E-003;
2.411333333333334E+009;1.786976605653763E-001;1.655309833586216E-002;8.376177283935249E-004;2.414715243503451E-003;
2.411500000000000E+009;1.780315786600113E-001;1.401783246546984E-002;8.933860808610916E-004;2.638752572238445E-003;
2.411666666666667E+009;1.777819544076920E-001;1.155667845159769E-002;1.012384891510010E-003;2.500272588804364E-003;
2.411833333333334E+009;1.772452443838120E-001;9.188396856188774E-003;1.352334860712290E-003;2.658217446878552E-003;
2.412000000000000E+009;1.771117895841599E-001;6.352058146148920E-003;1.474108663387597E-003;2.700329991057515E-003;
2.412166666666667E+009;1.770391762256622E-001;3.860630793496966E-003;1.742667518556118E-003;2.691289642825723E-003;
2.412333333333334E+009;1.772174239158630E-001;1.133871614001691E-003;2.060828264802694E-003;2.713807160034776E-003;
2.412500000000000E+009;1.774917989969254E-001;-1.362790935672820E-003;2.263108966872096E-003;2.458853879943490E-003;
2.412666666666667E+009;1.778896749019623E-001;-4.059193190187216E-003;2.392089460045099E-003;2.457669936120510E-003;
2.412833333333334E+009;1.785979121923447E-001;-6.736373528838158E-003;2.790141385048628E-003;2.473101485520601E-003;
2.413000000000000E+009;1.791962683200836E-001;-9.360753931105137E-003;3.064462216570973E-003;2.262256573885679E-003;
2.413166666666667E+009;1.799138039350510E-001;-1.171201001852751E-002;3.226917004212737E-003;1.970565877854824E-003;
2.413333333333334E+009;1.808708906173706E-001;-1.423125714063644E-002;3.531751222908497E-003;1.982238376513124E-003;
2.413500000000000E+009;1.817549765110016E-001;-1.672432012856007E-002;3.759605344384909E-003;1.501376507803798E-003;
2.413666666666667E+009;1.829816102981567E-001;-1.926600374281406E-002;3.783077234402299E-003;1.308801467530429E-003;
2.413833333333334E+009;1.843116730451584E-001;-2.146138995885849E-002;3.861206118017435E-003;1.068097422830761E-003;
2.414000000000000E+009;1.852383464574814E-001;-2.369656600058079E-002;4.055452067404985E-003;5.440354580059648E-004;
2.414166666666667E+009;1.868583261966705E-001;-2.575365453958511E-002;3.972079139202833E-003;2.490498009137809E-004;
2.414333333333334E+009;1.879851222038269E-001;-2.795941941440105E-002;3.967165481299162E-003;-1.167837181128562E-004;
2.414500000000000E+009;1.895157396793366E-001;-2.945641241967678E-002;3.950036130845547E-003;-4.410190449561924E-004;
2.414666666666667E+009;1.909079849720001E-001;-3.129705414175987E-002;3.834451083093882E-003;-6.448063068091869E-004;
2.414833333333334E+009;1.923068910837174E-001;-3.295107185840607E-002;3.520669648423791E-003;-8.673450211063027E-004;
2.415000000000000E+009;1.936345398426056E-001;-3.439472615718842E-002;3.519744845107198E-003;-1.355549436993897E-003;
2.415166666666667E+009;1.950572580099106E-001;-3.573274239897728E-002;3.270491724833846E-003;-1.394616207107902E-003;
2.415333333333334E+009;1.964988410472870E-001;-3.692518174648285E-002;3.277685726061463E-003;-1.576743787154555E-003;
2.415500000000000E+009;1.979122459888458E-001;-3.780776262283325E-002;3.018532181158662E-003;-1.614114036783576E-003;
2.415666666666667E+009;1.992478072643280E-001;-3.865185379981995E-002;2.919714897871018E-003;-1.744108623825014E-003;
2.415833333333334E+009;2.005113959312439E-001;-3.946837410330772E-002;2.696580719202757E-003;-2.044416731223464E-003;
2.416000000000000E+009;2.015813440084457E-001;-4.006999358534813E-002;2.554388716816902E-003;-2.064481610432267E-003;
2.416166666666667E+009;2.026190012693405E-001;-4.075449332594872E-002;2.254222519695759E-003;-2.171502681449056E-003;
2.416333333333334E+009;2.036402374505997E-001;-4.117114841938019E-002;2.121387049555779E-003;-2.244522795081139E-003;
2.416500000000000E+009;2.043963372707367E-001;-4.147021844983101E-002;2.040045801550150E-003;-2.297545550391078E-003;
2.416666666666667E+009;2.050301581621170E-001;-4.179453477263451E-002;1.836688024923205E-003;-2.263890346512198E-003;
2.416833333333334E+009;2.054014056921005E-001;-4.181872680783272E-002;1.563395257107914E-003;-2.420563949272037E-003;
2.417000000000000E+009;2.057670801877976E-001;-4.190728440880776E-002;1.433767960406840E-003;-2.441361080855131E-003;
2.417166666666667E+009;2.058975845575333E-001;-4.165523871779442E-002;1.229199464432895E-003;-2.306140959262848E-003;
2.417333333333334E+009;2.058152556419373E-001;-4.153596609830856E-002;9.605468367226422E-004;-2.441810676828027E-003;
2.417500000000000E+009;2.059105336666107E-001;-4.147609323263168E-002;7.591994944959879E-004;-2.230385551229119E-003;
2.417666666666667E+009;2.055349498987198E-001;-4.105262458324432E-002;6.259323563426733E-004;-2.216239925473929E-003;
2.417833333333334E+009;2.053450495004654E-001;-4.065963253378868E-002;6.223390810191631E-004;-2.251407597213984E-003;
2.418000000000000E+009;2.048602849245071E-001;-4.025263711810112E-002;5.173609242774546E-004;-2.080067992210388E-003;
2.418166666666667E+009;2.043076604604721E-001;-4.014385119080544E-002;2.640118182171136E-004;-1.932789571583271E-003;
2.418333333333334E+009;2.035636901855469E-001;-3.971266001462936E-002;2.602301246952266E-004;-1.860334887169302E-003;
2.418500000000000E+009;2.026838511228561E-001;-3.956773132085800E-002;1.134665290010162E-004;-1.684475457295775E-003;
2.418666666666667E+009;2.017398476600647E-001;-3.921443596482277E-002;9.709675941849127E-005;-1.757772290147841E-003;
2.418833333333334E+009;2.004778534173966E-001;-3.930284455418587E-002;-5.396066262619570E-005;-1.512035261839628E-003;
2.419000000000000E+009;1.994144618511200E-001;-3.929981216788292E-002;-1.265413447981700E-004;-1.367407501675189E-003;
2.419166666666667E+009;1.980316787958145E-001;-3.940504044294357E-002;-6.869080243632197E-005;-1.331850653514266E-003;
2.419333333333334E+009;1.967651993036270E-001;-3.965200483798981E-002;1.134341073338874E-004;-1.125071546994150E-003;
2.419500000000000E+009;1.951327174901962E-001;-3.991289809346199E-002;-2.085473824990913E-004;-1.071911654435098E-003;
2.419666666666667E+009;1.934794038534164E-001;-4.045116528868675E-002;-1.756285637384281E-004;-9.162426576949656E-004;
2.419833333333334E+009;1.916499733924866E-001;-4.106514900922775E-002;-6.225224933587015E-005;-7.654794026166201E-004;
2.420000000000000E+009;1.900118887424469E-001;-4.177407547831535E-002;-1.429185940651223E-004;-5.451009492389858E-004;
2.420166666666667E+009;1.883560568094254E-001;-4.259434342384338E-002;7.542782441305462E-006;-5.224059568718076E-004;
2.420333333333334E+009;1.865926831960678E-001;-4.350649937987328E-002;1.673193037277088E-004;-4.794986743945628E-004;
2.420500000000000E+009;1.847647130489349E-001;-4.473174363374710E-002;1.404356880811974E-004;-3.006105835083872E-004;
2.420666666666667E+009;1.829003393650055E-001;-4.594920203089714E-002;3.630099818110466E-004;-2.251570404041559E-004;
2.420833333333334E+009;1.810265779495239E-001;-4.740979894995689E-002;4.565461131278426E-004;-2.838623477146030E-004;
2.421000000000000E+009;1.794382780790329E-001;-4.887902364134789E-002;4.703868180513382E-004;-3.048428916372359E-004;
2.421166666666667E+009;1.777616739273071E-001;-5.066338554024696E-002;6.687128334306181E-004;-1.820184406824410E-004;
2.421333333333334E+009;1.759350746870041E-001;-5.220916494727135E-002;8.429650915786624E-004;-2.409909939160571E-004;
2.421500000000000E+009;1.744014918804169E-001;-5.401877313852310E-002;1.004240824840963E-003;-2.007371367653832E-004;
2.421666666666667E+009;1.727217882871628E-001;-5.596057325601578E-002;1.053987885825336E-003;-3.989602846559137E-004;
2.421833333333334E+009;1.715242564678192E-001;-5.800177901983261E-002;1.203674939461052E-003;-3.286613209638745E-004;
2.422000000000000E+009;1.699953228235245E-001;-5.997356027364731E-002;1.411906443536282E-003;-5.352036678232253E-004;
2.422166666666667E+009;1.688718199729919E-001;-6.236746907234192E-002;1.546210376545787E-003;-5.949229816906154E-004;
2.422333333333334E+009;1.677219122648239E-001;-6.450237333774567E-002;1.510350848548114E-003;-6.134334253147245E-004;
2.422500000000000E+009;1.666788011789322E-001;-6.653659045696259E-002;1.458182698115706E-003;-7.845849613659084E-004;
2.422666666666667E+009;1.658053398132324E-001;-6.876415759325028E-002;1.715431222692132E-003;-9.381814743392170E-004;
2.422833333333334E+009;1.652142554521561E-001;-7.111968100070953E-002;1.747833215631545E-003;-1.106215990148485E-003;
2.423000000000000E+009;1.646375656127930E-001;-7.325876504182816E-002;1.607617246918380E-003;-1.145818270742893E-003;
2.423166666666667E+009;1.639691144227982E-001;-7.545433193445206E-002;1.650871010497212E-003;-1.378867775201798E-003;
2.423333333333334E+009;1.636676341295242E-001;-7.786228507757187E-002;1.793928793631494E-003;-1.369363977573812E-003;
2.423500000000000E+009;1.634802967309952E-001;-7.995240390300751E-002;1.617384259589016E-003;-1.530510839074850E-003;
2.423666666666667E+009;1.634627133607864E-001;-8.193594217300415E-002;1.782600302249193E-003;-1.612518681213260E-003;
2.423833333333334E+009;1.634206324815750E-001;-8.397611975669861E-002;1.704870373941958E-003;-1.763873267918825E-003;
2.424000000000000E+009;1.635378748178482E-001;-8.611723035573959E-002;1.516126678325236E-003;-1.836476731114090E-003;
2.424166666666667E+009;1.635297685861588E-001;-8.796345442533493E-002;1.644208561629057E-003;-2.005541231483221E-003;
2.424333333333334E+009;1.638663113117218E-001;-8.982812613248825E-002;1.723434892483056E-003;-2.425563754513860E-003;
2.424500000000000E+009;1.640861630439758E-001;-9.183987975120544E-002;1.749909599311650E-003;-2.489259932190180E-003;
2.424666666666667E+009;1.645221561193466E-001;-9.333574771881104E-002;1.606313395313919E-003;-2.504497300833464E-003;
2.424833333333334E+009;1.651926338672638E-001;-9.481253474950790E-002;1.545300823636353E-003;-2.764535369351506E-003;
2.425000000000000E+009;1.656673848628998E-001;-9.638972580432892E-002;1.501917839050293E-003;-3.061173018068075E-003;
2.425166666666667E+009;1.660963892936707E-001;-9.765255451202393E-002;1.211534952744842E-003;-3.397464985027909E-003;
2.425333333333334E+009;1.666496247053146E-001;-9.877122193574905E-002;1.043644035235047E-003;-3.410088131204248E-003;
2.425500000000000E+009;1.672378927469254E-001;-9.993148595094681E-002;8.797388290986419E-004;-3.566876286640763E-003;
2.425666666666667E+009;1.678234934806824E-001;-1.008912101387978E-001;8.129130583256483E-004;-3.709820797666907E-003;
2.425833333333334E+009;1.682307571172714E-001;-1.017758026719093E-001;4.646237357519567E-004;-3.630694700405002E-003;
2.426000000000000E+009;1.688709855079651E-001;-1.022870764136314E-001;1.172573392977938E-004;-3.849258879199624E-003;
2.426166666666667E+009;1.694673448801041E-001;-1.029650494456291E-001;8.986224565887824E-005;-3.928305581212044E-003;
2.426333333333334E+009;1.697821021080017E-001;-1.036183685064316E-001;-2.366908884141594E-004;-3.932947292923927E-003;
2.426500000000000E+009;1.704663485288620E-001;-1.039137914776802E-001;-3.032074018847197E-004;-3.828573971986771E-003;
2.426666666666667E+009;1.709458678960800E-001;-1.041763424873352E-001;-5.102583672851324E-004;-4.015472717583180E-003;
2.426833333333334E+009;1.714967191219330E-001;-1.045182347297669E-001;-7.676158566027880E-004;-3.967479337006807E-003;
2.427000000000000E+009;1.715424507856369E-001;-1.047086864709854E-001;-9.921365417540073E-004;-3.923343028873205E-003;
2.427166666666667E+009;1.719025522470474E-001;-1.048292219638825E-001;-1.314099761657417E-003;-3.736970480531454E-003;
2.427333333333334E+009;1.720368415117264E-001;-1.049276143312454E-001;-1.462203450500965E-003;-3.859156742691994E-003;
2.427500000000000E+009;1.720641851425171E-001;-1.050328463315964E-001;-1.652666251175106E-003;-3.749529132619500E-003;
2.427666666666667E+009;1.718067228794098E-001;-1.049530059099197E-001;-1.803324441425502E-003;-3.742101369425654E-003;
2.427833333333334E+009;1.716490387916565E-001;-1.049535125494003E-001;-2.006678376346827E-003;-3.609825158491731E-003;
