# Hz S RI R 
2400000000.0000000000 0.162814289331436212737713731258 0.052747823297977447509765625000 -0.003042898140847682952880859375 0.003146148286759852929356240381 0 0 0 0 
2400166666.6666665077 0.162830263376235989669638115629 0.051102615892887122417409528907 -0.003020111937075852914097451318 0.003040953539311885833740234375 0 0 0 0 
2400333333.3333334923 0.162606462836265591720419365629 0.049295824021100997924804687500 -0.003086599521338940100428915869 0.003127177711576222939732216943 0 0 0 0 
2400500000.0000000000 0.162784442305564908126669365629 0.047452878206968307495117187500 -0.002888313727453351020812988281 0.003215129021555184884312295068 0 0 0 0 
2400666666.6666665077 0.162508919835090609451455634371 0.045446380972862236713449846093 -0.002834303304553031921386718750 0.003482452593743801116943359375 0 0 0 0 
2400833333.3333334923 0.162676334381103487869424384371 0.043569162487983696674387346093 -0.002797371475026011900660849463 0.003652181243523954911472939600 0 0 0 0 
2401000000.0000000000 0.162570044398307800292968750000 0.041600108146667480468750000000 -0.002751691732555627822875976562 0.003782508894801139831542968750 0 0 0 0 
2401166666.6666665077 0.162858575582504300216513115629 0.039413694292306900024414062500 -0.002467950806021689934971474756 0.003929192200303077697753906250 0 0 0 0 
2401333333.3333334923 0.162854149937629699707031250000 0.037551976740360260009765625000 -0.002452597487717866897583007812 0.004041733685880899429321289062 0 0 0 0 
2401500000.0000000000 0.163074180483818109710369981258 0.035444635897874832153320312500 -0.002306416165083647207972861182 0.004228880628943443298339843750 0 0 0 0 
2401666666.6666665077 0.163355097174644497970419365629 0.033733528107404708862304687500 -0.002076490083709359169006347656 0.004348320886492729187011718750 0 0 0 0 
2401833333.3333334923 0.163644939661026000976562500000 0.031540028750896446918527971093 -0.001900104223750532107112265479 0.004595560487359762191772460938 0 0 0 0 
2402000000.0000000000 0.163727372884750393966513115629 0.029696172103285789489746093750 -0.001654635416343807957292866284 0.004878683947026729583740234375 0 0 0 0 
2402166666.6666665077 0.164255157113075311858807481258 0.027486551553010940551757812500 -0.001570819178596138954162597656 0.004755330272018910321707441113 0 0 0 0 
2402333333.3333334923 0.164555728435516412933026231258 0.025655057281255718576451485546 -0.001264546299353241920471191406 0.005018747877329587936401367188 0 0 0 0 
2402500000.0000000000 0.165332674980163601974325615629 0.023881845176219940185546875000 -0.001155859557911754088160849463 0.005168990697711706161499023438 0 0 0 0 
2402666666.6666665077 0.165701076388359097579794365629 0.022014139220118519174596016796 -0.000901711464393883943557739258 0.005181747023016214370727539062 0 0 0 0 
2402833333.3333334923 0.166218176484107998946981865629 0.020284259691834449768066406250 -0.000808199460152536630630493164 0.005216526333242654800415039062 0 0 0 0 
2403000000.0000000000 0.167036265134811401367187500000 0.018464222550392150878906250000 -0.000430739572038873975903111591 0.005212689284235239028930664062 0 0 0 0 
2403166666.6666665077 0.167678818106651306152343750000 0.016952464357018470764160156250 -0.000156539666932076188638964243 0.005170486867427825927734375000 0 0 0 0 
2403333333.3333334923 0.168210431933402987381143134371 0.015575731173157690220842930273 0.000154072331497445702552795410 0.005205460824072360992431640625 0 0 0 0 
2403500000.0000000000 0.168957397341728210449218750000 0.013986692763864990579625313671 0.000402162200771272182464599609 0.005271123722195625305175781250 0 0 0 0 
2403666666.6666665077 0.169918119907379205901776231258 0.012337903492152689152727695898 0.000721179589163511991500854492 0.005315644666552543640136718750 0 0 0 0 
2403833333.3333334923 0.170820802450180109222088731258 0.011093729175627229863176914648 0.001004379242658614895464253003 0.005090159364044666290283203125 0 0 0 0 
2404000000.0000000000 0.171416819095611600021200615629 0.010050055570900440216064453125 0.001301534706726670048357319409 0.005151566118001937866210937500 0 0 0 0 
2404166666.6666665077 0.172322422266006497482138115629 0.008778080344200134277343750000 0.001476007397286593914031982422 0.004946177825331687927246093750 0 0 0 0 
2404333333.3333334923 0.173028483986854608733807481258 0.007628507446497678756713867188 0.001646411605179310061811137622 0.004791109357029199600219726562 0 0 0 0 
2404500000.0000000000 0.173744022846221896072549384371 0.006459520198404788970947265625 0.001956987427547574043273925781 0.004804496653378009796142578125 0 0 0 0 
2404666666.6666665077 0.174519121646881103515625000000 0.005666659213602542877197265625 0.002166197635233401818516396631 0.004756601061671972274780273438 0 0 0 0 
2404833333.3333334923 0.175482392311096191406250000000 0.004843834787607192993164062500 0.002350681927055120901820517432 0.004435759503394365310668945312 0 0 0 0 
2405000000.0000000000 0.176060989499092102050781250000 0.003931560087949038419241620801 0.002605280838906764984130859375 0.004311587661504746350760175488 0 0 0 0 
2405166666.6666665077 0.176791787147522000411825615629 0.003425489179790019989013671875 0.002693801652640103860142373193 0.004099348094314336776733398438 0 0 0 0 
2405333333.3333334923 0.177492260932922391036825615629 0.002392858266830443902256631006 0.003072976833209394974949502100 0.003934985492378473281860351562 0 0 0 0 
2405500000.0000000000 0.178120166063308688064736884371 0.002283870242536067962646484375 0.003273108275607227845432900537 0.003833014750853180885314941406 0 0 0 0 
2405666666.6666665077 0.178520768880844088455361884371 0.001672536949627100987675332178 0.003283706959336996078491210938 0.003909427206963300704956054688 0 0 0 0 
2405833333.3333334923 0.178944334387779208084268134371 0.001333037507720292048213339697 0.003440823638811707930323935400 0.003494967939332128004786826025 0 0 0 0 
2406000000.0000000000 0.179388135671615600585937500000 0.000678892422001808881759643555 0.003535445313900709152221679688 0.003200556850060821013209677588 0 0 0 0 
2406166666.6666665077 0.179803326725959805587606865629 0.000643190927803516387939453125 0.003693256294354795975926064600 0.002966137835755943818333291162 0 0 0 0 
2406333333.3333334923 0.180336028337478609939736884371 0.000130999178509227904394426889 0.003681587986648083166835165869 0.002758550457656383948085165869 0 0 0 0 
2406500000.0000000000 0.180449068546295193771200615629 -0.000108457483293023001082004686 0.003788748756051063971278525244 0.002609344664961100058314658057 0 0 0 0 
2406666666.6666665077 0.180419877171516390701455634371 -0.000482787698274478316307067871 0.003904069075360894203186035156 0.002225696109235287146327353369 0 0 0 0 
2406833333.3333334923 0.180753692984580993652343750000 -0.000798060267698019742965698242 0.004057901911437510576730058887 0.001841573510318994955775595557 0 0 0 0 
2407000000.0000000000 0.180691540241241510589276231258 -0.001206298009492456912994384766 0.004121242091059684753417968750 0.001817415584810077927233051831 0 0 0 0 
2407166666.6666665077 0.180843383073806790450888115629 -0.001422128174453973986982036060 0.003953821957111358642578125000 0.001823169644922018051147460938 0 0 0 0 
2407333333.3333334923 0.180470213294029208084268134371 -0.001811061636544764041900634766 0.004027561284601688385009765625 0.001518763485364615917205810547 0 0 0 0 
2407500000.0000000000 0.180265903472900390625000000000 -0.002015234204009174866917275537 0.004098671954125165939331054688 0.001235549221746623949763632666 0 0 0 0 
2407666666.6666665077 0.180073156952857998946981865629 -0.002441748278215527968165732275 0.004080142825841903686523437500 0.001190148410387336990953754956 0 0 0 0 
2407833333.3333334923 0.179673090577125604827557481258 -0.002904269145801662965061806787 0.003988375421613454818725585938 0.000845744274556636810302734375 0 0 0 0 
2408000000.0000000000 0.179385155439376803299111884371 -0.003545189509168266816380166162 0.003967570606619119644165039062 0.000758398848120123147964477539 0 0 0 0 
2408166666.6666665077 0.178768277168273898025674384371 -0.003983009606599807739257812500 0.003907178062945604324340820312 0.000507393677253276109695434570 0 0 0 0 
2408333333.3333334923 0.178389877080917386154013115629 -0.004583533853292465209960937500 0.003925375174731016159057617188 0.000189720827620476511403760367 0 0 0 0 
2408500000.0000000000 0.177763089537620488922442518742 -0.005283955950289964675903320312 0.003822219790890812873840332031 0.000054107495088828727602958679 0 0 0 0 
2408666666.6666665077 0.177204266190528897384481865629 -0.006109173875302076339721679688 0.003739003557711840109584189307 -0.000032944200938800349831581116 0 0 0 0 
2408833333.3333334923 0.176395505666732788085937500000 -0.006921664346009492874145507812 0.003657594555988907814025878906 -0.000259800290223211104243677960 0 0 0 0 
2409000000.0000000000 0.175720557570457486251669365629 -0.007903903722763061523437500000 0.003523976309224963188171386719 -0.000318387930747121626704615460 0 0 0 0 
2409166666.6666665077 0.175001919269561795333700615629 -0.008731065317988395690917968750 0.003447278635576366944553994287 -0.000601771462243050336837768555 0 0 0 0 
2409333333.3333334923 0.174368530511856106857138115629 -0.009874477982521057128906250000 0.003239711746573448181152343750 -0.000718117866199463605880737305 0 0 0 0 
2409500000.0000000000 0.173537269234657287597656250000 -0.011376150883734229696253592579 0.003253456437960267066955566406 -0.000762457784730941057205200195 0 0 0 0 
2409666666.6666665077 0.172650158405304010589276231258 -0.012453344650566579646100429102 0.003013415494933723969700478662 -0.000791924481745809316635131836 0 0 0 0 
2409833333.3333334923 0.171901345252990694900674384371 -0.013726628385484220332135585352 0.002915742807090282006504677881 -0.000867255206685513257980346680 0 0 0 0 
2410000000.0000000000 0.171181082725524902343750000000 -0.015179652720689770090123360546 0.002718633273616433143615722656 -0.000919411540962755680084228516 0 0 0 0 
2410166666.6666665077 0.170504987239837701995526231258 -0.016682242974638938903808593750 0.002689017448574305014369345557 -0.000927045126445591449737548828 0 0 0 0 
2410333333.3333334923 0.169859990477562006194744981258 -0.018141888082027438772181326954 0.002653498435392975807189941406 -0.001012601424008608081220317310 0 0 0 0 
2410500000.0000000000 0.169188857078552301604901231258 -0.019701549783349040639857108204 0.002682348014786839918849326025 -0.001229068613611161925672221606 0 0 0 0 
2410666666.6666665077 0.168571814894676208496093750000 -0.021511616185307499277135079296 0.002558305161073803901672363281 -0.001356040360406040928484272534 0 0 0 0 
2410833333.3333334923 0.168150722980499295333700615629 -0.023120943456888198852539062500 0.002380717778578401045558310400 -0.001231647329404949925066303784 0 0 0 0 
2411000000.0000000000 0.167459756135940607268963731258 -0.024884328246116641653040701954 0.002259706845507026152369833838 -0.001289264764636754989624023438 0 0 0 0 
2411166666.6666665077 0.167041182518005398849325615629 -0.026790024712681770324707031250 0.002148721134290099143981933594 -0.001402099500410258986829448169 0 0 0 0 
2411333333.3333334923 0.166525721549987792968750000000 -0.028609186410903930664062500000 0.002085215644910932020900107275 -0.001395850209519267082214355469 0 0 0 0 
2411500000.0000000000 0.166383519768714904785156250000 -0.030706707388162609445592110546 0.002088302746415137810948037256 -0.001200533355586230971692729419 0 0 0 0 
2411666666.6666665077 0.166182145476341303069744981258 -0.032625429332256317138671875000 0.002055468969047069983241415869 -0.001415725680999458052991557544 0 0 0 0 
2411833333.3333334923 0.166114345192909212967080634371 -0.034409396350383758544921875000 0.001958639360964297814610146631 -0.001275367452763020992279052734 0 0 0 0 
2412000000.0000000000 0.165764674544334411621093750000 -0.036486163735389709472656250000 0.001852100482210516929626464844 -0.001416725106537342071533203125 0 0 0 0 
2412166666.6666665077 0.165892064571380587478799384371 -0.038344539701938629150390625000 0.001892338157631457068799663013 -0.001550938584841788031934428638 0 0 0 0 
2412333333.3333334923 0.165977880358696011642294365629 -0.040461171418428421020507812500 0.001903358148410915894749306787 -0.001588294398970901966094970703 0 0 0 0 
2412500000.0000000000 0.165869742631912203689736884371 -0.042252365499734878540039062500 0.001910867285914719104766845703 -0.001603128039278090000152587891 0 0 0 0 
2412666666.6666665077 0.166154772043228204925213731258 -0.044294804334640502929687500000 0.001655791886150836944580078125 -0.001655154861509799957275390625 0 0 0 0 
2412833333.3333334923 0.166455596685409601409588731258 -0.046126514673233032226562500000 0.001650385558605194091796875000 -0.001729368232190608978271484375 0 0 0 0 
2413000000.0000000000 0.166501134634017888824786268742 -0.047936338931322097778320312500 0.001639399677515029907226562500 -0.001664727227762341933009482275 0 0 0 0 
2413166666.6666665077 0.166772320866584805587606865629 -0.049956716597080230712890625000 0.001526445732451974911930703271 -0.001808331697247921986820839990 0 0 0 0 
2413333333.3333334923 0.167264536023140009124432481258 -0.051497682929039001464843750000 0.001427918090485035939457558740 -0.001978549873456358909606933594 0 0 0 0 
2413500000.0000000000 0.167771428823471097091513115629 -0.053184423595666892314870466407 0.001349573256447911045671772534 -0.001939010457135736942291259766 0 0 0 0 
2413666666.6666665077 0.167997017502784701248330634371 -0.054719261825084693218190778907 0.001110337907448410987854003906 -0.001919901347719132900238037109 0 0 0 0 
2413833333.3333334923 0.168414533138275201995526231258 -0.056333553045988082885742187500 0.001158387865871191024780273438 -0.001995421713218092918395996094 0 0 0 0 
2414000000.0000000000 0.168840199708938598632812500000 -0.058003764599561691284179687500 0.000933112110942602157592773438 -0.002063113264739512963535927881 0 0 0 0 
2414166666.6666665077 0.169422596693038912674111884371 -0.059079892933368682861328125000 0.000941763282753527164459228516 -0.002200913382694125175476074219 0 0 0 0 
2414333333.3333334923 0.169936254620552090743856865629 -0.060446627438068389892578125000 0.000684136117342859506607055664 -0.002173731802031397819519042969 0 0 0 0 
2414500000.0000000000 0.170542895793914794921875000000 -0.061710368841886520385742187500 0.000510976533405482769012451172 -0.002117013325914740996119833838 0 0 0 0 
2414666666.6666665077 0.170867189764976501464843750000 -0.062815412878990173339843750000 0.000519066816195845603942871094 -0.002097558230161666870117187500 0 0 0 0 
2414833333.3333334923 0.171302497386932400802450615629 -0.063936725258827209472656250000 0.000389439956052228808403015137 -0.002133033005520700974705361475 0 0 0 0 
2415000000.0000000000 0.171602770686149597167968750000 -0.064696408808231353759765625000 0.000284677138552069718211573468 -0.002246649703010917143580771338 0 0 0 0 
2415166666.6666665077 0.172126755118370111663494981258 -0.065644770860671997070312500000 0.000123233970953151610776624136 -0.002199362497776747183558798682 0 0 0 0 
2415333333.3333334923 0.172657608985900906661825615629 -0.066346257925033569335937500000 -0.000002836880639733863063156605 -0.002142562530934811072108603369 0 0 0 0 
2415500000.0000000000 0.172994956374168395996093750000 -0.066961236298084259033203125000 -0.000147920509334653588846483774 -0.002069201786071062088012695312 0 0 0 0 
2415666666.6666665077 0.173238396644592312911825615629 -0.067584745585918426513671875000 -0.000314796314341947382122594012 -0.001842858851887285926221538013 0 0 0 0 
2415833333.3333334923 0.173463001847267206390057481258 -0.068179935216903686523437500000 -0.000472332176286727190017700195 -0.001894279266707598946214985425 0 0 0 0 
2416000000.0000000000 0.173511162400245694259481865629 -0.068560414016246795654296875000 -0.000364857958629727417796534406 -0.001964679220691322846653603662 0 0 0 0 
2416166666.6666665077 0.173837304115295410156250000000 -0.068959943950176239013671875000 -0.000386915926355868577957153320 -0.001717579900287091948865580981 0 0 0 0 
2416333333.3333334923 0.173776805400848388671875000000 -0.069330066442489624023437500000 -0.000707241182681173086166381836 -0.001735585858114063956617045825 0 0 0 0 
2416500000.0000000000 0.173753395676612909515057481258 -0.069703973829746246337890625000 -0.000736688321921974420547485352 -0.001673460938036442019818950122 0 0 0 0 
2416666666.6666665077 0.173492655158042907714843750000 -0.069845907390117645263671875000 -0.000938926765229552984237670898 -0.001635121298022568009020161206 0 0 0 0 
2416833333.3333334923 0.173400372266769409179687500000 -0.070181272923946380615234375000 -0.000831732642836868762969970703 -0.001465088804252445914624858325 0 0 0 0 
2417000000.0000000000 0.172881335020065307617187500000 -0.070249259471893310546875000000 -0.000821267312858253717422485352 -0.001486052060499786896946572412 0 0 0 0 
2417166666.6666665077 0.172456860542297391036825615629 -0.070472568273544311523437500000 -0.000964592385571449995040893555 -0.001334013766609132073046040112 0 0 0 0 
2417333333.3333334923 0.172010302543640108963174384371 -0.070535615086555480957031250000 -0.001145174028351902961730957031 -0.001141724060289561965345073169 0 0 0 0 
2417500000.0000000000 0.171443700790405301193075615629 -0.070895612239837646484375000000 -0.001151275588199496052385639722 -0.001057001296430825970293354565 0 0 0 0 
2417666666.6666665077 0.170851379632949801345986884371 -0.070971593260765075683593750000 -0.001202013459987937970402382959 -0.000868221512064337730407714844 0 0 0 0 
2417833333.3333334923 0.170159742236137390136718750000 -0.071118175983428955078125000000 -0.001243105507455765984178852612 -0.000856064027175307273864746094 0 0 0 0 
2418000000.0000000000 0.169110149145126287262286268742 -0.071493394672870635986328125000 -0.001285972073674201965332031250 -0.000612644653301686048507690430 0 0 0 0 
2418166666.6666665077 0.168156713247299194335937500000 -0.071523152291774749755859375000 -0.001317827147431672053096152197 -0.000633069081231951713562011719 0 0 0 0 
2418333333.3333334923 0.167531311511993408203125000000 -0.071886092424392700195312500000 -0.001255181035958230929133749854 -0.000423441175371408516734522687 0 0 0 0 
2418500000.0000000000 0.166327372193336486816406250000 -0.072216227650642395019531250000 -0.001397198531776667074916220557 -0.000312738498905673623085021973 0 0 0 0 
2418666666.6666665077 0.165331974625587491134481865629 -0.072533003985881805419921875000 -0.001330221421085298061370849609 -0.000216810920392163097858428955 0 0 0 0 
2418833333.3333334923 0.164123564958572387695312500000 -0.073035396635532379150390625000 -0.001336379325948656038997031104 -0.000103582540759816806442798753 0 0 0 0 
2419000000.0000000000 0.162810459733009310623330634371 -0.073472805321216583251953125000 -0.001190474489703775102730776148 -0.000052640094509115442633628845 0 0 0 0 
2419166666.6666665077 0.161612614989280700683593750000 -0.074048601090908050537109375000 -0.001182876061648129983189248193 -0.000019338762285769920458997420 0 0 0 0 
2419333333.3333334923 0.160143405199050903320312500000 -0.074307642877101898193359375000 -0.001171556417830287976505898584 0.000309731374727562124102991925 0 0 0 0 
2419500000.0000000000 0.159065514802932711502236884371 -0.075250089168548583984375000000 -0.000993646215647459030151367188 0.000387308624340221285820007324 0 0 0 0 
2419666666.6666665077 0.157941192388534601409588731258 -0.076110534369945526123046875000 -0.001055466243997216007829975659 0.000527633354067802429199218750 0 0 0 0 
2419833333.3333334923 0.156532824039459200760049384371 -0.076787069439888000488281250000 -0.000992592074908316135406494141 0.000721200893167406320571899414 0 0 0 0 
