# Hz S RI R 50
2400000000.0000000000 0.162832647562027005294638115629 0.052768260240554809570312500000 -0.002695207949727774100062704932 0.003246556036174296899082802881 0 0 0 0 
2400166666.6666665077 0.162707820534706087967080634371 0.051128439605236053466796875000 -0.002638246864080429077148437500 0.003200666513293981985804892432 0 0 0 0 
2400333333.3333334923 0.162558004260063199142294365629 0.049339059740304946899414062500 -0.002631086623296142058131552588 0.003430596785619854927062988281 0 0 0 0 
2400500000.0000000000 0.162624016404151888748330634371 0.047301169484853751445729841407 -0.002648697001859546141383505713 0.003589386818930507139918661963 0 0 0 0 
2400666666.6666665077 0.162610575556755093673544365629 0.045591387897729866718332658593 -0.002557843457907437844517373193 0.003749175928533076806309365381 0 0 0 0 
2400833333.3333334923 0.162639349699020413497763115629 0.043729603290557861328125000000 -0.002432396402582526206970214844 0.003880431875586510138270712744 0 0 0 0 
2401000000.0000000000 0.162615269422531100174111884371 0.041581545025110251689870466407 -0.002349360380321741104125976562 0.004093901254236698150634765625 0 0 0 0 
2401166666.6666665077 0.162798032164573697189169365629 0.039454605430364608764648437500 -0.002261878224089742140529013525 0.004100839607417584332937909863 0 0 0 0 
2401333333.3333334923 0.162710279226303100585937500000 0.037448894232511520385742187500 -0.002194979926571249961853027344 0.004355045966804028424734784863 0 0 0 0 
2401500000.0000000000 0.163029477000236511230468750000 0.035629242658615112304687500000 -0.001893523149192333004595112378 0.004331532400101423263549804688 0 0 0 0 
2401666666.6666665077 0.163339078426361111739950615629 0.033527247607707977294921875000 -0.001646388438530266068102192456 0.004565855488181114196777343750 0 0 0 0 
2401833333.3333334923 0.163614183664321899414062500000 0.031555548310279853130300153907 -0.001664512790739536068559956128 0.004680719226598739624023437500 0 0 0 0 
2402000000.0000000000 0.163766682147979708572549384371 0.029665106907486919057825858204 -0.001350260456092656092402792822 0.004927823785692453384399414062 0 0 0 0 
2402166666.6666665077 0.164230078458786010742187500000 0.027510000392794609069824218750 -0.001182186650112271092058491284 0.005067321471869946393484784863 0 0 0 0 
2402333333.3333334923 0.164556980133056612869424384371 0.025830095633864399301549141796 -0.000933989300392568111419677734 0.005002656485885381698608398438 0 0 0 0 
2402500000.0000000000 0.165390044450759887695312500000 0.023736180737614631652832031250 -0.000692353874910622835159301758 0.005080189555883407592773437500 0 0 0 0 
2402666666.6666665077 0.165875822305679293533486884371 0.022168556228280070913294608204 -0.000378043798264116103022974835 0.005093048792332410812377929688 0 0 0 0 
2402833333.3333334923 0.166286498308181790450888115629 0.020299606025218960153599923046 -0.000094853472546674311161041260 0.005158488173037767410278320312 0 0 0 0 
2403000000.0000000000 0.167013362050056513030682481258 0.018671089783310890197753906250 0.000267229042947292273670750751 0.005132933612912893295288085938 0 0 0 0 
2403166666.6666665077 0.167544305324554387848223768742 0.017095090821385380136510079296 0.000443745695520192384719848633 0.005375561770051717758178710938 0 0 0 0 
2403333333.3333334923 0.168659135699272211272869981258 0.015577087178826330357561680273 0.000562531815376132726669311523 0.005259833764284849166870117188 0 0 0 0 
2403500000.0000000000 0.169131219387054387848223768742 0.014102562330663200723668282421 0.000877038575708866119384765625 0.005246215499937534332275390625 0 0 0 0 
2403666666.6666665077 0.169829443097114590743856865629 0.012513609603047369175921055273 0.001206116634421050982234335791 0.005007418338209390640258789062 0 0 0 0 
2403833333.3333334923 0.170816317200660705566406250000 0.011189049109816549473772617773 0.001391228986904025077819824219 0.005133733153343200683593750000 0 0 0 0 
2404000000.0000000000 0.171602532267570495605468750000 0.009962525218725204467773437500 0.001678513130173086903215717847 0.004914033692330121994018554688 0 0 0 0 
2404166666.6666665077 0.172352761030197088043536268742 0.008828056976199150085449218750 0.001833365182392298958422016675 0.004848098848015069961547851562 0 0 0 0 
2404333333.3333334923 0.173073545098304804046307481258 0.007682351395487785339355468750 0.002096617594361304803135537256 0.004882956389337778091430664062 0 0 0 0 
2404500000.0000000000 0.173868894577026394943075615629 0.006600603461265563964843750000 0.002276201266795396804809570312 0.004671140108257532119750976562 0 0 0 0 
2404666666.6666665077 0.174514710903167696853799384371 0.005616992246359586715698242188 0.002566391602158546014073037256 0.004523415584117174148559570312 0 0 0 0 
2404833333.3333334923 0.175436541438102694412393134371 0.004857667256146669387817382812 0.002670771442353724999668740381 0.004370778799057006835937500000 0 0 0 0 
2405000000.0000000000 0.176243036985397311111611884371 0.003984319046139717102050781250 0.003029265906661748886108398438 0.004212080501019954681396484375 0 0 0 0 
2405166666.6666665077 0.176781803369522094726562500000 0.003255608258768916130065917969 0.003285351209342480139491415869 0.004042886197566986083984375000 0 0 0 0 
2405333333.3333334923 0.177439957857132013518963731258 0.002579647116363048987147665869 0.003387480974197388128993368994 0.003802070394158362908604287256 0 0 0 0 
2405500000.0000000000 0.178152412176132202148437500000 0.002030941192060708999633789062 0.003641414688900113105773925781 0.003607548773288726806640625000 0 0 0 0 
2405666666.6666665077 0.178702607750892611404580634371 0.001724725356325506947161030347 0.003798836376518011093139648438 0.003253576578572392897364951025 0 0 0 0 
2405833333.3333334923 0.179048314690589904785156250000 0.001291044056415558078168559497 0.003799038240686058998107910156 0.003120714798569678826573037256 0 0 0 0 
2406000000.0000000000 0.179608151316642788986044365629 0.000640718499198555946350097656 0.003968015313148499402517987988 0.002735249232500791983363486182 0 0 0 0 
2406166666.6666665077 0.179831311106681795974893134371 0.000496703025419265031814575195 0.004147665575146675109863281250 0.002701081102713942961451865088 0 0 0 0 
2406333333.3333334923 0.180408552289009094238281250000 0.000183906478923745507567805157 0.004008969757705926895141601562 0.002494844608008861975428915869 0 0 0 0 
2406500000.0000000000 0.180510953068733187576455634371 -0.000200959388166666003778734750 0.004282362293452025327200605176 0.002171790227293968200683593750 0 0 0 0 
2406666666.6666665077 0.180479794740676907638388115629 -0.000328655965859070420265197754 0.004108346067368984222412109375 0.001898124115541576905491494287 0 0 0 0 
2406833333.3333334923 0.180659502744674710372763115629 -0.000753370404709130525588989258 0.004189708735793828964233398438 0.001668578712269664027570414966 0 0 0 0 
2407000000.0000000000 0.180743455886840792556924384371 -0.001103015732951462051988911206 0.004374745767563582334036542676 0.001509202062152326107025146484 0 0 0 0 
2407166666.6666665077 0.180826216936111505706463731258 -0.001345278928056359074236225659 0.004390032961964607238769531250 0.001374745159409940025926899487 0 0 0 0 
2407333333.3333334923 0.180554196238517788986044365629 -0.001706205657683312892913818359 0.004290405660867691040039062500 0.001085705473087728023529052734 0 0 0 0 
2407500000.0000000000 0.180250868201255798339843750000 -0.001893501263111829974530864185 0.004386970307677984237670898438 0.000850710785016417503356933594 0 0 0 0 
2407666666.6666665077 0.180154353380203302581463731258 -0.002412791363894938988926552881 0.004249542951583862304687500000 0.000712985347490757703781127930 0 0 0 0 
2407833333.3333334923 0.179671972990036010742187500000 -0.002974074799567461013793945312 0.004230779595673084259033203125 0.000520181958563625812530517578 0 0 0 0 
2408000000.0000000000 0.179193496704101590255575615629 -0.003509638831019401983973837744 0.004057556390762329101562500000 0.000167716643773019286707201547 0 0 0 0 
2408166666.6666665077 0.178825557231903103927450615629 -0.003850692417472600936889648438 0.004082210827618837356567382812 0.000090475252363830804824829102 0 0 0 0 
2408333333.3333334923 0.178311020135879488845986884371 -0.004464327357709407806396484375 0.004063469823449850082397460938 -0.000244417256908491308062952863 0 0 0 0 
2408500000.0000000000 0.177709296345710809905682481258 -0.005277726799249649047851562500 0.003847966203466058211085654150 -0.000456118461443111300468444824 0 0 0 0 
2408666666.6666665077 0.177048638463020296951455634371 -0.006098154466599225997924804688 0.003771225223317741914036416162 -0.000493021740112453699111938477 0 0 0 0 
2408833333.3333334923 0.176213517785072298904580634371 -0.007030729204416275024414062500 0.003613856621086597008946084131 -0.000619952334091067314147949219 0 0 0 0 
2409000000.0000000000 0.175509482622146606445312500000 -0.007808575406670570373535156250 0.003614333691075443787815713037 -0.000631310278549790382385253906 0 0 0 0 
2409166666.6666665077 0.174931034445762606521768134371 -0.008900881744921207427978515625 0.003482951549813150925877236475 -0.000992139801383018493652343750 0 0 0 0 
2409333333.3333334923 0.174426853656768798828125000000 -0.009869000874459743499755859375 0.003517136676236987113952636719 -0.000898892409168183803558349609 0 0 0 0 
2409500000.0000000000 0.173554554581642206390057481258 -0.011107481084764000284215157421 0.003256669500842690901515341650 -0.001126568182371556975721049731 0 0 0 0 
2409666666.6666665077 0.172699034214019803146200615629 -0.012431181035935880488385585352 0.003116032108664513067958212744 -0.001171462237834929986241006006 0 0 0 0 
2409833333.3333334923 0.171888262033462496658486884371 -0.013569759204983709507952305273 0.002960551995784043832066201318 -0.001285249134525656916974711841 0 0 0 0 
2410000000.0000000000 0.171275317668914794921875000000 -0.014966709539294239389439766796 0.002838888904079794883728027344 -0.001330937142483890056610107422 0 0 0 0 
2410166666.6666665077 0.170637980103492709060830634371 -0.016587004065513610839843750000 0.002703980542719364166259765625 -0.001347861485555768013000488281 0 0 0 0 
2410333333.3333334923 0.169850498437881497482138115629 -0.017965268343687060964564139454 0.002670807065442204909083701025 -0.001532447175122797922847128760 0 0 0 0 
2410500000.0000000000 0.169060930609703091720419365629 -0.019677057862281799316406250000 0.002471411367878317832946777344 -0.001622512587346137003657675635 0 0 0 0 
2410666666.6666665077 0.168600276112556513030682481258 -0.021438661962747570383092110546 0.002397611504420638084411621094 -0.001606390229426323933842324365 0 0 0 0 
2410833333.3333334923 0.168013155460357693771200615629 -0.023221202194690700876256173046 0.002352944342419505119323730469 -0.001577088027261198000666952979 0 0 0 0 
2411000000.0000000000 0.167485877871513394454794365629 -0.024840449914336211467702497657 0.002269388874992727799656533350 -0.001536615774966775937321328271 0 0 0 0 
2411166666.6666665077 0.167186066508293207366619981258 -0.026803538203239440917968750000 0.002029716968536376953125000000 -0.001669781631790101961848593604 0 0 0 0 
2411333333.3333334923 0.166766300797462491134481865629 -0.028755281120538711547851562500 0.001992998179048299789428710938 -0.001694269827567040920257568359 0 0 0 0 
2411500000.0000000000 0.166435465216636713225994981258 -0.030688244849443439138392264454 0.001996290637180209159851074219 -0.001832128851674496910692524487 0 0 0 0 
2411666666.6666665077 0.166277647018432589431924384371 -0.032570574432611472392995466407 0.001820774632506072954890585791 -0.001703169546090065999272011865 0 0 0 0 
2411833333.3333334923 0.165911555290222195724325615629 -0.034470193088054656982421875000 0.001762622618116437955143593896 -0.001719595864415168979047465747 0 0 0 0 
2412000000.0000000000 0.165905490517616299728231865629 -0.036456033587455749511718750000 0.001821603393182158903834677588 -0.001827465719543396992924355615 0 0 0 0 
2412166666.6666665077 0.165631547570228604415731865629 -0.038457207381725311279296875000 0.001775671727955340905430459131 -0.001821408164687454917310405200 0 0 0 0 
2412333333.3333334923 0.165966093540191705901776231258 -0.040317211300134658813476562500 0.001553255831822752952575683594 -0.001721001579426229000091552734 0 0 0 0 
2412500000.0000000000 0.166040554642677307128906250000 -0.042317800223827362060546875000 0.001630976097658276991603232275 -0.001895446446724236011505126953 0 0 0 0 
2412666666.6666665077 0.166121467947959899902343750000 -0.044195011258125312114675153907 0.001382216927595437006709433447 -0.001795913442038000063655234229 0 0 0 0 
2412833333.3333334923 0.166415810585022000411825615629 -0.046148415654897689819335937500 0.001461318228393793106079101562 -0.001870498410426080010057758862 0 0 0 0 
2413000000.0000000000 0.166711747646331787109375000000 -0.047944098711013787006418596093 0.001390721066854893944383930737 -0.002091699047014116807224892725 0 0 0 0 
2413166666.6666665077 0.166944891214370699783486884371 -0.049638465046882629394531250000 0.001190351089462637901306152344 -0.002250111196190118789672851562 0 0 0 0 
2413333333.3333334923 0.167137816548347500900106865629 -0.051548700779676437377929687500 0.001174709061160684065577841650 -0.002163369208574295043945312500 0 0 0 0 
2413500000.0000000000 0.167455509305000305175781250000 -0.053150180727243423461914062500 0.001047423691488801999333047021 -0.002131601097062230110168457031 0 0 0 0 
2413666666.6666665077 0.167978242039680508712606865629 -0.054683484137058258056640625000 0.001005372032523154995561909253 -0.002167150611057877974269247900 0 0 0 0 
2413833333.3333334923 0.168546825647354098220986884371 -0.056351095438003540039062500000 0.000943834718782454729080200195 -0.002336293226107954978942871094 0 0 0 0 
2414000000.0000000000 0.168871775269508389571981865629 -0.057798821479082107543945312500 0.000797437503933906555175781250 -0.002383357845246791839599609375 0 0 0 0 
2414166666.6666665077 0.169341757893562289138955634371 -0.059175334870815277099609375000 0.000633691903203725814819335938 -0.002275734674185514883754111182 0 0 0 0 
2414333333.3333334923 0.169730812311172513107138115629 -0.060476854443550109863281250000 0.000418904557591304183006286621 -0.002348965499550104141235351562 0 0 0 0 
2414500000.0000000000 0.170585870742797907073651231258 -0.061529591679573059082031250000 0.000419172720285132473141270770 -0.002323454013094305992126464844 0 0 0 0 
2414666666.6666665077 0.170876041054725702483807481258 -0.062638908624649047851562500000 0.000138763585709966692045488901 -0.002387394662946463064906454932 0 0 0 0 
2414833333.3333334923 0.171377420425415011306924384371 -0.063881039619445800781250000000 0.000196851935470476800769251691 -0.002309346571564673943760537256 0 0 0 0 
2415000000.0000000000 0.171742752194404602050781250000 -0.064670696854591369628906250000 0.000049239177315030246973037720 -0.002294493373483418984654091943 0 0 0 0 
2415166666.6666665077 0.172174006700515802581463731258 -0.065436273813247680664062500000 -0.000107887797639705200068889479 -0.002181469462811946868896484375 0 0 0 0 
2415333333.3333334923 0.172604918479919405838174384371 -0.066211201250553131103515625000 -0.000392381945857778191566467285 -0.002100487938150763945338583838 0 0 0 0 
2415500000.0000000000 0.172919929027557400802450615629 -0.066928856074810028076171875000 -0.000254359823884442502826136456 -0.002046756912022829055786132812 0 0 0 0 
2415666666.6666665077 0.173127651214599609375000000000 -0.067528337240219116210937500000 -0.000391857291106134707301539288 -0.002172723179683088822605752100 0 0 0 0 
2415833333.3333334923 0.173398196697235107421875000000 -0.068006560206413269042968750000 -0.000555805687326937913894653320 -0.002030829899013042016270302881 0 0 0 0 
2416000000.0000000000 0.173592165112495394607705634371 -0.068476937711238861083984375000 -0.000795613392256200313568115234 -0.001937649096362292983411479419 0 0 0 0 
2416166666.6666665077 0.173754408955574007888955634371 -0.068891182541847229003906250000 -0.000778501329477876424789428711 -0.001784097054041922092437744141 0 0 0 0 
2416333333.3333334923 0.173760846257209805587606865629 -0.069315277040004730224609375000 -0.000817022053524851799011230469 -0.001789783244021236896514892578 0 0 0 0 
2416500000.0000000000 0.173613712191581698318643134371 -0.069601632654666900634765625000 -0.000856949423905462026596069336 -0.001759049249812961058375693213 0 0 0 0 
2416666666.6666665077 0.173440992832183810135049384371 -0.069710128009319305419921875000 -0.001047248602844774939893413013 -0.001653491170145571015001606519 0 0 0 0 
2416833333.3333334923 0.173370465636253412444744981258 -0.070046350359916687011718750000 -0.001038159709423780007603310693 -0.001674977014772593975067138672 0 0 0 0 
2417000000.0000000000 0.172808587551116887848223768742 -0.070172041654586791992187500000 -0.001236666343174874999402690356 -0.001438952866010368087171245044 0 0 0 0 
2417166666.6666665077 0.172417044639587402343750000000 -0.070331744849681854248046875000 -0.001218307879753411033033061450 -0.001587074599228798909428261865 0 0 0 0 
2417333333.3333334923 0.172056630253791809082031250000 -0.070375911891460418701171875000 -0.001316867535933851978899311597 -0.001154330559074878909467387622 0 0 0 0 
2417500000.0000000000 0.171444132924079895019531250000 -0.070809580385684967041015625000 -0.001307765371166170077082968604 -0.001156672253273427920100546729 0 0 0 0 
2417666666.6666665077 0.170920863747596712967080634371 -0.070686832070350646972656250000 -0.001396274659782648086547851562 -0.001162590342573821978328085791 0 0 0 0 
2417833333.3333334923 0.170116171240806607345419365629 -0.070974454283714294433593750000 -0.001546079176478087902069091797 -0.000934323295950889587402343750 0 0 0 0 
2418000000.0000000000 0.169205501675605801681356865629 -0.071278840303421020507812500000 -0.001625177799724041981938027490 -0.000910272065084427595138549805 0 0 0 0 
2418166666.6666665077 0.168280318379402188400106865629 -0.071418061852455139160156250000 -0.001544019207358360073686909253 -0.000597301055677235126495361328 0 0 0 0 
2418333333.3333334923 0.167637556791305486481036268742 -0.071665160357952117919921875000 -0.001481986604630946896196674878 -0.000631455797702074050903320312 0 0 0 0 
2418500000.0000000000 0.166412755846977206131143134371 -0.072015255689620971679687500000 -0.001508089364506304047228169019 -0.000488729623612016439437866211 0 0 0 0 
2418666666.6666665077 0.165422931313514709472656250000 -0.072417192161083221435546875000 -0.001544306636787950992584228516 -0.000422882672864943688541966571 0 0 0 0 
2418833333.3333334923 0.164120092988014193435830634371 -0.072828173637390136718750000000 -0.001570734311826526901842426831 -0.000155857225763611495494842529 0 0 0 0 
2419000000.0000000000 0.162831455469131497482138115629 -0.073395267128944396972656250000 -0.001538553857244550964952778394 -0.000014092456694925200531278917 0 0 0 0 
2419166666.6666665077 0.161799624562263488769531250000 -0.073906943202018737792968750000 -0.001471051014959811947466206128 0.000093190872576087713241577148 0 0 0 0 
2419333333.3333334923 0.160337284207344110686932481258 -0.074310794472694396972656250000 -0.001396659179590643102761293726 0.000316085031954571604728698730 0 0 0 0 
2419500000.0000000000 0.159143105149269104003906250000 -0.075341589748859405517578125000 -0.001423006760887802080867148291 0.000366298132576048374176025391 0 0 0 0 
2419666666.6666665077 0.157996132969856289962606865629 -0.076113007962703704833984375000 -0.001314192311838269016863178784 0.000398156640585511922836303711 0 0 0 0 
2419833333.3333334923 0.156568124890327509124432481258 -0.076744914054870605468750000000 -0.001328807091340423063990927588 0.000507151940837502479553222656 0 0 0 0 
