# Hz S RI R 50
2400000000.0000000000 0.162855967879295404632244981258 0.052642226219177253032643903907 -0.002683121943846344947814941406 0.003324796445667744116542197119 0 0 0 0 
2400166666.6666665077 0.162823453545570401290731865629 0.051118884235620498657226562500 -0.002782022813335061073303222656 0.003357800655066967010498046875 0 0 0 0 
2400333333.3333334923 0.162623211741447504241619981258 0.049284942448139190673828125000 -0.002640012651681900024414062500 0.003516538767144083976745605469 0 0 0 0 
2400500000.0000000000 0.162708804011344909667968750000 0.047425378113985061645507812500 -0.002671209163963795141932822119 0.003664446761831641197204589844 0 0 0 0 
2400666666.6666665077 0.162608847022056607345419365629 0.045345909893512732768972028907 -0.002387816784903407096862792969 0.003791638650000094933750771631 0 0 0 0 
2400833333.3333334923 0.162696585059166010100994981258 0.043706573545932769775390625000 -0.002308611990883945985081338037 0.004058511462062597274780273438 0 0 0 0 
2401000000.0000000000 0.162671372294425992111044365629 0.041718963533639907836914062500 -0.002248113043606280846836709131 0.004148940555751323699951171875 0 0 0 0 
2401166666.6666665077 0.162699609994888305664062500000 0.039649218320846557617187500000 -0.002111281268298625946044921875 0.004277172964066267013549804688 0 0 0 0 
2401333333.3333334923 0.162842959165573092361611884371 0.037427287548780441284179687500 -0.002033501397818326950073242188 0.004414565395563840866088867188 0 0 0 0 
2401500000.0000000000 0.163286313414573697189169365629 0.035449162125587463378906250000 -0.001890730229206383011461567456 0.004413575399667024612426757812 0 0 0 0 
2401666666.6666665077 0.163284018635749789138955634371 0.033613361418247222900390625000 -0.001765770139172673008562397534 0.004696434363722801208496093750 0 0 0 0 
2401833333.3333334923 0.163644999265670804122763115629 0.031558204442262649536132812500 -0.001464647939428687095642089844 0.004836017265915870666503906250 0 0 0 0 
2402000000.0000000000 0.163816466927528409103231865629 0.029503265395760539663294608204 -0.001328213955275713963749550928 0.004812353290617465972900390625 0 0 0 0 
2402166666.6666665077 0.164201915264129610916299384371 0.027463011443614959716796875000 -0.001273702713660896041272807544 0.005094917025417090329642011426 0 0 0 0 
2402333333.3333334923 0.164750963449478204925213731258 0.025600126013159748422642891796 -0.000989495194517076015472412109 0.005057346541434525576119707324 0 0 0 0 
2402500000.0000000000 0.165319651365280206878338731258 0.023918820545077320444127266796 -0.000693468376994132995605468750 0.005155081395059823989868164062 0 0 0 0 
2402666666.6666665077 0.165686592459678705413494981258 0.021995227783918380737304687500 -0.000449822109658271074295043945 0.005174253601580858230590820312 0 0 0 0 
2402833333.3333334923 0.166217014193534906585369981258 0.020438704639673229562779610546 -0.000068528774136211723089218140 0.005228070542216300964355468750 0 0 0 0 
2403000000.0000000000 0.166987881064415005782919365629 0.018550217151641849172571951954 -0.000000767366145737469196319580 0.005354205146431922912597656250 0 0 0 0 
2403166666.6666665077 0.167830169200897189041299384371 0.017074583098292350769042968750 0.000340376427629962617724818097 0.005293669644743204116821289062 0 0 0 0 
2403333333.3333334923 0.168445557355880709549111884371 0.015557711943984029942522617773 0.000607633206527680158615112305 0.005430806428194046020507812500 0 0 0 0 
2403500000.0000000000 0.169034853577613802810830634371 0.014056565240025520324707031250 0.000850952579639852046966552734 0.005256029777228832244873046875 0 0 0 0 
2403666666.6666665077 0.170113101601600702483807481258 0.012551850639283660543421561329 0.001186331617645919106127094800 0.005206276662647724151611328125 0 0 0 0 
2403833333.3333334923 0.170821532607078607757244981258 0.011174710467457769566546055273 0.001422552159056067900416708838 0.005212680902332068356985761426 0 0 0 0 
2404000000.0000000000 0.171560823917388888260049384371 0.009880051948130130767822265625 0.001634045620448886914494179834 0.005190815776586532592773437500 0 0 0 0 
2404166666.6666665077 0.172303810715675409515057481258 0.008676547557115554809570312500 0.001995208673179150061366415869 0.004949908237904310226440429688 0 0 0 0 
2404333333.3333334923 0.173163235187530489822549384371 0.007724007591605187329764081738 0.002168939448893069787266396631 0.004723489284515380859375000000 0 0 0 0 
2404500000.0000000000 0.173783481121063204666299384371 0.006600859109312295913696289062 0.002297480357810854911804199219 0.004733566660434007644653320312 0 0 0 0 
2404666666.6666665077 0.174650967121124295333700615629 0.005572980269789695739746093750 0.002644353546202183203456259619 0.004677878227084875106811523438 0 0 0 0 
2404833333.3333334923 0.175375983119010897537393134371 0.004797365516424179077148437500 0.002723717130720614953282021631 0.004409973975270987424368573926 0 0 0 0 
2405000000.0000000000 0.175999850034713800628338731258 0.003941738978028297424316406250 0.003015589434653521017787314307 0.004324657842516899108886718750 0 0 0 0 
2405166666.6666665077 0.176776960492134094238281250000 0.003178530372679233984706259619 0.003336720634251832962036132812 0.003971046302467584609985351562 0 0 0 0 
2405333333.3333334923 0.177428260445594787597656250000 0.002593880053609610037562704932 0.003475337056443095207214355469 0.003922577481716871261596679688 0 0 0 0 
2405500000.0000000000 0.178005114197730990310830634371 0.002121221506968141035792685400 0.003556001931428908868076943506 0.003724441863596438927891396631 0 0 0 0 
2405666666.6666665077 0.178665727376937893966513115629 0.001621401053853332996368408203 0.003659419715404510931727743994 0.003492439165711402893066406250 0 0 0 0 
2405833333.3333334923 0.178887471556663513183593750000 0.001392936916090548038482666016 0.003799694357439876036403036963 0.003315869253128767013549804688 0 0 0 0 
2406000000.0000000000 0.179543390870094299316406250000 0.000734888890292495489120483398 0.003989479038864374160766601562 0.003042656229808927016017294775 0 0 0 0 
2406166666.6666665077 0.179759636521339388748330634371 0.000588431372307240962982177734 0.003995878621935844421386718750 0.002803703770041466192958212744 0 0 0 0 
2406333333.3333334923 0.180192813277244595626669365629 0.000110001143184490501880645752 0.004165335558354854583740234375 0.002511660568416119055507040869 0 0 0 0 
2406500000.0000000000 0.180347472429275512695312500000 -0.000274948222795501405566614972 0.004234599415212869644165039062 0.002442290075123310089111328125 0 0 0 0 
2406666666.6666665077 0.180346161127090509612713731258 -0.000407017680117860382229405536 0.004292495083063840866088867188 0.002079702215269207954406738281 0 0 0 0 
2406833333.3333334923 0.180629432201385498046875000000 -0.000793291023001074790954589844 0.004216814413666725158691406250 0.001918816007673739953282021631 0 0 0 0 
2407000000.0000000000 0.180580437183380099197549384371 -0.000957081967499107122421264648 0.004386210348457098007202148438 0.001504278625361620946171425928 0 0 0 0 
2407166666.6666665077 0.180705368518829401214276231258 -0.001343679614365101077436137622 0.004424401558935642242431640625 0.001471109222620726065394736182 0 0 0 0 
2407333333.3333334923 0.180579572916030911544638115629 -0.001749643473885952992680214990 0.004192648455500602722167968750 0.001260320656001568057416606372 0 0 0 0 
2407500000.0000000000 0.180327281355857904632244981258 -0.002033872529864310784580849756 0.004330997820943593978881835938 0.000958009739406406879425048828 0 0 0 0 
2407666666.6666665077 0.180038586258888189117755018742 -0.002321826526895165009739541162 0.004281540401279926300048828125 0.000759398622903972864151000977 0 0 0 0 
2407833333.3333334923 0.179644688963890103439169365629 -0.002910969313234090805053710938 0.004193199332803487777709960938 0.000559639709535986185073852539 0 0 0 0 
2408000000.0000000000 0.179128915071487399002236884371 -0.003464803565293550925013876807 0.004185429308563470840454101562 0.000336559780407697016566676007 0 0 0 0 
2408166666.6666665077 0.178753569722175598144531250000 -0.003773581935092806816101074219 0.004243640694767236709594726562 0.000043776322854682803153991699 0 0 0 0 
2408333333.3333334923 0.178482010960578890701455634371 -0.004580379463732242584228515625 0.004057286772876977920532226562 0.000147408805787563296869555063 0 0 0 0 
2408500000.0000000000 0.177655771374702509124432481258 -0.005264089908450841903686523438 0.003936496563255786895751953125 -0.000195804343093186589792528696 0 0 0 0 
2408666666.6666665077 0.177166357636451693435830634371 -0.006148880347609519958496093750 0.003972453530877828598022460938 -0.000301098421914502978324890137 0 0 0 0 
2408833333.3333334923 0.176520809531211908538494981258 -0.006778226699680089950561523438 0.003805619664490222930908203125 -0.000557459075935184955596923828 0 0 0 0 
2409000000.0000000000 0.175770416855812100509481865629 -0.007762866094708442687988281250 0.003619443858042358918430947412 -0.000684081634972244501113891602 0 0 0 0 
2409166666.6666665077 0.174870178103446988204794365629 -0.008751402609050273895263671875 0.003527242457494140105006552588 -0.000802698777988553047180175781 0 0 0 0 
2409333333.3333334923 0.174250856041908291915731865629 -0.009916367009282112121582031250 0.003451585303992033004760742188 -0.001047136262059211947797465747 0 0 0 0 
2409500000.0000000000 0.173547133803367586990518134371 -0.011183437891304489480992501171 0.003252627328038216070887900244 -0.001089572557248174927355122144 0 0 0 0 
2409666666.6666665077 0.172724246978759793380575615629 -0.012381854467093949753730974805 0.003298704978078604178187704932 -0.001098359120078385093091655200 0 0 0 0 
2409833333.3333334923 0.171960771083831787109375000000 -0.013623699545860290527343750000 0.003089623292908072905299521338 -0.001269243774004281000850058447 0 0 0 0 
2410000000.0000000000 0.171269670128822298904580634371 -0.014935887418687340127965157421 0.002987918909639120101928710938 -0.001276173279620707035064697266 0 0 0 0 
2410166666.6666665077 0.170555397868156405349893134371 -0.016458138823509219778040701954 0.002773514948785305023193359375 -0.001359146670438349030138325269 0 0 0 0 
2410333333.3333334923 0.169834047555923489669638115629 -0.018161293119192119943638985546 0.002740877680480480194091796875 -0.001434208126738667921779013525 0 0 0 0 
2410500000.0000000000 0.169287353754043606857138115629 -0.019778810441493991506556326954 0.002596584614366292953491210938 -0.001409920630976557948468852466 0 0 0 0 
2410666666.6666665077 0.168557092547416687011718750000 -0.021534154191613200796107108204 0.002517722779884933991673134912 -0.001424090820364654064178466797 0 0 0 0 
2410833333.3333334923 0.168133154511451693435830634371 -0.023073973134160038339635079296 0.002347447210922836823704384912 -0.001515815034508704922319721753 0 0 0 0 
2411000000.0000000000 0.167538568377494812011718750000 -0.024761615321040150033971016796 0.002246958203613758087158203125 -0.001658511813730001015904091943 0 0 0 0 
2411166666.6666665077 0.167054712772369412521200615629 -0.026863772422075271606445312500 0.002196752233430742783787392725 -0.001658396329730748913408588940 0 0 0 0 
2411333333.3333334923 0.166742548346519497970419365629 -0.028680656105279919015904610546 0.002365073189139366149902343750 -0.001674092840403317971470498193 0 0 0 0 
2411500000.0000000000 0.166175827383995111663494981258 -0.030653351917862888681431954296 0.002016391837969421906712197412 -0.001663421397097408988355327075 0 0 0 0 
2411666666.6666665077 0.166088700294494601150674384371 -0.032671980559825897216796875000 0.001918528345413506031036376953 -0.001718733925372361920000385815 0 0 0 0 
2411833333.3333334923 0.166082173585891695877236884371 -0.034519389271736151958425153907 0.001928202575072645924211811597 -0.001700594089925288937212299878 0 0 0 0 
2412000000.0000000000 0.165886670351028386871661268742 -0.036384560167789459228515625000 0.001926034572534262917162251050 -0.001736174919642508029937744141 0 0 0 0 
2412166666.6666665077 0.165733993053436307052450615629 -0.038387577980756759643554687500 0.001732919365167618014691996997 -0.001764159766025841019274067456 0 0 0 0 
2412333333.3333334923 0.165962100028991699218750000000 -0.040274556726217269897460937500 0.001809657434932887987849570166 -0.001875018118880688927294086987 0 0 0 0 
2412500000.0000000000 0.166005477309226989746093750000 -0.042182326316833503032643903907 0.001561594428494573073146201025 -0.001710400101728736920597695459 0 0 0 0 
2412666666.6666665077 0.166106849908828707595986884371 -0.044343732297420501708984375000 0.001806393964216113090515136719 -0.001818080432713031985639262622 0 0 0 0 
2412833333.3333334923 0.166376724839210510253906250000 -0.046161040663719177246093750000 0.001671132282353938059565878760 -0.001896481262519956068751669775 0 0 0 0 
2413000000.0000000000 0.166591182351112393478231865629 -0.047930844128131873393972028907 0.001504628919064999060389853369 -0.001887701335363090038299560547 0 0 0 0 
2413166666.6666665077 0.166766941547393798828125000000 -0.049691237509250640869140625000 0.001476731267757714011548686450 -0.002115570474416017966029501807 0 0 0 0 
2413333333.3333334923 0.167283713817596407791299384371 -0.051448065787553787231445312500 0.001233845017850399017333984375 -0.002100948942825198173522949219 0 0 0 0 
2413500000.0000000000 0.167472824454307611663494981258 -0.053081534802913672710378278907 0.001202635001391171975376748193 -0.002145933452993630929234170068 0 0 0 0 
2413666666.6666665077 0.167982369661331204513388115629 -0.054802242666482932353932966407 0.001168019720353185913683247144 -0.002168690785765647888183593750 0 0 0 0 
2413833333.3333334923 0.168373301625251797775106865629 -0.056227039545774459838867187500 0.000921555503737181425094604492 -0.002122636418789625167846679688 0 0 0 0 
2414000000.0000000000 0.168884664773941012283486884371 -0.057827275246381759643554687500 0.000908302492462098598480224609 -0.002385697327554225921630859375 0 0 0 0 
2414166666.6666665077 0.169416755437851007659588731258 -0.058998122811317436908762346093 0.000862464949022978544235229492 -0.002333269920200109915492392432 0 0 0 0 
2414333333.3333334923 0.169746294617652893066406250000 -0.060494147241115570068359375000 0.000545079121366143226623535156 -0.002312541706487535996678017725 0 0 0 0 
2414500000.0000000000 0.170388206839561490157919365629 -0.061625998467206961894948591407 0.000631203700322657823562622070 -0.002233348554000258012058877100 0 0 0 0 
2414666666.6666665077 0.170721754431724603850994981258 -0.062564782798290252685546875000 0.000450710329459980075985509052 -0.002465041121467947959899902344 0 0 0 0 
2414833333.3333334923 0.171243324875831604003906250000 -0.063789859414100646972656250000 0.000351498863892629688412266864 -0.002286619972437620162963867188 0 0 0 0 
2415000000.0000000000 0.171632722020149203201455634371 -0.064622372388839721679687500000 0.000113518100988585501909255981 -0.002388302702456713156459189307 0 0 0 0 
2415166666.6666665077 0.172151073813438387771768134371 -0.065413758158683776855468750000 -0.000071885864599607884883880615 -0.002268026350066065788269042969 0 0 0 0 
2415333333.3333334923 0.172526851296424893478231865629 -0.066298916935920715332031250000 -0.000023522979972767640242372819 -0.002221372677013278007507324219 0 0 0 0 
2415500000.0000000000 0.172911211848258999923544365629 -0.066961362957954406738281250000 -0.000288933282718062400817871094 -0.002316144993528724150416708838 0 0 0 0 
2415666666.6666665077 0.173162966966629000564736884371 -0.067454166710376739501953125000 -0.000426128419348970109790247784 -0.002166232094168663024902343750 0 0 0 0 
2415833333.3333334923 0.173543646931648309905682481258 -0.067897178232669830322265625000 -0.000540437351446598768234252930 -0.002245501615107059912440634619 0 0 0 0 
2416000000.0000000000 0.173638865351676913162393134371 -0.068672999739646911621093750000 -0.000518625136464834213256835938 -0.002173599554225801987888955225 0 0 0 0 
2416166666.6666665077 0.173824444413185091873330634371 -0.068898558616638183593750000000 -0.000586164183914661407470703125 -0.001856208313256501934648823315 0 0 0 0 
2416333333.3333334923 0.173789665102958706954794365629 -0.069217413663864135742187500000 -0.000803263101261109113693237305 -0.001898739486932754950282431494 0 0 0 0 
2416500000.0000000000 0.173745378851890591720419365629 -0.069585636258125305175781250000 -0.000912354327738285064697265625 -0.001699337852187454917310405200 0 0 0 0 
2416666666.6666665077 0.173497498035430908203125000000 -0.069794662296772003173828125000 -0.001016970723867415948155068506 -0.001663914881646632931352924878 0 0 0 0 
2416833333.3333334923 0.173447966575622586349325615629 -0.070102736353874206542968750000 -0.001015234156511723995208740234 -0.001690709847025573036791157300 0 0 0 0 
2417000000.0000000000 0.172897174954414395431356865629 -0.070379197597503662109375000000 -0.001044768840074538967729878003 -0.001553182839415967898127890479 0 0 0 0 
2417166666.6666665077 0.172588914632797213455361884371 -0.070348173379898071289062500000 -0.001263141864910721995710063403 -0.001319488044828176932093954932 0 0 0 0 
2417333333.3333334923 0.172126770019531305511151231258 -0.070525050163269042968750000000 -0.001179616083391010978101420825 -0.001352083869278430938720703125 0 0 0 0 
2417500000.0000000000 0.171405822038650512695312500000 -0.070860318839550018310546875000 -0.001292530680075288035749125903 -0.001195224584080279090284038013 0 0 0 0 
2417666666.6666665077 0.170952126383781405349893134371 -0.070872835814952850341796875000 -0.001333338674157857894897460938 -0.001036672038026154041290283203 0 0 0 0 
2417833333.3333334923 0.170023977756500188629473768742 -0.071062631905078887939453125000 -0.001421559252776205973384238135 -0.000992228975519537925720214844 0 0 0 0 
2418000000.0000000000 0.169254645705223111251669365629 -0.071422047913074493408203125000 -0.001388968899846076965332031250 -0.000800153007730841636657714844 0 0 0 0 
2418166666.6666665077 0.168303683400154113769531250000 -0.071408055722713470458984375000 -0.001549422158859669945360493237 -0.000659171550069004297256469727 0 0 0 0 
2418333333.3333334923 0.167553827166557312011718750000 -0.071821928024291992187500000000 -0.001479151425883173942565917969 -0.000668270804453641176223754883 0 0 0 0 
2418500000.0000000000 0.166353389620780889313067518742 -0.072167091071605682373046875000 -0.001536342548206448988673544775 -0.000456224282970651984214782715 0 0 0 0 
2418666666.6666665077 0.165381327271461486816406250000 -0.072585336863994598388671875000 -0.001453517586924135901807475513 -0.000406098115490749478340148926 0 0 0 0 
2418833333.3333334923 0.164164051413536099532919365629 -0.072967983782291412353515625000 -0.001688738819211720986607216943 -0.000183186304639093604966840201 0 0 0 0 
2419000000.0000000000 0.162864565849304199218750000000 -0.073368057608604431152343750000 -0.001522955950349569103838276440 -0.000130999425891786786630907602 0 0 0 0 
2419166666.6666665077 0.161666467785835293868856865629 -0.073988303542137145996093750000 -0.001503288978710771040675497900 -0.000054452571930596611719539030 0 0 0 0 
2419333333.3333334923 0.160378739237785311599893134371 -0.074440978467464447021484375000 -0.001418245257809757969499897534 0.000148486811667680713251391000 0 0 0 0 
2419500000.0000000000 0.159055575728416387359942518742 -0.075291350483894348144531250000 -0.001282438868656754927394247900 0.000276268023299053311347961426 0 0 0 0 
2419666666.6666665077 0.158001169562339810470419365629 -0.076227232813835144042968750000 -0.001297090318985282941105507959 0.000427775754360482096672058105 0 0 0 0 
2419833333.3333334923 0.156527280807495089431924384371 -0.076922811567783355712890625000 -0.001210135174915194945094443213 0.000537351530510932207107543945 0 0 0 0 
