# Version 1.00
#
freq[Hz];re:Trc1_S11;im:Trc1_S11;re:Trc2_S21;im:Trc2_S21;
2.400000000000000E+009;1.729059815406799E-001;4.839227721095085E-002;6.132368464022875E-003;1.255501527339220E-003;
2.400166666666667E+009;1.735433489084244E-001;4.780587181448937E-002;6.050833966583014E-003;8.944857981987298E-004;
2.400333333333334E+009;1.741694360971451E-001;4.717245697975159E-002;5.949757993221283E-003;7.091072038747370E-004;
2.400500000000000E+009;1.746287047863007E-001;4.656440392136574E-002;5.683218128979206E-003;3.526549553498626E-004;
2.400666666666667E+009;1.748530864715576E-001;4.599598050117493E-002;5.400336813181639E-003;-3.442464731051587E-005;
2.400833333333334E+009;1.754498183727264E-001;4.547694325447083E-002;5.396174266934395E-003;-1.558240619488061E-004;
2.401000000000000E+009;1.755550056695938E-001;4.470363631844521E-002;5.069680511951447E-003;-5.224531632848084E-004;
2.401166666666667E+009;1.758408248424530E-001;4.421831667423248E-002;5.067562218755484E-003;-6.029397482052445E-004;
2.401333333333334E+009;1.759041696786881E-001;4.357011243700981E-002;4.806204698979855E-003;-9.552511037327349E-004;
2.401500000000000E+009;1.761840581893921E-001;4.282442852854729E-002;4.608162678778172E-003;-8.790639694780111E-004;
2.401666666666667E+009;1.760874837636948E-001;4.241529107093811E-002;4.502904601395130E-003;-1.219530473463237E-003;
2.401833333333334E+009;1.761014461517334E-001;4.182423278689385E-002;4.281884990632534E-003;-1.103929826058447E-003;
2.402000000000000E+009;1.758329868316650E-001;4.098685085773468E-002;4.110080190002918E-003;-1.213108655065298E-003;
2.402166666666667E+009;1.758552044630051E-001;4.010075703263283E-002;3.971106372773647E-003;-1.247239415533841E-003;
2.402333333333334E+009;1.756132543087006E-001;3.928660973906517E-002;3.844361985102296E-003;-1.425461727194488E-003;
2.402500000000000E+009;1.757254600524902E-001;3.850215673446655E-002;3.728991374373436E-003;-1.382009941153228E-003;
2.402666666666667E+009;1.751791685819626E-001;3.749376162886620E-002;3.439579391852021E-003;-1.460231491364539E-003;
2.402833333333334E+009;1.749635636806488E-001;3.641740605235100E-002;3.494303440675139E-003;-1.543197664432228E-003;
2.403000000000000E+009;1.746503114700317E-001;3.525140509009361E-002;3.253501141443849E-003;-1.516478252597153E-003;
2.403166666666667E+009;1.743769198656082E-001;3.397147357463837E-002;3.136681392788887E-003;-1.507713808678091E-003;
2.403333333333334E+009;1.740274429321289E-001;3.266368433833122E-002;2.977816155180335E-003;-1.580967917107046E-003;
2.403500000000000E+009;1.735281497240067E-001;3.128891438245773E-002;2.855347469449043E-003;-1.456575933843851E-003;
2.403666666666667E+009;1.731814146041870E-001;2.972449176013470E-002;2.770579420030117E-003;-1.609617378562689E-003;
2.403833333333334E+009;1.730333417654038E-001;2.803378552198410E-002;2.682012971490622E-003;-1.462944084778428E-003;
2.404000000000000E+009;1.722647696733475E-001;2.648248150944710E-002;2.563999034464359E-003;-1.389514538459480E-003;
2.404166666666667E+009;1.719130873680115E-001;2.454458922147751E-002;2.640790073201060E-003;-1.479268423281610E-003;
2.404333333333334E+009;1.715718209743500E-001;2.289802767336369E-002;2.684937557205558E-003;-1.311019179411233E-003;
2.404500000000000E+009;1.710245311260223E-001;2.087974920868874E-002;2.521911403164268E-003;-1.189250033348799E-003;
2.404666666666667E+009;1.708471924066544E-001;1.906660012900829E-002;2.525021554902196E-003;-1.193582080304623E-003;
2.404833333333334E+009;1.705193966627121E-001;1.709255389869213E-002;2.625317778438330E-003;-1.244102139025927E-003;
2.405000000000000E+009;1.703138500452042E-001;1.496487576514483E-002;2.646663226187229E-003;-1.233394490554929E-003;
2.405166666666667E+009;1.700912863016129E-001;1.301058754324913E-002;2.461435971781611E-003;-1.309772138483822E-003;
2.405333333333334E+009;1.701572835445404E-001;1.076593995094299E-002;2.709878608584404E-003;-1.560555072501302E-003;
2.405500000000000E+009;1.701091527938843E-001;8.850030601024628E-003;2.819022629410029E-003;-1.447029761038721E-003;
2.405666666666667E+009;1.700664162635803E-001;6.853941362351179E-003;2.794280648231506E-003;-1.349860103800893E-003;
2.405833333333334E+009;1.701286286115646E-001;4.789827857166529E-003;2.674075542017818E-003;-1.443386892788112E-003;
2.406000000000000E+009;1.703626513481140E-001;2.601865679025650E-003;2.740206662565470E-003;-1.359305460937321E-003;
2.406166666666667E+009;1.706134229898453E-001;6.721490644849837E-004;2.904022112488747E-003;-1.667487085796893E-003;
2.406333333333334E+009;1.710575222969055E-001;-1.398846507072449E-003;2.809304045513272E-003;-1.671138918027282E-003;
2.406500000000000E+009;1.713082641363144E-001;-3.479561535641551E-003;2.925056731328368E-003;-1.901082927361131E-003;
2.406666666666667E+009;1.717218309640884E-001;-5.422148387879133E-003;2.960540354251862E-003;-1.955737126991153E-003;
2.406833333333334E+009;1.722390502691269E-001;-7.679774891585112E-003;2.873782301321626E-003;-2.049017231911421E-003;
2.407000000000000E+009;1.729035824537277E-001;-9.516729041934013E-003;2.951398957520723E-003;-2.146081067621708E-003;
2.407166666666667E+009;1.737114936113358E-001;-1.137198414653540E-002;2.890239469707012E-003;-2.378362929448485E-003;
2.407333333333334E+009;1.742722988128662E-001;-1.349705364555121E-002;2.800930757075548E-003;-2.516137901693583E-003;
2.407500000000000E+009;1.750995516777039E-001;-1.523966249078512E-002;2.791519975289702E-003;-2.674151910468936E-003;
2.407666666666667E+009;1.758068352937698E-001;-1.701653189957142E-002;2.638173755258322E-003;-2.809772500768304E-003;
2.407833333333334E+009;1.763698160648346E-001;-1.869928650557995E-002;2.725491067394614E-003;-3.014335874468088E-003;
2.408000000000000E+009;1.773145943880081E-001;-2.043471671640873E-002;2.668362110853195E-003;-3.212293842807412E-003;
2.408166666666667E+009;1.780046969652176E-001;-2.204071730375290E-002;2.490716520696878E-003;-3.567163599655032E-003;
2.408333333333334E+009;1.789291054010391E-001;-2.349155955016613E-002;2.193358726799488E-003;-3.534893272444606E-003;
2.408500000000000E+009;1.794247925281525E-001;-2.489604800939560E-002;2.228918718174100E-003;-3.823030507192016E-003;
2.408666666666667E+009;1.802189052104950E-001;-2.644671127200127E-002;1.980789005756378E-003;-3.951938357204199E-003;
2.408833333333334E+009;1.806254833936691E-001;-2.759922482073307E-002;1.819737371988595E-003;-4.078017082065344E-003;
2.409000000000000E+009;1.811069697141647E-001;-2.879528328776360E-002;1.465945504605770E-003;-4.274066537618637E-003;
2.409166666666667E+009;1.817761063575745E-001;-2.986318245530129E-002;1.056842738762498E-003;-4.428719170391560E-003;
2.409333333333334E+009;1.823112964630127E-001;-3.089487180113792E-002;8.948332397267222E-004;-4.334836266934872E-003;
2.409500000000000E+009;1.827563792467117E-001;-3.182439133524895E-002;6.749553140252829E-004;-4.379943478852511E-003;
2.409666666666667E+009;1.829614788293839E-001;-3.228513896465302E-002;3.738004888873547E-004;-4.349177237600088E-003;
2.409833333333334E+009;1.833534240722656E-001;-3.301287069916725E-002;-5.687041630153544E-005;-4.238090943545103E-003;
2.410000000000000E+009;1.837767660617828E-001;-3.350283578038216E-002;-2.102016005665064E-004;-4.283091984689236E-003;
2.410166666666667E+009;1.839800328016281E-001;-3.393598273396492E-002;-3.638985217548907E-004;-4.160573240369558E-003;
2.410333333333334E+009;1.838726699352264E-001;-3.420213237404823E-002;-5.811426090076566E-004;-4.021926783025265E-003;
2.410500000000000E+009;1.840099990367889E-001;-3.471940755844116E-002;-8.280657930299640E-004;-3.934716340154409E-003;
2.410666666666667E+009;1.838907748460770E-001;-3.510712087154388E-002;-1.164856366813183E-003;-3.771156771108508E-003;
2.410833333333334E+009;1.839954555034638E-001;-3.525863587856293E-002;-1.263172947801650E-003;-3.647319041192532E-003;
2.411000000000000E+009;1.839270889759064E-001;-3.556012362241745E-002;-1.447388669475913E-003;-3.446630900725722E-003;
2.411166666666667E+009;1.835341602563858E-001;-3.588593751192093E-002;-1.541226636618376E-003;-3.151829820126295E-003;
2.411333333333334E+009;1.832308471202850E-001;-3.613263741135597E-002;-1.640070346184075E-003;-2.968810498714447E-003;
2.411500000000000E+009;1.828081160783768E-001;-3.662413731217384E-002;-1.791867427527905E-003;-2.931193681433797E-003;
2.411666666666667E+009;1.824888437986374E-001;-3.673861548304558E-002;-1.892701489850879E-003;-2.709271386265755E-003;
2.411833333333334E+009;1.817457377910614E-001;-3.715823963284493E-002;-1.949811587110162E-003;-2.338931662961841E-003;
2.412000000000000E+009;1.810253858566284E-001;-3.737550601363182E-002;-2.020844956859946E-003;-2.055460819974542E-003;
2.412166666666667E+009;1.799455285072327E-001;-3.792546689510346E-002;-2.156364731490612E-003;-1.943079987540841E-003;
2.412333333333334E+009;1.793978959321976E-001;-3.823871910572052E-002;-1.993552548810840E-003;-1.752973534166813E-003;
2.412500000000000E+009;1.782718896865845E-001;-3.878122568130493E-002;-2.044464461505413E-003;-1.482598599977791E-003;
2.412666666666667E+009;1.772811114788055E-001;-3.962845355272293E-002;-1.997364684939385E-003;-1.152380253188312E-003;
2.412833333333334E+009;1.760815083980560E-001;-4.003496468067169E-002;-1.730937277898192E-003;-9.772850899025798E-004;
2.413000000000000E+009;1.749678999185562E-001;-4.069996997714043E-002;-1.745667424984276E-003;-7.211112533695996E-004;
2.413166666666667E+009;1.735727936029434E-001;-4.155881702899933E-002;-1.537119038403034E-003;-6.592101417481899E-004;
2.413333333333334E+009;1.722598671913147E-001;-4.237250238656998E-002;-1.523119513876736E-003;-4.790810053236783E-004;
2.413500000000000E+009;1.709365844726563E-001;-4.334533587098122E-002;-1.183151616714895E-003;-4.203951393719763E-004;
2.413666666666667E+009;1.696226745843887E-001;-4.429236054420471E-002;-1.067972043529153E-003;-4.322115855757147E-004;
2.413833333333334E+009;1.682973355054855E-001;-4.527254030108452E-002;-8.342610090039671E-004;-3.081246395595372E-004;
2.414000000000000E+009;1.669273078441620E-001;-4.648562520742416E-002;-7.856642478145659E-004;-3.926750214304775E-004;
2.414166666666667E+009;1.656572967767716E-001;-4.766463860869408E-002;-5.636228597722948E-004;-3.272115427535027E-004;
2.414333333333334E+009;1.643828898668289E-001;-4.898903518915176E-002;-3.245554107706994E-004;-2.637364959809929E-004;
2.414500000000000E+009;1.632398366928101E-001;-5.027542263269424E-002;-1.456838363083080E-004;-2.688978274818510E-004;
2.414666666666667E+009;1.619482487440109E-001;-5.175280943512917E-002;-5.923810022068210E-005;-5.057352245785296E-004;
2.414833333333334E+009;1.607620269060135E-001;-5.345088243484497E-002;1.550426532048732E-004;-5.241354811005294E-004;
2.415000000000000E+009;1.596019864082336E-001;-5.499723926186562E-002;2.435022761346772E-004;-7.705685566179454E-004;
2.415166666666667E+009;1.584757864475250E-001;-5.675103515386581E-002;2.992712543345988E-004;-7.902573561295867E-004;
2.415333333333334E+009;1.577332913875580E-001;-5.860475078225136E-002;4.159315722063184E-004;-1.091159647330642E-003;
2.415500000000000E+009;1.567834019660950E-001;-6.025752052664757E-002;3.987970703747124E-004;-1.037972047924995E-003;
2.415666666666667E+009;1.558634638786316E-001;-6.222239509224892E-002;4.130600136704743E-004;-1.113555044867098E-003;
2.415833333333334E+009;1.553212702274323E-001;-6.417293101549149E-002;4.605833964888006E-004;-1.257741358131170E-003;
2.416000000000000E+009;1.544132977724075E-001;-6.611489504575729E-002;4.009381227660924E-004;-1.299927942454815E-003;
2.416166666666667E+009;1.540455222129822E-001;-6.813316792249680E-002;5.210110102780163E-004;-1.436771824955940E-003;
2.416333333333334E+009;1.534014642238617E-001;-7.000782340764999E-002;5.032829358242452E-004;-1.614894368685782E-003;
2.416500000000000E+009;1.527386903762817E-001;-7.210307568311691E-002;3.899851581081748E-004;-1.647516153752804E-003;
2.416666666666667E+009;1.524700671434403E-001;-7.406904548406601E-002;4.020647029392421E-004;-1.696527353487909E-003;
2.416833333333334E+009;1.522432565689087E-001;-7.617054879665375E-002;4.387152439448983E-004;-1.834405236877501E-003;
2.417000000000000E+009;1.517700105905533E-001;-7.806970924139023E-002;2.637369325384498E-004;-2.088963752612472E-003;
2.417166666666667E+009;1.515482664108276E-001;-7.988000661134720E-002;5.415660561993718E-004;-1.999360043555498E-003;
2.417333333333334E+009;1.514495015144348E-001;-8.177755028009415E-002;3.902758180629462E-004;-2.230612793937326E-003;
2.417500000000000E+009;1.513781696557999E-001;-8.375234901905060E-002;2.734696900006384E-004;-2.428364474326372E-003;
2.417666666666667E+009;1.514253318309784E-001;-8.513882756233215E-002;2.809889847412705E-004;-2.545919269323349E-003;
2.417833333333334E+009;1.514870077371597E-001;-8.681501448154450E-002;1.359268353553489E-004;-2.589840441942215E-003;
2.418000000000000E+009;1.513101160526276E-001;-8.849024772644043E-002;3.689189034048468E-004;-2.878705738112330E-003;
2.418166666666667E+009;1.513691544532776E-001;-8.979973942041397E-002;9.290015441365540E-005;-2.958783647045493E-003;
2.418333333333334E+009;1.518910229206085E-001;-9.107834100723267E-002;-5.698770110029727E-005;-3.250735113397241E-003;
2.418500000000000E+009;1.519122421741486E-001;-9.238067269325256E-002;-2.393189060967416E-004;-3.417250700294972E-003;
2.418666666666667E+009;1.523281931877136E-001;-9.354590624570847E-002;-3.751285839825869E-004;-3.560281591489911E-003;
2.418833333333334E+009;1.523514688014984E-001;-9.457270801067352E-002;-6.448948988690972E-004;-3.630901454016566E-003;
2.419000000000000E+009;1.524447649717331E-001;-9.540879726409912E-002;-8.509772014804184E-004;-3.740581916645169E-003;
2.419166666666667E+009;1.528338193893433E-001;-9.614945203065872E-002;-1.174590084701777E-003;-3.889409825205803E-003;
2.419333333333334E+009;1.529544889926910E-001;-9.655259549617767E-002;-1.312824315391481E-003;-3.814994823187590E-003;
2.419500000000000E+009;1.531851738691330E-001;-9.727647155523300E-002;-1.646614749915898E-003;-4.002020228654146E-003;
2.419666666666667E+009;1.535940021276474E-001;-9.780457615852356E-002;-2.166337799280882E-003;-4.049661569297314E-003;
2.419833333333334E+009;1.535482704639435E-001;-9.791520237922669E-002;-2.225524047389627E-003;-3.866591025143862E-003;
2.420000000000000E+009;1.538418233394623E-001;-9.805124998092651E-002;-2.580857835710049E-003;-3.816445125266910E-003;
2.420166666666667E+009;1.540507823228836E-001;-9.820394963026047E-002;-2.869909396395087E-003;-3.782232757657766E-003;
2.420333333333334E+009;1.541842967271805E-001;-9.826405346393585E-002;-3.091238439083099E-003;-3.684332594275475E-003;
2.420500000000000E+009;1.543168276548386E-001;-9.814099222421646E-002;-3.363465191796422E-003;-3.632888430729508E-003;
2.420666666666667E+009;1.541811227798462E-001;-9.772520512342453E-002;-3.726165741682053E-003;-3.423982998356223E-003;
2.420833333333334E+009;1.543045192956924E-001;-9.763806313276291E-002;-3.888734849169850E-003;-3.270438406616449E-003;
2.421000000000000E+009;1.540653854608536E-001;-9.748250991106033E-002;-4.186479840427637E-003;-3.161391941830516E-003;
2.421166666666667E+009;1.540310382843018E-001;-9.723784029483795E-002;-4.586312919855118E-003;-2.952875336632133E-003;
2.421333333333334E+009;1.537949591875076E-001;-9.676180034875870E-002;-4.768089856952429E-003;-2.746351296082139E-003;
2.421500000000000E+009;1.534333825111389E-001;-9.644701331853867E-002;-4.888522904366255E-003;-2.465583384037018E-003;
2.421666666666667E+009;1.531427204608917E-001;-9.604764729738236E-002;-5.258482880890369E-003;-2.048873575404286E-003;
2.421833333333334E+009;1.525567173957825E-001;-9.555926173925400E-002;-5.327453371137381E-003;-1.888813218101859E-003;
2.422000000000000E+009;1.518337726593018E-001;-9.542389959096909E-002;-5.424153059720993E-003;-1.550068962387741E-003;
2.422166666666667E+009;1.511692255735397E-001;-9.521690756082535E-002;-5.583308637142181E-003;-1.114373910240829E-003;
2.422333333333334E+009;1.503991633653641E-001;-9.476701170206070E-002;-5.600846838206053E-003;-8.826040429994464E-004;
2.422500000000000E+009;1.494943648576737E-001;-9.433279931545258E-002;-5.674459505826235E-003;-3.721272223629057E-004;
2.422666666666667E+009;1.482513844966888E-001;-9.423284977674484E-002;-5.861745215952396E-003;-1.880563213489950E-004;
2.422833333333334E+009;1.473405659198761E-001;-9.393613040447235E-002;-5.751593038439751E-003;1.085104086087085E-004;
2.423000000000000E+009;1.458807885646820E-001;-9.367312490940094E-002;-5.692936945706606E-003;6.118903402239084E-004;
2.423166666666667E+009;1.447673738002777E-001;-9.377511590719223E-002;-5.633629858493805E-003;9.404655429534614E-004;
2.423333333333334E+009;1.435386985540390E-001;-9.343412518501282E-002;-5.433398764580488E-003;1.331493142060936E-003;
2.423500000000000E+009;1.419727355241776E-001;-9.369434416294098E-002;-5.519906990230084E-003;1.673853956162930E-003;
2.423666666666667E+009;1.401949524879456E-001;-9.376078099012375E-002;-5.353447049856186E-003;1.985171344131231E-003;
2.423833333333334E+009;1.389742046594620E-001;-9.391946345567703E-002;-5.190125666558743E-003;2.200577175244689E-003;
2.424000000000000E+009;1.372909247875214E-001;-9.402924031019211E-002;-4.681223072111607E-003;2.304223133251071E-003;
2.424166666666667E+009;1.358488649129868E-001;-9.426665306091309E-002;-4.645168781280518E-003;2.662170911207795E-003;
2.424333333333334E+009;1.342410445213318E-001;-9.472578018903732E-002;-4.421838093549013E-003;2.852236386388540E-003;
2.424500000000000E+009;1.327948868274689E-001;-9.523374587297440E-002;-4.297715146094561E-003;2.847038442268968E-003;
2.424666666666667E+009;1.314739137887955E-001;-9.569624811410904E-002;-4.037910606712103E-003;3.366476856172085E-003;
2.424833333333334E+009;1.297636777162552E-001;-9.645612537860870E-002;-3.772775875404477E-003;3.462326712906361E-003;
2.425000000000000E+009;1.284002810716629E-001;-9.723352640867233E-002;-3.467619651928544E-003;3.597942413762212E-003;
2.425166666666667E+009;1.268265992403030E-001;-9.809530526399612E-002;-3.204804612323642E-003;3.572405548766255E-003;
2.425333333333334E+009;1.256159543991089E-001;-9.914963692426682E-002;-3.052657470107079E-003;3.683076472952962E-003;
2.425500000000000E+009;1.244145184755325E-001;-1.002918630838394E-001;-2.637495752424002E-003;3.724795766174793E-003;
2.425666666666667E+009;1.229470893740654E-001;-1.014752835035324E-001;-2.546684816479683E-003;3.756464924663305E-003;
2.425833333333334E+009;1.218860670924187E-001;-1.027355268597603E-001;-2.325283130630851E-003;3.768532071262598E-003;
2.426000000000000E+009;1.208220571279526E-001;-1.041736230254173E-001;-2.093832008540630E-003;3.665327094495297E-003;
2.426166666666667E+009;1.198636814951897E-001;-1.055330485105515E-001;-1.813396462239325E-003;3.646343247964978E-003;
2.426333333333334E+009;1.189290583133698E-001;-1.070581451058388E-001;-1.663353992626071E-003;3.621191252022982E-003;
2.426500000000000E+009;1.181295588612557E-001;-1.085971668362618E-001;-1.541323261335492E-003;3.520095720887184E-003;
2.426666666666667E+009;1.174617931246758E-001;-1.101784482598305E-001;-1.357013243250549E-003;3.485358320176601E-003;
2.426833333333334E+009;1.167121678590775E-001;-1.118337661027908E-001;-1.266796258278191E-003;3.284268314018846E-003;
2.427000000000000E+009;1.160993054509163E-001;-1.135339513421059E-001;-1.260911463759840E-003;3.294800408184528E-003;
2.427166666666667E+009;1.155515685677528E-001;-1.150401309132576E-001;-1.007701503112912E-003;3.311949549242854E-003;
2.427333333333334E+009;1.151816993951798E-001;-1.167490556836128E-001;-8.697097655385733E-004;3.101275069639087E-003;
2.427500000000000E+009;1.148824840784073E-001;-1.184368506073952E-001;-7.125405827537179E-004;3.037734888494015E-003;
2.427666666666667E+009;1.145685389637947E-001;-1.202270984649658E-001;-7.148517179302871E-004;2.921482315286994E-003;
