# Hz S RI R 50
2400000000.0000000000 0.155165746808052090743856865629 0.106532461941242204139790317186 0.001386615098454057953478169019 0.005759218242019414901733398438 0 0 0 0 
2400166666.6666665077 0.154861897230148287674111884371 0.104100957512855502029580634371 0.001411544508300722079036093604 0.005839804653078317642211914062 0 0 0 0 
2400333333.3333334923 0.154816910624504089355468750000 0.101724088191986097862162807814 0.001496382290497422001482319409 0.005797905847430229187011718750 0 0 0 0 
2400500000.0000000000 0.154661014676094110686932481258 0.099059529602527618408203125000 0.001699085114523767991306923975 0.005891907494515180587768554688 0 0 0 0 
2400666666.6666665077 0.154800131916999789138955634371 0.096453882753849029541015625000 0.001895124791190027973772358472 0.005837671458721160888671875000 0 0 0 0 
2400833333.3333334923 0.154790237545967102050781250000 0.093654379248619079589843750000 0.001878473209217190959333110278 0.005940767470747231569772051074 0 0 0 0 
2401000000.0000000000 0.154895141720771789550781250000 0.090650334954261779785156250000 0.002076162025332450866699218750 0.005812535993754863739013671875 0 0 0 0 
2401166666.6666665077 0.154900074005127008636151231258 0.088051125407218933105468750000 0.002198041649535297913792275537 0.005979256238788366317749023438 0 0 0 0 
2401333333.3333334923 0.155273139476776095291299384371 0.085221998393535614013671875000 0.002202530158683658079860068213 0.005984424147754907608032226562 0 0 0 0 
2401500000.0000000000 0.155784234404563903808593750000 0.082314945757389068603515625000 0.002506859833374619917628622900 0.005900390911847352981567382812 0 0 0 0 
2401666666.6666665077 0.156102597713470486739950615629 0.079488128423690795898437500000 0.002627907320857048034667968750 0.005956803914159536361694335938 0 0 0 0 
2401833333.3333334923 0.156726017594337491134481865629 0.076554223895072937011718750000 0.002741564065217971801757812500 0.006100808270275592803955078125 0 0 0 0 
2402000000.0000000000 0.157520934939384488204794365629 0.073942683637142181396484375000 0.002884921617805957794189453125 0.006084056105464696884155273438 0 0 0 0 
2402166666.6666665077 0.158169269561767605880575615629 0.071285337209701538085937500000 0.003248959314078093008754111182 0.006329625379294157028198242188 0 0 0 0 
2402333333.3333334923 0.159120142459869412521200615629 0.068608045578002929687500000000 0.003420419059693812890293740381 0.006303727161139249801635742188 0 0 0 0 
2402500000.0000000000 0.160223886370658902267294365629 0.066246405243873596191406250000 0.003698505694046616987941122900 0.006434699054807425412649823926 0 0 0 0 
2402666666.6666665077 0.161341801285743713378906250000 0.063777267932891845703125000000 0.004161733668297529220581054688 0.006220762617886065569405840137 0 0 0 0 
2402833333.3333334923 0.162627637386321993728799384371 0.061269056051969528198242187500 0.004376401193439961347098066113 0.006319583393633365631103515625 0 0 0 0 
2403000000.0000000000 0.163923874497413607498330634371 0.059003353118896477436106096093 0.004864352289587259292602539062 0.006067815702408552169799804688 0 0 0 0 
2403166666.6666665077 0.165636718273162786285723768742 0.056835301220417022705078125000 0.005299973767250776290893554688 0.006189348176121711730957031250 0 0 0 0 
2403333333.3333334923 0.167079985141754205901776231258 0.054552800953388207172434221093 0.005664472002536058425903320312 0.005926438141614198684692382812 0 0 0 0 
2403500000.0000000000 0.168843105435371398925781250000 0.052624624222517006610910783593 0.005996471736580132570748613574 0.005707256495952606201171875000 0 0 0 0 
2403666666.6666665077 0.170236960053443908691406250000 0.050713449716567993164062500000 0.006498074159026145935058593750 0.005379217676818370819091796875 0 0 0 0 
2403833333.3333334923 0.172160342335700988769531250000 0.048837650567293167114257812500 0.006778239738196134567260742188 0.005133727565407752990722656250 0 0 0 0 
2404000000.0000000000 0.173409715294838007171307481258 0.047092374414205551147460937500 0.007112622726708650588989257812 0.004810894839465618133544921875 0 0 0 0 
2404166666.6666665077 0.175432875752449007888955634371 0.045673474669456481933593750000 0.007280280347913503646850585938 0.004347061272710561752319335938 0 0 0 0 
2404333333.3333334923 0.177102804183959988693075615629 0.044147286564111709594726562500 0.007639845833182334899902343750 0.003911938983947038650512695312 0 0 0 0 
2404500000.0000000000 0.178460657596588107010049384371 0.042818758636713027954101562500 0.007737270556390286359305097363 0.003337264060974121093750000000 0 0 0 0 
2404666666.6666665077 0.180161014199256896972656250000 0.041680652648210532451589216407 0.007814491167664527893066406250 0.003035722300410271124598837744 0 0 0 0 
2404833333.3333334923 0.181774348020553588867187500000 0.040687821805477142333984375000 0.007844340987503528594970703125 0.002585349371656775908229208838 0 0 0 0 
2405000000.0000000000 0.183153390884399386306924384371 0.039964020252227783203125000000 0.007809353061020374298095703125 0.002136830473318696022033691406 0 0 0 0 
2405166666.6666665077 0.184715569019317599197549384371 0.039475996047258377075195312500 0.007835798896849155426025390625 0.001694757724180818037745810400 0 0 0 0 
2405333333.3333334923 0.186124697327613802810830634371 0.038989558815956122661550153907 0.007778295315802097320556640625 0.001342138973996042988420795972 0 0 0 0 
2405500000.0000000000 0.187662780284881591796875000000 0.038446228951215737079660783593 0.007588294334709644317626953125 0.000873575278092175722122192383 0 0 0 0 
2405666666.6666665077 0.188771739602088900467080634371 0.038255315274000167846679687500 0.007549780420958995819091796875 0.000660607824102044105529785156 0 0 0 0 
2405833333.3333334923 0.190109744668006896972656250000 0.038117762655019760131835937500 0.007307508960366249084472656250 0.000317856291076168417930603027 0 0 0 0 
2406000000.0000000000 0.191126704216003390213174384371 0.038003478199243552471120466407 0.007265739142894744873046875000 -0.000092698268417734652757644653 0 0 0 0 
2406166666.6666665077 0.192172110080718994140625000000 0.037778757512569427490234375000 0.007235697936266660690307617188 -0.000245756178628653287887573242 0 0 0 0 
2406333333.3333334923 0.193161711096763610839843750000 0.037869691848754882812500000000 0.007096500135958194732666015625 -0.000605205132160335779190063477 0 0 0 0 
2406500000.0000000000 0.193871870636940002441406250000 0.038001082837581641460378278907 0.006826987024396657943725585938 -0.000687120831571519374847412109 0 0 0 0 
2406666666.6666665077 0.194491460919380187988281250000 0.038036737591028206562082658593 0.006758402567356824874877929688 -0.000897791469469666481018066406 0 0 0 0 
2406833333.3333334923 0.195275977253913907150106865629 0.038126070052385330200195312500 0.006708184722810983657836914062 -0.001330480095930397944209433447 0 0 0 0 
2407000000.0000000000 0.195525944232940701583700615629 0.038326811045408248901367187500 0.006332466378808022412771894238 -0.001269822008907794952392578125 0 0 0 0 
2407166666.6666665077 0.195930749177932711502236884371 0.038169220089912421489675153907 0.006187306717038154602050781250 -0.001585117541253566958783793872 0 0 0 0 
2407333333.3333334923 0.195821464061737088302450615629 0.038355581462383270263671875000 0.005929957143962383270263671875 -0.001746430061757564978358603369 0 0 0 0 
2407500000.0000000000 0.195969060063362093826455634371 0.038502141833305358886718750000 0.005756033118814229965209960938 -0.001815048395656049034715961987 0 0 0 0 
2407666666.6666665077 0.196061164140701293945312500000 0.038500774651765823364257812500 0.005540025886148214340209960938 -0.001938879140652715942980122144 0 0 0 0 
2407833333.3333334923 0.195497140288352994064169365629 0.038354463875293731689453125000 0.005441365297883749008178710938 -0.002042808569967747168300009619 0 0 0 0 
2408000000.0000000000 0.195568427443504305740518134371 0.038207471370697021484375000000 0.005237837787717580795288085938 -0.002080786740407348112819052588 0 0 0 0 
2408166666.6666665077 0.195013999938964788238848768742 0.037983220070600509643554687500 0.005097480956465005874633789062 -0.002254632767289876937866210938 0 0 0 0 
2408333333.3333334923 0.194428190588951110839843750000 0.037532601505517959594726562500 0.004772549960762262344360351562 -0.002239858731627463860752724756 0 0 0 0 
2408500000.0000000000 0.193894147872924804687500000000 0.037197295576333999633789062500 0.004762787371873855590820312500 -0.002357432851567863984348916162 0 0 0 0 
2408666666.6666665077 0.193272858858108492752236884371 0.036705292761325843120534528907 0.004565228242427110671997070312 -0.002264560433104633851292275537 0 0 0 0 
2408833333.3333334923 0.192505449056625393966513115629 0.035893470048904418945312500000 0.004473533947020769119262695312 -0.002387167187407612800598144531 0 0 0 0 
2409000000.0000000000 0.191623583436012295821981865629 0.034894444048404686664621721093 0.004256160929799079895019531250 -0.002507355762645601792576455225 0 0 0 0 
2409166666.6666665077 0.190681129693985013107138115629 0.033988516777753829956054687500 0.004002074711024761199951171875 -0.002232959028333425955531454932 0 0 0 0 
2409333333.3333334923 0.189981520175933810135049384371 0.032972510904073722148854841407 0.003863582620397210121154785156 -0.002407864434644579887390136719 0 0 0 0 
2409500000.0000000000 0.188630074262618990799111884371 0.031602911651134490966796875000 0.003751434152945876121520996094 -0.002216255757957696914672851562 0 0 0 0 
2409666666.6666665077 0.187701001763343811035156250000 0.030277626588940620422363281250 0.003727250732481480078456259619 -0.002165162935853004889247275244 0 0 0 0 
2409833333.3333334923 0.186632379889488192459268134371 0.028810694813728329050084298046 0.003579897340387105941772460938 -0.002038772916421294212341308594 0 0 0 0 
2410000000.0000000000 0.185673251748084994217080634371 0.027125798165798190725306326954 0.003500540973618627028224326025 -0.001976925646886229948756552588 0 0 0 0 
2410166666.6666665077 0.184637024998664911468182481258 0.025297423824667930603027343750 0.003444550093263388113734579932 -0.002071847673505545096156454932 0 0 0 0 
2410333333.3333334923 0.183706894516944913009481865629 0.023706955835223201406458670704 0.003533130977302790121791220557 -0.001791857415810226960423134912 0 0 0 0 
2410500000.0000000000 0.182623520493507413009481865629 0.021513411775231361389160156250 0.003490278264507650895359658350 -0.001763077569194138050079345703 0 0 0 0 
2410666666.6666665077 0.181860998272895812988281250000 0.019444208592176440847376639454 0.003557475982233881950378417969 -0.001649062382057308933855366284 0 0 0 0 
2410833333.3333334923 0.181098133325576809982138115629 0.017060216516256328928013985546 0.003533530049026011986973427881 -0.001502239960245788097381591797 0 0 0 0 
2411000000.0000000000 0.180271878838539095779580634371 0.014939405024051669729212576954 0.003452801611274480819702148438 -0.001622106065042316913604736328 0 0 0 0 
2411166666.6666665077 0.179936513304710388183593750000 0.012593129649758340662946132227 0.003606155049055815176722861182 -0.001612087362445890903472900391 0 0 0 0 
2411333333.3333334923 0.179194673895835904220419365629 0.010191529057919980830182460352 0.003697476582601666884181357275 -0.001478676567785442092298198169 0 0 0 0 
2411500000.0000000000 0.178800806403160095214843750000 0.007920377887785434722900390625 0.003720738459378480911254882812 -0.001643589348532259897944785010 0 0 0 0 
2411666666.6666665077 0.178572088479995699783486884371 0.005407713353633880615234375000 0.003876811359077692031860351562 -0.001588508137501776001573872144 0 0 0 0 
2411833333.3333334923 0.178526937961578396896200615629 0.003023130120709538893458701025 0.003899659030139445824864052881 -0.001643168507143855094909667969 0 0 0 0 
2412000000.0000000000 0.178468286991119412521200615629 0.000485582655528560280799865723 0.003934584558010101318359375000 -0.001754594850353897051570273291 0 0 0 0 
2412166666.6666665077 0.178722292184829711914062500000 -0.001815611962229013009312295068 0.004052690695971251401419355176 -0.001765734632499516010284423828 0 0 0 0 
2412333333.3333334923 0.178768128156661987304687500000 -0.004521052818745374679565429688 0.004130383022129535675048828125 -0.001865907455794513008714985425 0 0 0 0 
2412500000.0000000000 0.179207265377044705489950615629 -0.006856953725218772888183593750 0.004240287467837333679199218750 -0.001983638154342771010157919775 0 0 0 0 
2412666666.6666665077 0.179712876677513094803018134371 -0.009321209043264389038085937500 0.004250910133123397827148437500 -0.001860658987425267913221049731 0 0 0 0 
2412833333.3333334923 0.180362746119499206542968750000 -0.011854572221636770421038242773 0.004462739918380975723266601562 -0.002004023641347885131835937500 0 0 0 0 
2413000000.0000000000 0.181418746709823608398437500000 -0.014246406964957710611363594921 0.004457031376659870147705078125 -0.002254100982099771933314658057 0 0 0 0 
2413166666.6666665077 0.181878700852394104003906250000 -0.016488436609506610525111014454 0.004626742098480463027954101562 -0.002489144681021571159362792969 0 0 0 0 
2413333333.3333334923 0.183152824640274103362713731258 -0.018783373758196830749511718750 0.004677026998251677426809980176 -0.002563004381954669952392578125 0 0 0 0 
2413500000.0000000000 0.184082224965095492263955634371 -0.021010020747780799865722656250 0.004761220887303352355957031250 -0.002755576977506279945373535156 0 0 0 0 
2413666666.6666665077 0.185402721166610690017861884371 -0.023478874936699870717982108204 0.004921013023704290390014648438 -0.002875343197956680817845009912 0 0 0 0 
2413833333.3333334923 0.186327308416366604904013115629 -0.025418929755687710153599923046 0.004853417631238698959350585938 -0.003365172538906335830688476562 0 0 0 0 
2414000000.0000000000 0.187524929642677307128906250000 -0.027400797232985499990443045704 0.004785445518791675567626953125 -0.003479384351521729989292763818 0 0 0 0 
2414166666.6666665077 0.188839793205261202713174384371 -0.029134823009371760976771170704 0.004730065818876028060913085938 -0.003854986047372221946716308594 0 0 0 0 
2414333333.3333334923 0.189880385994911193847656250000 -0.031268335878849029541015625000 0.004721169359982013702392578125 -0.004105277359485626220703125000 0 0 0 0 
2414500000.0000000000 0.191230610013008089920205634371 -0.032584305852651603008229841407 0.004512588493525981903076171875 -0.004410346969962120056152343750 0 0 0 0 
2414666666.6666665077 0.192365393042564392089843750000 -0.034125421196222312236745466407 0.004361729603260756406302167676 -0.004640216007828713330740644238 0 0 0 0 
2414833333.3333334923 0.193547159433364895919638115629 -0.035607613623142242431640625000 0.004341884050518274307250976562 -0.004879873711615800857543945312 0 0 0 0 
2415000000.0000000000 0.194604948163032503982705634371 -0.036873228847980499267578125000 0.004121005069464445114135742188 -0.005190424155443906784057617188 0 0 0 0 
2415166666.6666665077 0.195787131786346407791299384371 -0.038123622536659240722656250000 0.003908067941665649414062500000 -0.005322330631315708160400390625 0 0 0 0 
2415333333.3333334923 0.197073370218277005294638115629 -0.038918036967515952373464216407 0.003694515675306320190429687500 -0.005428322125226259231567382812 0 0 0 0 
2415500000.0000000000 0.198188602924346896072549384371 -0.039706543087959289550781250000 0.003477613441646099090576171875 -0.005680090282112360000610351562 0 0 0 0 
2415666666.6666665077 0.199130684137344388107138115629 -0.040713857859373092651367187500 0.003114689607173203988316201318 -0.005717165302485227584838867188 0 0 0 0 
2415833333.3333334923 0.199988022446632413009481865629 -0.041161540895700461650807966407 0.003032685257494450049159384619 -0.005874363239854574203491210938 0 0 0 0 
2416000000.0000000000 0.200837358832359286209268134371 -0.041811868548393249511718750000 0.002773699117824434800388955225 -0.005904765333980321884155273438 0 0 0 0 
2416166666.6666665077 0.201614722609519986251669365629 -0.042435958981513977050781250000 0.002554643200710415840148925781 -0.006127087399363517761230468750 0 0 0 0 
2416333333.3333334923 0.202206403017044095138388115629 -0.042665909975767142559011091407 0.002393452683463693098780966650 -0.006220933981239795684814453125 0 0 0 0 
2416500000.0000000000 0.202631890773773193359375000000 -0.042841691523790359497070312500 0.002147263847291470007655478369 -0.006260564085096120834350585938 0 0 0 0 
2416666666.6666665077 0.202919766306877108474893134371 -0.043246522545814507221262346093 0.002004692563787103132960654150 -0.006357442121952772140502929688 0 0 0 0 
2416833333.3333334923 0.203192740678787203689736884371 -0.043208949267864227294921875000 0.001705261645838618061662983472 -0.006444849073886871337890625000 0 0 0 0 
2417000000.0000000000 0.203247115015983609298544365629 -0.043318480253219597553293596093 0.001600864576175808906555175781 -0.006517787929624319076538085938 0 0 0 0 
2417166666.6666665077 0.203047215938568087478799384371 -0.043224312365055077289621721093 0.001335901790298521952388144385 -0.006666338536888360977172851562 0 0 0 0 
2417333333.3333334923 0.202680632472038296798544365629 -0.043088745325803756713867187500 0.001056870911270380020141601562 -0.006755887996405363082885742188 0 0 0 0 
2417500000.0000000000 0.202460318803787203689736884371 -0.043132349848747253417968750000 0.000799965346232056617736816406 -0.006689222529530525207519531250 0 0 0 0 
2417666666.6666665077 0.201975852251052911956463731258 -0.042828675359487526630442033593 0.000467701902380213087231236591 -0.006732755806297063827514648438 0 0 0 0 
2417833333.3333334923 0.201543971896171597579794365629 -0.042753662914037697528879533593 0.000364046398317441290051060809 -0.006714887917041779431814862988 0 0 0 0 
2418000000.0000000000 0.200917780399322509765625000000 -0.042437519878149032592773437500 -0.000036931738577550277113914490 -0.006715430878102779388427734375 0 0 0 0 
2418166666.6666665077 0.200082704424858093261718750000 -0.042421840131282813335378278907 -0.000096421077614650130271911621 -0.006704734638333320617675781250 0 0 0 0 
2418333333.3333334923 0.199140340089798001388388115629 -0.042258303612470626831054687500 -0.000377493241103366017341613770 -0.006568515207618474960327148438 0 0 0 0 
2418500000.0000000000 0.198088303208351107498330634371 -0.042347725480794906616210937500 -0.000541399058420211076736450195 -0.006568299606442452344412519238 0 0 0 0 
2418666666.6666665077 0.197035044431686401367187500000 -0.042270660400390631938893903907 -0.000624933454673737287521362305 -0.006637235637754201889038085938 0 0 0 0 
2418833333.3333334923 0.195883989334106500823651231258 -0.042449414730072021484375000000 -0.000968674721661955118179321289 -0.006488963030278682708740234375 0 0 0 0 
2419000000.0000000000 0.194411054253578213790731865629 -0.042653080075979232788085937500 -0.001189054688438772938371967847 -0.006579485721886157989501953125 0 0 0 0 
2419166666.6666665077 0.193231403827667208572549384371 -0.042947310954332351684570312500 -0.001263957354240120107766176538 -0.006377129815518856048583984375 0 0 0 0 
2419333333.3333334923 0.191742748022079495529013115629 -0.043419770896434776996652971093 -0.001527563203126192092895507812 -0.006305737886577844619750976562 0 0 0 0 
2419500000.0000000000 0.190261006355285589020098768742 -0.043948832899332053447682966407 -0.001642019837163388945935893481 -0.006179703399538993835449218750 0 0 0 0 
2419666666.6666665077 0.188706278800964410979901231258 -0.044733773916959762573242187500 -0.001869107014499604918836284106 -0.006191176827996969223022460938 0 0 0 0 
2419833333.3333334923 0.186994612216949490646200615629 -0.045517016202211380004882812500 -0.002086729276925324959995888818 -0.006088803987950086593627929688 0 0 0 0 
