# Hz S RI R 50
2400000000.0000000000 0.173408344388008089920205634371 0.049411006271839141845703125000 0.004007914569228888425345136426 -0.000244305527303367907374781476 0 0 0 0 
2400166666.6666665077 0.173909634351730402190838731258 0.048990283161401748657226562500 0.003867103951051830811741494287 -0.000477583525935187881619053973 0 0 0 0 
2400333333.3333334923 0.174180701375007601638955634371 0.048113044351339340209960937500 0.003739026375114918188807822119 -0.000802616530563682317733764648 0 0 0 0 
2400500000.0000000000 0.174667865037918090820312500000 0.047456208616495132446289062500 0.003539051394909619851353310693 -0.000758259964641183614730834961 0 0 0 0 
2400666666.6666665077 0.175014406442642211914062500000 0.046690579503774642944335937500 0.003561343066394329071044921875 -0.000910383823793381452560424805 0 0 0 0 
2400833333.3333334923 0.175255790352821405608807481258 0.046306956559419631958007812500 0.003556832671165465874912881006 -0.001064163749106227917912148584 0 0 0 0 
2401000000.0000000000 0.175289779901504488845986884371 0.045673061162233352661132812500 0.003306963713839650154113769531 -0.001097086584195495085475302588 0 0 0 0 
2401166666.6666665077 0.175475627183914212325888115629 0.044800296425819396972656250000 0.003080960130318998856785439600 -0.001144361216574907086016010815 0 0 0 0 
2401333333.3333334923 0.175610646605491610428018134371 0.044233817607164382934570312500 0.002937866607680916786193847656 -0.001415099948644638061523437500 0 0 0 0 
2401500000.0000000000 0.175588443875312805175781250000 0.043621417135000228881835937500 0.002785154152661561965942382812 -0.001237301272340119101880717700 0 0 0 0 
2401666666.6666665077 0.175425574183464105804119981258 0.042951047420501708984375000000 0.002647281857207417921779013525 -0.001156283891759813048719096606 0 0 0 0 
2401833333.3333334923 0.175149083137512207031250000000 0.042016662657260901714284528907 0.002787948586046696142909384619 -0.001377591048367321924922324072 0 0 0 0 
2402000000.0000000000 0.174912422895431490799111884371 0.041288472712039947509765625000 0.002495113527402282194850302588 -0.001330956234596670107600546729 0 0 0 0 
2402166666.6666665077 0.174782693386077908614950615629 0.040220655500888817523996721093 0.002378329867497086958644247900 -0.001207526889629662036895751953 0 0 0 0 
2402333333.3333334923 0.174586594104766901214276231258 0.039280444383621222759206403907 0.002254468388855456872227334131 -0.001164995948784052891972207178 0 0 0 0 
2402500000.0000000000 0.174661561846733093261718750000 0.038362380117177963256835937500 0.002305335830897092819213867188 -0.001293732668273150920867919922 0 0 0 0 
2402666666.6666665077 0.174152418971061706542968750000 0.037217412143945687030832658593 0.002057910664007068114039755713 -0.001035689143463969013811420972 0 0 0 0 
2402833333.3333334923 0.173811972141265896896200615629 0.036157246679067611694335937500 0.001991287106648087935206747900 -0.001005026046186685995814658057 0 0 0 0 
2403000000.0000000000 0.173541411757469205001669365629 0.034681163728237152099609375000 0.001988818636164069175720214844 -0.001027458114549518065211630713 0 0 0 0 
2403166666.6666665077 0.173288404941558810135049384371 0.033400055021047592163085937500 0.002092489739879966215846396338 -0.001066534314304590008379292065 0 0 0 0 
2403333333.3333334923 0.172884956002235412597656250000 0.032084688544273383403737653907 0.001947731710970401980756450122 -0.000927266199141740798950195312 0 0 0 0 
2403500000.0000000000 0.172389790415763910491619981258 0.030449781566858291625976562500 0.002137253759428859190699911963 -0.000875271565746515989303588867 0 0 0 0 
2403666666.6666665077 0.172119483351707486251669365629 0.028770552948117259633997733204 0.001923430361784995035884238135 -0.000824840215500444173812866211 0 0 0 0 
2403833333.3333334923 0.171613514423370389083700615629 0.026957852765917781484583670704 0.002120719058439135985133505713 -0.000797381740994751453399658203 0 0 0 0 
2404000000.0000000000 0.171307906508445711990518134371 0.025495158508419990539550781250 0.002162055112421513037440634619 -0.000821171910502016544342041016 0 0 0 0 
2404166666.6666665077 0.171090677380561800857705634371 0.023369427770376208913782889454 0.002213547006249427795410156250 -0.000818909378722310066223144531 0 0 0 0 
2404333333.3333334923 0.170706689357757596114950615629 0.021506501361727721477468122657 0.002299134619534016089198447119 -0.000593374832533299922943115234 0 0 0 0 
2404500000.0000000000 0.170386210083961486816406250000 0.019445709884166720998743826954 0.002381212078034878210780478369 -0.000742066593375056982040405273 0 0 0 0 
2404666666.6666665077 0.170214086771011408050213731258 0.017610799521207809448242187500 0.002376705408096313910243368994 -0.000716884154826402664184570312 0 0 0 0 
2404833333.3333334923 0.169980153441429110428018134371 0.015560138970613479614257812500 0.002452133689075707955601357568 -0.000682378129567950963973999023 0 0 0 0 
2405000000.0000000000 0.169859841465950012207031250000 0.013395753689110280817975429102 0.002721320372074842886683798682 -0.000997009687125682830810546875 0 0 0 0 
2405166666.6666665077 0.169808879494667108733807481258 0.011347034014761449641217616602 0.002702187746763228936436318506 -0.001028210623189806938171386719 0 0 0 0 
2405333333.3333334923 0.169882521033287103850994981258 0.009213915094733238220214843750 0.002809978788718581199645996094 -0.001089487923309206962585449219 0 0 0 0 
2405500000.0000000000 0.169956222176551791092080634371 0.007209839764982461929321289062 0.002713216003030538992640829932 -0.001152141718193889097926474463 0 0 0 0 
2405666666.6666665077 0.170105457305908203125000000000 0.005203972570598126325125409863 0.002752775559201837019679404150 -0.001234274473972619013545370947 0 0 0 0 
2405833333.3333334923 0.170224577188491793533486884371 0.003167571034282445907592773438 0.002785728313028811974766396631 -0.001142136985436082103131938403 0 0 0 0 
2406000000.0000000000 0.170507907867431612869424384371 0.001021919772028923034667968750 0.002779955277219415144679404150 -0.001459738588891922993900918115 0 0 0 0 
2406166666.6666665077 0.170667842030525207519531250000 -0.000915887940209358930587768555 0.002828634344041347937342978369 -0.001541043282486497922184609521 0 0 0 0 
2406333333.3333334923 0.171315357089042691329794365629 -0.003003917168825864791870117188 0.002736648777499794960021972656 -0.001703072106465697071672749097 0 0 0 0 
2406500000.0000000000 0.171711653470992986481036268742 -0.005098890978842973709106445312 0.002866695169359446005580283057 -0.001657290267758070988896035303 0 0 0 0 
2406666666.6666665077 0.172142982482910211761151231258 -0.006860746070742607116699218750 0.002805735683068633079528808594 -0.001840680721215903975843120044 0 0 0 0 
2406833333.3333334923 0.172849223017692593673544365629 -0.008909343741834163665771484375 0.002678881166502832932713173975 -0.001824212260544300079345703125 0 0 0 0 
2407000000.0000000000 0.173552736639976501464843750000 -0.010950855910778050858467302930 0.002729088533669710159301757812 -0.001945556956343353011487651294 0 0 0 0 
2407166666.6666665077 0.174391731619834899902343750000 -0.012632790952920910226842110546 0.002760191448032855987548828125 -0.002224788302555679841282509912 0 0 0 0 
2407333333.3333334923 0.174942687153816195388955634371 -0.014543285593390469986885271680 0.002683280734345316886901855469 -0.002123781945556402206420898438 0 0 0 0 
2407500000.0000000000 0.175622791051864596267861884371 -0.016170173883438110351562500000 0.002795226173475385145900107275 -0.002417343901470303969142294775 0 0 0 0 
2407666666.6666665077 0.176619708538055392166299384371 -0.017759453505277630197545235546 0.002846952062100172042846679688 -0.002537515247240663008448935400 0 0 0 0 
2407833333.3333334923 0.177052259445190401931924384371 -0.019491482526063919067382812500 0.002675182186067103905918740381 -0.002472145715728402137756347656 0 0 0 0 
2408000000.0000000000 0.178015977144241305252236884371 -0.021045148372650149953821951954 0.002757309935986996130702353369 -0.002675608964636921882629394531 0 0 0 0 
2408166666.6666665077 0.178635492920875604827557481258 -0.022381806746125221252441406250 0.002562991110607982115504599463 -0.002734954236075282096862792969 0 0 0 0 
2408333333.3333334923 0.179514303803443908691406250000 -0.023753937333822250366210937500 0.002689156448468565940856933594 -0.002857588930055499076843261719 0 0 0 0 
2408500000.0000000000 0.180134892463684109786825615629 -0.025093931704759601247767264454 0.002600729232653975920436240088 -0.003102287417277694182154990088 0 0 0 0 
2408666666.6666665077 0.180755972862243707854901231258 -0.026395570486783981323242187500 0.002493835519999266104457236182 -0.003331034677103161811828613281 0 0 0 0 
2408833333.3333334923 0.181263342499732998946981865629 -0.027506703510880470275878906250 0.002591578057035803794860839844 -0.003335159504786134199855185400 0 0 0 0 
2409000000.0000000000 0.181841969490051297286825615629 -0.028416201472282409667968750000 0.002402920508757234053370810400 -0.003439111635088921026942587744 0 0 0 0 
2409166666.6666665077 0.182299047708511408050213731258 -0.029342537745833400381068045704 0.002380308927968143983128213037 -0.003732702927663921876194619287 0 0 0 0 
2409333333.3333334923 0.182854682207107488434161268742 -0.030230591073632240295410156250 0.002014530589804052872898720850 -0.003790176007896662192103720557 0 0 0 0 
2409500000.0000000000 0.183184102177619906326455634371 -0.031094215810298919677734375000 0.002003797097131609916687011719 -0.003873659763485192818882607568 0 0 0 0 
2409666666.6666665077 0.183406546711921691894531250000 -0.031600560992956161499023437500 0.001821495825424789948704384912 -0.004091287031769753369803144238 0 0 0 0 
2409833333.3333334923 0.183581769466400201995526231258 -0.032105851918458938598632812500 0.001643888186663388989092182690 -0.004107074346393346786499023438 0 0 0 0 
2410000000.0000000000 0.183983668684959411621093750000 -0.032468438148498542095143903907 0.001615901011973619894740439307 -0.004098069854080677032470703125 0 0 0 0 
2410166666.6666665077 0.184037894010543795486611884371 -0.032960783690214157104492187500 0.001601174240931868986842490088 -0.004213813692331314086914062500 0 0 0 0 
2410333333.3333334923 0.184020757675170898437500000000 -0.033105056732892990112304687500 0.001277939882129430987714457935 -0.004392884671688079833984375000 0 0 0 0 
2410500000.0000000000 0.184090092778205899337606865629 -0.033566057682037346576731096093 0.001167601672932506041285849463 -0.004439217504113912582397460938 0 0 0 0 
2410666666.6666665077 0.183948501944541903396768134371 -0.034107737243175506591796875000 0.001077904482372104904772114331 -0.004659574478864669799804687500 0 0 0 0 
2410833333.3333334923 0.183801412582397488693075615629 -0.034077145159244537353515625000 0.000934602925553917884826660156 -0.004780240356922149658203125000 0 0 0 0 
2411000000.0000000000 0.183490619063377408126669365629 -0.034500934183597571636159528907 0.000712655193638056516647338867 -0.004737063776701688766479492188 0 0 0 0 
2411166666.6666665077 0.183262094855308504959268134371 -0.034783456474542617797851562500 0.000673326023388653993606567383 -0.004882823675870895385742187500 0 0 0 0 
2411333333.3333334923 0.182859957218170193771200615629 -0.035249549895524978637695312500 0.000304368790239095687866210938 -0.004728653002530336380004882812 0 0 0 0 
2411500000.0000000000 0.182084292173385592361611884371 -0.035548824816942221904714216407 0.000275431375484913587570190430 -0.004932675044983625411987304688 0 0 0 0 
2411666666.6666665077 0.181535586714744595626669365629 -0.035883624106645577167551408593 0.000090144414571113884449005127 -0.004957589320838451385498046875 0 0 0 0 
2411833333.3333334923 0.181158214807510403732138115629 -0.036381602287292480468750000000 -0.000145495156175456886917668475 -0.004857939667999744415283203125 0 0 0 0 
2412000000.0000000000 0.180091872811317388336505018742 -0.036683689802885062480886091407 -0.000261786044575273990631103516 -0.004961987491697072982788085938 0 0 0 0 
2412166666.6666665077 0.179026231169700594803018134371 -0.037288118153810501098632812500 -0.000455019791843369603157043457 -0.004915153142064809799194335938 0 0 0 0 
2412333333.3333334923 0.178413331508636502364950615629 -0.037661287933588027954101562500 -0.000559494888875633478164672852 -0.005154617596417666348929120801 0 0 0 0 
2412500000.0000000000 0.177004441618919400314169365629 -0.038312032818794250488281250000 -0.000969353830441832542419433594 -0.004947905428707599639892578125 0 0 0 0 
2412666666.6666665077 0.176072537899017306228799384371 -0.039051670581102371215820312500 -0.000958578195422887802124023438 -0.005254547111690044403076171875 0 0 0 0 
2412833333.3333334923 0.174778714776039095779580634371 -0.040001820772886283184011091407 -0.001201705657877027988433837891 -0.005136479157954454421997070312 0 0 0 0 
2413000000.0000000000 0.173419326543808011154013115629 -0.040575176477432250976562500000 -0.001503641949966550090192485278 -0.005139749962836503982543945312 0 0 0 0 
2413166666.6666665077 0.172113582491874694824218750000 -0.041397653520107269287109375000 -0.001500298967584968046901083838 -0.005002844147384166717529296875 0 0 0 0 
2413333333.3333334923 0.170886591076850891113281250000 -0.042387302964925772930104841407 -0.001666853087954222939134907300 -0.005201893858611583709716796875 0 0 0 0 
2413500000.0000000000 0.169602051377296503265057481258 -0.043430984020233147357981096093 -0.001961287809535861015319824219 -0.005023863632231950759887695312 0 0 0 0 
2413666666.6666665077 0.168341264128684997558593750000 -0.044584728777408599853515625000 -0.002083665691316128210780478369 -0.004869537893682718276977539062 0 0 0 0 
2413833333.3333334923 0.166753619909286499023437500000 -0.045678768306970603252370466407 -0.002491903025656938986537314307 -0.005070076789706945419311523438 0 0 0 0 
2414000000.0000000000 0.165425986051559503753338731258 -0.047042820602655410766601562500 -0.002710424130782485008239746094 -0.004987421911209821701049804688 0 0 0 0 
2414166666.6666665077 0.164338409900665310958700615629 -0.048173326998949050903320312500 -0.002992680529132484956028603662 -0.004815724678337574005126953125 0 0 0 0 
2414333333.3333334923 0.163028582930564908126669365629 -0.049647003412246697162668596093 -0.003335193963721394972560263525 -0.004736939445137977600097656250 0 0 0 0 
2414500000.0000000000 0.162078469991683987716513115629 -0.051178310066461563110351562500 -0.003436531173065305189845419775 -0.004563676659017801284790039062 0 0 0 0 
2414666666.6666665077 0.160757496953010586837606865629 -0.052781350910663611675222028907 -0.003693052334710956053492880713 -0.004352984949946404370779706738 0 0 0 0 
2414833333.3333334923 0.159538045525550786774005018742 -0.054370716214179992675781250000 -0.003798763267695904211757040869 -0.004278215579688549041748046875 0 0 0 0 
2415000000.0000000000 0.158586114645004300216513115629 -0.055924620479345321655273437500 -0.004109174013137817382812500000 -0.003975092433393002423758222363 0 0 0 0 
2415166666.6666665077 0.157679975032806396484375000000 -0.057776991277933120727539062500 -0.004302517045289278030395507812 -0.003919338341802358627319335938 0 0 0 0 
2415333333.3333334923 0.156981751322746304611044365629 -0.059660732746124267578125000000 -0.004546361975371837615966796875 -0.003571030218154191970825195312 0 0 0 0 
2415500000.0000000000 0.156123399734497098068075615629 -0.061345238238573067401926408593 -0.004702358506619930267333984375 -0.003357852343469858169555664062 0 0 0 0 
2415666666.6666665077 0.155318871140480013748330634371 -0.063228189945220947265625000000 -0.004733316134661436080932617188 -0.003286021528765559196472167969 0 0 0 0 
2415833333.3333334923 0.154633626341819790939169365629 -0.065221175551414489746093750000 -0.004929274786263704299926757812 -0.002906759502366185188293457031 0 0 0 0 
2416000000.0000000000 0.154013857245445306975994981258 -0.067113071680068969726562500000 -0.004891434684395790100097656250 -0.002630003029480576948878622900 0 0 0 0 
2416166666.6666665077 0.153590947389602688888388115629 -0.068941995501518249511718750000 -0.004847073927521705627441406250 -0.002355446806177496910095214844 0 0 0 0 
2416333333.3333334923 0.153231859207153292556924384371 -0.070975527167320251464843750000 -0.004889724310487508773803710938 -0.002043128712102770805358886719 0 0 0 0 
2416500000.0000000000 0.152850762009620694259481865629 -0.072968043386936187744140625000 -0.004985385574400424957275390625 -0.001917560352012515068054199219 0 0 0 0 
2416666666.6666665077 0.152486443519592312911825615629 -0.074887372553348541259765625000 -0.005024424288421869277954101562 -0.001529485336504877047297812354 0 0 0 0 
2416833333.3333334923 0.152378708124160794357138115629 -0.077071763575077056884765625000 -0.004989402834326028823852539062 -0.001362267183139920017839741284 0 0 0 0 
2417000000.0000000000 0.151994764804840087890625000000 -0.078747019171714782714843750000 -0.004951938521116971969604492188 -0.001160692307166754982591938550 0 0 0 0 
2417166666.6666665077 0.151969000697135897537393134371 -0.080515868961811065673828125000 -0.004692699760198593139648437500 -0.001078079803846776919123984229 0 0 0 0 
2417333333.3333334923 0.152009159326553289215411268742 -0.082282237708568572998046875000 -0.004667219240218400955200195312 -0.000777322682552039623260498047 0 0 0 0 
2417500000.0000000000 0.151943847537040710449218750000 -0.084153331816196441650390625000 -0.004506900906562805175781250000 -0.000694836140610277652740478516 0 0 0 0 
2417666666.6666665077 0.152234718203544588943643134371 -0.085607610642910003662109375000 -0.004589031916111707687377929688 -0.000514836341608315706253051758 0 0 0 0 
2417833333.3333334923 0.152141571044921902755575615629 -0.087108507752418518066406250000 -0.004525979049503803253173828125 -0.000435245252447202801704406738 0 0 0 0 
2418000000.0000000000 0.152235239744186401367187500000 -0.088689066469669342041015625000 -0.004457233007997274398803710938 -0.000357099634129553979069310321 0 0 0 0 
2418166666.6666665077 0.152331024408340509612713731258 -0.089931190013885498046875000000 -0.004263157490640878677368164062 -0.000200303693418391103118342267 0 0 0 0 
2418333333.3333334923 0.152826160192489596267861884371 -0.091235026717185974121093750000 -0.004303777124732732772827148438 -0.000308625021716579794883728027 0 0 0 0 
2418500000.0000000000 0.152816370129585293868856865629 -0.092308886349201202392578125000 -0.004324304405599833402151777051 -0.000338189653120935017436426984 0 0 0 0 
2418666666.6666665077 0.153229475021362304687500000000 -0.093380048871040344238281250000 -0.004286795854568480577950762012 -0.000084250226791482418775558472 0 0 0 0 
2418833333.3333334923 0.153195336461067199707031250000 -0.094286851584911346435546875000 -0.004296502564102411270141601562 0.000007821814506314694881439209 0 0 0 0 
2419000000.0000000000 0.153397187590599087814169365629 -0.094902195036411285400390625000 -0.004248332232236862182617187500 -0.000106005369161721305407662663 0 0 0 0 
2419166666.6666665077 0.153688862919807406326455634371 -0.095682963728904724121093750000 -0.004475480411201716336722089551 0.000048423673433717340230941772 0 0 0 0 
2419333333.3333334923 0.153636261820793207366619981258 -0.096033759415149688720703125000 -0.004269083961844444274902343750 0.000161298856255598393365582877 0 0 0 0 
2419500000.0000000000 0.154014423489570589920205634371 -0.096716091036796569824218750000 -0.004371952731162309646606445312 0.000375831470591947382122594012 0 0 0 0 
2419666666.6666665077 0.154231801629066495040731865629 -0.097023151814937591552734375000 -0.004457402974367141723632812500 0.000367181404726579785346984863 0 0 0 0 
2419833333.3333334923 0.154315471649169894119424384371 -0.097116716206073760986328125000 -0.004524260293692350387573242188 0.000629445945378392934799194336 0 0 0 0 
