# Hz S RI R 
2400000000.0000000000 0.156140193343162508865518134371 0.105470530688762706428285298443 0.006052326876670122146606445312 0.006646971683949232101440429688 0 0 0 0 
2400166666.6666665077 0.156095147132873507400674384371 0.103102885186672196815571567186 0.006222692783921957015991210938 0.006398586556315422058105468750 0 0 0 0 
2400333333.3333334923 0.156357109546661404708700615629 0.101123169064521803428569057814 0.006505754776298999786376953125 0.005949400365352630615234375000 0 0 0 0 
2400500000.0000000000 0.156539082527160589020098768742 0.098614849150180816650390625000 0.006770320702344179153442382812 0.005794754717499017715454101562 0 0 0 0 
2400666666.6666665077 0.156733036041259793380575615629 0.096393592655658721923828125000 0.007077365182340145111083984375 0.005184473469853401184082031250 0 0 0 0 
2400833333.3333334923 0.156904324889182988922442518742 0.093606196343898773193359375000 0.007217551115900278091430664062 0.004592288751155138015747070312 0 0 0 0 
2401000000.0000000000 0.157255530357360812088174384371 0.091327399015426635742187500000 0.007324768230319023132324218750 0.004418129567056894302368164062 0 0 0 0 
2401166666.6666665077 0.157585799694061307052450615629 0.088521301746368408203125000000 0.007471750956028699874877929688 0.003928218036890029907226562500 0 0 0 0 
2401333333.3333334923 0.157983690500259399414062500000 0.085900865495204925537109375000 0.007429660763591527938842773438 0.003480146173387765884399414062 0 0 0 0 
2401500000.0000000000 0.158663094043731689453125000000 0.083524122834205627441406250000 0.007333919871598482131958007812 0.003159301821142435073852539062 0 0 0 0 
2401666666.6666665077 0.158985584974288912674111884371 0.080891497433185577392578125000 0.007147583179175853729248046875 0.002712652087211608886718750000 0 0 0 0 
2401833333.3333334923 0.159772768616676302810830634371 0.078212961554527282714843750000 0.007245471235364676389212323926 0.002494531450793147087097167969 0 0 0 0 
2402000000.0000000000 0.160624876618385287185830634371 0.075804010033607482910156250000 0.007070026826113461580758379199 0.002194927074015140967128134619 0 0 0 0 
2402166666.6666665077 0.161178097128868103027343750000 0.073454022407531738281250000000 0.007160021923482418060302734375 0.002018871949985622925999306787 0 0 0 0 
2402333333.3333334923 0.162388786673545809646768134371 0.070866748690605163574218750000 0.006787522695958614349365234375 0.001856223680078983090044331128 0 0 0 0 
2402500000.0000000000 0.163309350609779413421307481258 0.068581379950046539306640625000 0.006888228934258222579956054688 0.001790734240785240910173725659 0 0 0 0 
2402666666.6666665077 0.164223626255989102462606865629 0.066535346210002899169921875000 0.006762890610843896865844726562 0.001520017394796014048932719653 0 0 0 0 
2402833333.3333334923 0.165584728121757507324218750000 0.064243309199810028076171875000 0.006787873338907957077026367188 0.001463227206841110966326069409 0 0 0 0 
2403000000.0000000000 0.167018979787826510330361884371 0.061990249902009957050363908593 0.006832662504166364669799804688 0.001077212975360452911974262769 0 0 0 0 
2403166666.6666665077 0.168602854013442993164062500000 0.060043603181838989257812500000 0.006677834782749413576607988574 0.001128701376728713946101523291 0 0 0 0 
2403333333.3333334923 0.169914320111274691482705634371 0.057772371917963027954101562500 0.006766880862414836883544921875 0.001058249850757420063018798828 0 0 0 0 
2403500000.0000000000 0.171329706907272311111611884371 0.055976573377847671508789062500 0.006755965761840344342703534863 0.000838268839288502931594848633 0 0 0 0 
2403666666.6666665077 0.173055455088615389724893134371 0.054334200918674468994140625000 0.006834286265075206756591796875 0.000574224279262125492095947266 0 0 0 0 
2403833333.3333334923 0.174319982528686495681924384371 0.052626844495534896850585937500 0.006669734604656696319580078125 0.000463442265754565596580505371 0 0 0 0 
2404000000.0000000000 0.175778806209564208984375000000 0.050834536552429199218750000000 0.006901663262397050857543945312 0.000241071393247693804189404898 0 0 0 0 
2404166666.6666665077 0.177229896187782287597656250000 0.049451902508735656738281250000 0.006934399250894784927368164062 -0.000153601824422366890028276987 0 0 0 0 
2404333333.3333334923 0.178532913327217102050781250000 0.048026472330093376850168596093 0.007031595334410667419433593750 -0.000418882322264835184246617450 0 0 0 0 
2404500000.0000000000 0.180063590407371493240518134371 0.046472832560539252544362653907 0.007085044868290424346923828125 -0.000620116945356130599975585938 0 0 0 0 
2404666666.6666665077 0.181599557399749811370526231258 0.045498985797166817401926408593 0.006976895034313201904296875000 -0.000899389211554080247879028320 0 0 0 0 
2404833333.3333334923 0.182849153876304598709268134371 0.044331312179565429687500000000 0.006877051200717687606811523438 -0.001173117198050021908403706128 0 0 0 0 
2405000000.0000000000 0.184105306863784790039062500000 0.043699387460947036743164062500 0.006783018354326486587524414062 -0.001413905294612050056457519531 0 0 0 0 
2405166666.6666665077 0.185487359762191800216513115629 0.042994767427444458007812500000 0.006675096228718757629394531250 -0.001708612311631440899492573315 0 0 0 0 
2405333333.3333334923 0.186453863978385897537393134371 0.042270015925168991088867187500 0.006392337381839752197265625000 -0.001792092807590962106820131616 0 0 0 0 
2405500000.0000000000 0.187776729464530889313067518742 0.041748300194740302349050153907 0.006307330448180437088012695312 -0.002048208145424724058863974463 0 0 0 0 
2405666666.6666665077 0.188839927315712002853231865629 0.041238982230424880981445312500 0.006147783715277910232543945312 -0.002221673494204878807067871094 0 0 0 0 
2405833333.3333334923 0.189773768186569213867187500000 0.040832180529832839965820312500 0.005865135695785284042358398438 -0.002386316191405057907104492188 0 0 0 0 
2406000000.0000000000 0.190734550356864901443643134371 0.040515750646591193462331403907 0.005612552631646394729614257812 -0.002510103397071361975428915869 0 0 0 0 
2406166666.6666665077 0.191514834761619595626669365629 0.040090460330247879028320312500 0.005552566144615411758422851562 -0.002603101078420877890345908057 0 0 0 0 
2406333333.3333334923 0.192287474870681790450888115629 0.040047217160463333129882812500 0.005518989637494087219238281250 -0.002868158742785453796386718750 0 0 0 0 
2406500000.0000000000 0.193041861057281494140625000000 0.039817631244659416889231096093 0.005064276047050952911376953125 -0.002802299568429588837864541162 0 0 0 0 
2406666666.6666665077 0.193443268537521390060263115629 0.039603829383850097656250000000 0.004983444698154926300048828125 -0.002786067314445972008946084131 0 0 0 0 
2406833333.3333334923 0.193888917565345791915731865629 0.039406567811965942382812500000 0.004758990369737148284912109375 -0.003004244994372129006626748193 0 0 0 0 
2407000000.0000000000 0.194233462214469909667968750000 0.039422646164894097065012346093 0.004681001417338848114013671875 -0.002865809714421629905700683594 0 0 0 0 
2407166666.6666665077 0.194478139281272888183593750000 0.039094317704439163208007812500 0.004528989549726247787475585938 -0.003009133273735641999485634912 0 0 0 0 
2407333333.3333334923 0.194429531693458612640057481258 0.038950301706790917133371721093 0.004390935413539409637451171875 -0.003012411994859575791599892725 0 0 0 0 
2407500000.0000000000 0.194317713379859896560830634371 0.038882415741682052612304687500 0.004414474591612815856933593750 -0.002714972943067551092860556494 0 0 0 0 
2407666666.6666665077 0.194440513849258395095986884371 0.038490187376737601543386091407 0.004328908864408732327933027051 -0.002775864442810415787937783350 0 0 0 0 
2407833333.3333334923 0.194015651941299410720986884371 0.038194011896848678588867187500 0.004151630681008101377005292676 -0.002862130291759967803955078125 0 0 0 0 
2408000000.0000000000 0.193991020321846008300781250000 0.037912417203187942504882812500 0.004203928168863058090209960938 -0.002803126117214560942408896338 0 0 0 0 
2408166666.6666665077 0.193555384874343899825888115629 0.037509702146053307270090471093 0.004103288985788822174072265625 -0.002928759204223752021789550781 0 0 0 0 
2408333333.3333334923 0.193334549665451105315838731258 0.036744792014360427856445312500 0.004165122751146554946899414062 -0.003042971249669789834263466943 0 0 0 0 
2408500000.0000000000 0.192731171846389798263388115629 0.036345180124044418334960937500 0.004109439440071582794189453125 -0.002844561124220490889308310400 0 0 0 0 
2408666666.6666665077 0.192192956805229187011718750000 0.035617597401142120361328125000 0.004339986946433782577514648438 -0.003014957299455999894383095850 0 0 0 0 
2408833333.3333334923 0.191664963960647610763388115629 0.034836441278457641601562500000 0.004334656521677970886230468750 -0.003086245385929942131042480469 0 0 0 0 
2409000000.0000000000 0.191000580787658691406250000000 0.033922437578439712524414062500 0.004327727481722831726074218750 -0.003105539595708250999450683594 0 0 0 0 
2409166666.6666665077 0.190166920423507690429687500000 0.032705716788768768310546875000 0.004383775871247053146362304688 -0.003256086027249693870544433594 0 0 0 0 
2409333333.3333334923 0.189545676112174987792968750000 0.031788904219865798950195312500 0.004404855892062187194824218750 -0.003507123794406652884242392432 0 0 0 0 
2409500000.0000000000 0.188781172037124606033486884371 0.030413459986448291433314139454 0.004514513071626424789428710938 -0.003576924325898290114161826025 0 0 0 0 
2409666666.6666665077 0.187916263937950106521768134371 0.029158761724829670297642891796 0.004524865187704563140869140625 -0.003756263293325901031494140625 0 0 0 0 
2409833333.3333334923 0.187077686190605191329794365629 0.027623672038316730154017264454 0.004466145299375057220458984375 -0.003920314367860555648803710938 0 0 0 0 
2410000000.0000000000 0.186396256089210510253906250000 0.025998258963227268564244454296 0.004324269946664571762084960938 -0.003905369434505701065063476562 0 0 0 0 
2410166666.6666665077 0.185668244957923889160156250000 0.024284884333610541606862653907 0.004433394409716129302978515625 -0.004401647020131350430960370801 0 0 0 0 
2410333333.3333334923 0.185070753097534207443075615629 0.022584779188036918640136718750 0.004209192935377359390258789062 -0.004496538080275058746337890625 0 0 0 0 
2410500000.0000000000 0.184185728430748013595419365629 0.020755283534526828420618826954 0.004087992478162050247192382812 -0.004767579957842826843261718750 0 0 0 0 
2410666666.6666665077 0.183444470167160006424111884371 0.018775949254631999624232108204 0.004002870060503482818603515625 -0.005008321721106767654418945312 0 0 0 0 
2410833333.3333334923 0.183089241385459899902343750000 0.016462793573737141000767891796 0.003892884124070405960083007812 -0.005235641729086638364309980176 0 0 0 0 
2411000000.0000000000 0.182580575346946688553018134371 0.014725349843502049881904802930 0.003806269960477948188781738281 -0.005299897398799657821655273438 0 0 0 0 
2411166666.6666665077 0.182228073477745111663494981258 0.012563780881464479619036289648 0.003522749058902264075038290869 -0.005614088848233222961425781250 0 0 0 0 
2411333333.3333334923 0.181827768683433504959268134371 0.010192792862653730565081211523 0.003359214868396521048304892432 -0.005690508987754583358764648438 0 0 0 0 
2411500000.0000000000 0.181348517537117004394531250000 0.008060285821557044982910156250 0.003178968559950590133666992188 -0.005899779032915830612182617188 0 0 0 0 
2411666666.6666665077 0.181418091058731106857138115629 0.005853234324604272842407226562 0.002953457180410623984095908057 -0.006021319888532161712646484375 0 0 0 0 
2411833333.3333334923 0.181167930364608792404013115629 0.003709025681018828912022256006 0.002553578699007629914524697412 -0.006150152068585157394409179688 0 0 0 0 
2412000000.0000000000 0.181556046009063692947549384371 0.001337058260105550072313618237 0.002439212286844850020167685400 -0.006361186970025300979614257812 0 0 0 0 
2412166666.6666665077 0.181443870067596407791299384371 -0.000680863449815660715103149414 0.002022226806730031967163085938 -0.006208877544850111007690429688 0 0 0 0 
2412333333.3333334923 0.181702405214309692382812500000 -0.003126394469290972189662314307 0.001873024972155689976335835034 -0.006355871446430683135986328125 0 0 0 0 
2412500000.0000000000 0.182130306959152193924111884371 -0.005291956476867198944091796875 0.001804279047064482948900532300 -0.006389383226633071899414062500 0 0 0 0 
2412666666.6666665077 0.182586714625358609298544365629 -0.007421874906867743405813886426 0.001567283645272254943847656250 -0.006394380703568459424490644238 0 0 0 0 
2412833333.3333334923 0.183239579200744601150674384371 -0.009806689806282520294189453125 0.001522414502687752030016254956 -0.006338017992675304412841796875 0 0 0 0 
2413000000.0000000000 0.183992430567741394042968750000 -0.011844658292829990386962890625 0.001184755237773061015485454028 -0.006515396293252707395071698926 0 0 0 0 
2413166666.6666665077 0.184450790286064203460369981258 -0.013628911226987840479840663477 0.000896164099685847759246826172 -0.006402897648513317108154296875 0 0 0 0 
2413333333.3333334923 0.185550808906555203536825615629 -0.015869893133640289306640625000 0.000667630753014236688613891602 -0.006457922514528036117553710938 0 0 0 0 
2413500000.0000000000 0.186322405934333801269531250000 -0.018008325248956680297851562500 0.000675261428114026784896850586 -0.006534542422741652402395917676 0 0 0 0 
2413666666.6666665077 0.187364608049392700195312500000 -0.019957421347498890268346016796 0.000318481645081192309230250226 -0.006506250705569983396048261426 0 0 0 0 
2413833333.3333334923 0.188287287950515802581463731258 -0.021810390055179599416712576954 0.000164051205501891699716290884 -0.006427720654755830764770507812 0 0 0 0 
2414000000.0000000000 0.189236834645271301269531250000 -0.023672699928283691406250000000 0.000073459130362607538700103760 -0.006558438763022422790527343750 0 0 0 0 
2414166666.6666665077 0.190326556563377408126669365629 -0.025322258472442630422571951954 -0.000107238607597537298076091627 -0.006682014558464288711547851562 0 0 0 0 
2414333333.3333334923 0.191225379705429104904013115629 -0.027241257950663570058802420704 -0.000213003600947558906957349234 -0.006621879059821367263793945312 0 0 0 0 
2414500000.0000000000 0.192404150962829589843750000000 -0.028567068278789520263671875000 -0.000492584891617298126220703125 -0.006588055286556482315063476562 0 0 0 0 
2414666666.6666665077 0.193452879786491394042968750000 -0.029969237744808200490931326954 -0.000690399901941418647766113281 -0.006843564100563526153564453125 0 0 0 0 
2414833333.3333334923 0.194252565503120394607705634371 -0.031319707632064819335937500000 -0.001010775333270430998561240088 -0.006855329498648644361014081738 0 0 0 0 
2415000000.0000000000 0.195098549127578707595986884371 -0.032580252736806869506835937500 -0.001231321250088512897491455078 -0.006980427075177431106567382812 0 0 0 0 
2415166666.6666665077 0.196184605360031100174111884371 -0.033736608922481536865234375000 -0.001720962696708739020703959888 -0.006952412892132998380179120801 0 0 0 0 
2415333333.3333334923 0.197241574525833102127236884371 -0.034748356789350509643554687500 -0.001879793242551385922672890771 -0.007010049186646938323974609375 0 0 0 0 
2415500000.0000000000 0.197995528578758211990518134371 -0.035510990768671042705495466407 -0.002376039512455462975742959131 -0.006866939365863800048828125000 0 0 0 0 
2415666666.6666665077 0.198852613568305996993856865629 -0.036424711346626281738281250000 -0.002566522220149635834934853662 -0.006840170826762914657592773438 0 0 0 0 
2415833333.3333334923 0.199628084897994995117187500000 -0.037066854536533362651784528907 -0.002924307715147734122035361182 -0.006583031266927719116210937500 0 0 0 0 
2416000000.0000000000 0.200046971440315302093182481258 -0.037917625159025192260742187500 -0.003316806396469473838806152344 -0.006563662551343441009521484375 0 0 0 0 
2416166666.6666665077 0.200706049799919100662393134371 -0.038497630506753921508789062500 -0.003642052644863725142237997900 -0.006149869877845048904418945312 0 0 0 0 
2416333333.3333334923 0.201037526130676297286825615629 -0.038987722247838967060129533593 -0.003857234027236700057983398438 -0.006187241058796644210815429688 0 0 0 0 
2416500000.0000000000 0.201408132910728510100994981258 -0.039362750947475433349609375000 -0.004312761127948760986328125000 -0.005728101357817649841308593750 0 0 0 0 
2416666666.6666665077 0.201570913195610101897869981258 -0.039960812777280807495117187500 -0.004393497947603464126586914062 -0.005551577080041170120239257812 0 0 0 0 
2416833333.3333334923 0.201712623238563509842080634371 -0.040079254657030112529714216407 -0.004762289579957723617553710938 -0.005275332834571599960327148438 0 0 0 0 
2417000000.0000000000 0.201713621616363497635049384371 -0.040403101593255996704101562500 -0.004756002686917781829833984375 -0.004968926776200532913208007812 0 0 0 0 
2417166666.6666665077 0.201259732246398898025674384371 -0.040439419448375701904296875000 -0.004834237974137067794799804688 -0.004703320097178220748901367188 0 0 0 0 
2417333333.3333334923 0.201097548007965087890625000000 -0.040452290326356887817382812500 -0.004872923251241446408743573926 -0.004428033716976642608642578125 0 0 0 0 
2417500000.0000000000 0.200838014483451787750567518742 -0.040617730468511581420898437500 -0.005069665610790252685546875000 -0.004151831846684218320364667676 0 0 0 0 
2417666666.6666665077 0.200244262814521789550781250000 -0.040592100471258163452148437500 -0.004951525013893842697143554688 -0.003884442383423448042628622900 0 0 0 0 
2417833333.3333334923 0.199894189834594698806924384371 -0.040683846920728676532785783593 -0.004908329807221890363211347363 -0.003664457472041248841526650537 0 0 0 0 
2418000000.0000000000 0.199296325445175198654013115629 -0.040587205439805977558176408593 -0.005058201961219310760498046875 -0.003552314825356007055995322119 0 0 0 0 
2418166666.6666665077 0.198519036173820495605468750000 -0.040764246135950088500976562500 -0.004933891352266073226928710938 -0.003195882774889469146728515625 0 0 0 0 
2418333333.3333334923 0.197616726160049410720986884371 -0.040798947215080261230468750000 -0.004989457316696643829345703125 -0.003213258692994713783264160156 0 0 0 0 
2418500000.0000000000 0.196733191609382601638955634371 -0.041132286190986633300781250000 -0.005014725029468536376953125000 -0.002953274874016643004176474463 0 0 0 0 
2418666666.6666665077 0.196004003286361694335937500000 -0.040966026484966278076171875000 -0.004986895713955163955688476562 -0.002797008957713841958286904443 0 0 0 0 
2418833333.3333334923 0.194831818342208890060263115629 -0.041422255337238311767578125000 -0.004949008580297231674194335938 -0.002729339059442282156703329932 0 0 0 0 
2419000000.0000000000 0.193695709109306307693643134371 -0.041660506278276436542551408593 -0.005013637244701386365408612988 -0.002622886793687940077540732275 0 0 0 0 
2419166666.6666665077 0.192649900913238497635049384371 -0.042221512645483016967773437500 -0.004979370627552270889282226562 -0.002463510027155280113220214844 0 0 0 0 
2419333333.3333334923 0.191412329673767089843750000000 -0.042821545153856277465820312500 -0.005060784984380006790161132812 -0.002252716338261961936950683594 0 0 0 0 
2419500000.0000000000 0.190213769674301202972088731258 -0.043410807847976691509206403907 -0.005087795201689004898071289062 -0.002162211108952761130092001807 0 0 0 0 
2419666666.6666665077 0.188775986433029202560263115629 -0.044197767972946166992187500000 -0.005187609232962132367605878613 -0.001998378662392497062683105469 0 0 0 0 
2419833333.3333334923 0.187474757432937594314736884371 -0.044969480484724051738698591407 -0.005209829192608594894409179688 -0.001979496097192167802097939600 0 0 0 0 
