# Version 1.00
#
freq[Hz];re:Trc1_S11;im:Trc1_S11;re:Trc2_S21;im:Trc2_S21;
2.400000000000000E+009;1.574982851743698E-001;6.298707425594330E-002;-1.685442985035479E-003;-5.662352778017521E-004;
2.400166666666667E+009;1.571790426969528E-001;6.151756271719933E-002;-1.580698066391051E-003;-5.293104914017022E-004;
2.400333333333334E+009;1.572100222110748E-001;5.944198369979858E-002;-1.415987964719534E-003;-5.194920231588185E-004;
2.400500000000000E+009;1.571681797504425E-001;5.741905048489571E-002;-1.562869059853256E-003;-3.681202651932836E-004;
2.400666666666667E+009;1.571770459413528E-001;5.546229332685471E-002;-1.452666590921581E-003;-3.846506588160992E-004;
2.400833333333334E+009;1.573957949876785E-001;5.336412414908409E-002;-1.429387368261814E-003;-4.954957403242588E-004;
2.401000000000000E+009;1.574069708585739E-001;5.126635357737541E-002;-1.491174101829529E-003;-3.393832594156265E-004;
2.401166666666667E+009;1.576678305864334E-001;4.921137541532517E-002;-1.272677327506244E-003;-4.305800830479711E-004;
2.401333333333334E+009;1.580282598733902E-001;4.703038558363915E-002;-1.395171857438982E-003;-4.502675146795809E-004;
2.401500000000000E+009;1.581510603427887E-001;4.499242827296257E-002;-1.281434786505997E-003;-5.324538797140122E-004;
2.401666666666667E+009;1.585101932287216E-001;4.293419793248177E-002;-1.157489838078618E-003;-3.357586683705449E-004;
2.401833333333334E+009;1.590600609779358E-001;4.096899181604385E-002;-1.258543110452592E-003;-2.994106325786561E-004;
2.402000000000000E+009;1.592051684856415E-001;3.897022083401680E-002;-1.133578130975366E-003;-4.644040600396693E-004;
2.402166666666667E+009;1.599414944648743E-001;3.672682121396065E-002;-1.202340237796307E-003;-6.431789952330291E-004;
2.402333333333334E+009;1.606098711490631E-001;3.498557209968567E-002;-1.334895263426006E-003;-5.122661823406816E-004;
2.402500000000000E+009;1.613186746835709E-001;3.314478695392609E-002;-1.179239363409579E-003;-5.692515987902880E-004;
2.402666666666667E+009;1.620415449142456E-001;3.130722418427467E-002;-1.261244062334299E-003;-4.557615320663899E-004;
2.402833333333334E+009;1.629430204629898E-001;2.961955219507217E-002;-1.313949585892260E-003;-6.804355070926249E-004;
2.403000000000000E+009;1.636482477188110E-001;2.801752835512161E-002;-1.326963305473328E-003;-4.979380755685270E-004;
2.403166666666667E+009;1.646855771541596E-001;2.642383053898811E-002;-1.454709214158356E-003;-5.359462811611593E-004;
2.403333333333334E+009;1.656579971313477E-001;2.499053440988064E-002;-1.632495783269405E-003;-4.563328984659165E-004;
2.403500000000000E+009;1.667466014623642E-001;2.363517507910729E-002;-1.580927404575050E-003;-5.832270253449678E-004;
2.403666666666667E+009;1.675351560115814E-001;2.229997515678406E-002;-1.466420595534146E-003;-6.858889828436077E-004;
2.403833333333334E+009;1.685995012521744E-001;2.095044590532780E-002;-1.700411085039377E-003;-5.246826913207769E-004;
2.404000000000000E+009;1.695321947336197E-001;1.969436556100845E-002;-1.527559594251216E-003;-5.086228484287858E-004;
2.404166666666667E+009;1.705762743949890E-001;1.867323555052280E-002;-1.627189340069890E-003;-4.267829062882811E-004;
2.404333333333334E+009;1.714479625225067E-001;1.776429638266563E-002;-1.838104333728552E-003;-2.914719516411424E-004;
2.404500000000000E+009;1.724618673324585E-001;1.671708002686501E-002;-1.770670409314334E-003;-3.095304709859192E-004;
2.404666666666667E+009;1.734225302934647E-001;1.588085293769836E-002;-1.945107127539814E-003;-1.844604557845742E-004;
2.404833333333334E+009;1.743815243244171E-001;1.526150200515986E-002;-1.970783574506640E-003;-9.865888569038361E-005;
2.405000000000000E+009;1.752659231424332E-001;1.447924226522446E-002;-2.084258943796158E-003;-1.046379766194150E-004;
2.405166666666667E+009;1.761121749877930E-001;1.397951412945986E-002;-1.982981571927667E-003;-4.019766038254602E-006;
2.405333333333334E+009;1.769834756851196E-001;1.320994738489389E-002;-1.979249529540539E-003;8.094450458884239E-005;
2.405500000000000E+009;1.777332574129105E-001;1.292169932276011E-002;-1.899831113405526E-003;2.713189169298858E-004;
2.405666666666667E+009;1.783860325813294E-001;1.246224716305733E-002;-1.905718003399670E-003;3.790963673964143E-004;
2.405833333333334E+009;1.787874996662140E-001;1.221686135977507E-002;-1.965382602065802E-003;3.372104838490486E-004;
2.406000000000000E+009;1.795415133237839E-001;1.183759514242411E-002;-1.863172161392868E-003;4.930190043523908E-004;
2.406166666666667E+009;1.797889620065689E-001;1.154655218124390E-002;-1.834966009482741E-003;5.110611091367900E-004;
2.406333333333334E+009;1.804006546735764E-001;1.121430285274983E-002;-1.780092832632363E-003;7.692700601182878E-004;
2.406500000000000E+009;1.805265247821808E-001;1.101534254848957E-002;-1.696784282103181E-003;8.551898645237088E-004;
2.406666666666667E+009;1.805390268564224E-001;1.079829502850771E-002;-1.636605476960540E-003;8.270711405202746E-004;
2.406833333333334E+009;1.809195429086685E-001;1.053811516612768E-002;-1.595949404872954E-003;9.583100909367204E-004;
2.407000000000000E+009;1.809838712215424E-001;1.011758949607611E-002;-1.581099582836032E-003;8.743102080188692E-004;
2.407166666666667E+009;1.809223145246506E-001;9.895206429064274E-003;-1.559152849949896E-003;8.875253843143582E-004;
2.407333333333334E+009;1.807795763015747E-001;9.451864287257195E-003;-1.377097796648741E-003;7.823536288924515E-004;
2.407500000000000E+009;1.804661750793457E-001;9.098103269934654E-003;-1.390047720633447E-003;9.043858735822141E-004;
2.407666666666667E+009;1.802740693092346E-001;8.654822595417500E-003;-1.296958304010332E-003;9.523835033178330E-004;
2.407833333333334E+009;1.796959042549133E-001;8.074781857430935E-003;-1.146128284744918E-003;9.351794724352658E-004;
2.408000000000000E+009;1.793575733900070E-001;7.321412675082684E-003;-1.192151219584048E-003;9.658022318035364E-004;
2.408166666666667E+009;1.789552122354507E-001;6.764934398233891E-003;-1.136050443165004E-003;9.208491537719965E-004;
2.408333333333334E+009;1.786057204008102E-001;5.990372505038977E-003;-1.177280559204519E-003;9.635040769353509E-004;
2.408500000000000E+009;1.780215352773666E-001;5.328291095793247E-003;-1.147945295087993E-003;9.048632928170264E-004;
2.408666666666667E+009;1.772775202989578E-001;4.233094397932291E-003;-1.077000983059406E-003;8.395556360483170E-004;
2.408833333333334E+009;1.765630990266800E-001;3.330627921968699E-003;-9.406747412867844E-004;9.559908066876233E-004;
2.409000000000000E+009;1.758496612310410E-001;2.371063921600580E-003;-1.033936627209187E-003;7.726736948825419E-004;
2.409166666666667E+009;1.752203404903412E-001;1.112537924200296E-003;-1.070986152626574E-003;7.778212311677635E-004;
2.409333333333334E+009;1.746530085802078E-001;-5.210667222854681E-005;-1.026974408887327E-003;6.525178905576468E-004;
2.409500000000000E+009;1.738951653242111E-001;-1.600364805199206E-003;-9.134032879956067E-004;8.770379936322570E-004;
2.409666666666667E+009;1.730730682611466E-001;-2.852590521797538E-003;-1.155607867985964E-003;8.962071733549237E-004;
2.409833333333334E+009;1.722939312458038E-001;-4.384282045066357E-003;-9.171642013825476E-004;9.204273228533566E-004;
2.410000000000000E+009;1.717884391546249E-001;-5.781946703791618E-003;-1.064887270331383E-003;8.910299511626363E-004;
2.410166666666667E+009;1.711983233690262E-001;-7.505423389375210E-003;-1.055003260262311E-003;8.662551990710199E-004;
2.410333333333334E+009;1.704117506742477E-001;-9.198687039315701E-003;-1.128861797042191E-003;7.790219387970865E-004;
2.410500000000000E+009;1.699446141719818E-001;-1.092386431992054E-002;-1.051172963343561E-003;1.042951829731464E-003;
2.410666666666667E+009;1.694195121526718E-001;-1.276729069650173E-002;-1.174642471596599E-003;9.805837180465460E-004;
2.410833333333334E+009;1.690091341733933E-001;-1.462855841964483E-002;-1.188730821013451E-003;8.877575746737421E-004;
2.411000000000000E+009;1.686198562383652E-001;-1.660245843231678E-002;-1.154966303147376E-003;1.087518059648573E-003;
2.411166666666667E+009;1.683164238929749E-001;-1.845150813460350E-002;-9.895070688799024E-004;9.470086079090834E-004;
2.411333333333334E+009;1.679645627737045E-001;-2.035601064562798E-002;-1.082409173250198E-003;1.037353300489485E-003;
2.411500000000000E+009;1.678375899791718E-001;-2.252897806465626E-002;-1.001101452857256E-003;1.136118662543595E-003;
2.411666666666667E+009;1.680594086647034E-001;-2.442273870110512E-002;-8.854678017087281E-004;1.210148795507848E-003;
2.411833333333334E+009;1.678480952978134E-001;-2.631528303027153E-002;-1.116034691222012E-003;1.190054812468588E-003;
2.412000000000000E+009;1.678922772407532E-001;-2.841888926923275E-002;-1.076897606253624E-003;1.312090083956718E-003;
2.412166666666667E+009;1.680188179016113E-001;-3.033171966671944E-002;-1.104177092202008E-003;1.330910250544548E-003;
2.412333333333334E+009;1.683587580919266E-001;-3.224803134799004E-002;-9.551534312777221E-004;1.248750020749867E-003;
2.412500000000000E+009;1.684737205505371E-001;-3.426738828420639E-002;-9.412643848918378E-004;1.408574404194951E-003;
2.412666666666667E+009;1.689596772193909E-001;-3.607382997870445E-002;-9.722317336127162E-004;1.350143342278898E-003;
2.412833333333334E+009;1.693629622459412E-001;-3.803590685129166E-002;-9.164664661511779E-004;1.458856626413763E-003;
2.413000000000000E+009;1.698837578296661E-001;-3.968129679560661E-002;-8.340390049852431E-004;1.425240538083017E-003;
2.413166666666667E+009;1.700783073902130E-001;-4.144918173551559E-002;-8.119518170133233E-004;1.532017369754612E-003;
2.413333333333334E+009;1.705575138330460E-001;-4.321755841374397E-002;-8.635384147055447E-004;1.635988825000823E-003;
2.413500000000000E+009;1.713000535964966E-001;-4.476682841777802E-002;-7.233347860164940E-004;1.479185884818435E-003;
2.413666666666667E+009;1.718472689390183E-001;-4.636997729539871E-002;-5.117388209328055E-004;1.626354060135782E-003;
2.413833333333334E+009;1.723119169473648E-001;-4.795101284980774E-002;-5.879294476471841E-004;1.596972811967135E-003;
2.414000000000000E+009;1.729476898908615E-001;-4.936203360557556E-002;-4.776700516231358E-004;1.487249159254134E-003;
2.414166666666667E+009;1.735512167215347E-001;-5.059216544032097E-002;-5.747579853050411E-004;1.731671858578920E-003;
2.414333333333334E+009;1.740285307168961E-001;-5.188185349106789E-002;-3.764779539778829E-004;1.667225966230035E-003;
2.414500000000000E+009;1.749228984117508E-001;-5.282386019825935E-002;-4.217022506054491E-004;1.631155726499856E-003;
2.414666666666667E+009;1.753144711256027E-001;-5.391691252589226E-002;-2.155838592443615E-004;1.680522109381855E-003;
2.414833333333334E+009;1.757224798202515E-001;-5.495273694396019E-002;-2.462760603521019E-004;1.582007273100317E-003;
2.415000000000000E+009;1.761977374553680E-001;-5.561515688896179E-002;-1.897400070447475E-004;1.556939794681966E-003;
2.415166666666667E+009;1.766533106565476E-001;-5.642136931419373E-002;-1.441634813090786E-004;1.620128983631730E-003;
2.415333333333334E+009;1.771676987409592E-001;-5.712842196226120E-002;-2.432354667689651E-004;1.526087522506714E-003;
2.415500000000000E+009;1.774597615003586E-001;-5.770957469940186E-002;-1.370366808259860E-004;1.680510584264994E-003;
2.415666666666667E+009;1.777347475290299E-001;-5.812835320830345E-002;-9.312343900091946E-005;1.626402721740305E-003;
2.415833333333334E+009;1.779515445232391E-001;-5.854975804686546E-002;-1.382729242322967E-004;1.460505882278085E-003;
2.416000000000000E+009;1.780579239130020E-001;-5.902246385812759E-002;1.211382623296231E-004;1.561073004268110E-003;
2.416166666666667E+009;1.783245056867600E-001;-5.937553942203522E-002;5.322753349901177E-005;1.535076065920293E-003;
2.416333333333334E+009;1.781004518270493E-001;-5.956581234931946E-002;1.419290201738477E-004;1.629482489079237E-003;
2.416500000000000E+009;1.781112253665924E-001;-5.992958322167397E-002;8.262119081337005E-005;1.424702582880855E-003;
2.416666666666667E+009;1.778268665075302E-001;-6.011532247066498E-002;-9.331793989986181E-005;1.504185725934804E-003;
2.416833333333334E+009;1.776353716850281E-001;-6.041360646486282E-002;-7.425397052429617E-005;1.537389354780316E-003;
2.417000000000000E+009;1.771940439939499E-001;-6.062544882297516E-002;-3.389314224477857E-005;1.477547571994364E-003;
2.417166666666667E+009;1.766456365585327E-001;-6.065594032406807E-002;8.088643517112359E-005;1.535762683488429E-003;
2.417333333333334E+009;1.761650592088699E-001;-6.089423224329948E-002;1.648311626922805E-005;1.498539000749588E-003;
2.417500000000000E+009;1.754690706729889E-001;-6.124083697795868E-002;-3.467583837846178E-006;1.448016730137169E-003;
2.417666666666667E+009;1.748679876327515E-001;-6.118629500269890E-002;2.856285573216155E-005;1.473907148465514E-003;
2.417833333333334E+009;1.739798486232758E-001;-6.158022955060005E-002;1.130673117586412E-004;1.676977262832224E-003;
2.418000000000000E+009;1.730359643697739E-001;-6.186291202902794E-002;-5.275621879263781E-005;1.487287227064371E-003;
2.418166666666667E+009;1.720016151666641E-001;-6.206950545310974E-002;-7.453027501469478E-005;1.606795703992248E-003;
2.418333333333334E+009;1.712159663438797E-001;-6.247112900018692E-002;1.160894171334803E-004;1.498307334259152E-003;
2.418500000000000E+009;1.701501905918121E-001;-6.289141625165939E-002;4.731095759780146E-005;1.599066192284226E-003;
2.418666666666667E+009;1.689286530017853E-001;-6.333854049444199E-002;7.636163354618475E-005;1.535195740871131E-003;
2.418833333333334E+009;1.676580458879471E-001;-6.393439322710037E-002;8.431715832557529E-005;1.702861860394478E-003;
2.419000000000000E+009;1.664389669895172E-001;-6.454316526651382E-002;-5.170779786567437E-007;1.762278960086405E-003;
2.419166666666667E+009;1.654160320758820E-001;-6.516550481319428E-002;1.042840449372307E-004;1.811790280044079E-003;
2.419333333333334E+009;1.638480126857758E-001;-6.571470201015472E-002;1.896927715279162E-004;1.729398034512997E-003;
2.419500000000000E+009;1.628423780202866E-001;-6.674979627132416E-002;1.990134187508375E-004;2.004384994506836E-003;
2.419666666666667E+009;1.616408377885819E-001;-6.762927025556564E-002;1.546024432172999E-004;2.084573497995734E-003;
2.419833333333334E+009;1.602993011474609E-001;-6.854792684316635E-002;1.522867678431794E-004;2.172593725845218E-003;
2.420000000000000E+009;1.592221856117249E-001;-6.950295716524124E-002;2.708604151848704E-004;2.067233901470900E-003;
2.420166666666667E+009;1.580368280410767E-001;-7.070966064929962E-002;3.440799191594124E-004;2.127548912540078E-003;
2.420333333333334E+009;1.570329219102860E-001;-7.214570045471191E-002;5.476485821418464E-004;2.185803139582276E-003;
2.420500000000000E+009;1.559755355119705E-001;-7.326538860797882E-002;4.833014681935310E-004;2.269671997055411E-003;
2.420666666666667E+009;1.549155563116074E-001;-7.442080974578857E-002;6.432607187889516E-004;2.372396178543568E-003;
2.420833333333334E+009;1.541272103786469E-001;-7.589572668075562E-002;8.595439139753580E-004;2.229262143373489E-003;
2.421000000000000E+009;1.532679796218872E-001;-7.760301232337952E-002;8.953323704190552E-004;2.470797393471003E-003;
2.421166666666667E+009;1.525060981512070E-001;-7.882262021303177E-002;9.885758627206087E-004;2.653464442119002E-003;
2.421333333333334E+009;1.518523395061493E-001;-8.065890520811081E-002;1.091159065254033E-003;2.493700478225946E-003;
2.421500000000000E+009;1.510604470968247E-001;-8.211964368820190E-002;1.244468847289681E-003;2.405853709205985E-003;
2.421666666666667E+009;1.506845802068710E-001;-8.379467576742172E-002;1.285306061618030E-003;2.543963724747300E-003;
2.421833333333334E+009;1.504310220479965E-001;-8.555978536605835E-002;1.591945881955326E-003;2.510221442207694E-003;
2.422000000000000E+009;1.500019729137421E-001;-8.722582459449768E-002;1.438153558410704E-003;2.384085208177567E-003;
2.422166666666667E+009;1.495788544416428E-001;-8.917228877544403E-002;1.753359450958669E-003;2.318801358342171E-003;
2.422333333333334E+009;1.495914459228516E-001;-9.071616828441620E-002;2.018365077674389E-003;2.347838599234819E-003;
2.422500000000000E+009;1.494103968143463E-001;-9.233032166957855E-002;1.990540418773890E-003;2.294488018378615E-003;
2.422666666666667E+009;1.492768377065659E-001;-9.422779083251953E-002;2.264263574033976E-003;2.198412083089352E-003;
2.422833333333334E+009;1.495363563299179E-001;-9.599369764328003E-002;2.474850509315729E-003;2.142045181244612E-003;
2.423000000000000E+009;1.497118324041367E-001;-9.753909707069397E-002;2.508183009922504E-003;1.955236075446010E-003;
2.423166666666667E+009;1.499565541744232E-001;-9.924206137657166E-002;2.572658238932490E-003;1.813624287024140E-003;
2.423333333333334E+009;1.503284275531769E-001;-1.007714048027992E-001;2.663710853084922E-003;1.826114137656987E-003;
2.423500000000000E+009;1.505998075008392E-001;-1.023423895239830E-001;2.860618056729436E-003;1.736745238304138E-003;
2.423666666666667E+009;1.507329642772675E-001;-1.040736138820648E-001;3.031176282092929E-003;1.400617999024689E-003;
2.423833333333334E+009;1.514140665531158E-001;-1.054132729768753E-001;2.973662223666906E-003;1.318867667578161E-003;
2.424000000000000E+009;1.517440378665924E-001;-1.066276058554649E-001;3.100982401520014E-003;1.314219785854220E-003;
2.424166666666667E+009;1.521633863449097E-001;-1.080150976777077E-001;3.016637405380607E-003;1.147471019066870E-003;
2.424333333333334E+009;1.527850031852722E-001;-1.091819182038307E-001;3.180019557476044E-003;7.822595071047545E-004;
2.424500000000000E+009;1.533278971910477E-001;-1.103606522083283E-001;3.134152851998806E-003;8.343064109794796E-004;
2.424666666666667E+009;1.539706587791443E-001;-1.112207099795342E-001;3.172987606376410E-003;5.980106070637703E-004;
2.424833333333334E+009;1.542031466960907E-001;-1.124885007739067E-001;3.291108878329396E-003;5.047591403126717E-004;
2.425000000000000E+009;1.548246592283249E-001;-1.132889986038208E-001;3.204868175089359E-003;3.961235051974654E-004;
2.425166666666667E+009;1.549086123704910E-001;-1.141143068671227E-001;3.259679768234491E-003;2.598603605292738E-004;
2.425333333333334E+009;1.555881351232529E-001;-1.148031577467918E-001;3.054624889045954E-003;1.129737211158499E-004;
2.425500000000000E+009;1.559348553419113E-001;-1.155108809471130E-001;3.154336474835873E-003;-1.784823980415240E-004;
2.425666666666667E+009;1.561672985553742E-001;-1.161187961697578E-001;3.094225190579891E-003;-2.295221056556329E-004;
2.425833333333334E+009;1.564589589834213E-001;-1.166152805089951E-001;3.040629206225276E-003;-2.772194275166839E-004;
2.426000000000000E+009;1.566415876150131E-001;-1.170864328742027E-001;2.938183955848217E-003;-4.599049862008542E-004;
2.426166666666667E+009;1.568831652402878E-001;-1.174878925085068E-001;3.060974879190326E-003;-4.451443674042821E-004;
2.426333333333334E+009;1.569161117076874E-001;-1.176959723234177E-001;2.902136417105794E-003;-5.203792825341225E-004;
2.426500000000000E+009;1.569303423166275E-001;-1.178676337003708E-001;2.739687915891409E-003;-7.385165081359446E-004;
2.426666666666667E+009;1.569723337888718E-001;-1.180281862616539E-001;2.672138158231974E-003;-7.602667901664972E-004;
2.426833333333334E+009;1.567963063716888E-001;-1.181855872273445E-001;2.623300068080425E-003;-8.022008696570993E-004;
2.427000000000000E+009;1.563317179679871E-001;-1.185069531202316E-001;2.408232074230909E-003;-8.074048091657460E-004;
2.427166666666667E+009;1.560464799404144E-001;-1.184827387332916E-001;2.619872102513909E-003;-8.125028689391911E-004;
2.427333333333334E+009;1.554551571607590E-001;-1.185323968529701E-001;2.511263592168689E-003;-9.124969947151840E-004;
2.427500000000000E+009;1.550274640321732E-001;-1.186872348189354E-001;2.510750200599432E-003;-9.494909318163991E-004;
2.427666666666667E+009;1.543626785278320E-001;-1.187666058540344E-001;2.464838325977325E-003;-1.127507421188057E-003;
2.427833333333334E+009;1.534398049116135E-001;-1.187681332230568E-001;2.282860921695828E-003;-1.004566322080791E-003;
