# Hz S RI R 
2400000000.0000000000 0.167738273739814813811932481258 0.041182059794664382934570312500 -0.000874853343702852725982666016 -0.003542635822668672041652060400 0 0 0 0 
2400166666.6666665077 0.168210655450820895095986884371 0.040584038943052291870117187500 -0.000940586614888161420822143555 -0.003701136214658617973327636719 0 0 0 0 
2400333333.3333334923 0.168623700737953213790731865629 0.039522886276245117187500000000 -0.001251459005288779952405620044 -0.003582404926419258117675781250 0 0 0 0 
2400500000.0000000000 0.169162884354591397384481865629 0.038700200617313391948659528907 -0.001455363701097667000414204175 -0.003491912735626101927516318213 0 0 0 0 
2400666666.6666665077 0.169508814811706487457598768742 0.037603456526994712139089216407 -0.001671216217800975062726664966 -0.003561730962246655984165810693 0 0 0 0 
2400833333.3333334923 0.169859722256660489181356865629 0.036888409405946731567382812500 -0.001784244552254677035688090747 -0.003299808828160167174098349463 0 0 0 0 
2401000000.0000000000 0.170169100165367098709268134371 0.035799846053123467182199846093 -0.001987936208024621009826660156 -0.003234795294702053070068359375 0 0 0 0 
2401166666.6666665077 0.170188739895820589920205634371 0.034802537411451339721679687500 -0.002180334180593491034266806494 -0.003174757817760109901428222656 0 0 0 0 
2401333333.3333334923 0.170465588569641113281250000000 0.033986642956733696674387346093 -0.002210395410656929016113281250 -0.002921828068792819976806640625 0 0 0 0 
2401500000.0000000000 0.170562788844108609298544365629 0.033075388520956039428710937500 -0.002585627138614654974696493994 -0.002843597671017051176783896338 0 0 0 0 
2401666666.6666665077 0.170814380049705505371093750000 0.032259706407785422588307966407 -0.002744019730016589164733886719 -0.002604296663776040077209472656 0 0 0 0 
2401833333.3333334923 0.171004042029380798339843750000 0.031285062432289116596262346093 -0.002805334748700261116027832031 -0.002504957374185324148890829932 0 0 0 0 
2402000000.0000000000 0.170698210597038296798544365629 0.030398771166801449167271798046 -0.002989833010360598997828818213 -0.002311251126229763031005859375 0 0 0 0 
2402166666.6666665077 0.170897334814071710784588731258 0.029300495982170108449915701954 -0.003015540773048996925354003906 -0.001991717610508203940150595557 0 0 0 0 
2402333333.3333334923 0.170896261930465698242187500000 0.028544589877128601074218750000 -0.002850600518286228179931640625 -0.001873407978564501025556254810 0 0 0 0 
2402500000.0000000000 0.171129837632179288009481865629 0.027453979477286338806152343750 -0.002928938250988721847534179688 -0.001546836225315928892848349463 0 0 0 0 
2402666666.6666665077 0.171095550060272189041299384371 0.026474943384528160095214843750 -0.002888244809582829909083701025 -0.001350939041003585078595805591 0 0 0 0 
2402833333.3333334923 0.170956149697303799728231865629 0.025403171777725219726562500000 -0.002769339364022016958949423682 -0.001137707382440567016601562500 0 0 0 0 
2403000000.0000000000 0.170917510986328097244424384371 0.024221742525696750986119454296 -0.002921144710853695869445800781 -0.000954554649069905281066894531 0 0 0 0 
2403166666.6666665077 0.170941412448883112151776231258 0.023211637511849399911900704296 -0.002677356824278831915614462744 -0.000849775969982147216796875000 0 0 0 0 
2403333333.3333334923 0.171025127172470092773437500000 0.022065214812755591655690778907 -0.002561277477070689201354980469 -0.000681393838021904230117797852 0 0 0 0 
2403500000.0000000000 0.170880243182182312011718750000 0.021008893847465518606165701954 -0.002303689252585173086879111182 -0.000617923273239284753799438477 0 0 0 0 
2403666666.6666665077 0.170879215002059908767861884371 0.019606970250606540334681326954 -0.002324682660400867895839072119 -0.000496396329253911972045898438 0 0 0 0 
2403833333.3333334923 0.170764848589897211272869981258 0.018336834385991099966028983204 -0.002387485234066843986511230469 -0.000547533389180898666381835938 0 0 0 0 
2404000000.0000000000 0.170725643634796087066973768742 0.017239095643162730825403983204 -0.002241051523014903068542480469 -0.000469016435090452378422337665 0 0 0 0 
2404166666.6666665077 0.170592248439788790603799384371 0.015783917158842090261439139454 -0.002137036295607686042785644531 -0.000462765747215598821640014648 0 0 0 0 
2404333333.3333334923 0.170521318912506103515625000000 0.014602039940655229741106602148 -0.001991720171645284132716513525 -0.000338584213750436902046203613 0 0 0 0 
2404500000.0000000000 0.170384019613265991210937500000 0.013049063272774219512939453125 -0.001975622726604342894313193213 -0.000564374553505331277847290039 0 0 0 0 
2404666666.6666665077 0.170404598116874694824218750000 0.011777179315686229360560233204 -0.001999493921175599098205566406 -0.000440056552179157679707127704 0 0 0 0 
2404833333.3333334923 0.170521542429924011230468750000 0.010317797772586349142054373829 -0.001999092521145939826965332031 -0.000437409995356574708789271222 0 0 0 0 
2405000000.0000000000 0.170423060655593899825888115629 0.008803405798971652984619140625 -0.001810727291740477085113525391 -0.000480852613691240603297633038 0 0 0 0 
2405166666.6666665077 0.170566216111183194259481865629 0.007328976877033711347098066113 -0.001844863872975111007690429688 -0.000514934072270989418029785156 0 0 0 0 
2405333333.3333334923 0.170463353395462008377236884371 0.005668723955750465393066406250 -0.001926735392771661064745258862 -0.000547758419997990131378173828 0 0 0 0 
2405500000.0000000000 0.170536279678344698806924384371 0.004235568456351757049560546875 -0.001996252685785294012782431494 -0.000608286354690790176391601562 0 0 0 0 
2405666666.6666665077 0.170452117919921902755575615629 0.002672991715371609167811728369 -0.001937614404596387906315468896 -0.000334610638674348592758178711 0 0 0 0 
2405833333.3333334923 0.170342937111854608733807481258 0.001270465785637497901916503906 -0.001876261318102478981018066406 -0.000506396347191184759140014648 0 0 0 0 
2406000000.0000000000 0.170389026403427096267861884371 -0.000487137120217084884643554688 -0.001959321787580848173854208838 -0.000406301638577133417129516602 0 0 0 0 
2406166666.6666665077 0.170114517211914090255575615629 -0.001864951802417635917663574219 -0.001952796359546482996699667822 -0.000361474609235301613807678223 0 0 0 0 
2406333333.3333334923 0.170223698019981412032919365629 -0.003461494343355298042297363281 -0.001858707633800805048701620947 -0.000282807362964376807212829590 0 0 0 0 
2406500000.0000000000 0.170059561729431207854901231258 -0.005011507309973239898681640625 -0.001942500588484108014347695459 -0.000412458146456628983646947040 0 0 0 0 
2406666666.6666665077 0.169821619987487792968750000000 -0.006395336240530014038085937500 -0.001913210377097130038617778247 -0.000084367122326511889696121216 0 0 0 0 
2406833333.3333334923 0.169841378927230807205361884371 -0.007969385012984275817871093750 -0.001936173415742814974543906104 -0.000103588739875704104274195538 0 0 0 0 
2407000000.0000000000 0.169640585780143710037393134371 -0.009403309784829616546630859375 -0.001878860406577586910845112378 -0.000260600383626297116279602051 0 0 0 0 
2407166666.6666665077 0.169491186738014193435830634371 -0.010688671842217450577705584180 -0.001760739483870566108106303638 -0.000252710771746933514445704327 0 0 0 0 
2407333333.3333334923 0.169306337833404513260049384371 -0.012191568501293659210205078125 -0.001677212771028280041338276440 -0.000265930459136143326759338379 0 0 0 0 
2407500000.0000000000 0.169207960367202786544638115629 -0.013276793994009499985664568555 -0.001726985559798777103424072266 -0.000327646208461373990208226337 0 0 0 0 
2407666666.6666665077 0.169041007757186889648437500000 -0.014538154937326909846295741602 -0.001649994635954499027849506909 -0.000362099061021581292152404785 0 0 0 0 
2407833333.3333334923 0.168736547231674194335937500000 -0.015607082284986969339390938671 -0.001685716677457093975664448315 -0.000461218733107671087414342059 0 0 0 0 
2408000000.0000000000 0.168624997138977106292401231258 -0.016791095957159999502161795704 -0.001851809443905950026271201025 -0.000565928872674703598022460938 0 0 0 0 
2408166666.6666665077 0.168553307652473505218182481258 -0.017718890681862831115722656250 -0.001855381764471530914306640625 -0.000609537062700837850570678711 0 0 0 0 
2408333333.3333334923 0.168718308210372897049111884371 -0.018691496923565871501882185157 -0.002006748691201210021972656250 -0.000644541461952030658721923828 0 0 0 0 
2408500000.0000000000 0.168598011136054992675781250000 -0.019679514691233638418177420704 -0.001981041394174098968505859375 -0.000689773412887006998062133789 0 0 0 0 
2408666666.6666665077 0.168571650981903103927450615629 -0.020494032651185989379882812500 -0.002157531445845962004420615088 -0.000664902327116578817367553711 0 0 0 0 
2408833333.3333334923 0.168487653136253412444744981258 -0.021383168175816539419153983204 -0.002324579982087016105651855469 -0.000654189556371420621871948242 0 0 0 0 
2409000000.0000000000 0.168491333723068209549111884371 -0.022197255864739421499232108204 -0.002551009645685553984401083838 -0.000652763468679040670394897461 0 0 0 0 
2409166666.6666665077 0.168633073568344088455361884371 -0.023212663829326629638671875000 -0.002520815702155231995823525537 -0.000430952262831851785809117450 0 0 0 0 
2409333333.3333334923 0.168856352567672701736611884371 -0.024017089977860450744628906250 -0.002678110962733625931980752100 -0.000383951613912358880043029785 0 0 0 0 
2409500000.0000000000 0.168910428881645202636718750000 -0.025076488032937049865722656250 -0.002673940500244497819187783350 -0.000249434437137097120285034180 0 0 0 0 
2409666666.6666665077 0.168777242302894592285156250000 -0.025983856990933418273925781250 -0.002802394097670913176295615088 -0.000081482845416758209466934204 0 0 0 0 
2409833333.3333334923 0.168817803263664301116619981258 -0.026691563427448269235631173046 -0.002882519736886024908778525244 -0.000032324067433364689350128174 0 0 0 0 
2410000000.0000000000 0.168926879763603210449218750000 -0.027613375335931781423548514454 -0.002970588859170674844029091943 -0.000029927548894193020055090257 0 0 0 0 
2410166666.6666665077 0.168995633721351595779580634371 -0.028415592387318611145019531250 -0.003081530332565308050868368994 0.000252295460086315924495142804 0 0 0 0 
2410333333.3333334923 0.168909147381782503982705634371 -0.029406549409031871450403983204 -0.003191471332684158845188759912 0.000409254076657816821902674542 0 0 0 0 
2410500000.0000000000 0.168950259685516412933026231258 -0.030205801129341128957728201954 -0.003111945930868386788609170068 0.000503491144627332687377929688 0 0 0 0 
2410666666.6666665077 0.168626278638839693924111884371 -0.031268771737813949584960937500 -0.003251498099416493935825966943 0.000553967605810612440109252930 0 0 0 0 
2410833333.3333334923 0.168604537844657897949218750000 -0.032019637525081641460378278907 -0.003202752443030477003810263525 0.000780149188358336687088012695 0 0 0 0 
2411000000.0000000000 0.168549284338951110839843750000 -0.032942220568656921386718750000 -0.003147452604025601907017373193 0.001014765584841371016261435400 0 0 0 0 
2411166666.6666665077 0.168300777673721313476562500000 -0.033851079642772681499440778907 -0.003152671502903103828430175781 0.000896847050171345472335815430 0 0 0 0 
2411333333.3333334923 0.168006673455238286774005018742 -0.034760478883981711650807966407 -0.003073172876611351966857910156 0.001085407682694494941114116138 0 0 0 0 
2411500000.0000000000 0.167727991938591003417968750000 -0.035672791302204132080078125000 -0.002948942827060819105861044775 0.001251409412361681895015097510 0 0 0 0 
2411666666.6666665077 0.167659088969230707366619981258 -0.036537770181894302368164062500 -0.003080092603340744972229003906 0.001451530726626514954807900537 0 0 0 0 
2411833333.3333334923 0.167531743645668002029580634371 -0.037464082241058349609375000000 -0.002994775539264082908630371094 0.001389090088196099021314311450 0 0 0 0 
2412000000.0000000000 0.167230010032653808593750000000 -0.038450554013252258300781250000 -0.002971324604004621939418173682 0.001469150185585021972656250000 0 0 0 0 
2412166666.6666665077 0.166774556040763910491619981258 -0.039337202906608581542968750000 -0.002951889066025615172145224463 0.001644149655476212935206747900 0 0 0 0 
2412333333.3333334923 0.166838258504867609222088731258 -0.040209546685218811035156250000 -0.003012594766914844946620322119 0.001865917001850903034210205078 0 0 0 0 
2412500000.0000000000 0.166277825832366887848223768742 -0.041233781725168228149414062500 -0.002896805759519339041468954932 0.002149738371372222900390625000 0 0 0 0 
2412666666.6666665077 0.166163250803947504241619981258 -0.042405113577842712402343750000 -0.002901113359257578849792480469 0.002302777022123336791992187500 0 0 0 0 
2412833333.3333334923 0.165761739015579195877236884371 -0.043321661651134490966796875000 -0.002901023253798484802246093750 0.002410432323813437981846474756 0 0 0 0 
2413000000.0000000000 0.165292501449584988693075615629 -0.044412545859813690185546875000 -0.002669171197339891953709267725 0.002659961814060806794407509912 0 0 0 0 
2413166666.6666665077 0.164962559938430786132812500000 -0.045551057904958731914479841407 -0.002704439219087361855747841943 0.002739231800660490989685058594 0 0 0 0 
2413333333.3333334923 0.164338186383247403243856865629 -0.046659458428621292114257812500 -0.002640750259160995917079306494 0.002903817920014262199401855469 0 0 0 0 
2413500000.0000000000 0.164000064134597806075888115629 -0.047781739383935928344726562500 -0.002559151733294128937962197412 0.003032594686374067826512002100 0 0 0 0 
2413666666.6666665077 0.163731783628463800628338731258 -0.048623446375131607055664062500 -0.002328746253624558015110634912 0.003264971310272812843322753906 0 0 0 0 
2413833333.3333334923 0.162978231906890896896200615629 -0.049664475023746490478515625000 -0.002311349846422671838047646631 0.003432208206504582925083779443 0 0 0 0 
2414000000.0000000000 0.162657365202903803069744981258 -0.050826866179704673076589216407 -0.001968960277736186981201171875 0.003556100884452462196350097656 0 0 0 0 
2414166666.6666665077 0.162338599562644986251669365629 -0.051626931875944137573242187500 -0.002000251086428761915919638525 0.003659757552668451829197548975 0 0 0 0 
2414333333.3333334923 0.161874443292617797851562500000 -0.052753329277038567279856096093 -0.001622855197638273022295307690 0.003748207353055477142333984375 0 0 0 0 
2414500000.0000000000 0.161764577031135586837606865629 -0.053764481097459793090820312500 -0.001538290409371257045148539966 0.003846755018457769913914345850 0 0 0 0 
2414666666.6666665077 0.161440178751945495605468750000 -0.054638974368572242046315778907 -0.001191507675684988932368613135 0.003901097225025296211242675781 0 0 0 0 
2414833333.3333334923 0.161111235618591308593750000000 -0.055746000260114669799804687500 -0.000825026712846010923385620117 0.003908666782081127166748046875 0 0 0 0 
2415000000.0000000000 0.160899832844734191894531250000 -0.056699760258197777484934221093 -0.000726578640751540660858154297 0.003936049062758684158325195312 0 0 0 0 
2415166666.6666665077 0.160751029849052401443643134371 -0.057889778167009346698801408593 -0.000426704238634556477696019305 0.003892475739121437072753906250 0 0 0 0 
2415333333.3333334923 0.160762846469879205901776231258 -0.058874841779470436786692033593 -0.000264752772636711597442626953 0.003798222402110695838928222656 0 0 0 0 
2415500000.0000000000 0.160496637225151089767294365629 -0.060026098042726516723632812500 -0.000082615311839617788791656494 0.003798327874392271041870117188 0 0 0 0 
2415666666.6666665077 0.160388663411140386383380018742 -0.061074465513229370117187500000 0.000219642650336027199595850812 0.003590151434764266014099121094 0 0 0 0 
2415833333.3333334923 0.160399854183196993728799384371 -0.062361668795347206806223283593 0.000305193476378917694091796875 0.003616661066189407868626259912 0 0 0 0 
2416000000.0000000000 0.160026699304580688476562500000 -0.063505865633487701416015625000 0.000542387424502521753311157227 0.003355398308485745949986123193 0 0 0 0 
2416166666.6666665077 0.160088866949081393142861884371 -0.064760610461235046386718750000 0.000617664598394185304641723633 0.003341482719406485991237021338 0 0 0 0 
2416333333.3333334923 0.159772261977195711990518134371 -0.065717086195945739746093750000 0.000677944335620850324630737305 0.003322182456031442122218466650 0 0 0 0 
2416500000.0000000000 0.159456536173820495605468750000 -0.067090921103954315185546875000 0.000693988346029072999954223633 0.003145280061289668083190917969 0 0 0 0 
2416666666.6666665077 0.159236833453178405761718750000 -0.068175554275512695312500000000 0.000789725629147142171859741211 0.003050143364816904067993164062 0 0 0 0 
2416833333.3333334923 0.159238234162330599685830634371 -0.069425918161869049072265625000 0.000834309437777847051620483398 0.002804552204906940893885947119 0 0 0 0 
2417000000.0000000000 0.158540219068527193924111884371 -0.070528268814086914062500000000 0.001041388837620615959167480469 0.002918648067861794991734170068 0 0 0 0 
2417166666.6666665077 0.158349499106407193282919365629 -0.071495093405246734619140625000 0.001022377982735634066938090747 0.002680515404790639877319335938 0 0 0 0 
2417333333.3333334923 0.158068478107452392578125000000 -0.072472237050533294677734375000 0.001082946779206394932390522534 0.002588700503110886053798056494 0 0 0 0 
2417500000.0000000000 0.157772526144981412032919365629 -0.073498107492923736572265625000 0.001080805086530745029449462891 0.002422313904389739036560058594 0 0 0 0 
2417666666.6666665077 0.157540068030357388595419365629 -0.074349358677864074707031250000 0.001019681920297444083570170825 0.002195620676502584977390908350 0 0 0 0 
2417833333.3333334923 0.157214358448982211013955634371 -0.075201742351055145263671875000 0.001121416804380714893341064453 0.002251761034131050109863281250 0 0 0 0 
2418000000.0000000000 0.156800866127014187911825615629 -0.076168000698089599609375000000 0.001071232371032238006591796875 0.002132907044142485098597861182 0 0 0 0 
2418166666.6666665077 0.156581699848175104339276231258 -0.076792411506175994873046875000 0.001047107274644077041028666919 0.002106758067384361787083291162 0 0 0 0 
2418333333.3333334923 0.156480282545089693924111884371 -0.077726423740386962890625000000 0.000867802125867456197738647461 0.002104146173223853111267089844 0 0 0 0 
2418500000.0000000000 0.156066238880157498458700615629 -0.078552424907684326171875000000 0.000919856305699795484542846680 0.002066229935735464096069335938 0 0 0 0 
2418666666.6666665077 0.155873984098434503753338731258 -0.079291895031929016113281250000 0.000830608478281646966934204102 0.002103221835568546815159463037 0 0 0 0 
2418833333.3333334923 0.155375316739082308670205634371 -0.079968594014644622802734375000 0.001115410006605088927625346606 0.002159287920221685929539345850 0 0 0 0 
2419000000.0000000000 0.154923155903816195388955634371 -0.080816313624382019042968750000 0.001005866914056241945979452979 0.002124756807461380958557128906 0 0 0 0 
2419166666.6666665077 0.154663935303688104827557481258 -0.081310063600540161132812500000 0.000857912702485918998718261719 0.002159215509891510009765625000 0 0 0 0 
2419333333.3333334923 0.154130980372428894042968750000 -0.081849522888660430908203125000 0.000910163566004484891891479492 0.002167586237192153930664062500 0 0 0 0 
2419500000.0000000000 0.153842106461524991134481865629 -0.082783065736293792724609375000 0.001002013799734414057490683447 0.002356191165745257897617959131 0 0 0 0 
2419666666.6666665077 0.153575852513313293457031250000 -0.083301126956939697265625000000 0.001092086895368993065477680737 0.002158259507268666787388466943 0 0 0 0 
2419833333.3333334923 0.153111442923545809646768134371 -0.083807587623596191406250000000 0.001169278752058743996861123193 0.002240294124931097030639648438 0 0 0 0 
