# Version 1.00
#
freq[Hz];re:Trc1_S11;im:Trc1_S11;re:Trc2_S21;im:Trc2_S21;
2.400000000000000E+009;1.683335304260254E-001;4.073708131909370E-002;2.525851363316178E-003;-3.374166844878346E-004;
2.400166666666667E+009;1.687230765819550E-001;3.984759375452995E-002;2.735167043283582E-003;-3.763460263144225E-004;
2.400333333333334E+009;1.691472679376602E-001;3.902505710721016E-002;2.827531890943646E-003;-6.098931771703064E-004;
2.400500000000000E+009;1.697497367858887E-001;3.813508898019791E-002;3.141511930152774E-003;-7.296532858163118E-004;
2.400666666666667E+009;1.700686365365982E-001;3.727586567401886E-002;3.205343615263701E-003;-8.763934019953013E-004;
2.400833333333334E+009;1.704285293817520E-001;3.664636611938477E-002;3.271010937169194E-003;-1.140073523856700E-003;
2.401000000000000E+009;1.707317829132080E-001;3.563276678323746E-002;3.411930520087481E-003;-1.251921756193042E-003;
2.401166666666667E+009;1.709206253290176E-001;3.477168828248978E-002;3.451027441769838E-003;-1.528695807792246E-003;
2.401333333333334E+009;1.710181385278702E-001;3.409212455153465E-002;3.548030741512775E-003;-1.571155502460897E-003;
2.401500000000000E+009;1.712270677089691E-001;3.319869190454483E-002;3.532957285642624E-003;-2.135213464498520E-003;
2.401666666666667E+009;1.714641153812408E-001;3.235489875078201E-002;3.649653168395162E-003;-2.230855636298657E-003;
2.401833333333334E+009;1.715411394834518E-001;3.164202347397804E-002;3.411716083064675E-003;-2.486758632585406E-003;
2.402000000000000E+009;1.713344901800156E-001;3.066408820450306E-002;3.551294561475515E-003;-2.749874023720622E-003;
2.402166666666667E+009;1.713390648365021E-001;2.970825135707855E-002;3.468056209385395E-003;-3.116162028163672E-003;
2.402333333333334E+009;1.713521778583527E-001;2.886339090764523E-002;3.433595644310117E-003;-3.223295323550701E-003;
2.402500000000000E+009;1.716939508914948E-001;2.798251807689667E-002;3.290012478828430E-003;-3.699211869388819E-003;
2.402666666666667E+009;1.715141534805298E-001;2.702350169420242E-002;3.300079144537449E-003;-3.871391527354717E-003;
2.402833333333334E+009;1.714873760938644E-001;2.598881535232067E-002;2.992134541273117E-003;-4.034175537526608E-003;
2.403000000000000E+009;1.714421063661575E-001;2.497169561684132E-002;2.817854750901461E-003;-4.382934886962175E-003;
2.403166666666667E+009;1.711276471614838E-001;2.382319793105125E-002;2.796895336359739E-003;-4.611080512404442E-003;
2.403333333333334E+009;1.710339635610580E-001;2.276878990232945E-002;2.431658329442143E-003;-4.906142596155405E-003;
2.403500000000000E+009;1.708365678787231E-001;2.157015539705753E-002;2.230574144050479E-003;-5.035067908465862E-003;
2.403666666666667E+009;1.709823161363602E-001;2.037791907787323E-002;1.968079246580601E-003;-5.269817542284727E-003;
2.403833333333334E+009;1.707422435283661E-001;1.898926310241222E-002;1.488195615820587E-003;-5.517378449440002E-003;
2.404000000000000E+009;1.706729680299759E-001;1.780534908175468E-002;1.235992647707462E-003;-5.625233054161072E-003;
2.404166666666667E+009;1.705974787473679E-001;1.643590070307255E-002;9.112226543948054E-004;-5.728071555495262E-003;
2.404333333333334E+009;1.703535169363022E-001;1.531247794628143E-002;4.506961267907172E-004;-5.914524197578430E-003;
2.404500000000000E+009;1.701489537954330E-001;1.372060738503933E-002;1.060001450241543E-004;-5.841322708874941E-003;
2.404666666666667E+009;1.703152656555176E-001;1.249040756374598E-002;-1.096087726182304E-004;-5.887450184673071E-003;
2.404833333333334E+009;1.701849102973938E-001;1.101536396890879E-002;-4.744456091430038E-004;-5.927041638642550E-003;
2.405000000000000E+009;1.702544838190079E-001;9.447181597352028E-003;-8.536931127309799E-004;-5.797576624900103E-003;
2.405166666666667E+009;1.701566427946091E-001;7.855875417590141E-003;-1.270737731829286E-003;-5.788658279925585E-003;
2.405333333333334E+009;1.701495498418808E-001;6.236328277736902E-003;-1.629583304747939E-003;-5.707335192710161E-003;
2.405500000000000E+009;1.701005548238754E-001;4.714795853942633E-003;-1.862006611190736E-003;-5.571292713284493E-003;
2.405666666666667E+009;1.701138615608215E-001;2.955879550427198E-003;-2.335349796339870E-003;-5.367786623537540E-003;
2.405833333333334E+009;1.698824465274811E-001;1.509487163275480E-003;-2.448353683575988E-003;-5.105671007186174E-003;
2.406000000000000E+009;1.699092388153076E-001;-3.209275892004371E-004;-2.997630741447210E-003;-4.838259425014257E-003;
2.406166666666667E+009;1.696697622537613E-001;-1.811131020076573E-003;-3.123360686004162E-003;-4.779766313731670E-003;
2.406333333333334E+009;1.698170751333237E-001;-3.516814904287458E-003;-3.370214952155948E-003;-4.238639958202839E-003;
2.406500000000000E+009;1.696746498346329E-001;-5.025757011026144E-003;-3.527511842548847E-003;-4.065795801579952E-003;
2.406666666666667E+009;1.694136708974838E-001;-6.661755964159966E-003;-3.733951598405838E-003;-3.684873692691326E-003;
2.406833333333334E+009;1.692986041307449E-001;-8.239584974944592E-003;-3.859513904899359E-003;-3.364690579473972E-003;
2.407000000000000E+009;1.692748069763184E-001;-9.696743451058865E-003;-3.832305781543255E-003;-3.126618452370167E-003;
2.407166666666667E+009;1.691663712263107E-001;-1.114078611135483E-002;-3.768445225432515E-003;-2.782639814540744E-003;
2.407333333333334E+009;1.688141226768494E-001;-1.262708287686110E-002;-3.929919563233852E-003;-2.429387299343944E-003;
2.407500000000000E+009;1.687805056571960E-001;-1.379738282412291E-002;-3.863239893689752E-003;-2.168947830796242E-003;
2.407666666666667E+009;1.687036901712418E-001;-1.512268278747797E-002;-3.726634895429015E-003;-1.954785780981183E-003;
2.407833333333334E+009;1.683140844106674E-001;-1.649007387459278E-002;-3.753110999241471E-003;-1.822857419028878E-003;
2.408000000000000E+009;1.682168096303940E-001;-1.744833774864674E-002;-3.597075352445245E-003;-1.379156950861216E-003;
2.408166666666667E+009;1.682175546884537E-001;-1.836884394288063E-002;-3.680972848087549E-003;-1.354706822894514E-003;
2.408333333333334E+009;1.685045808553696E-001;-1.936625316739082E-002;-3.463700180873275E-003;-1.135508762672544E-003;
2.408500000000000E+009;1.682611852884293E-001;-2.029541321098805E-002;-3.320403164252639E-003;-9.878999553620815E-004;
2.408666666666667E+009;1.683237403631210E-001;-2.120561152696610E-002;-3.170230193063617E-003;-9.146774536930025E-004;
2.408833333333334E+009;1.682392209768295E-001;-2.220187894999981E-002;-3.076608292758465E-003;-6.956034339964390E-004;
2.409000000000000E+009;1.685720980167389E-001;-2.304320968687534E-002;-2.944306703284383E-003;-5.426328280009329E-004;
2.409166666666667E+009;1.685765534639359E-001;-2.376822382211685E-002;-2.953236456960440E-003;-6.165316444821656E-004;
2.409333333333334E+009;1.688660681247711E-001;-2.482239902019501E-002;-2.826988464221358E-003;-6.790685001760721E-004;
2.409500000000000E+009;1.689873933792114E-001;-2.571414783596993E-002;-2.804378978908062E-003;-5.676494911313057E-004;
2.409666666666667E+009;1.690351516008377E-001;-2.660202607512474E-002;-2.546785864979029E-003;-3.744096611626446E-004;
2.409833333333334E+009;1.690468490123749E-001;-2.743742056190968E-002;-2.498435089364648E-003;-5.533559597097337E-004;
2.410000000000000E+009;1.693010479211807E-001;-2.821368724107742E-002;-2.423846861347556E-003;-4.666463064495474E-004;
2.410166666666667E+009;1.694350242614746E-001;-2.913072146475315E-002;-2.437436953186989E-003;-3.896041016560048E-004;
2.410333333333334E+009;1.693283170461655E-001;-2.986506000161171E-002;-2.434068126603961E-003;-5.257942248135805E-004;
2.410500000000000E+009;1.693103909492493E-001;-3.086466528475285E-002;-2.252021338790655E-003;-5.238062003627420E-004;
2.410666666666667E+009;1.690751910209656E-001;-3.188038244843483E-002;-2.336522564291954E-003;-4.904101951979101E-004;
2.410833333333334E+009;1.692633479833603E-001;-3.255063667893410E-002;-2.248204778879881E-003;-4.794714914169163E-004;
2.411000000000000E+009;1.690065264701843E-001;-3.345070406794548E-002;-2.253533340990543E-003;-4.360861494205892E-004;
2.411166666666667E+009;1.689596474170685E-001;-3.435367345809937E-002;-2.295632148161531E-003;-2.793409221339971E-004;
2.411333333333334E+009;1.685725599527359E-001;-3.519105911254883E-002;-2.183990553021431E-003;-4.359250888228416E-004;
2.411500000000000E+009;1.684796065092087E-001;-3.611454367637634E-002;-2.074806718155742E-003;-3.744121931958944E-004;
2.411666666666667E+009;1.681623011827469E-001;-3.687522932887077E-002;-2.143094083294272E-003;-3.819320409093052E-004;
2.411833333333334E+009;1.680677831172943E-001;-3.765779733657837E-002;-1.896668225526810E-003;-3.974627761635929E-004;
2.412000000000000E+009;1.679498404264450E-001;-3.869763016700745E-002;-1.980088884010911E-003;-3.920105809811503E-004;
2.412166666666667E+009;1.673933118581772E-001;-3.959666192531586E-002;-2.012252341955900E-003;-4.447258543223143E-004;
2.412333333333334E+009;1.673365682363510E-001;-4.037974029779434E-002;-2.209692262113094E-003;-6.323508569039404E-004;
2.412500000000000E+009;1.667817234992981E-001;-4.139989241957665E-002;-2.174727851524949E-003;-5.367477424442768E-004;
2.412666666666667E+009;1.664809882640839E-001;-4.246047511696816E-002;-2.072465606033802E-003;-6.283989641815424E-004;
2.412833333333334E+009;1.660048812627792E-001;-4.321040958166122E-002;-2.296490827575326E-003;-5.665212520398200E-004;
2.413000000000000E+009;1.655999869108200E-001;-4.431943222880364E-002;-2.355975098907948E-003;-5.461473483592272E-004;
2.413166666666667E+009;1.649944931268692E-001;-4.533537477254868E-002;-2.411821158602834E-003;-4.789607482962310E-004;
2.413333333333334E+009;1.645722389221191E-001;-4.635491222143173E-002;-2.431585919111967E-003;-5.246299551799893E-004;
2.413500000000000E+009;1.641955673694611E-001;-4.729880020022392E-002;-2.512238454073668E-003;-5.157247651368380E-004;
2.413666666666667E+009;1.638219505548477E-001;-4.838597029447556E-002;-2.477455651387572E-003;-5.537568358704448E-004;
2.413833333333334E+009;1.632279753684998E-001;-4.928010329604149E-002;-2.626570872962475E-003;-1.959771470865235E-004;
2.414000000000000E+009;1.625648140907288E-001;-5.044816061854363E-002;-2.751257736235857E-003;-4.142085090279579E-004;
2.414166666666667E+009;1.623519062995911E-001;-5.131636187434197E-002;-2.708368701860309E-003;-3.145496884826571E-004;
2.414333333333334E+009;1.618303060531616E-001;-5.226933956146240E-002;-2.862618304789066E-003;-2.869361778721213E-004;
2.414500000000000E+009;1.617543846368790E-001;-5.322169885039330E-002;-2.867013448849320E-003;-1.412069686921313E-004;
2.414666666666667E+009;1.611274778842926E-001;-5.428439378738403E-002;-2.892166376113892E-003;5.949706246610731E-005;
2.414833333333334E+009;1.609559357166290E-001;-5.535646528005600E-002;-2.893585013225675E-003;-1.991560384340119E-005;
2.415000000000000E+009;1.607127040624619E-001;-5.639234185218811E-002;-2.976476913318038E-003;2.067390596494079E-004;
2.415166666666667E+009;1.604012846946716E-001;-5.745403841137886E-002;-3.000030759721994E-003;3.055061388295144E-004;
2.415333333333334E+009;1.603074073791504E-001;-5.866837128996849E-002;-2.876111539080739E-003;3.332417400088161E-004;
2.415500000000000E+009;1.601717323064804E-001;-5.963093787431717E-002;-2.904457272961736E-003;5.229073576629162E-004;
2.415666666666667E+009;1.599183976650238E-001;-6.079818680882454E-002;-3.077148459851742E-003;4.410840338096023E-004;
2.415833333333334E+009;1.597644090652466E-001;-6.197184324264526E-002;-3.071203827857971E-003;6.896667182445526E-004;
2.416000000000000E+009;1.594350337982178E-001;-6.327276676893234E-002;-3.062075236812234E-003;5.878348601981998E-004;
2.416166666666667E+009;1.594894379377365E-001;-6.446474790573120E-002;-3.078393172472715E-003;8.200405281968415E-004;
2.416333333333334E+009;1.592079401016235E-001;-6.572452932596207E-002;-3.055111039429903E-003;7.767200586386025E-004;
2.416500000000000E+009;1.587710827589035E-001;-6.693618744611740E-002;-2.915768185630441E-003;8.101571002043784E-004;
2.416666666666667E+009;1.585988551378250E-001;-6.816059350967407E-002;-3.035193542018533E-003;1.156894606538117E-003;
2.416833333333334E+009;1.583895534276962E-001;-6.947216391563416E-002;-3.040945390239358E-003;1.326451892964542E-003;
2.417000000000000E+009;1.578515917062759E-001;-7.062378525733948E-002;-3.059752983972430E-003;1.311308937147260E-003;
2.417166666666667E+009;1.577450782060623E-001;-7.158114761114121E-002;-2.931424183771014E-003;1.578479772433639E-003;
2.417333333333334E+009;1.573249995708466E-001;-7.257192581892014E-002;-3.017263719812036E-003;1.624920521862805E-003;
2.417500000000000E+009;1.569993197917938E-001;-7.377421855926514E-002;-2.873816061764956E-003;1.806224929168820E-003;
2.417666666666667E+009;1.567274332046509E-001;-7.459913194179535E-002;-2.837454434484243E-003;1.987164374440908E-003;
2.417833333333334E+009;1.565155535936356E-001;-7.527793943881989E-002;-2.663663821294904E-003;2.018419327214360E-003;
2.418000000000000E+009;1.561373770236969E-001;-7.633847743272781E-002;-2.646433655172586E-003;2.143707824870944E-003;
2.418166666666667E+009;1.558813303709030E-001;-7.700397819280624E-002;-2.419808181002736E-003;2.263638190925121E-003;
2.418333333333334E+009;1.558865010738373E-001;-7.799727469682694E-002;-2.387524815276265E-003;2.313175471499562E-003;
2.418500000000000E+009;1.555332839488983E-001;-7.872055470943451E-002;-2.199073787778616E-003;2.492299536243081E-003;
2.418666666666667E+009;1.553370058536530E-001;-7.955829054117203E-002;-2.128320746123791E-003;2.338263439014554E-003;
2.418833333333334E+009;1.548998653888702E-001;-8.044316619634628E-002;-1.902232063002884E-003;2.446138300001621E-003;
2.419000000000000E+009;1.544850319623947E-001;-8.102919161319733E-002;-1.928948797285557E-003;2.305369125679135E-003;
2.419166666666667E+009;1.543546020984650E-001;-8.173890411853790E-002;-1.968696713447571E-003;2.318810205906630E-003;
2.419333333333334E+009;1.538894176483154E-001;-8.214034885168076E-002;-1.751490635797381E-003;2.369385212659836E-003;
2.419500000000000E+009;1.534667909145355E-001;-8.299201726913452E-002;-1.703630667179823E-003;2.255984814837575E-003;
2.419666666666667E+009;1.532438397407532E-001;-8.366687595844269E-002;-1.667329226620495E-003;2.306482288986445E-003;
2.419833333333334E+009;1.527746021747589E-001;-8.396869152784348E-002;-1.653298735618591E-003;2.251169877126813E-003;
2.420000000000000E+009;1.527856141328812E-001;-8.471507579088211E-002;-1.648195669986308E-003;2.263552043586969E-003;
2.420166666666667E+009;1.522433310747147E-001;-8.515961468219757E-002;-1.621535280719400E-003;2.410667482763529E-003;
2.420333333333334E+009;1.520810723304749E-001;-8.568736910820007E-002;-1.597650116309524E-003;2.234462182968855E-003;
2.420500000000000E+009;1.516329944133759E-001;-8.610597997903824E-002;-1.647514523938298E-003;2.412637695670128E-003;
2.420666666666667E+009;1.512145996093750E-001;-8.673909306526184E-002;-1.521608559414744E-003;2.322780434042215E-003;
2.420833333333334E+009;1.509578824043274E-001;-8.723875880241394E-002;-1.596105168573558E-003;2.567001618444920E-003;
2.421000000000000E+009;1.503438353538513E-001;-8.805821090936661E-002;-1.498995698057115E-003;2.630095696076751E-003;
2.421166666666667E+009;1.500875949859619E-001;-8.870905637741089E-002;-1.510363654233515E-003;2.663869410753250E-003;
2.421333333333334E+009;1.496476978063583E-001;-8.939827233552933E-002;-1.574789173901081E-003;2.706849249079824E-003;
2.421500000000000E+009;1.489987522363663E-001;-8.987277001142502E-002;-1.395313767716289E-003;2.809620695188642E-003;
2.421666666666667E+009;1.485331952571869E-001;-9.060657769441605E-002;-1.221459358930588E-003;2.925559878349304E-003;
2.421833333333334E+009;1.481280773878098E-001;-9.132028371095657E-002;-1.257873489521444E-003;2.969897352159023E-003;
2.422000000000000E+009;1.473846733570099E-001;-9.198600053787231E-002;-1.123181893490255E-003;3.097107401117683E-003;
2.422166666666667E+009;1.467091143131256E-001;-9.301321953535080E-002;-1.068775891326368E-003;3.239860525354743E-003;
2.422333333333334E+009;1.462997645139694E-001;-9.343313425779343E-002;-1.019046525470913E-003;3.222745144739747E-003;
2.422500000000000E+009;1.454632729291916E-001;-9.409172832965851E-002;-7.788191433064640E-004;3.372262464836240E-003;
2.422666666666667E+009;1.447240561246872E-001;-9.506805986166000E-002;-7.456319290213287E-004;3.357379930093885E-003;
2.422833333333334E+009;1.442302614450455E-001;-9.592249244451523E-002;-7.009211694821715E-004;3.429662203416228E-003;
2.423000000000000E+009;1.436671763658524E-001;-9.657882899045944E-002;-5.984605522826314E-004;3.435387508943677E-003;
2.423166666666667E+009;1.429964154958725E-001;-9.748231619596481E-002;-3.991227422375232E-004;3.475137054920197E-003;
2.423333333333334E+009;1.424232870340347E-001;-9.831215441226959E-002;-4.186302830930799E-004;3.344463184475899E-003;
2.423500000000000E+009;1.416474133729935E-001;-9.932523965835571E-002;-2.556120161898434E-004;3.439045744016767E-003;
2.423666666666667E+009;1.409030109643936E-001;-1.003615483641625E-001;-6.077254511183128E-005;3.394994419068098E-003;
2.423833333333334E+009;1.402312517166138E-001;-1.012961864471436E-001;1.726340851746500E-004;3.405882278457284E-003;
2.424000000000000E+009;1.395951509475708E-001;-1.021541208028793E-001;-1.363482006127015E-004;3.559340490028262E-003;
2.424166666666667E+009;1.387975364923477E-001;-1.031339094042778E-001;4.542951865005307E-005;3.513957373797894E-003;
2.424333333333334E+009;1.382584571838379E-001;-1.040414050221443E-001;2.713770372793078E-004;3.628387814387679E-003;
2.424500000000000E+009;1.377134323120117E-001;-1.050212234258652E-001;3.640654904302210E-004;3.584423568099737E-003;
2.424666666666667E+009;1.371303349733353E-001;-1.059008091688156E-001;4.187312733847648E-004;3.661826718598604E-003;
2.424833333333334E+009;1.364178657531738E-001;-1.070486605167389E-001;7.422000053338707E-004;3.550090594217181E-003;
2.425000000000000E+009;1.359466165304184E-001;-1.080777719616890E-001;6.828702753409743E-004;3.574196482077241E-003;
2.425166666666667E+009;1.352063268423080E-001;-1.090329587459564E-001;6.172006251290441E-004;3.556390060111880E-003;
2.425333333333334E+009;1.348047852516174E-001;-1.099386960268021E-001;1.142640248872340E-003;3.656734712421894E-003;
2.425500000000000E+009;1.342491805553436E-001;-1.110218986868858E-001;1.027488382533193E-003;3.535922849550843E-003;
2.425666666666667E+009;1.336364150047302E-001;-1.119803637266159E-001;1.241474645212293E-003;3.565943101420999E-003;
2.425833333333334E+009;1.331410259008408E-001;-1.130483224987984E-001;1.426205621100962E-003;3.536064410582185E-003;
2.426000000000000E+009;1.327295750379562E-001;-1.140686273574829E-001;1.581964083015919E-003;3.515163436532021E-003;
2.426166666666667E+009;1.323824226856232E-001;-1.149970591068268E-001;1.659015193581581E-003;3.458267543464899E-003;
2.426333333333334E+009;1.318909972906113E-001;-1.159643903374672E-001;1.792783034034073E-003;3.494818462058902E-003;
2.426500000000000E+009;1.315031051635742E-001;-1.168624460697174E-001;2.175977220758796E-003;3.399988403543830E-003;
2.426666666666667E+009;1.311864703893662E-001;-1.177000850439072E-001;2.088651061058044E-003;3.245925065129995E-003;
2.426833333333334E+009;1.307577043771744E-001;-1.186269000172615E-001;2.311793854460120E-003;3.094394225627184E-003;
2.427000000000000E+009;1.302801817655563E-001;-1.195525676012039E-001;2.503249328583479E-003;3.037684829905629E-003;
2.427166666666667E+009;1.298547089099884E-001;-1.201981231570244E-001;2.476669615134597E-003;2.962282625958324E-003;
2.427333333333334E+009;1.295498907566071E-001;-1.209608614444733E-001;2.702640602365136E-003;2.873894525691867E-003;
2.427500000000000E+009;1.294353753328323E-001;-1.217615976929665E-001;2.918456215411425E-003;2.752437023445964E-003;
2.427666666666667E+009;1.290737241506577E-001;-1.224836856126785E-001;2.920486265793443E-003;2.541657304391265E-003;
