# Version 1.00
#
freq[Hz];re:Trc1_S11;im:Trc1_S11;re:Trc2_S21;im:Trc2_S21;
2.400000000000000E+009;1.586568504571915E-001;6.291993707418442E-002;-5.385265685617924E-004;-3.312615444883704E-003;
2.400166666666667E+009;1.584717482328415E-001;6.130728870630264E-002;-5.869407905265689E-004;-3.360404400154948E-003;
2.400333333333334E+009;1.583112180233002E-001;5.939553678035736E-002;-9.108487865887582E-004;-3.414324484765530E-003;
2.400500000000000E+009;1.582376956939697E-001;5.754279345273972E-002;-7.551528979092836E-004;-3.510781563818455E-003;
2.400666666666667E+009;1.581332236528397E-001;5.559529736638069E-002;-6.870129145681858E-004;-3.443482331931591E-003;
2.400833333333334E+009;1.581987291574478E-001;5.358123779296875E-002;-7.678742986172438E-004;-3.346285782754421E-003;
2.401000000000000E+009;1.584105640649796E-001;5.163088068366051E-002;-1.041384064592421E-003;-3.440688597038388E-003;
2.401166666666667E+009;1.582299917936325E-001;4.941747710108757E-002;-1.046615303494036E-003;-3.537844168022275E-003;
2.401333333333334E+009;1.584569066762924E-001;4.728356003761292E-002;-1.173492986708880E-003;-3.501332597807050E-003;
2.401500000000000E+009;1.587800830602646E-001;4.524981975555420E-002;-1.124771195463836E-003;-3.559503937140107E-003;
2.401666666666667E+009;1.590104699134827E-001;4.334669187664986E-002;-1.463076798245311E-003;-3.655982436612248E-003;
2.401833333333334E+009;1.592524498701096E-001;4.112696647644043E-002;-1.479797298088670E-003;-3.678310895338655E-003;
2.402000000000000E+009;1.596278995275497E-001;3.913815692067146E-002;-1.525640604086220E-003;-3.685611998662353E-003;
2.402166666666667E+009;1.600596755743027E-001;3.702066093683243E-002;-1.612774096429348E-003;-3.738826140761375E-003;
2.402333333333334E+009;1.604578197002411E-001;3.519324585795403E-002;-1.824973151087761E-003;-3.766403999179602E-003;
2.402500000000000E+009;1.614664793014526E-001;3.330920264124870E-002;-1.893466920591891E-003;-3.761071711778641E-003;
2.402666666666667E+009;1.619120091199875E-001;3.139537945389748E-002;-1.935725100338459E-003;-3.749598283320665E-003;
2.402833333333334E+009;1.627106815576553E-001;2.970931492745876E-002;-2.210408449172974E-003;-3.729327814653516E-003;
2.403000000000000E+009;1.634066253900528E-001;2.800564840435982E-002;-2.349812071770430E-003;-3.898522816598415E-003;
2.403166666666667E+009;1.642309278249741E-001;2.639718167483807E-002;-2.576680388301611E-003;-3.632315667346120E-003;
2.403333333333334E+009;1.651847511529923E-001;2.482751570641995E-002;-2.714767120778561E-003;-3.735267557203770E-003;
2.403500000000000E+009;1.658716499805450E-001;2.341170608997345E-002;-3.089832840487361E-003;-3.513263305649161E-003;
2.403666666666667E+009;1.669572591781616E-001;2.190532721579075E-002;-3.212118055671454E-003;-3.608099417760968E-003;
2.403833333333334E+009;1.679662466049194E-001;2.077024430036545E-002;-3.470002440735698E-003;-3.521575126796961E-003;
2.404000000000000E+009;1.689631789922714E-001;1.955197937786579E-002;-3.445390379056335E-003;-3.423845395445824E-003;
2.404166666666667E+009;1.698455810546875E-001;1.831833645701408E-002;-3.811146365478635E-003;-3.164728172123432E-003;
2.404333333333334E+009;1.707740426063538E-001;1.734652370214462E-002;-3.998001106083393E-003;-3.052695887163281E-003;
2.404500000000000E+009;1.716502159833908E-001;1.611893624067307E-002;-3.937588538974524E-003;-2.766691148281097E-003;
2.404666666666667E+009;1.726324707269669E-001;1.548919454216957E-002;-4.360331222414970E-003;-2.727966988459230E-003;
2.404833333333334E+009;1.735352575778961E-001;1.444960758090019E-002;-4.245237447321415E-003;-2.399415243417025E-003;
2.405000000000000E+009;1.744263023138046E-001;1.366081181913614E-002;-4.498784895986319E-003;-2.390067325904965E-003;
2.405166666666667E+009;1.753168851137161E-001;1.297975052148104E-002;-4.627606831490994E-003;-2.097672317177057E-003;
2.405333333333334E+009;1.763081401586533E-001;1.235815789550543E-002;-4.603922832757235E-003;-1.950211240909994E-003;
2.405500000000000E+009;1.769771277904511E-001;1.200018450617790E-002;-4.777296911925077E-003;-1.644100528210402E-003;
2.405666666666667E+009;1.776783615350723E-001;1.155114360153675E-002;-4.854729864746332E-003;-1.493440940976143E-003;
2.405833333333334E+009;1.781578212976456E-001;1.117955148220062E-002;-4.773442167788744E-003;-1.333804219029844E-003;
2.406000000000000E+009;1.788176149129868E-001;1.067823823541403E-002;-4.881593398749828E-003;-1.223369152285159E-003;
2.406166666666667E+009;1.792422831058502E-001;1.044728141278029E-002;-4.693557973951101E-003;-1.011943095363677E-003;
2.406333333333334E+009;1.798945814371109E-001;1.004438195377588E-002;-4.832290578633547E-003;-8.107854519039393E-004;
2.406500000000000E+009;1.801203191280365E-001;9.689842350780964E-003;-4.947050008922815E-003;-6.055390113033354E-004;
2.406666666666667E+009;1.803568601608276E-001;9.363007731735706E-003;-4.891072865575552E-003;-3.775185905396938E-004;
2.406833333333334E+009;1.806221157312393E-001;8.979475125670433E-003;-4.867583513259888E-003;-1.762987085385248E-004;
2.407000000000000E+009;1.807217746973038E-001;8.820595219731331E-003;-4.874075297266245E-003;-1.105893097701483E-004;
2.407166666666667E+009;1.808294504880905E-001;8.471249602735043E-003;-4.800624214112759E-003;2.195876295445487E-004;
2.407333333333334E+009;1.806336045265198E-001;8.003536611795425E-003;-4.797759465873241E-003;2.852726611308754E-004;
2.407500000000000E+009;1.805867552757263E-001;7.718579843640328E-003;-4.682526923716068E-003;4.361301544122398E-004;
2.407666666666667E+009;1.804085224866867E-001;7.224020082503557E-003;-4.670762922614813E-003;6.419783458113670E-004;
2.407833333333334E+009;1.799460947513580E-001;6.648825015872717E-003;-4.622480832040310E-003;7.499934872612357E-004;
2.408000000000000E+009;1.797863245010376E-001;6.112230010330677E-003;-4.598565865308046E-003;1.017021480947733E-003;
2.408166666666667E+009;1.793395429849625E-001;5.616612266749144E-003;-4.565997980535030E-003;1.071565086022019E-003;
2.408333333333334E+009;1.790430545806885E-001;4.991778172552586E-003;-4.349137656390667E-003;1.089420518837869E-003;
2.408500000000000E+009;1.784882694482803E-001;4.152079112827778E-003;-4.373354837298393E-003;1.416206010617316E-003;
2.408666666666667E+009;1.778614819049835E-001;3.396341577172279E-003;-4.279321525245905E-003;1.526582287624478E-003;
2.408833333333334E+009;1.771518886089325E-001;2.459041075780988E-003;-4.170348867774010E-003;1.703155925497413E-003;
2.409000000000000E+009;1.763646453619003E-001;1.397756743244827E-003;-4.218062385916710E-003;1.707749906927347E-003;
2.409166666666667E+009;1.758946031332016E-001;4.616829683072865E-004;-4.082210361957550E-003;1.728009199723601E-003;
2.409333333333334E+009;1.752507090568543E-001;-7.308240165002644E-004;-4.182414617389441E-003;1.793869538232684E-003;
2.409500000000000E+009;1.744890958070755E-001;-2.126707928255200E-003;-4.142510704696178E-003;2.025987487286329E-003;
2.409666666666667E+009;1.738771796226502E-001;-3.152135061100125E-003;-3.988069016486406E-003;2.160563366487622E-003;
2.409833333333334E+009;1.730083078145981E-001;-4.615768790245056E-003;-3.871731925755739E-003;2.008360112085939E-003;
2.410000000000000E+009;1.724557876586914E-001;-6.068172864615917E-003;-3.880215110257268E-003;2.146588172763586E-003;
2.410166666666667E+009;1.716891825199127E-001;-7.475229445844889E-003;-3.854258451610804E-003;2.407640451565385E-003;
2.410333333333334E+009;1.710577458143234E-001;-9.191433899104595E-003;-3.749798284843564E-003;2.458001021295786E-003;
2.410500000000000E+009;1.706960946321487E-001;-1.082760561257601E-002;-3.564391750842333E-003;2.407436957582831E-003;
2.410666666666667E+009;1.700396835803986E-001;-1.267389673739672E-002;-3.603864228352904E-003;2.489420119673014E-003;
2.410833333333334E+009;1.696052402257919E-001;-1.428939681500197E-002;-3.512120340019465E-003;2.723648445680738E-003;
2.411000000000000E+009;1.693037897348404E-001;-1.612151972949505E-002;-3.504854859784246E-003;2.828866476193070E-003;
2.411166666666667E+009;1.687306463718414E-001;-1.816880330443382E-002;-3.395264968276024E-003;2.913233824074268E-003;
2.411333333333334E+009;1.685224026441574E-001;-1.998158730566502E-002;-3.375735832378268E-003;3.079488407820463E-003;
2.411500000000000E+009;1.683151572942734E-001;-2.210744284093380E-002;-3.127494361251593E-003;3.014819696545601E-003;
2.411666666666667E+009;1.683424711227417E-001;-2.382703311741352E-002;-3.131099045276642E-003;3.191852243617177E-003;
2.411833333333334E+009;1.681629270315170E-001;-2.563873678445816E-002;-3.039489034563303E-003;3.373642452061176E-003;
2.412000000000000E+009;1.682442426681519E-001;-2.790614031255245E-002;-3.078378736972809E-003;3.386065829545260E-003;
2.412166666666667E+009;1.681036353111267E-001;-2.969221584498882E-002;-2.996514318510890E-003;3.416444640606642E-003;
2.412333333333334E+009;1.685355454683304E-001;-3.158586472272873E-002;-2.921184059232473E-003;3.692284924909473E-003;
2.412500000000000E+009;1.685153394937515E-001;-3.349468484520912E-002;-2.749097067862749E-003;3.769697854295373E-003;
2.412666666666667E+009;1.689467281103134E-001;-3.558213636279106E-002;-2.703890437260270E-003;3.907298203557730E-003;
2.412833333333334E+009;1.692441701889038E-001;-3.750031068921089E-002;-2.529032062739134E-003;4.032945260405541E-003;
2.413000000000000E+009;1.696099489927292E-001;-3.927998989820480E-002;-2.435199217870832E-003;4.162483848631382E-003;
2.413166666666667E+009;1.700025200843811E-001;-4.099466279149056E-002;-2.256403909996152E-003;4.213351756334305E-003;
2.413333333333334E+009;1.704763621091843E-001;-4.277232661843300E-002;-2.100441139191389E-003;4.161900375038385E-003;
2.413500000000000E+009;1.708069294691086E-001;-4.439331218600273E-002;-1.870578969828785E-003;4.180201329290867E-003;
2.413666666666667E+009;1.714154034852982E-001;-4.608976840972900E-002;-1.693381113000214E-003;4.583476111292839E-003;
2.413833333333334E+009;1.718885749578476E-001;-4.764156043529511E-002;-1.596297137439251E-003;4.363774787634611E-003;
2.414000000000000E+009;1.723734736442566E-001;-4.902783408761025E-002;-1.373914070427418E-003;4.627489950507879E-003;
2.414166666666667E+009;1.730482727289200E-001;-5.037505552172661E-002;-1.390532823279500E-003;4.493316169828177E-003;
2.414333333333334E+009;1.735047698020935E-001;-5.176218971610069E-002;-9.321365505456924E-004;4.824784584343433E-003;
2.414500000000000E+009;1.743038892745972E-001;-5.289630964398384E-002;-9.187319665215910E-004;4.593523684889078E-003;
2.414666666666667E+009;1.745826005935669E-001;-5.394753068685532E-002;-6.758118397556245E-004;4.621177911758423E-003;
2.414833333333334E+009;1.750889718532562E-001;-5.507610365748406E-002;-4.069062706548721E-004;4.921246785670519E-003;
2.415000000000000E+009;1.756616234779358E-001;-5.579064413905144E-002;-1.624173455638811E-004;4.708550404757261E-003;
2.415166666666667E+009;1.760799437761307E-001;-5.662741512060165E-002;-1.611906627658755E-004;4.759811330586672E-003;
2.415333333333334E+009;1.765253245830536E-001;-5.756543576717377E-002;3.146758535876870E-005;4.796552471816540E-003;
2.415500000000000E+009;1.768584996461868E-001;-5.817889422178268E-002;3.124390786979348E-004;4.749630112200975E-003;
2.415666666666667E+009;1.770118921995163E-001;-5.875828489661217E-002;4.095922049600631E-004;4.555349238216877E-003;
2.415833333333334E+009;1.773459017276764E-001;-5.929652228951454E-002;5.970905767753720E-004;4.600211046636105E-003;
2.416000000000000E+009;1.774507015943527E-001;-5.985553562641144E-002;8.942052372731268E-004;4.614816978573799E-003;
2.416166666666667E+009;1.776615679264069E-001;-6.022324040532112E-002;1.031675841659308E-003;4.586237948387861E-003;
2.416333333333334E+009;1.775698512792587E-001;-6.048445776104927E-002;1.135613885708153E-003;4.359818529337645E-003;
2.416500000000000E+009;1.775251030921936E-001;-6.087925657629967E-002;1.182990847155452E-003;4.442009609192610E-003;
2.416666666666667E+009;1.772206127643585E-001;-6.104810535907745E-002;1.503482926636934E-003;4.149298183619976E-003;
2.416833333333334E+009;1.771545559167862E-001;-6.144964322447777E-002;1.531913992948830E-003;4.094112198799849E-003;
2.417000000000000E+009;1.765781193971634E-001;-6.172408163547516E-002;1.447038026526570E-003;3.982109483331442E-003;
2.417166666666667E+009;1.761882752180100E-001;-6.173829734325409E-002;1.756008481606841E-003;3.964972682297230E-003;
2.417333333333334E+009;1.757545620203018E-001;-6.200497224926949E-002;1.771833864040673E-003;3.972555976361036E-003;
2.417500000000000E+009;1.751994639635086E-001;-6.237395107746124E-002;1.883828197605908E-003;3.763794666156173E-003;
2.417666666666667E+009;1.745635718107224E-001;-6.244574487209320E-002;1.968194264918566E-003;3.824407001957297E-003;
2.417833333333334E+009;1.738768517971039E-001;-6.265517324209213E-002;2.211164683103561E-003;3.544761100783944E-003;
2.418000000000000E+009;1.729105710983276E-001;-6.313152611255646E-002;2.058170503005385E-003;3.484573215246201E-003;
2.418166666666667E+009;1.719893217086792E-001;-6.317756325006485E-002;2.094478579238057E-003;3.325950354337692E-003;
2.418333333333334E+009;1.712589710950851E-001;-6.362875550985336E-002;2.281330293044448E-003;3.431466873735189E-003;
2.418500000000000E+009;1.700929254293442E-001;-6.403125822544098E-002;2.313207369297743E-003;3.187978640198708E-003;
2.418666666666667E+009;1.691929548978806E-001;-6.454576551914215E-002;2.331100404262543E-003;3.268364351242781E-003;
2.418833333333334E+009;1.677635461091995E-001;-6.498608738183975E-002;2.613479504361749E-003;2.991031855344772E-003;
2.419000000000000E+009;1.666318774223328E-001;-6.548335403203964E-002;2.449009567499161E-003;2.932426985353231E-003;
2.419166666666667E+009;1.654960513114929E-001;-6.618159264326096E-002;2.577205654233694E-003;2.991054207086563E-003;
2.419333333333334E+009;1.642197370529175E-001;-6.662908941507340E-002;2.572628436610103E-003;2.866635331884027E-003;
2.419500000000000E+009;1.630903482437134E-001;-6.770753115415573E-002;2.755263121798635E-003;2.688189037144184E-003;
2.419666666666667E+009;1.619920879602432E-001;-6.859984993934631E-002;2.864194102585316E-003;2.697291551157832E-003;
2.419833333333334E+009;1.606687903404236E-001;-6.930624693632126E-002;2.852537669241428E-003;2.656373661011457E-003;
2.420000000000000E+009;1.596985459327698E-001;-7.035926729440689E-002;2.884002868086100E-003;2.482903888449073E-003;
2.420166666666667E+009;1.584504246711731E-001;-7.147830724716187E-002;2.863434841856360E-003;2.402060898020864E-003;
2.420333333333334E+009;1.574264764785767E-001;-7.258826494216919E-002;2.883231965824962E-003;2.481505041942000E-003;
2.420500000000000E+009;1.563893407583237E-001;-7.372436672449112E-002;3.010232001543045E-003;2.284118207171559E-003;
2.420666666666667E+009;1.552731245756149E-001;-7.487957179546356E-002;3.000228665769100E-003;2.390590962022543E-003;
2.420833333333334E+009;1.543514877557755E-001;-7.632522284984589E-002;3.157795639708638E-003;2.131071407347918E-003;
2.421000000000000E+009;1.534854769706726E-001;-7.787921279668808E-002;3.020273521542549E-003;2.040894934907556E-003;
2.421166666666667E+009;1.528488993644714E-001;-7.927909493446350E-002;3.260548459365964E-003;1.961039844900370E-003;
2.421333333333334E+009;1.520898342132568E-001;-8.088075369596481E-002;3.280315781012178E-003;1.868876512162387E-003;
2.421500000000000E+009;1.514371633529663E-001;-8.244330435991287E-002;3.241746453568339E-003;1.883972436189652E-003;
2.421666666666667E+009;1.509346663951874E-001;-8.397787064313889E-002;3.309964668005705E-003;1.699043787084520E-003;
2.421833333333334E+009;1.504462659358978E-001;-8.562543988227844E-002;3.182059153914452E-003;1.623736578039825E-003;
2.422000000000000E+009;1.500871628522873E-001;-8.726707845926285E-002;3.320261370390654E-003;1.639063120819628E-003;
2.422166666666667E+009;1.497437208890915E-001;-8.917476981878281E-002;3.399314358830452E-003;1.401522196829319E-003;
2.422333333333334E+009;1.493736505508423E-001;-9.077612310647965E-002;3.375351661816239E-003;1.434206380508840E-003;
2.422500000000000E+009;1.492682695388794E-001;-9.235296398401260E-002;3.506470937281847E-003;1.304018893279135E-003;
2.422666666666667E+009;1.491054296493530E-001;-9.411852061748505E-002;3.495283192023635E-003;1.252835267223418E-003;
2.422833333333334E+009;1.492484658956528E-001;-9.595441073179245E-002;3.536868607625365E-003;1.084560528397560E-003;
2.423000000000000E+009;1.492955386638641E-001;-9.751637279987335E-002;3.486729692667723E-003;8.551857899874449E-004;
2.423166666666667E+009;1.495152711868286E-001;-9.916864335536957E-002;3.679207293316722E-003;9.892076486721635E-004;
2.423333333333334E+009;1.498589068651199E-001;-1.006597131490707E-001;3.730813274160028E-003;8.373922319151461E-004;
2.423500000000000E+009;1.500646173954010E-001;-1.024106442928314E-001;3.604966914281249E-003;7.830962422303855E-004;
2.423666666666667E+009;1.502609848976135E-001;-1.039466634392738E-001;3.699174616485834E-003;7.965945405885577E-004;
2.423833333333334E+009;1.508859544992447E-001;-1.052958741784096E-001;3.805498359724879E-003;5.141666042618454E-004;
2.424000000000000E+009;1.511801779270172E-001;-1.065200790762901E-001;3.890408203005791E-003;4.355859709903598E-004;
2.424166666666667E+009;1.514813601970673E-001;-1.079610213637352E-001;3.891599830240011E-003;2.185199700761586E-004;
2.424333333333334E+009;1.519888788461685E-001;-1.091338694095612E-001;3.732311073690653E-003;2.704377402551472E-004;
2.424500000000000E+009;1.526640653610230E-001;-1.103351116180420E-001;3.713134443387389E-003;1.009616389637813E-004;
2.424666666666667E+009;1.532283127307892E-001;-1.113353967666626E-001;3.821498481556773E-003;-1.358003355562687E-004;
2.424833333333334E+009;1.534158289432526E-001;-1.124744713306427E-001;3.713399870321155E-003;-2.338484191568568E-004;
2.425000000000000E+009;1.539618372917175E-001;-1.134416610002518E-001;3.736037295311689E-003;-3.107024240307510E-004;
2.425166666666667E+009;1.542356908321381E-001;-1.143640130758286E-001;3.663255600258708E-003;-2.341323706787080E-004;
2.425333333333334E+009;1.547431945800781E-001;-1.150559186935425E-001;3.718768712133169E-003;-4.103178507648408E-004;
2.425500000000000E+009;1.552743613719940E-001;-1.158611401915550E-001;3.686278592795134E-003;-6.235314649529755E-004;
2.425666666666667E+009;1.553756594657898E-001;-1.165421605110169E-001;3.632692154496908E-003;-5.940469563938677E-004;
2.425833333333334E+009;1.557635217905045E-001;-1.169934198260307E-001;3.625049488618970E-003;-9.190663113258779E-004;
2.426000000000000E+009;1.559198796749115E-001;-1.175945773720741E-001;3.510248381644487E-003;-9.807839524000883E-004;
2.426166666666667E+009;1.562017202377319E-001;-1.180217117071152E-001;3.484004642814398E-003;-1.053669839166105E-003;
2.426333333333334E+009;1.561771631240845E-001;-1.183267086744309E-001;3.486566012725234E-003;-1.245875610038638E-003;
2.426500000000000E+009;1.563346832990646E-001;-1.185648962855339E-001;3.297403687611222E-003;-1.397708663716912E-003;
2.426666666666667E+009;1.563889831304550E-001;-1.187096387147903E-001;3.179071005433798E-003;-1.317286398261786E-003;
2.426833333333334E+009;1.561623215675354E-001;-1.189023777842522E-001;3.340438008308411E-003;-1.432990073226392E-003;
2.427000000000000E+009;1.557880342006683E-001;-1.192085370421410E-001;3.165616886690259E-003;-1.497476594522595E-003;
2.427166666666667E+009;1.555416285991669E-001;-1.191409751772881E-001;3.063275478780270E-003;-1.566280727274716E-003;
2.427333333333334E+009;1.550607383251190E-001;-1.192881017923355E-001;2.986300271004438E-003;-1.844738377258182E-003;
2.427500000000000E+009;1.545922160148621E-001;-1.194301918148994E-001;3.051973646506667E-003;-1.805262756533921E-003;
2.427666666666667E+009;1.539011299610138E-001;-1.195988804101944E-001;2.860998967662454E-003;-1.808432629331946E-003;
