# Version 1.00
#
freq[Hz];re:Trc1_S11;im:Trc1_S11;re:Trc2_S21;im:Trc2_S21;
2.400000000000000E+009;1.584844738245010E-001;6.300475448369980E-002;-6.043161265552044E-004;-3.349805716425180E-003;
2.400166666666667E+009;1.584331989288330E-001;6.137590855360031E-002;-6.108841043896973E-004;-3.342683659866452E-003;
2.400333333333334E+009;1.581389456987381E-001;5.954952538013458E-002;-6.515428540296853E-004;-3.230782924219966E-003;
2.400500000000000E+009;1.581428647041321E-001;5.758811533451080E-002;-7.242106948979199E-004;-3.419890999794006E-003;
2.400666666666667E+009;1.580915749073029E-001;5.568911507725716E-002;-8.637535502202809E-004;-3.440116532146931E-003;
2.400833333333334E+009;1.582662910223007E-001;5.360462889075279E-002;-8.403545361943543E-004;-3.474995959550142E-003;
2.401000000000000E+009;1.581693291664124E-001;5.160002037882805E-002;-9.853725787252188E-004;-3.537560813128948E-003;
2.401166666666667E+009;1.581733077764511E-001;4.954627901315689E-002;-9.688314166851342E-004;-3.408648772165179E-003;
2.401333333333334E+009;1.585021018981934E-001;4.740534350275993E-002;-1.048186677508056E-003;-3.579026786610484E-003;
2.401500000000000E+009;1.588296592235565E-001;4.540033638477325E-002;-1.285725040361285E-003;-3.493797499686480E-003;
2.401666666666667E+009;1.590934395790100E-001;4.343538358807564E-002;-1.254190923646092E-003;-3.806656925007701E-003;
2.401833333333334E+009;1.594654023647308E-001;4.112667590379715E-002;-1.426876871846616E-003;-3.595218528062105E-003;
2.402000000000000E+009;1.595048904418945E-001;3.929346054792404E-002;-1.515463809482753E-003;-3.730551339685917E-003;
2.402166666666667E+009;1.600382626056671E-001;3.713378310203552E-002;-1.794343930669129E-003;-3.604323137551546E-003;
2.402333333333334E+009;1.607050448656082E-001;3.535859286785126E-002;-1.794911106117070E-003;-3.751618787646294E-003;
2.402500000000000E+009;1.615276038646698E-001;3.332761675119400E-002;-1.906720804981887E-003;-3.814456984400749E-003;
2.402666666666667E+009;1.618522256612778E-001;3.152594715356827E-002;-2.068608533591032E-003;-3.645141376182437E-003;
2.402833333333334E+009;1.627203077077866E-001;2.993150241672993E-002;-2.239677589386702E-003;-3.655891865491867E-003;
2.403000000000000E+009;1.634973436594009E-001;2.819286845624447E-002;-2.366191707551479E-003;-3.640593728050590E-003;
2.403166666666667E+009;1.642450243234634E-001;2.659374102950096E-002;-2.618510276079178E-003;-3.843652782961726E-003;
2.403333333333334E+009;1.650912165641785E-001;2.502915076911449E-002;-2.801406895741820E-003;-3.690652782097459E-003;
2.403500000000000E+009;1.659191250801086E-001;2.347142063081265E-002;-2.992601366713643E-003;-3.600555472075939E-003;
2.403666666666667E+009;1.669870465993881E-001;2.206530049443245E-002;-3.089604433625937E-003;-3.474047640338540E-003;
2.403833333333334E+009;1.678875535726547E-001;2.073547430336475E-002;-3.591300453990698E-003;-3.397354623302817E-003;
2.404000000000000E+009;1.690031737089157E-001;1.955122500658035E-002;-3.715288592502475E-003;-3.381090937182307E-003;
2.404166666666667E+009;1.698101311922073E-001;1.830916292965412E-002;-3.731745993718505E-003;-3.175949212163687E-003;
2.404333333333334E+009;1.709020435810089E-001;1.725827716290951E-002;-4.022027365863323E-003;-3.099415916949511E-003;
2.404500000000000E+009;1.717428117990494E-001;1.610413938760757E-002;-4.152022767812014E-003;-2.690768102183938E-003;
2.404666666666667E+009;1.727642267942429E-001;1.532641332596541E-002;-4.252025857567787E-003;-2.630396978929639E-003;
2.404833333333334E+009;1.736614406108856E-001;1.436854247003794E-002;-4.435419104993343E-003;-2.335754223167896E-003;
2.405000000000000E+009;1.745031625032425E-001;1.373870018869638E-002;-4.439221695065498E-003;-2.299119485542178E-003;
2.405166666666667E+009;1.755109578371048E-001;1.302354689687491E-002;-4.665509331971407E-003;-2.108886605128646E-003;
2.405333333333334E+009;1.763380765914917E-001;1.238992903381586E-002;-4.606260918080807E-003;-1.846967148594558E-003;
2.405500000000000E+009;1.770821511745453E-001;1.200485881417990E-002;-4.743612371385098E-003;-1.517728669568896E-003;
2.405666666666667E+009;1.777425855398178E-001;1.145608723163605E-002;-4.688583314418793E-003;-1.553589943796396E-003;
2.405833333333334E+009;1.781353652477264E-001;1.105742529034615E-002;-4.776919260621071E-003;-1.207557390443981E-003;
2.406000000000000E+009;1.787849217653275E-001;1.059263013303280E-002;-4.561606794595718E-003;-1.005470054224134E-003;
2.406166666666667E+009;1.792788207530975E-001;1.038037613034248E-002;-4.751401953399181E-003;-7.581477984786034E-004;
2.406333333333334E+009;1.798217594623566E-001;1.007508393377066E-002;-4.827507305890322E-003;-7.961263181641698E-004;
2.406500000000000E+009;1.800491809844971E-001;9.747067466378212E-003;-4.726778250187635E-003;-5.666896468028426E-004;
2.406666666666667E+009;1.803712397813797E-001;9.420655667781830E-003;-4.863355308771133E-003;-2.976082323584706E-004;
2.406833333333334E+009;1.805946379899979E-001;9.177936241030693E-003;-4.855812992900610E-003;-4.331946911406703E-005;
2.407000000000000E+009;1.807021945714951E-001;8.861230686306953E-003;-4.751213360577822E-003;1.034798697219230E-005;
2.407166666666667E+009;1.807446926832199E-001;8.572159335017204E-003;-4.852482117712498E-003;1.456160098314285E-004;
2.407333333333334E+009;1.807185560464859E-001;8.160754106938839E-003;-4.624882247298956E-003;2.350375143578276E-004;
2.407500000000000E+009;1.806157529354096E-001;7.707803975790739E-003;-4.763015545904636E-003;5.368163110688329E-004;
2.407666666666667E+009;1.803656965494156E-001;7.401955779641867E-003;-4.651118535548449E-003;6.179761257953942E-004;
2.407833333333334E+009;1.801753640174866E-001;6.916348822414875E-003;-4.617662634700537E-003;6.768144085071981E-004;
2.408000000000000E+009;1.797897070646286E-001;6.224978715181351E-003;-4.498880822211504E-003;7.398492307402194E-004;
2.408166666666667E+009;1.794295608997345E-001;5.916036665439606E-003;-4.476645030081272E-003;1.009324099868536E-003;
2.408333333333334E+009;1.790290176868439E-001;5.097624380141497E-003;-4.363347776234150E-003;1.206174842081964E-003;
2.408500000000000E+009;1.783408522605896E-001;4.248796496540308E-003;-4.346599802374840E-003;1.244668965227902E-003;
2.408666666666667E+009;1.779024600982666E-001;3.526411252096295E-003;-4.429103806614876E-003;1.380865694954991E-003;
2.408833333333334E+009;1.771714240312576E-001;2.560605760663748E-003;-4.306197632104158E-003;1.548993051983416E-003;
2.409000000000000E+009;1.764181256294251E-001;1.689608558081091E-003;-4.166282713413239E-003;1.719477237202227E-003;
2.409166666666667E+009;1.758916527032852E-001;4.787423822563142E-004;-4.116170108318329E-003;1.678059226833284E-003;
2.409333333333334E+009;1.753298193216324E-001;-5.991684738546610E-004;-4.090572707355022E-003;1.852582092396915E-003;
2.409500000000000E+009;1.744468212127686E-001;-2.026671310886741E-003;-4.118594340980053E-003;2.016973681747913E-003;
2.409666666666667E+009;1.737636029720306E-001;-3.244736231863499E-003;-4.058395046740770E-003;2.095998264849186E-003;
2.409833333333334E+009;1.732240021228790E-001;-4.523932468146086E-003;-3.889202605932951E-003;2.146924380213022E-003;
2.410000000000000E+009;1.723889708518982E-001;-5.937372799962759E-003;-3.895082976669073E-003;2.289481228217483E-003;
2.410166666666667E+009;1.718591302633286E-001;-7.543473970144987E-003;-3.754447679966688E-003;2.259496599435806E-003;
2.410333333333334E+009;1.712160706520081E-001;-9.154867380857468E-003;-3.830590285360813E-003;2.492532599717379E-003;
2.410500000000000E+009;1.706210225820541E-001;-1.088335458189249E-002;-3.680531634017825E-003;2.553147263824940E-003;
2.410666666666667E+009;1.701102554798126E-001;-1.267869677394629E-002;-3.511137096211314E-003;2.553292782977223E-003;
2.410833333333334E+009;1.696758866310120E-001;-1.427459158003330E-002;-3.408729564398527E-003;2.713242312893271E-003;
2.411000000000000E+009;1.693862974643707E-001;-1.620862632989883E-002;-3.328745486214757E-003;2.984109800308943E-003;
2.411166666666667E+009;1.688387095928192E-001;-1.804046519100666E-002;-3.279128810390830E-003;2.931472845375538E-003;
2.411333333333334E+009;1.686445325613022E-001;-1.993728056550026E-002;-3.299177391454577E-003;3.220332320779562E-003;
2.411500000000000E+009;1.682571321725845E-001;-2.188987843692303E-002;-3.276765579357743E-003;3.108063247054815E-003;
2.411666666666667E+009;1.683091819286346E-001;-2.395204454660416E-002;-3.152011195197702E-003;3.193261800333858E-003;
2.411833333333334E+009;1.681644022464752E-001;-2.564276382327080E-002;-2.976194256916642E-003;3.355007385835052E-003;
2.412000000000000E+009;1.682387292385101E-001;-2.781345881521702E-002;-3.015241585671902E-003;3.392304992303252E-003;
2.412166666666667E+009;1.682707518339157E-001;-2.974535897374153E-002;-2.985428320243955E-003;3.488934366032481E-003;
2.412333333333334E+009;1.684900969266892E-001;-3.149265050888062E-002;-2.824601018801332E-003;3.614659653976560E-003;
2.412500000000000E+009;1.686356067657471E-001;-3.357896581292152E-002;-2.820351859554648E-003;3.875706810504198E-003;
2.412666666666667E+009;1.689456105232239E-001;-3.566409647464752E-002;-2.541698049753904E-003;3.829330205917358E-003;
2.412833333333334E+009;1.691365540027618E-001;-3.748285397887230E-002;-2.412000671029091E-003;4.040732514113188E-003;
2.413000000000000E+009;1.694863587617874E-001;-3.922409564256668E-002;-2.247198950499296E-003;3.980425652116537E-003;
2.413166666666667E+009;1.700410097837448E-001;-4.100527241826057E-002;-2.270736731588841E-003;4.353854339569807E-003;
2.413333333333334E+009;1.704426705837250E-001;-4.267235845327377E-002;-1.996590057387948E-003;4.280354361981154E-003;
2.413500000000000E+009;1.709598600864410E-001;-4.446069896221161E-002;-2.024772576987743E-003;4.357765428721905E-003;
2.413666666666667E+009;1.713925749063492E-001;-4.600384458899498E-002;-1.733334385789931E-003;4.505059216171503E-003;
2.413833333333334E+009;1.719063967466354E-001;-4.760822281241417E-002;-1.541087403893471E-003;4.475047811865807E-003;
2.414000000000000E+009;1.723122149705887E-001;-4.911855235695839E-002;-1.443874090909958E-003;4.555179271847010E-003;
2.414166666666667E+009;1.730092912912369E-001;-5.032797902822495E-002;-1.155330217443407E-003;4.768116399645805E-003;
2.414333333333334E+009;1.735993772745132E-001;-5.167618766427040E-002;-1.125591690652072E-003;4.763104952871800E-003;
2.414500000000000E+009;1.743501126766205E-001;-5.286245048046112E-002;-9.693705942481756E-004;4.655815660953522E-003;
2.414666666666667E+009;1.747730076313019E-001;-5.386709794402123E-002;-6.547558004967868E-004;4.711883142590523E-003;
2.414833333333334E+009;1.751152127981186E-001;-5.504478141665459E-002;-5.469627794809640E-004;4.741086158901453E-003;
2.415000000000000E+009;1.756127476692200E-001;-5.591130629181862E-002;-2.518121618777514E-004;4.841711837798357E-003;
2.415166666666667E+009;1.760592758655548E-001;-5.678664520382881E-002;-1.633141800994054E-004;4.725981503725052E-003;
2.415333333333334E+009;1.764164716005325E-001;-5.766703933477402E-002;3.502831532387063E-005;4.695820622146130E-003;
2.415500000000000E+009;1.768269687891007E-001;-5.811967328190804E-002;3.824788727797568E-004;4.604585468769074E-003;
2.415666666666667E+009;1.770764291286469E-001;-5.874063819646835E-002;6.583464564755559E-004;4.742417018860579E-003;
2.415833333333334E+009;1.772978305816650E-001;-5.934155359864235E-002;6.895637488923967E-004;4.699813667684794E-003;
2.416000000000000E+009;1.772848516702652E-001;-5.978704616427422E-002;9.213180164806545E-004;4.492360632866621E-003;
2.416166666666667E+009;1.775909811258316E-001;-6.016790866851807E-002;1.021197182126343E-003;4.404843319207430E-003;
2.416333333333334E+009;1.775586009025574E-001;-6.055245548486710E-002;1.161172403953970E-003;4.197835456579924E-003;
2.416500000000000E+009;1.773700863122940E-001;-6.096585094928742E-002;1.374773564748466E-003;4.381089936941862E-003;
2.416666666666667E+009;1.772096753120422E-001;-6.101132929325104E-002;1.414558733813465E-003;4.135708324611187E-003;
2.416833333333334E+009;1.770856827497482E-001;-6.141654029488564E-002;1.523605780676007E-003;4.108076449483633E-003;
2.417000000000000E+009;1.766743212938309E-001;-6.165904924273491E-002;1.665543182753027E-003;3.904610872268677E-003;
2.417166666666667E+009;1.762574762105942E-001;-6.185022369027138E-002;1.745186396874487E-003;4.045748151838779E-003;
2.417333333333334E+009;1.756831556558609E-001;-6.194436550140381E-002;1.889712875708938E-003;3.867570078000426E-003;
2.417500000000000E+009;1.751108914613724E-001;-6.240238621830940E-002;2.017003484070301E-003;3.666270524263382E-003;
2.417666666666667E+009;1.744391620159149E-001;-6.246388703584671E-002;1.939630368724465E-003;3.590761218219996E-003;
2.417833333333334E+009;1.737915575504303E-001;-6.269130110740662E-002;2.199296606704593E-003;3.428664756938815E-003;
2.418000000000000E+009;1.728050559759140E-001;-6.296520680189133E-002;2.265728544443846E-003;3.412481863051653E-003;
2.418166666666667E+009;1.719237118959427E-001;-6.324190646409988E-002;2.192697720602155E-003;3.379918867722154E-003;
2.418333333333334E+009;1.711296737194061E-001;-6.366884708404541E-002;2.403744496405125E-003;3.215041477233172E-003;
2.418500000000000E+009;1.700719594955444E-001;-6.401818990707398E-002;2.462320961058140E-003;3.177660284563899E-003;
2.418666666666667E+009;1.691743582487106E-001;-6.451252847909927E-002;2.364252693951130E-003;2.981360070407391E-003;
2.418833333333334E+009;1.678666770458221E-001;-6.502236425876617E-002;2.537221880629659E-003;3.019808093085885E-003;
2.419000000000000E+009;1.665642857551575E-001;-6.559662520885468E-002;2.541842637583613E-003;2.854284830391407E-003;
2.419166666666667E+009;1.654052436351776E-001;-6.612177938222885E-002;2.723175799474120E-003;2.923788502812386E-003;
2.419333333333334E+009;1.641664654016495E-001;-6.674262136220932E-002;2.629088703542948E-003;2.687757369130850E-003;
2.419500000000000E+009;1.631412506103516E-001;-6.765354424715042E-002;2.749291714280844E-003;2.658916637301445E-003;
2.419666666666667E+009;1.619607061147690E-001;-6.858993321657181E-002;2.790578408166766E-003;2.481539500877261E-003;
2.419833333333334E+009;1.606113612651825E-001;-6.924053281545639E-002;2.802641363814473E-003;2.575743012130261E-003;
2.420000000000000E+009;1.595145910978317E-001;-7.038460671901703E-002;2.867448143661022E-003;2.475941088050604E-003;
2.420166666666667E+009;1.584824174642563E-001;-7.142121344804764E-002;3.008747007697821E-003;2.466409234330058E-003;
2.420333333333334E+009;1.573791801929474E-001;-7.267490774393082E-002;3.006129758432508E-003;2.189830411225557E-003;
2.420500000000000E+009;1.565069556236267E-001;-7.378710061311722E-002;3.160180523991585E-003;2.137319883331657E-003;
2.420666666666667E+009;1.551772803068161E-001;-7.501198351383209E-002;3.073067171499133E-003;2.202584641054273E-003;
2.420833333333334E+009;1.544222384691238E-001;-7.644935697317123E-002;3.246081992983818E-003;1.995434286072850E-003;
2.421000000000000E+009;1.534983068704605E-001;-7.781141996383667E-002;3.175068413838744E-003;1.840143697336316E-003;
2.421166666666667E+009;1.528508365154266E-001;-7.946172356605530E-002;3.307853126898408E-003;1.855743350461125E-003;
2.421333333333334E+009;1.520792692899704E-001;-8.092064410448074E-002;3.411402227357030E-003;1.771136885508895E-003;
2.421500000000000E+009;1.512020379304886E-001;-8.244163542985916E-002;3.330883570015431E-003;1.625905511900783E-003;
2.421666666666667E+009;1.509087979793549E-001;-8.402842283248901E-002;3.379666246473789E-003;1.523011014796794E-003;
2.421833333333334E+009;1.505396813154221E-001;-8.588621765375137E-002;3.386199241504073E-003;1.391283003613353E-003;
2.422000000000000E+009;1.499964892864227E-001;-8.731188625097275E-002;3.450538031756878E-003;1.454334706068039E-003;
2.422166666666667E+009;1.495747119188309E-001;-8.925265818834305E-002;3.322048345580697E-003;1.232730457559228E-003;
2.422333333333334E+009;1.493299156427383E-001;-9.078933298587799E-002;3.555384231731296E-003;1.128846313804388E-003;
2.422500000000000E+009;1.492549777030945E-001;-9.234962612390518E-002;3.425547154620290E-003;1.141680870205164E-003;
2.422666666666667E+009;1.490419358015060E-001;-9.441595524549484E-002;3.510345704853535E-003;9.875011164695025E-004;
2.422833333333334E+009;1.491898000240326E-001;-9.589845687150955E-002;3.536670003086329E-003;8.229130762629211E-004;
2.423000000000000E+009;1.490952968597412E-001;-9.754484891891480E-002;3.583614248782396E-003;8.475932409055531E-004;
2.423166666666667E+009;1.495838165283203E-001;-9.906323999166489E-002;3.535250201821327E-003;6.607196992263198E-004;
2.423333333333334E+009;1.497345268726349E-001;-1.005062684416771E-001;3.477940103039146E-003;4.490861902013421E-004;
2.423500000000000E+009;1.499081104993820E-001;-1.023260504007340E-001;3.526719985529780E-003;5.265611689537764E-004;
2.423666666666667E+009;1.502083837985992E-001;-1.038609296083450E-001;3.643213771283627E-003;4.495973407756537E-004;
2.423833333333334E+009;1.507031321525574E-001;-1.051098853349686E-001;3.815275384113193E-003;2.686432271730155E-004;
2.424000000000000E+009;1.511343717575073E-001;-1.065277606248856E-001;3.572059329599142E-003;2.340452774660662E-004;
2.424166666666667E+009;1.513622254133225E-001;-1.079556047916412E-001;3.775010583922267E-003;1.395937724737451E-004;
2.424333333333334E+009;1.520628482103348E-001;-1.091838255524635E-001;3.614180488511920E-003;7.144433766370639E-005;
2.424500000000000E+009;1.525609046220779E-001;-1.102786585688591E-001;3.645639168098569E-003;-1.850700646173209E-004;
2.424666666666667E+009;1.531282961368561E-001;-1.113751754164696E-001;3.633067477494478E-003;-2.781300572678447E-004;
2.424833333333334E+009;1.534146368503571E-001;-1.124922260642052E-001;3.512366209179163E-003;-2.851092722266913E-004;
2.425000000000000E+009;1.540211886167526E-001;-1.133640483021736E-001;3.551526693627238E-003;-4.178096132818610E-004;
2.425166666666667E+009;1.543367058038712E-001;-1.142379865050316E-001;3.470335621386766E-003;-4.417989985086024E-004;
2.425333333333334E+009;1.547328829765320E-001;-1.149903014302254E-001;3.474580589681864E-003;-6.521525792777538E-004;
2.425500000000000E+009;1.551560163497925E-001;-1.158212274312973E-001;3.580025862902403E-003;-6.942296167835593E-004;
2.425666666666667E+009;1.554597020149231E-001;-1.163946986198425E-001;3.481510328128934E-003;-6.994734285399318E-004;
2.425833333333334E+009;1.557672768831253E-001;-1.169606745243073E-001;3.684203606098890E-003;-9.637919720262289E-004;
2.426000000000000E+009;1.559339612722397E-001;-1.175085380673409E-001;3.245492698624730E-003;-1.151813310571015E-003;
2.426166666666667E+009;1.563218533992767E-001;-1.178931742906570E-001;3.331303829327226E-003;-1.193448668345809E-003;
2.426333333333334E+009;1.562422215938568E-001;-1.183159276843071E-001;3.381609683856368E-003;-1.300964620895684E-003;
2.426500000000000E+009;1.563054323196411E-001;-1.184756755828857E-001;3.251953748986125E-003;-1.514267176389694E-003;
2.426666666666667E+009;1.563646644353867E-001;-1.185874938964844E-001;3.236145945265889E-003;-1.477649551816285E-003;
2.426833333333334E+009;1.561286449432373E-001;-1.189379766583443E-001;3.192419651895762E-003;-1.562001882120967E-003;
2.427000000000000E+009;1.558601707220078E-001;-1.191718205809593E-001;3.031251952052116E-003;-1.690983306616545E-003;
2.427166666666667E+009;1.554965227842331E-001;-1.192601695656776E-001;2.907327143475413E-003;-1.771488343365490E-003;
2.427333333333334E+009;1.549993455410004E-001;-1.192767918109894E-001;2.841281006112695E-003;-1.743997447192669E-003;
2.427500000000000E+009;1.545729041099548E-001;-1.194428205490112E-001;2.848304342478514E-003;-1.869631116278470E-003;
2.427666666666667E+009;1.539478749036789E-001;-1.195546090602875E-001;2.783804433420301E-003;-1.964216819033027E-003;
