# Version 1.00
#
freq[Hz];re:Trc1_S11;im:Trc1_S11;re:Trc2_S21;im:Trc2_S21;
2.400000000000000E+009;1.714945435523987E-001;4.019883647561073E-002;2.943676663562655E-003;1.563768950290978E-003;
2.400166666666667E+009;1.720813363790512E-001;3.979581966996193E-002;3.035338828340173E-003;1.334210974164307E-003;
2.400333333333334E+009;1.724532097578049E-001;3.917012363672257E-002;2.999139484018087E-003;1.136801438406110E-003;
2.400500000000000E+009;1.729846596717835E-001;3.861356526613236E-002;3.114024875685573E-003;1.041410258039832E-003;
2.400666666666667E+009;1.731938868761063E-001;3.798161819577217E-002;2.956061158329248E-003;7.294628303498030E-004;
2.400833333333334E+009;1.735399812459946E-001;3.736502304673195E-002;2.989652566611767E-003;6.383950239978731E-004;
2.401000000000000E+009;1.737979799509049E-001;3.669746592640877E-002;3.057696623727679E-003;4.255786188878119E-004;
2.401166666666667E+009;1.737062782049179E-001;3.598750010132790E-002;2.951668808236718E-003;3.972192935179919E-004;
2.401333333333334E+009;1.736625432968140E-001;3.526676446199417E-002;3.125271527096629E-003;2.395924093434587E-004;
2.401500000000000E+009;1.737783253192902E-001;3.476022556424141E-002;2.812356688082218E-003;-2.836463681887835E-005;
2.401666666666667E+009;1.738301068544388E-001;3.402500972151756E-002;2.714663976803422E-003;1.299308205489069E-004;
2.401833333333334E+009;1.735074371099472E-001;3.327370062470436E-002;2.574101556092501E-003;-2.069113979814574E-004;
2.402000000000000E+009;1.734382957220078E-001;3.261235356330872E-002;2.518660621717572E-003;3.334539360366762E-005;
2.402166666666667E+009;1.732255816459656E-001;3.171099722385407E-002;2.430942840874195E-003;-1.938055065693334E-004;
2.402333333333334E+009;1.728148311376572E-001;3.079338371753693E-002;2.298205392435193E-003;-1.964535476872698E-004;
2.402500000000000E+009;1.726832240819931E-001;3.010399639606476E-002;2.136481693014503E-003;-3.191338619217277E-004;
2.402666666666667E+009;1.724082529544830E-001;2.907904237508774E-002;2.112928545102477E-003;-1.326813362538815E-004;
2.402833333333334E+009;1.719484478235245E-001;2.797886729240418E-002;2.075810218229890E-003;-1.405083748977631E-004;
2.403000000000000E+009;1.717615425586700E-001;2.699959091842175E-002;2.118906704708934E-003;-5.297051029629074E-005;
2.403166666666667E+009;1.715333759784699E-001;2.579451166093350E-002;1.951360376551747E-003;3.323127748444676E-005;
2.403333333333334E+009;1.708871126174927E-001;2.462762035429478E-002;1.982670044526458E-003;-2.095955642289482E-005;
2.403500000000000E+009;1.706482470035553E-001;2.326526865363121E-002;2.013931516557932E-003;2.449124003760517E-004;
2.403666666666667E+009;1.702494472265244E-001;2.202551253139973E-002;2.073587384074926E-003;1.728601491777226E-004;
2.403833333333334E+009;1.698722094297409E-001;2.038487978279591E-002;2.078735269606113E-003;1.542122336104512E-004;
2.404000000000000E+009;1.695119440555573E-001;1.907454058527947E-002;2.295098034664989E-003;4.562976246234030E-004;
2.404166666666667E+009;1.692660450935364E-001;1.743878424167633E-002;2.354884054511786E-003;2.836346975527704E-004;
2.404333333333334E+009;1.687601655721664E-001;1.593247056007385E-002;2.358017023652792E-003;2.389421715633944E-004;
2.404500000000000E+009;1.684800535440445E-001;1.429276820272207E-002;2.434274414554238E-003;1.751280651660636E-004;
2.404666666666667E+009;1.683209538459778E-001;1.263744756579399E-002;2.779770642518997E-003;3.149945696350187E-004;
2.404833333333334E+009;1.681193113327026E-001;1.095880474895239E-002;2.758087357506156E-003;3.758505627047271E-004;
2.405000000000000E+009;1.679874211549759E-001;9.236073121428490E-003;3.030701307579875E-003;1.277069386560470E-004;
2.405166666666667E+009;1.677167415618897E-001;7.496129721403122E-003;2.957335440441966E-003;1.985384587896988E-004;
2.405333333333334E+009;1.677416115999222E-001;5.510870832949877E-003;3.161910921335220E-003;2.259022439830005E-004;
2.405500000000000E+009;1.676212251186371E-001;3.860526252537966E-003;3.405782394111157E-003;-9.910947846947238E-005;
2.405666666666667E+009;1.677197813987732E-001;2.050699433311820E-003;3.378372406587005E-003;-2.686597872525454E-004;
2.405833333333334E+009;1.676323860883713E-001;3.098018351010978E-004;3.470665775239468E-003;-3.539172757882625E-004;
2.406000000000000E+009;1.676403582096100E-001;-1.770106260664761E-003;3.455725964158773E-003;-6.394912488758564E-004;
2.406166666666667E+009;1.675509810447693E-001;-3.483666339889169E-003;3.529202193021774E-003;-8.236464345827699E-004;
2.406333333333334E+009;1.677797585725784E-001;-5.289531312882900E-003;3.569531487300992E-003;-9.929364314302802E-004;
2.406500000000000E+009;1.676201522350311E-001;-7.106956094503403E-003;3.544367384165525E-003;-1.126848510466516E-003;
2.406666666666667E+009;1.675375550985336E-001;-8.861519396305084E-003;3.487972775474191E-003;-1.382018323056400E-003;
2.406833333333334E+009;1.676498949527741E-001;-1.056778151541948E-002;3.510409034788609E-003;-1.591398147866130E-003;
2.407000000000000E+009;1.677549630403519E-001;-1.223150920122862E-002;3.509271889925003E-003;-1.663555158302188E-003;
2.407166666666667E+009;1.678980141878128E-001;-1.370843872427940E-002;3.424152964726090E-003;-1.712208497337997E-003;
2.407333333333334E+009;1.679088026285172E-001;-1.526435650885105E-002;3.305264748632908E-003;-1.999394269660115E-003;
2.407500000000000E+009;1.679301708936691E-001;-1.660303398966789E-002;3.317283233627677E-003;-2.142734825611115E-003;
2.407666666666667E+009;1.680267453193665E-001;-1.780821755528450E-002;3.216980258002877E-003;-2.394918818026781E-003;
2.407833333333334E+009;1.680349111557007E-001;-1.895052008330822E-002;3.169403877109289E-003;-2.455783309414983E-003;
2.408000000000000E+009;1.683424115180969E-001;-2.018341608345509E-002;3.186169778928161E-003;-2.747670747339726E-003;
2.408166666666667E+009;1.684369295835495E-001;-2.111836895346642E-002;3.008065745234489E-003;-2.814554143697023E-003;
2.408333333333334E+009;1.688380837440491E-001;-2.196445129811764E-002;2.849632874131203E-003;-3.026445629075170E-003;
2.408500000000000E+009;1.690929681062698E-001;-2.297949045896530E-002;2.897898433730006E-003;-3.270134562626481E-003;
2.408666666666667E+009;1.693787425756455E-001;-2.383930236101151E-002;2.671616617590189E-003;-3.204116830602288E-003;
2.408833333333334E+009;1.695287972688675E-001;-2.457434684038162E-002;2.543426584452391E-003;-3.524885280057788E-003;
2.409000000000000E+009;1.700451523065567E-001;-2.530207484960556E-002;2.382747363299131E-003;-3.591242944821715E-003;
2.409166666666667E+009;1.703611016273499E-001;-2.597086131572723E-002;2.249137032777071E-003;-3.894693683832884E-003;
2.409333333333334E+009;1.708073019981384E-001;-2.673057839274406E-002;1.908922684378922E-003;-3.788914997130632E-003;
2.409500000000000E+009;1.710697263479233E-001;-2.755530551075935E-002;1.841803779825568E-003;-3.992739599198103E-003;
2.409666666666667E+009;1.713025420904160E-001;-2.807549387216568E-002;1.680060173384845E-003;-4.167083650827408E-003;
2.409833333333334E+009;1.715526878833771E-001;-2.868383564054966E-002;1.430441858246923E-003;-4.195767920464277E-003;
2.410000000000000E+009;1.717921644449234E-001;-2.950256131589413E-002;1.197475474327803E-003;-4.200795199722052E-003;
2.410166666666667E+009;1.720794737339020E-001;-3.020187467336655E-002;9.024030296131969E-004;-4.356963094323874E-003;
2.410333333333334E+009;1.719723492860794E-001;-3.073588758707047E-002;6.761489203199744E-004;-4.308775067329407E-003;
2.410500000000000E+009;1.720309406518936E-001;-3.149266913533211E-002;4.804278141818941E-004;-4.349338356405497E-003;
2.410666666666667E+009;1.717714518308640E-001;-3.213892504572868E-002;2.354692842345685E-004;-4.147812724113464E-003;
2.410833333333334E+009;1.717541217803955E-001;-3.294524550437927E-002;-4.753112989419606E-006;-4.263577982783318E-003;
2.411000000000000E+009;1.714652031660080E-001;-3.323677927255631E-002;-3.540169564075768E-004;-4.181888420134783E-003;
2.411166666666667E+009;1.712885946035385E-001;-3.403972089290619E-002;-3.086802025791258E-004;-4.106283187866211E-003;
2.411333333333334E+009;1.709055155515671E-001;-3.456941246986389E-002;-6.868806667625904E-004;-3.913499880582094E-003;
2.411500000000000E+009;1.705220937728882E-001;-3.537122532725334E-002;-6.749134045094252E-004;-3.940016031265259E-003;
2.411666666666667E+009;1.703117042779923E-001;-3.611357510089874E-002;-1.012763939797878E-003;-3.716650884598494E-003;
2.411833333333334E+009;1.698494851589203E-001;-3.656153008341789E-002;-1.227345666848123E-003;-3.612533910200000E-003;
2.412000000000000E+009;1.695237457752228E-001;-3.730913996696472E-002;-1.136866398155689E-003;-3.335135523229837E-003;
2.412166666666667E+009;1.689147800207138E-001;-3.798777982592583E-002;-1.348874880932272E-003;-3.343499731272459E-003;
2.412333333333334E+009;1.687176525592804E-001;-3.871590271592140E-002;-1.364433323033154E-003;-3.160186111927033E-003;
2.412500000000000E+009;1.678162515163422E-001;-3.982132673263550E-002;-1.564262900501490E-003;-3.025640035048127E-003;
2.412666666666667E+009;1.673265695571899E-001;-4.058142006397247E-002;-1.492234179750085E-003;-2.866621129214764E-003;
2.412833333333334E+009;1.668008267879486E-001;-4.158632829785347E-002;-1.643321476876736E-003;-2.635028213262558E-003;
2.413000000000000E+009;1.661629378795624E-001;-4.234607890248299E-002;-1.767669687978923E-003;-2.558768028393388E-003;
2.413166666666667E+009;1.654524356126785E-001;-4.334905371069908E-002;-1.605876721441746E-003;-2.432963810861111E-003;
2.413333333333334E+009;1.645170599222183E-001;-4.451023787260056E-002;-1.683858921751380E-003;-2.355170203372836E-003;
2.413500000000000E+009;1.640006750822067E-001;-4.539869353175163E-002;-1.532564405351877E-003;-2.279369859024882E-003;
2.413666666666667E+009;1.631648242473602E-001;-4.638818278908730E-002;-1.536650117486715E-003;-2.229355508461595E-003;
2.413833333333334E+009;1.624334752559662E-001;-4.744443297386169E-002;-1.639088732190430E-003;-2.093689283356071E-003;
2.414000000000000E+009;1.615890860557556E-001;-4.860936477780342E-002;-1.556194038130343E-003;-1.946787815541029E-003;
2.414166666666667E+009;1.613606661558151E-001;-4.971929639577866E-002;-1.455169520340860E-003;-1.801952021196485E-003;
2.414333333333334E+009;1.604533046483994E-001;-5.079276487231255E-002;-1.552683999761939E-003;-2.059692516922951E-003;
2.414500000000000E+009;1.603072136640549E-001;-5.197511985898018E-002;-1.318955095484853E-003;-1.960311317816377E-003;
2.414666666666667E+009;1.596326529979706E-001;-5.310934036970139E-002;-1.429125200957060E-003;-1.932999235577881E-003;
2.414833333333334E+009;1.592438966035843E-001;-5.438813939690590E-002;-1.418332220055163E-003;-1.847580075263977E-003;
2.415000000000000E+009;1.588465273380280E-001;-5.566246435046196E-002;-1.401449088007212E-003;-1.929968828335404E-003;
2.415166666666667E+009;1.585585176944733E-001;-5.693094804883003E-002;-1.501393620856106E-003;-1.884381053969264E-003;
2.415333333333334E+009;1.585178226232529E-001;-5.835707858204842E-002;-1.497433637268841E-003;-1.925222342833877E-003;
2.415500000000000E+009;1.580535322427750E-001;-5.963506549596787E-002;-1.661341753788292E-003;-1.913338201120496E-003;
2.415666666666667E+009;1.578655540943146E-001;-6.102353706955910E-002;-1.591671258211136E-003;-1.947165583260357E-003;
2.415833333333334E+009;1.579165160655975E-001;-6.254924088716507E-002;-1.659254543483257E-003;-1.953962258994579E-003;
2.416000000000000E+009;1.574152410030365E-001;-6.400119513273239E-002;-1.797952572815120E-003;-1.816747011616826E-003;
2.416166666666667E+009;1.574490219354630E-001;-6.543576717376709E-002;-1.766429981216788E-003;-1.831095432862639E-003;
2.416333333333334E+009;1.573368161916733E-001;-6.678191572427750E-002;-1.802851329557598E-003;-1.735241152346134E-003;
2.416500000000000E+009;1.571954041719437E-001;-6.840734928846359E-002;-1.816190779209137E-003;-1.656669890508056E-003;
2.416666666666667E+009;1.569093912839890E-001;-6.976683437824249E-002;-2.022858243435621E-003;-1.506402390077710E-003;
2.416833333333334E+009;1.568101197481155E-001;-7.116767764091492E-002;-1.974712125957012E-003;-1.471935887821019E-003;
2.417000000000000E+009;1.564784049987793E-001;-7.255912572145462E-002;-1.860659685917199E-003;-1.458821585401893E-003;
2.417166666666667E+009;1.562762260437012E-001;-7.366022467613220E-002;-1.923507777974010E-003;-1.289908424951136E-003;
2.417333333333334E+009;1.562478542327881E-001;-7.479290664196014E-002;-2.003958681598306E-003;-1.243444159626961E-003;
2.417500000000000E+009;1.561169624328613E-001;-7.620030641555786E-002;-1.861115917563438E-003;-1.182788866572082E-003;
2.417666666666667E+009;1.561948359012604E-001;-7.705412060022354E-002;-1.887139282189310E-003;-1.104529132135212E-003;
2.417833333333334E+009;1.558561474084854E-001;-7.803047448396683E-002;-1.866061124019325E-003;-1.085085794329643E-003;
2.418000000000000E+009;1.557463556528091E-001;-7.908364385366440E-002;-1.739945029839873E-003;-1.097768195904791E-003;
2.418166666666667E+009;1.556728929281235E-001;-7.979790121316910E-002;-1.806729938834906E-003;-1.129960408434272E-003;
2.418333333333334E+009;1.559565067291260E-001;-8.066857606172562E-002;-1.716077444143593E-003;-1.108935801312327E-003;
2.418500000000000E+009;1.557288169860840E-001;-8.158455789089203E-002;-1.574462279677391E-003;-1.139770960435271E-003;
2.418666666666667E+009;1.556880176067352E-001;-8.229232579469681E-002;-1.591940294019878E-003;-1.186682842671871E-003;
2.418833333333334E+009;1.555803269147873E-001;-8.297365158796310E-002;-1.604672404937446E-003;-1.344866352155805E-003;
2.419000000000000E+009;1.554598361253738E-001;-8.358877152204514E-002;-1.696014660410583E-003;-1.490894122980535E-003;
2.419166666666667E+009;1.554298251867294E-001;-8.427743613719940E-002;-1.689965487457812E-003;-1.498076482675970E-003;
2.419333333333334E+009;1.550870537757874E-001;-8.462608605623245E-002;-1.756732584908605E-003;-1.685661380179226E-003;
2.419500000000000E+009;1.549748182296753E-001;-8.531108498573303E-002;-1.856324728578329E-003;-1.786785549484193E-003;
2.419666666666667E+009;1.549926996231079E-001;-8.577118813991547E-002;-2.161924261599779E-003;-1.726938644424081E-003;
2.419833333333334E+009;1.544956564903259E-001;-8.605710417032242E-002;-2.370102098211646E-003;-1.861520693637431E-003;
2.420000000000000E+009;1.544383019208908E-001;-8.657371252775192E-002;-2.419718774035573E-003;-1.836026785895228E-003;
2.420166666666667E+009;1.541524231433868E-001;-8.683680742979050E-002;-2.642923267558217E-003;-1.764395623467863E-003;
2.420333333333334E+009;1.538464128971100E-001;-8.729725331068039E-002;-2.754718065261841E-003;-1.651401049457490E-003;
2.420500000000000E+009;1.537895500659943E-001;-8.735427260398865E-002;-2.972057554870844E-003;-1.614845357835293E-003;
2.420666666666667E+009;1.532778292894363E-001;-8.771517127752304E-002;-3.287504892796278E-003;-1.394802937284112E-003;
2.420833333333334E+009;1.529350727796555E-001;-8.812645077705383E-002;-3.329788334667683E-003;-1.087377080693841E-003;
2.421000000000000E+009;1.525852531194687E-001;-8.858566731214523E-002;-3.488009097054601E-003;-1.094307401217520E-003;
2.421166666666667E+009;1.521994769573212E-001;-8.895841985940933E-002;-3.572148503735662E-003;-9.217519545927644E-004;
2.421333333333334E+009;1.517164558172226E-001;-8.938061445951462E-002;-3.560372162610292E-003;-6.725920829921961E-004;
2.421500000000000E+009;1.511363685131073E-001;-8.967975527048111E-002;-3.623007331043482E-003;-5.604248144663870E-004;
2.421666666666667E+009;1.504182964563370E-001;-9.012760221958160E-002;-3.677108092233539E-003;-2.926741726696491E-004;
2.421833333333334E+009;1.498890072107315E-001;-9.078710526227951E-002;-3.611352993175387E-003;-1.212439456139691E-004;
2.422000000000000E+009;1.491765826940537E-001;-9.109175950288773E-002;-3.590314183384180E-003;1.474148157285526E-004;
2.422166666666667E+009;1.483985036611557E-001;-9.197451919317246E-002;-3.665592288598418E-003;3.024416218977422E-004;
2.422333333333334E+009;1.477363854646683E-001;-9.255863726139069E-002;-3.581570228561759E-003;2.852876787073910E-004;
2.422500000000000E+009;1.468343287706375E-001;-9.309485554695129E-002;-3.454183693975210E-003;3.931974351871759E-004;
2.422666666666667E+009;1.458190828561783E-001;-9.376333653926849E-002;-3.565446939319372E-003;6.467654020525515E-004;
2.422833333333334E+009;1.451952457427979E-001;-9.471714496612549E-002;-3.461734158918262E-003;5.274493014439941E-004;
2.423000000000000E+009;1.442946642637253E-001;-9.525889158248901E-002;-3.577391151338816E-003;7.729103672318161E-004;
2.423166666666667E+009;1.435223817825317E-001;-9.624595195055008E-002;-3.478526137769222E-003;7.922594668343663E-004;
2.423333333333334E+009;1.427380293607712E-001;-9.688106179237366E-002;-3.581149736419320E-003;9.014412062242627E-004;
2.423500000000000E+009;1.417335420846939E-001;-9.814719855785370E-002;-3.523329971358180E-003;1.034220447763801E-003;
2.423666666666667E+009;1.406910866498947E-001;-9.897834062576294E-002;-3.579566953703761E-003;1.191334449686110E-003;
2.423833333333334E+009;1.399026513099670E-001;-9.997358918190002E-002;-3.681145608425140E-003;1.339812763035297E-003;
2.424000000000000E+009;1.389058679342270E-001;-1.007157638669014E-001;-3.413255326449871E-003;1.382278394885361E-003;
2.424166666666667E+009;1.379706859588623E-001;-1.019245758652687E-001;-3.421779023483396E-003;1.587098115123808E-003;
2.424333333333334E+009;1.371030807495117E-001;-1.028818339109421E-001;-3.474087221547961E-003;1.720965257845819E-003;
2.424500000000000E+009;1.362326443195343E-001;-1.040611490607262E-001;-3.337344154715538E-003;1.754293916746974E-003;
2.424666666666667E+009;1.356600224971771E-001;-1.049619838595390E-001;-3.341004019603133E-003;2.019686391577125E-003;
2.424833333333334E+009;1.346806287765503E-001;-1.062409654259682E-001;-3.173048840835691E-003;2.179276663810015E-003;
2.425000000000000E+009;1.339680999517441E-001;-1.074480861425400E-001;-3.115540370345116E-003;2.285295631736517E-003;
2.425166666666667E+009;1.331691741943359E-001;-1.085171923041344E-001;-3.003485267981887E-003;2.592274919152260E-003;
2.425333333333334E+009;1.327683180570602E-001;-1.097072064876556E-001;-2.915399614721537E-003;2.590476535260677E-003;
2.425500000000000E+009;1.322171390056610E-001;-1.109424158930779E-001;-2.787549281492829E-003;2.796843182295561E-003;
2.425666666666667E+009;1.314000785350800E-001;-1.120582148432732E-001;-2.701367950066924E-003;2.900551538914442E-003;
2.425833333333334E+009;1.310130208730698E-001;-1.133455932140350E-001;-2.696767216548324E-003;2.939309226348996E-003;
2.426000000000000E+009;1.304502040147781E-001;-1.145641282200813E-001;-2.346469322219491E-003;3.105217590928078E-003;
2.426166666666667E+009;1.302638947963715E-001;-1.157548353075981E-001;-2.403010614216328E-003;3.230332629755139E-003;
2.426333333333334E+009;1.296698600053787E-001;-1.168887168169022E-001;-2.299222396686673E-003;3.342938842251897E-003;
2.426500000000000E+009;1.292224377393723E-001;-1.180285960435867E-001;-1.931202714331448E-003;3.387102391570807E-003;
2.426666666666667E+009;1.290327459573746E-001;-1.189165860414505E-001;-1.909587881527841E-003;3.467221278697252E-003;
2.426833333333334E+009;1.287080496549606E-001;-1.200902685523033E-001;-1.727960538119078E-003;3.494743723422289E-003;
2.427000000000000E+009;1.283513307571411E-001;-1.211695149540901E-001;-1.645479584112763E-003;3.667553188279271E-003;
2.427166666666667E+009;1.281933039426804E-001;-1.220127940177918E-001;-1.397388637997210E-003;3.773839911445975E-003;
2.427333333333334E+009;1.278648972511292E-001;-1.229805946350098E-001;-1.233314862474799E-003;3.886662656441331E-003;
2.427500000000000E+009;1.279316544532776E-001;-1.237529292702675E-001;-1.080889604054391E-003;3.963718190789223E-003;
2.427666666666667E+009;1.276918500661850E-001;-1.245769262313843E-001;-6.249764701351523E-004;3.977835644036531E-003;
