# Hz S RI R 
2400000000.0000000000 0.155961319804191589355468750000 0.060182973742485053325612653907 -0.004201563540846109390258789062 0.000293551769573241526454371320 0 0 0 0 
2400166666.6666665077 0.156042724847793606857138115629 0.058378186076879501342773437500 -0.004024396184831857681274414062 0.000364450505003333091735839844 0 0 0 0 
2400333333.3333334923 0.156160786747932406326455634371 0.056333873420953750610351562500 -0.003840410383418201966526650537 0.000574143428821116685867309570 0 0 0 0 
2400500000.0000000000 0.156491950154304504394531250000 0.054490871727466583251953125000 -0.004200432915240526199340820312 0.000656601856462657451629638672 0 0 0 0 
2400666666.6666665077 0.156689241528511102874432481258 0.052355393767356872558593750000 -0.004072765819728375348562909863 0.001068109879270195960998535156 0 0 0 0 
2400833333.3333334923 0.157045960426330594161825615629 0.050308875739574432373046875000 -0.003977913409471511840820312500 0.001095813349820673899409628760 0 0 0 0 
2401000000.0000000000 0.157550275325775201995526231258 0.048091690987348563457448591407 -0.003972880542278289794921875000 0.001058705733157693906071328271 0 0 0 0 
2401166666.6666665077 0.157875373959541293045205634371 0.045876298099756240844726562500 -0.003741126973181962966918945312 0.001261354889720677895786904443 0 0 0 0 
2401333333.3333334923 0.158171907067298889160156250000 0.044094927608966827392578125000 -0.003602739423513412909266806494 0.001382590970024466948268271338 0 0 0 0 
2401500000.0000000000 0.159035205841064508636151231258 0.041805207729339599609375000000 -0.003669491037726401849033974756 0.001550222979858518080470419775 0 0 0 0 
2401666666.6666665077 0.159665942192077608963174384371 0.039974451065063476562500000000 -0.003419355722144246101379394531 0.001677277497947216033935546875 0 0 0 0 
2401833333.3333334923 0.160308420658111600021200615629 0.037875834852457053447682966407 -0.003354836953803896903991699219 0.001779023674316704056383442456 0 0 0 0 
2402000000.0000000000 0.160850152373313903808593750000 0.036032084375619888305664062500 -0.003276481525972485975978232275 0.001979878405109047889709472656 0 0 0 0 
2402166666.6666665077 0.161458641290664700607138115629 0.034127365797758102416992187500 -0.003096792846918106079101562500 0.001882724231109023094177246094 0 0 0 0 
2402333333.3333334923 0.162499636411666897872763115629 0.032376073300838470458984375000 -0.002960989018902183012721396338 0.002174890832975507216212607275 0 0 0 0 
2402500000.0000000000 0.163430005311965886871661268742 0.030708361417055130004882812500 -0.002984324004501103921177529443 0.002299125073477625846862792969 0 0 0 0 
2402666666.6666665077 0.164284348487854003906250000000 0.029377028346061710012415701954 -0.002846783725544809861424111475 0.002270743716508150100708007812 0 0 0 0 
2402833333.3333334923 0.165153548121452303787393134371 0.027654040604829791677454764454 -0.002348698442801833152770996094 0.002496653934940696196315146338 0 0 0 0 
2403000000.0000000000 0.166008234024047907073651231258 0.026224022731184959411621093750 -0.002414269838482141928431845557 0.002254648134112358093261718750 0 0 0 0 
2403166666.6666665077 0.167034134268760708907919365629 0.024952355772256851196289062500 -0.002276157727465033964869833838 0.002452148823067545890808105469 0 0 0 0 
2403333333.3333334923 0.168027520179748507400674384371 0.023721940815448760986328125000 -0.002145797479897737936732626807 0.002487042220309377150294638525 0 0 0 0 
2403500000.0000000000 0.168828219175338800628338731258 0.022501669824123379098912423046 -0.002128579420968890190124511719 0.002420254284515976905822753906 0 0 0 0 
2403666666.6666665077 0.169961154460907010177450615629 0.021296989172697070730189139454 -0.001927796052768826918361044775 0.002490849466994404792785644531 0 0 0 0 
2403833333.3333334923 0.170959308743476895431356865629 0.020455205813050270080566406250 -0.001973585924133657975437783350 0.002389405621215701103210449219 0 0 0 0 
2404000000.0000000000 0.171814948320388793945312500000 0.019594032317399978637695312500 -0.001663141185417770905735634912 0.002604334848001598878147744287 0 0 0 0 
2404166666.6666665077 0.172725409269332913497763115629 0.018520943820476528512974923046 -0.001513649011030792973162006909 0.002653526840731502012965536963 0 0 0 0 
2404333333.3333334923 0.173520117998123196700888115629 0.017829423770308501506764997657 -0.001578491996042429967167519678 0.002545122290030121803283691406 0 0 0 0 
2404500000.0000000000 0.174409374594688387771768134371 0.017156168818473819387415701954 -0.001534017967060208103777241284 0.002562637673690915107727050781 0 0 0 0 
2404666666.6666665077 0.175387889146804809570312500000 0.016487546265125281597097028907 -0.001383579219691454930546425928 0.002497015986591577963588095557 0 0 0 0 
2404833333.3333334923 0.176059618592262295821981865629 0.015966244041919711721400076954 -0.001328252954408525986912392725 0.002543613780289887948277138818 0 0 0 0 
2405000000.0000000000 0.176771000027656610686932481258 0.015540290623903279740303240430 -0.001192320603877305984497070312 0.002488796133548020882847451318 0 0 0 0 
2405166666.6666665077 0.177362769842147799392861884371 0.015002873726189139974573905079 -0.000836442166473716497421264648 0.002482562791556119918823242188 0 0 0 0 
2405333333.3333334923 0.178074970841407803634481865629 0.014483139850199220829973789648 -0.000855766469612717628479003906 0.002514951396733521981480263818 0 0 0 0 
2405500000.0000000000 0.178462371230125399490518134371 0.014328605495393279684046561329 -0.001008273917250334999681782300 0.002637848490849136872532509912 0 0 0 0 
2405666666.6666665077 0.178879350423812893966513115629 0.014007170684635639190673828125 -0.000828532327432185411453247070 0.002472515683621168136596679688 0 0 0 0 
2405833333.3333334923 0.179190576076507596114950615629 0.013822827488183980423896990430 -0.000772425788454711437225341797 0.002368600107729434967041015625 0 0 0 0 
2406000000.0000000000 0.179463520646095303634481865629 0.013390718959271909541119960352 -0.000622813939116895198822021484 0.002460097428411244912388466943 0 0 0 0 
2406166666.6666665077 0.179506897926330594161825615629 0.013478006236255170649518397852 -0.000718967989087104797363281250 0.002392142545431851907017373193 0 0 0 0 
2406333333.3333334923 0.179743677377700805664062500000 0.013174558989703660447090349805 -0.000496160238981246948242187500 0.002369388705119491057154990088 0 0 0 0 
2406500000.0000000000 0.179833829402923611739950615629 0.012707394547760490072230155079 -0.000306633592117577791213989258 0.002252676989883183999302529443 0 0 0 0 
2406666666.6666665077 0.179554343223571805099325615629 0.012526943348348140716552734375 -0.000205835080123506513520917349 0.002161980606615542931797646631 0 0 0 0 
2406833333.3333334923 0.179463207721710205078125000000 0.012107988819479940587053867773 -0.000253505102591589093208312988 0.002187075791880487962010048975 0 0 0 0 
2407000000.0000000000 0.179439246654510498046875000000 0.011805786751210689544677734375 -0.000136510454467497793122968130 0.002119999378919601006748818506 0 0 0 0 
2407166666.6666665077 0.179312705993652288238848768742 0.011411624960601329803466796875 -0.000159994160640053505271357404 0.002044784836471081213710165869 0 0 0 0 
2407333333.3333334923 0.178881406784057589431924384371 0.010865022428333759307861328125 -0.000241383939282968613222399301 0.001933955005370080904719687354 0 0 0 0 
2407500000.0000000000 0.178421542048454312423544365629 0.010283559560775760305384451954 0.000065747532062232494354248047 0.002036363119259477095362997900 0 0 0 0 
2407666666.6666665077 0.178037405014038113693075615629 0.009819592349231243133544921875 -0.000053705880418419837951660156 0.001942985109053551933885883862 0 0 0 0 
2407833333.3333334923 0.177284270524978609939736884371 0.008971766568720340728759765625 0.000024685734388185668399537734 0.001810420188121498064753867041 0 0 0 0 
2408000000.0000000000 0.176716193556785611251669365629 0.008068749681115150451660156250 0.000119678908959031105041503906 0.002003834582865238189697265625 0 0 0 0 
2408166666.6666665077 0.176188871264457702636718750000 0.007505604531615973386282636426 0.000102301150036510093651632991 0.001714403042569756941554404150 0 0 0 0 
2408333333.3333334923 0.175770565867424011230468750000 0.006493479479104281339163495801 0.000006443132861022604629397392 0.001720018452033400969264365088 0 0 0 0 
2408500000.0000000000 0.174997702240943908691406250000 0.005382660776376724243164062500 0.000167156336829066303655347281 0.001522973645478487014770507812 0 0 0 0 
2408666666.6666665077 0.174164772033691406250000000000 0.004154779948294162750244140625 0.000068856781581416726112365723 0.001714013167656958103179931641 0 0 0 0 
2408833333.3333334923 0.173490896821022005935830634371 0.003131505334749817848205566406 0.000068620254751294851303100586 0.001770351780578494071960449219 0 0 0 0 
2409000000.0000000000 0.172932133078575106521768134371 0.001807229011319577910779643481 -0.000037729547329945489764213562 0.001626700279302895069122314453 0 0 0 0 
2409166666.6666665077 0.172240316867828396896200615629 0.000450028834166005308001917706 0.000203290735953487510054987775 0.001577145420014858029009174878 0 0 0 0 
2409333333.3333334923 0.171633407473564203460369981258 -0.001065010437741876082179404150 0.000209132747841067612171173096 0.001519032055512071089503622900 0 0 0 0 
2409500000.0000000000 0.170978456735610989669638115629 -0.002717297291383146806004189600 -0.000035738969017984352331569059 0.001534568727947771982905722510 0 0 0 0 
2409666666.6666665077 0.170213952660560607910156250000 -0.004122519399970769882202148438 0.000188838574104011113017481671 0.001567234750837088064906454932 0 0 0 0 
2409833333.3333334923 0.169680163264274597167968750000 -0.005827017594128847122192382812 0.000140558928251266506597241812 0.001398204476572572968126606519 0 0 0 0 
2410000000.0000000000 0.169275417923927307128906250000 -0.007480388507246971130371093750 0.000137200171593576696798047476 0.001453718286938965103746723706 0 0 0 0 
2410166666.6666665077 0.168675959110260009765625000000 -0.009489598684012889862060546875 0.000191652303328737589433947153 0.001383001916110516028163290869 0 0 0 0 
2410333333.3333334923 0.168150871992111206054687500000 -0.011242785491049289703369140625 0.000200447146198712289333343506 0.001527513493783771991729736328 0 0 0 0 
2410500000.0000000000 0.167973205447196988204794365629 -0.013028104789555069314976876171 0.000068879708123859018087387085 0.001405929098837078051326132666 0 0 0 0 
2410666666.6666665077 0.167528554797172601897869981258 -0.014999067410826679574986641796 0.000241111280047334703520098276 0.001471051480621099905726767432 0 0 0 0 
2410833333.3333334923 0.167282283306121798416299384371 -0.016906691715121269226074218750 0.000191555824130773490101414813 0.001534617738798260905622172778 0 0 0 0 
2411000000.0000000000 0.167271092534065302093182481258 -0.018844006583094600332239920704 0.000212228609598241800635737286 0.001340808114036917903302836841 0 0 0 0 
2411166666.6666665077 0.167008817195892306228799384371 -0.021003330126404758798619454296 0.000129672975162975490093231201 0.001379223540425301031825400244 0 0 0 0 
2411333333.3333334923 0.166976347565650912185830634371 -0.022719427943229678762415701954 0.000088543994934298098087310791 0.001466379966586828014971088940 0 0 0 0 
2411500000.0000000000 0.167079746723175104339276231258 -0.025050250813364979135533516796 0.000119784490379970493629732675 0.001479595666751265959498740088 0 0 0 0 
2411666666.6666665077 0.167419895529747009277343750000 -0.026947880163788798940638358204 0.000185158976819366189554491586 0.001238751108758151964900351416 0 0 0 0 
2411833333.3333334923 0.167621195316314697265625000000 -0.028668887913227081298828125000 0.000323465734254568815231323242 0.001467746449634433009504008716 0 0 0 0 
2412000000.0000000000 0.167978629469871493240518134371 -0.030681816861033439636230468750 0.000260448141489177888065892352 0.001488559064455329938175820459 0 0 0 0 
2412166666.6666665077 0.168296948075294494628906250000 -0.032577361911535263061523437500 0.000256208004429936408996582031 0.001465526525862514972686767578 0 0 0 0 
2412333333.3333334923 0.168980509042739895919638115629 -0.034338429570198059082031250000 0.000321823055855929905742091046 0.001397281186655163981794047778 0 0 0 0 
2412500000.0000000000 0.169422626495361300369424384371 -0.036173980683088302612304687500 0.000350145273841917514801025391 0.001479132915847003893611288916 0 0 0 0 
2412666666.6666665077 0.169800639152526910979901231258 -0.037905953824520111083984375000 0.000437486189184710383415222168 0.001561994315125047943712544019 0 0 0 0 
2412833333.3333334923 0.170368403196334811111611884371 -0.039701469242572777484934221093 0.000343954336130991578102111816 0.001540052006021142005920410156 0 0 0 0 
2413000000.0000000000 0.170899406075477600097656250000 -0.041291881352663040161132812500 0.000309927854686975479125976562 0.001607018988579512076136923682 0 0 0 0 
2413166666.6666665077 0.171439737081527709960937500000 -0.042900279164314270019531250000 0.000485848577227443510859888898 0.001468872418627142906188964844 0 0 0 0 
2413333333.3333334923 0.172176882624626187423544365629 -0.044290535151958472515065778907 0.000338979793014004826545715332 0.001527097192592919089673686450 0 0 0 0 
2413500000.0000000000 0.172904357314109802246093750000 -0.045690443366765982891042341407 0.000648135668598115444183349609 0.001592065789736806912663125146 0 0 0 0 
2413666666.6666665077 0.173599675297737093826455634371 -0.047208957374095916748046875000 0.000520299479831010103225708008 0.001521873637102544090868305737 0 0 0 0 
2413833333.3333334923 0.174182817339897211272869981258 -0.048455875366926193237304687500 0.000716361042577773332595825195 0.001468533067964016957523964990 0 0 0 0 
2414000000.0000000000 0.174681335687637301345986884371 -0.049618799239397048950195312500 0.000718859198968857526779174805 0.001486359746195375919342041016 0 0 0 0 
2414166666.6666665077 0.175380915403366088867187500000 -0.050718028098344802856445312500 0.000674358569085597991943359375 0.001492471667006612040876079028 0 0 0 0 
2414333333.3333334923 0.176066055893898010253906250000 -0.051781930029392242431640625000 0.000876075588166713714599609375 0.001427488750778139071223593604 0 0 0 0 
2414500000.0000000000 0.176585808396339388748330634371 -0.052619446069002151489257812500 0.000765739590860903263092041016 0.001315051107667386965510702979 0 0 0 0 
2414666666.6666665077 0.177040815353393610198651231258 -0.053419400006532669067382812500 0.001047904952429234981536865234 0.001441057189367711977717734229 0 0 0 0 
2414833333.3333334923 0.177468299865722711761151231258 -0.054287042468786239624023437500 0.000881417829077690839767456055 0.001299849129281938076019287109 0 0 0 0 
2415000000.0000000000 0.177930891513824490646200615629 -0.054837938398122787475585937500 0.000942285812925547361373901367 0.001157508813776076056836772388 0 0 0 0 
2415166666.6666665077 0.178081855177879305740518134371 -0.055217847228050231933593750000 0.000871945288963615894317626953 0.001062096212990581989288330078 0 0 0 0 
2415333333.3333334923 0.178631156682968111892861884371 -0.055822391062974929809570312500 0.001129489508457482077954936450 0.001208194531500339941737509619 0 0 0 0 
2415500000.0000000000 0.178545325994491604904013115629 -0.056244291365146636962890625000 0.001148471026681364016291952979 0.001103153568692504925968789209 0 0 0 0 
2415666666.6666665077 0.178790077567100497146768134371 -0.056634705513715737079660783593 0.001090231584385036988499306787 0.001132660894654691002489399487 0 0 0 0 
2415833333.3333334923 0.178848430514335604568643134371 -0.057037346065044403076171875000 0.001222817227244376919390034253 0.000977894756942987442016601562 0 0 0 0 
2416000000.0000000000 0.178721725940704401214276231258 -0.057211559265851967548410783593 0.001152305398136376900913857568 0.000777049863245338201522827148 0 0 0 0 
2416166666.6666665077 0.178830742835998507400674384371 -0.057428460568189620971679687500 0.001212123781442641995073628003 0.000952375004999339580535888672 0 0 0 0 
2416333333.3333334923 0.178628176450729397872763115629 -0.057722251862287521362304687500 0.001071173348464071967481303638 0.000764271884690970182418823242 0 0 0 0 
2416500000.0000000000 0.178208276629447909256143134371 -0.057985324412584311748464216407 0.001215993775986135005950927734 0.000659500423353165388107299805 0 0 0 0 
2416666666.6666665077 0.177742004394531305511151231258 -0.058110769838094711303710937500 0.001043152762576937892316508716 0.000741274969186633825302124023 0 0 0 0 
2416833333.3333334923 0.177333563566207913497763115629 -0.058408614248037338256835937500 0.001211404916830361106275248950 0.000661379774101078510284423828 0 0 0 0 
2417000000.0000000000 0.176447287201881408691406250000 -0.058611430227756500244140625000 0.001028938917443156025530170972 0.000641648191958665847778320312 0 0 0 0 
2417166666.6666665077 0.175912037491798400878906250000 -0.058609936386346817016601562500 0.001153681660071014924290322412 0.000648578687105327844619750977 0 0 0 0 
2417333333.3333334923 0.175206199288368197342080634371 -0.058864429593086242675781250000 0.001001012744382024028180766528 0.000582540233153849840164184570 0 0 0 0 
2417500000.0000000000 0.174277231097221402267294365629 -0.059357475489377982402761091407 0.000951006950344890356063842773 0.000410126260248944217532557355 0 0 0 0 
2417666666.6666665077 0.173469886183738708496093750000 -0.059461571276187896728515625000 0.001001961063593626022338867188 0.000505887845065444707870483398 0 0 0 0 
2417833333.3333334923 0.172426551580429104904013115629 -0.059847641736268997192382812500 0.000899413251318037509918212891 0.000442408985691145116656702863 0 0 0 0 
2418000000.0000000000 0.171307504177093505859375000000 -0.060414172708988189697265625000 0.000852592231240123510360717773 0.000481227820273488814204615460 0 0 0 0 
2418166666.6666665077 0.170126885175705011565838731258 -0.060717102140188217163085937500 0.000834793492686003446578979492 0.000312084943288937211036682129 0 0 0 0 
2418333333.3333334923 0.169282555580139187911825615629 -0.061288204044103622436523437500 0.000642279512248933315277099609 0.000384916987968608682781773700 0 0 0 0 
2418500000.0000000000 0.167832314968109103103799384371 -0.061840727925300598144531250000 0.000748517573811113834381103516 0.000380660087103024125099182129 0 0 0 0 
2418666666.6666665077 0.166795596480369595626669365629 -0.062483042478561401367187500000 0.000716199749149382114410400391 0.000442769087385386174351292743 0 0 0 0 
2418833333.3333334923 0.165378078818321200271768134371 -0.063385464251041412353515625000 0.000738025992177426815032958984 0.000326276523992419188648778094 0 0 0 0 
2419000000.0000000000 0.164011493325233487228231865629 -0.063971415162086486816406250000 0.000675318122375756502151489258 0.000366862805094569921493530273 0 0 0 0 
2419166666.6666665077 0.162879079580307006835937500000 -0.064935848116874694824218750000 0.000531851721461862325668334961 0.000430567335570231080055236816 0 0 0 0 
2419333333.3333334923 0.161408200860023498535156250000 -0.065846584737300872802734375000 0.000662540085613727569580078125 0.000377870484953746199607849121 0 0 0 0 
2419500000.0000000000 0.160240635275840787032919365629 -0.067080885171890258789062500000 0.000674683076795190572738647461 0.000515593506861478090286254883 0 0 0 0 
2419666666.6666665077 0.159356936812400790115518134371 -0.068183265626430511474609375000 0.000614987686276435852050781250 0.000503115123137831687927246094 0 0 0 0 
2419833333.3333334923 0.158037334680557306487713731258 -0.069271661341190338134765625000 0.000527868280187249183654785156 0.000647623499389737844467163086 0 0 0 0 
2420000000.0000000000 0.156951725482940701583700615629 -0.070537567138671875000000000000 0.000486127013573422973782139911 0.000689131789840757846832275391 0 0 0 0 
