# Hz S RI R 
2400000000.0000000000 0.155977606773376492599325615629 0.060258273035287857055664062500 -0.004188938532024621963500976562 0.000334952492266893386840820312 0 0 0 0 
2400166666.6666665077 0.156193852424621609786825615629 0.058331064879894256591796875000 -0.004116905853152275085449218750 0.000446216523414477705955505371 0 0 0 0 
2400333333.3333334923 0.156253919005394009689169365629 0.056337844580411911010742187500 -0.004175904672592878341674804688 0.000601410225499421358108520508 0 0 0 0 
2400500000.0000000000 0.156631126999855013748330634371 0.054423581808805472637136091407 -0.004126265645027160644531250000 0.000580766936764121055603027344 0 0 0 0 
2400666666.6666665077 0.156653329730033902267294365629 0.052084367722272872924804687500 -0.004055390600115060806274414062 0.000896730052772909402847290039 0 0 0 0 
2400833333.3333334923 0.157103076577186612228231865629 0.050103399902582168579101562500 -0.003845761762931942939758300781 0.000946220592595636844635009766 0 0 0 0 
2401000000.0000000000 0.157534807920455904861611884371 0.048143643885850913310964216407 -0.003942970186471939086914062500 0.001206813612952827973606728662 0 0 0 0 
2401166666.6666665077 0.157977670431137112716513115629 0.045783292502164840698242187500 -0.003833526745438576178309775244 0.001263187965378165028215717847 0 0 0 0 
2401333333.3333334923 0.158381238579750088790731865629 0.043790835887193679809570312500 -0.003798833815380930900573730469 0.001378456829115747971775673975 0 0 0 0 
2401500000.0000000000 0.158995822072029113769531250000 0.041976608335971832275390625000 -0.003524989122524857954737997900 0.001423971378244460062739706885 0 0 0 0 
2401666666.6666665077 0.159626156091690091232138115629 0.039622616022825241088867187500 -0.003517094766721128983738564600 0.001753660966642200946807861328 0 0 0 0 
2401833333.3333334923 0.160324737429618807693643134371 0.038040950894355766986887346093 -0.003310403786599636077880859375 0.001790156005881726958631205981 0 0 0 0 
2402000000.0000000000 0.160726413130760192871093750000 0.035974074155092239379882812500 -0.003213153919205069975612021338 0.001915401080623269081115722656 0 0 0 0 
2402166666.6666665077 0.161682501435279901702557481258 0.034182820469141013408620466407 -0.003199444850906730131862021338 0.001948401564732193946838378906 0 0 0 0 
2402333333.3333334923 0.162388563156127901931924384371 0.032396163791418082500417341407 -0.003113948507234454154968261719 0.002106044441461563110351562500 0 0 0 0 
2402500000.0000000000 0.163432806730270413497763115629 0.030623184517025951040247733204 -0.003060220973566174940821982275 0.002146304352208971977233886719 0 0 0 0 
2402666666.6666665077 0.164252653717994689941406250000 0.029234956949949271465261091407 -0.002765935380011796951293945312 0.002246057614684104919433593750 0 0 0 0 
2402833333.3333334923 0.165204912424087496658486884371 0.027791146188974380493164062500 -0.002475953428074717955348349463 0.002311589661985636191127158057 0 0 0 0 
2403000000.0000000000 0.165992662310600308517294365629 0.026282580569386478769322579296 -0.002415117342025042013881064307 0.002545981435105205015895224463 0 0 0 0 
2403166666.6666665077 0.166880235075950594803018134371 0.025020450353622439992884451954 -0.002375882118940352959873818506 0.002488272497430444197413779150 0 0 0 0 
2403333333.3333334923 0.168014988303184509277343750000 0.023611746728420261037806326954 -0.002275175647810101942775107275 0.002424113918095827102661132812 0 0 0 0 
2403500000.0000000000 0.168785259127616910079794365629 0.022502809762954708444615548046 -0.002263722475618124008178710938 0.002462760545313357873203896631 0 0 0 0 
2403666666.6666665077 0.169970810413360595703125000000 0.021399283781647678720494454296 -0.002087829867377876801731728662 0.002619618782773613929748535156 0 0 0 0 
2403833333.3333334923 0.171021461486816406250000000000 0.020447809249162670480748360546 -0.001983005553483963012695312500 0.002466348465532064004185341943 0 0 0 0 
2404000000.0000000000 0.171815857291221590896768134371 0.019423654302954670297642891796 -0.001830052700825036005732870947 0.002558790845796465873718261719 0 0 0 0 
2404166666.6666665077 0.172717571258544894119424384371 0.018600540235638618469238281250 -0.001685617840848862908006977612 0.002665683394297956986668252100 0 0 0 0 
2404333333.3333334923 0.173533424735069302657919365629 0.017939878627657890319824218750 -0.001461459905840456919429160010 0.002637060126289724869969033350 0 0 0 0 
2404500000.0000000000 0.174303457140922601897869981258 0.017172217369079589843750000000 -0.001512503600679337978363037109 0.002485767239704728126525878906 0 0 0 0 
2404666666.6666665077 0.175248891115188598632812500000 0.016597323119640350341796875000 -0.001459487830288707993151020581 0.002469787141308188004734658350 0 0 0 0 
2404833333.3333334923 0.176026612520217895507812500000 0.015960294753313071514089216407 -0.001218766206875443892237997900 0.002427987521514296965358115088 0 0 0 0 
2405000000.0000000000 0.176574036478996304611044365629 0.015512187033891679591168788477 -0.001218246645294130065320659106 0.002574404934421182112452841650 0 0 0 0 
2405166666.6666665077 0.177336260676383999923544365629 0.015116846188902860123604021680 -0.000905357475858181715011596680 0.002467795973643660979029990088 0 0 0 0 
2405333333.3333334923 0.177990660071373013595419365629 0.014505105093121530360211757227 -0.001032072468660772063611674731 0.002474433276802300973179482568 0 0 0 0 
2405500000.0000000000 0.178354844450950594803018134371 0.014369953423738479614257812500 -0.000792591832578182220458984375 0.002390604699030518965480185400 0 0 0 0 
2405666666.6666665077 0.178876742720603887359942518742 0.014061982743442060297955897852 -0.000775031803641468286514282227 0.002563095185905694961547851562 0 0 0 0 
2405833333.3333334923 0.179077416658401489257812500000 0.013771982863545419520368007227 -0.000731057021766901016235351562 0.002572448225691914992091513525 0 0 0 0 
2406000000.0000000000 0.179394036531448392013388115629 0.013388310559093950444231602148 -0.000558557279873639453589284631 0.002468372695147991180419921875 0 0 0 0 
2406166666.6666665077 0.179513275623321505447549384371 0.013415866531431680161445818555 -0.000555693637579679489135742188 0.002443717094138265089747763525 0 0 0 0 
2406333333.3333334923 0.179761111736297607421875000000 0.013061533682048320770263671875 -0.000434156419942155480384826660 0.002414545975625514984130859375 0 0 0 0 
2406500000.0000000000 0.179746955633163507659588731258 0.012790265493094919377337070898 -0.000420609518187120611041468488 0.002363320672884583906886435400 0 0 0 0 
2406666666.6666665077 0.179534330964088412185830634371 0.012478919699788090097447579296 -0.000222453483729623312323969708 0.002124495571479200883152627100 0 0 0 0 
2406833333.3333334923 0.179494172334670992752236884371 0.012208183296024799346923828125 -0.000217492168303579092025756836 0.002014624886214733123779296875 0 0 0 0 
2407000000.0000000000 0.179487377405166598220986884371 0.011649190448224549729316912305 -0.000025092725991271439602578811 0.002102033467963337898254394531 0 0 0 0 
2407166666.6666665077 0.179162219166755704025106865629 0.011419069953262809408167655079 -0.000183545809704810408040723257 0.002119876677170395851135253906 0 0 0 0 
2407333333.3333334923 0.178730204701423700530682481258 0.010696063749492170161237147852 -0.000036273479054216302256991727 0.001954335952177644209620810400 0 0 0 0 
2407500000.0000000000 0.178408697247505187988281250000 0.010468110442161560058593750000 -0.000133578636450693011283874512 0.001912021660245954990386962891 0 0 0 0 
2407666666.6666665077 0.177917987108230590820312500000 0.009737584739923477172851562500 0.000132185916299931704998016357 0.002076828153803945021388388525 0 0 0 0 
2407833333.3333334923 0.177481800317764309982138115629 0.008978552184998989105224609375 -0.000009459727152716368436813354 0.001943305367603898048400878906 0 0 0 0 
2408000000.0000000000 0.176711529493331909179687500000 0.008155942894518375396728515625 -0.000016684420188539661467075348 0.001788709661923348903656005859 0 0 0 0 
2408166666.6666665077 0.176254943013191195388955634371 0.007558155339211226377005292676 0.000015805084331077520141397783 0.001774447271600366072413779150 0 0 0 0 
2408333333.3333334923 0.175860434770584106445312500000 0.006582667585462331771850585938 0.000059771147789433598518371582 0.001692744204774498939514160156 0 0 0 0 
2408500000.0000000000 0.175012454390525790115518134371 0.005371076986193656921386718750 0.000178621179657056900575914926 0.001674710889346898035762167822 0 0 0 0 
2408666666.6666665077 0.174392551183700589279013115629 0.004266385454684495925903320312 0.000133252935484051704406738281 0.001727135619148612022399902344 0 0 0 0 
2408833333.3333334923 0.173681110143661499023437500000 0.003082437207922339005711220850 0.000231985002756118801519116812 0.001632386236451566002489399487 0 0 0 0 
2409000000.0000000000 0.172854185104370089431924384371 0.001749194343574344895006489331 0.000006704573024762794375419617 0.001654308172874153094050742041 0 0 0 0 
2409166666.6666665077 0.172180265188217190841513115629 0.000442045071395114118426722394 0.000085409643361344933509826660 0.001570177031680942015406943213 0 0 0 0 
2409333333.3333334923 0.171612456440925598144531250000 -0.001063668169081211090087890625 0.000200252688955515595987597055 0.001460959436371922926661826025 0 0 0 0 
2409500000.0000000000 0.170949637889862088302450615629 -0.002787658246234058900120400537 0.000146849139127880307749071664 0.001463195891119539954541850513 0 0 0 0 
2409666666.6666665077 0.170302644371986389160156250000 -0.004309332463890314102172851562 0.000011565011845959819516147307 0.001393699320033193068263388525 0 0 0 0 
2409833333.3333334923 0.169713571667671203613281250000 -0.005749908741563558578491210938 0.000116814720968250198803763118 0.001472087576985358975054096753 0 0 0 0 
2410000000.0000000000 0.169240102171897888183593750000 -0.007616112008690834045410156250 0.000061932201788295060396194458 0.001545886974781752066371298682 0 0 0 0 
2410166666.6666665077 0.168766245245933504959268134371 -0.009204662404954433441162109375 0.000146509642945602509096422739 0.001445222762413322925567626953 0 0 0 0 
2410333333.3333334923 0.168333888053893987457598768742 -0.011265656910836700094202811329 0.000109301268821582198143005371 0.001496340148150921084760356372 0 0 0 0 
2410500000.0000000000 0.167916268110275296310263115629 -0.013127844780683519190778163477 0.000144331745104864212587633676 0.001486337627284229018567729419 0 0 0 0 
2410666666.6666665077 0.167589157819747897049111884371 -0.015084304846823220688789568555 0.000167536927619949010297498160 0.001455916557461022897007607568 0 0 0 0 
2410833333.3333334923 0.167411535978317288497763115629 -0.017084792256355289113978201954 0.000158706228830851587370195932 0.001468467642553151087519980322 0 0 0 0 
2411000000.0000000000 0.167148455977439908126669365629 -0.018899511545896530151367187500 0.000133525347337126704767504282 0.001479342230595648071886372144 0 0 0 0 
2411166666.6666665077 0.167053446173667907714843750000 -0.020973373204469680786132812500 0.000208708777790889089733677997 0.001418816740624607043025351416 0 0 0 0 
2411333333.3333334923 0.167192921042442294021768134371 -0.022838415578007701528528983204 0.000156754103954881402567186899 0.001432271325029432990430522388 0 0 0 0 
2411500000.0000000000 0.167155563831329401214276231258 -0.024922184646129611623743826954 0.000205954085686244097634992056 0.001344519900158047892926860278 0 0 0 0 
2411666666.6666665077 0.167336374521255493164062500000 -0.026797339320182800292968750000 0.000330709968693554401397705078 0.001256980584003031036974262769 0 0 0 0 
2411833333.3333334923 0.167726069688796997070312500000 -0.028639798983931541442871093750 0.000249523232923820614814758301 0.001449995441362261988996196216 0 0 0 0 
2412000000.0000000000 0.167823031544685391525106865629 -0.030638227239251140249232108204 0.000080253681517206132411956787 0.001572209759615361907361674731 0 0 0 0 
2412166666.6666665077 0.168095692992210388183593750000 -0.032629590481519699096679687500 0.000310411152895539999008178711 0.001555406954139471054077148438 0 0 0 0 
2412333333.3333334923 0.168921232223510686676348768742 -0.034428831189870827411692033593 0.000258465035585686618655604230 0.001523362239822745106340717847 0 0 0 0 
2412500000.0000000000 0.169068306684493990799111884371 -0.036106035113334662700612653907 0.000433704641181975603103637695 0.001627687131986021995544433594 0 0 0 0 
2412666666.6666665077 0.169862523674964904785156250000 -0.038080915808677673339843750000 0.000360038626240566427081507550 0.001587644801475108103511191260 0 0 0 0 
2412833333.3333334923 0.170174553990364102462606865629 -0.039812695235013961791992187500 0.000344590516760945320129394531 0.001604634104296565055847167969 0 0 0 0 
2413000000.0000000000 0.170973181724548312088174384371 -0.041295822709798812866210937500 0.000251107849180698394775390625 0.001538331387564539909362792969 0 0 0 0 
2413166666.6666665077 0.171534016728401211837606865629 -0.042798925191164016723632812500 0.000566282833460718393325805664 0.001536322524771094105364155347 0 0 0 0 
2413333333.3333334923 0.172064527869224603850994981258 -0.044421169906854629516601562500 0.000637678313069045543670654297 0.001533727976493536992314004053 0 0 0 0 
2413500000.0000000000 0.172761753201484707931356865629 -0.045872651040554046630859375000 0.000673089060001075267791748047 0.001423434470780194022535014575 0 0 0 0 
2413666666.6666665077 0.173520445823669405838174384371 -0.047118641436100013042409528907 0.000673039932735264301300048828 0.001519216690212487957598042065 0 0 0 0 
2413833333.3333334923 0.174175322055816705901776231258 -0.048458870500326156616210937500 0.000693854526616632938385009766 0.001500796643085777976392436450 0 0 0 0 
2414000000.0000000000 0.174731999635696411132812500000 -0.049730166792869567871093750000 0.000770783983170986175537109375 0.001399510540068150000331259619 0 0 0 0 
2414166666.6666665077 0.175397723913192804534588731258 -0.050737515091896057128906250000 0.000760565570089966058731079102 0.001445339643396436951280903394 0 0 0 0 
2414333333.3333334923 0.175989687442779513260049384371 -0.051737654954195022583007812500 0.000967101659625768661499023438 0.001367970486171544031855917822 0 0 0 0 
2414500000.0000000000 0.176681533455848693847656250000 -0.052573271095752723003347028907 0.000867885828483849763870239258 0.001357956207357347011566162109 0 0 0 0 
2414666666.6666665077 0.176995575428009005447549384371 -0.053446087986230850219726562500 0.000989770982414484024047851562 0.001304816105403006076812744141 0 0 0 0 
2414833333.3333334923 0.177364721894264193435830634371 -0.054124180227518081665039062500 0.000868736940901726484298706055 0.001297231414355338053462363135 0 0 0 0 
2415000000.0000000000 0.177832156419754000564736884371 -0.054804373532533652568776716407 0.000997499912045896053314208984 0.001237735617905854961992573315 0 0 0 0 
2415166666.6666665077 0.178173497319221496582031250000 -0.055482681840658187866210937500 0.000917580618988722562789916992 0.001251479960046709017512656104 0 0 0 0 
2415333333.3333334923 0.178489878773689297775106865629 -0.055941913276910781860351562500 0.000877909129485487937927246094 0.001132596167735755009892129053 0 0 0 0 
2415500000.0000000000 0.178630620241165188888388115629 -0.056383881717920303344726562500 0.001086006406694651083705283057 0.001070486032404005961177206885 0 0 0 0 
2415666666.6666665077 0.178810656070709200760049384371 -0.056615896522998809814453125000 0.001082547940313816070556640625 0.001153361168690026023267436450 0 0 0 0 
2415833333.3333334923 0.179027736186981201171875000000 -0.057016178965568542480468750000 0.001202153740450740077375102466 0.000921179016586393117904663086 0 0 0 0 
2416000000.0000000000 0.178720265626907404143963731258 -0.057266861200332641601562500000 0.001026052399538456959965371240 0.000941479287575930356979370117 0 0 0 0 
2416166666.6666665077 0.178806677460670498946981865629 -0.057559907436370849609375000000 0.001109933597035706043243408203 0.000869931711349636316299438477 0 0 0 0 
2416333333.3333334923 0.178351268172264099121093750000 -0.057786311954259872436523437500 0.001003346405923366980311728369 0.000705463753547519553839528772 0 0 0 0 
2416500000.0000000000 0.178175091743469210525674384371 -0.058002676814794540405273437500 0.001112293684855103926417685400 0.000833472062367945909500122070 0 0 0 0 
2416666666.6666665077 0.177692398428916903396768134371 -0.058077417314052581787109375000 0.001139851636253296895268105615 0.000798821914941072463989257812 0 0 0 0 
2416833333.3333334923 0.177315577864646911621093750000 -0.058421365916728973388671875000 0.001177460304461420016047812354 0.000673690985422581434249877930 0 0 0 0 
2417000000.0000000000 0.176525548100471496582031250000 -0.058603689074516303325612653907 0.001126297865994275049922324072 0.000442646705778315717547816144 0 0 0 0 
2417166666.6666665077 0.175822705030441311935263115629 -0.058669686317443847656250000000 0.001056485809385776953456259619 0.000595709017943590879440307617 0 0 0 0 
2417333333.3333334923 0.175070747733116205413494981258 -0.058995287865400307392160783593 0.001018690294586122035980224609 0.000464241602458059787750244141 0 0 0 0 
2417500000.0000000000 0.174260050058364895919638115629 -0.059402696788311011577565778907 0.000989948166534304618835449219 0.000501209462527185678482055664 0 0 0 0 
2417666666.6666665077 0.173384755849838312347088731258 -0.059570636600255973125417341407 0.001002861419692635969874716650 0.000372701673768460804789942609 0 0 0 0 
2417833333.3333334923 0.172395899891853304763955634371 -0.059872657060623168945312500000 0.001002085395157336971880268628 0.000350781570887193083763122559 0 0 0 0 
2418000000.0000000000 0.171229779720306396484375000000 -0.060378197580575942993164062500 0.000857672770507633686065673828 0.000408077496103942394256591797 0 0 0 0 
2418166666.6666665077 0.170135572552680996993856865629 -0.060658279806375496601145158593 0.000830484554171562194824218750 0.000396195537177845781475621356 0 0 0 0 
2418333333.3333334923 0.169281974434852600097656250000 -0.061290416866540908813476562500 0.000802764203399419784545898438 0.000350980582879856174618321552 0 0 0 0 
2418500000.0000000000 0.167805403470992986481036268742 -0.061935614794492721557617187500 0.000686501618474721908569335938 0.000321585685014724677235203876 0 0 0 0 
2418666666.6666665077 0.166723489761352511306924384371 -0.062583677470684051513671875000 0.000680718745570629835128784180 0.000369432818843051791191101074 0 0 0 0 
2418833333.3333334923 0.165308490395545987228231865629 -0.063302889466285705566406250000 0.000652557297144085168838500977 0.000225158655666746199131011963 0 0 0 0 
2419000000.0000000000 0.164037600159645108321981865629 -0.064093612134456634521484375000 0.000570786476600915193557739258 0.000427329767262563109397888184 0 0 0 0 
2419166666.6666665077 0.162902012467384310623330634371 -0.064951069653034210205078125000 0.000570963369682431221008300781 0.000475174223538488203853052960 0 0 0 0 
2419333333.3333334923 0.161449909210205105880575615629 -0.065699063241481781005859375000 0.000494725769385695457458496094 0.000467581267002969980239868164 0 0 0 0 
2419500000.0000000000 0.160360753536224392989950615629 -0.067120894789695739746093750000 0.000443267315858975107043665753 0.000433647277532145380973815918 0 0 0 0 
2419666666.6666665077 0.159165084362030001541299384371 -0.068402290344238281250000000000 0.000641102087683975696563720703 0.000489436963107436895370483398 0 0 0 0 
2419833333.3333334923 0.158100619912147494217080634371 -0.069149091839790344238281250000 0.000673980975989252328872680664 0.000673201458994299173355102539 0 0 0 0 
2420000000.0000000000 0.157059550285339410979901231258 -0.070564493536949157714843750000 0.000440546282334253191947937012 0.000591088959481567144393920898 0 0 0 0 
