# Hz S RI R 
2400000000.0000000000 0.155926421284675598144531250000 0.060206610709428787231445312500 -0.004161711316555737581734941699 0.000192293868167325908511561261 0 0 0 0 
2400166666.6666665077 0.156153604388236999511718750000 0.058602120727300636982004533593 -0.004105526953935623168945312500 0.000534096267074346542358398438 0 0 0 0 
2400333333.3333334923 0.156216487288475008865518134371 0.056316580623388290405273437500 -0.004080587066709995269775390625 0.000650688947644084692001342773 0 0 0 0 
2400500000.0000000000 0.156491547822952298263388115629 0.054246548563241958618164062500 -0.004038253799080848693847656250 0.000671676243655383586883544922 0 0 0 0 
2400666666.6666665077 0.156842172145843505859375000000 0.052151460200548171997070312500 -0.003925011027604342374319745801 0.000839528162032365798950195312 0 0 0 0 
2400833333.3333334923 0.157172471284866305252236884371 0.050195757299661643291432966407 -0.003792509669438004927394247900 0.001060431241057812950731586987 0 0 0 0 
2401000000.0000000000 0.157544210553169305999432481258 0.047913096845149986957590471093 -0.004016971681267023086547851562 0.001021759933792055086848593604 0 0 0 0 
2401166666.6666665077 0.158091753721237210372763115629 0.045839797705411911010742187500 -0.003790929215028882026672363281 0.001396180829033256010768271338 0 0 0 0 
2401333333.3333334923 0.158399701118469210525674384371 0.043749958276748657226562500000 -0.003664046293124556975123740088 0.001317444141022861003875732422 0 0 0 0 
2401500000.0000000000 0.159063637256622286697549384371 0.041897423565387732768972028907 -0.003650666214525700049159384619 0.001589150284416974024531699072 0 0 0 0 
2401666666.6666665077 0.159581661224365206619424384371 0.040048312395811080932617187500 -0.003542277961969376044032431494 0.001678223721683024926426552881 0 0 0 0 
2401833333.3333334923 0.160190552473068209549111884371 0.037906553596258163452148437500 -0.003369592130184174017665243994 0.001791037619113921902300190503 0 0 0 0 
2402000000.0000000000 0.160716027021408108810263115629 0.035986531525850302959401716407 -0.003301730845123529000523232568 0.001929832156747580008265829932 0 0 0 0 
2402166666.6666665077 0.161668419837951687911825615629 0.034062668681144707416574846093 -0.003170052077621221976039267432 0.002135338727384806113002158057 0 0 0 0 
2402333333.3333334923 0.162321701645851107498330634371 0.032403860241174697875976562500 -0.002986401785165071921107626807 0.001995697850361465974095009912 0 0 0 0 
2402500000.0000000000 0.163397833704948397537393134371 0.030790865421295169485071951954 -0.003045114921405911011936806787 0.002060621045529841943028115381 0 0 0 0 
2402666666.6666665077 0.164015784859657287597656250000 0.029196681454777721059778983204 -0.002738697454333304925205849756 0.002338602906093000931980752100 0 0 0 0 
2402833333.3333334923 0.165166497230529812911825615629 0.027674376964569088327428048046 -0.002674064366146922111511230469 0.002371274400502442879917763818 0 0 0 0 
2403000000.0000000000 0.166034996509552001953125000000 0.026229219511151310312291329296 -0.002431797794997692108154296875 0.002407465828582644896266318213 0 0 0 0 
2403166666.6666665077 0.167034551501274108886718750000 0.024788741022348400461217110546 -0.002339002210646868185756064307 0.002437820192426443099975585938 0 0 0 0 
2403333333.3333334923 0.167947128415107699295205634371 0.023749284446239471435546875000 -0.002206223085522652106044150244 0.002390847774222493171691894531 0 0 0 0 
2403500000.0000000000 0.168945744633674593826455634371 0.022507894784212108957310860546 -0.002132605761289596991298056494 0.002450637752190231843235634912 0 0 0 0 
2403666666.6666665077 0.169782608747482299804687500000 0.021310875192284580575963204296 -0.002000926760956645011901855469 0.002360259415581821961643838037 0 0 0 0 
2403833333.3333334923 0.170909330248832702636718750000 0.020313769578933719289759451954 -0.001896776491776108958600688403 0.002387570915743709044215536963 0 0 0 0 
2404000000.0000000000 0.171806424856185913085937500000 0.019507993012666698801060860546 -0.001847456092946230931522988428 0.002435233909636735916137695312 0 0 0 0 
2404166666.6666665077 0.172616183757782010177450615629 0.018546061590313911437988281250 -0.001627485384233295917510986328 0.002559538697823882102966308594 0 0 0 0 
2404333333.3333334923 0.173572450876235989669638115629 0.017747078090906139719029610546 -0.001665574032813311056849814307 0.002542924834415317015406943213 0 0 0 0 
2404500000.0000000000 0.174434036016464205642861884371 0.017150720581412318838099295704 -0.001456688507460057952283549731 0.002562752459198236899134970557 0 0 0 0 
2404666666.6666665077 0.175314441323280306717080634371 0.016520509496331218374232108204 -0.001275386661291122002842568506 0.002549616387113928794860839844 0 0 0 0 
2404833333.3333334923 0.176002219319343594650106865629 0.015928780660033229482630545704 -0.001405633985996245904209756006 0.002509845653548837141749716650 0 0 0 0 
2405000000.0000000000 0.176709815859794588943643134371 0.015518316067755220585833164648 -0.001202221726998687007306743091 0.002521912567317485809326171875 0 0 0 0 
2405166666.6666665077 0.177410066127777099609375000000 0.015085840597748759878138358204 -0.001166901085525750897051167065 0.002625698223710060119628906250 0 0 0 0 
2405333333.3333334923 0.177923560142517089843750000000 0.014486166648566719400426094921 -0.001063890755176543972612690503 0.002454286208376287980320595850 0 0 0 0 
2405500000.0000000000 0.178555130958557101150674384371 0.014291032217442989349365234375 -0.000831218902021646499633789062 0.002343554748222231864929199219 0 0 0 0 
2405666666.6666665077 0.178911805152893094161825615629 0.014111406169831749307652657421 -0.000719845236744731664657592773 0.002428993582725524902343750000 0 0 0 0 
2405833333.3333334923 0.179041936993598910232705634371 0.013810222968459129333496093750 -0.000686618674080818891525268555 0.002410664223134518103358603369 0 0 0 0 
2406000000.0000000000 0.179528981447219904143963731258 0.013446808792650699615478515625 -0.000620408216491341590881347656 0.002493482548743485970738076318 0 0 0 0 
2406166666.6666665077 0.179509714245796203613281250000 0.013293557800352569925328438671 -0.000610403891187161207199096680 0.002321333857253193855285644531 0 0 0 0 
2406333333.3333334923 0.179803013801574707031250000000 0.013085098005831239872942539648 -0.000376821757527068311541956769 0.002239010296761990027186728369 0 0 0 0 
2406500000.0000000000 0.179856970906257601638955634371 0.012635285034775730478306954296 -0.000247063610004261081844884052 0.002242911141365766958949423682 0 0 0 0 
2406666666.6666665077 0.179670006036758395095986884371 0.012504547834396360569964024023 -0.000279258121736347675323486328 0.002298722509294747872593545068 0 0 0 0 
2406833333.3333334923 0.179663702845573397537393134371 0.012081087566912170755406563671 -0.000161082964041270288542070932 0.002169806510210036797764443506 0 0 0 0 
2407000000.0000000000 0.179480478167533902267294365629 0.011765625327825549734095389454 -0.000349297944922000223964136945 0.002164338715374470190760947119 0 0 0 0 
2407166666.6666665077 0.179253712296485900878906250000 0.011447403579950329172154610546 0.000013521009350370150059461594 0.002037547063082457022425986182 0 0 0 0 
2407333333.3333334923 0.178835585713386507888955634371 0.010786877945065500086774257227 -0.000086375461251009255647659302 0.001995515078306198120117187500 0 0 0 0 
2407500000.0000000000 0.178392082452774103362713731258 0.010264159180223940068255039648 -0.000113744848931673900641579900 0.001972760073840618133544921875 0 0 0 0 
2407666666.6666665077 0.177903115749359103103799384371 0.009695539250969886779785156250 -0.000048192210670094937086105347 0.001810575136914849064470600659 0 0 0 0 
2407833333.3333334923 0.177300527691841097732705634371 0.008872288279235363006591796875 -0.000005178343144507380202412605 0.001814711838960648016688681494 0 0 0 0 
2408000000.0000000000 0.176883906126022311111611884371 0.008094944991171360015869140625 0.000096932184533216059207916260 0.001825815299525856971740722656 0 0 0 0 
2408166666.6666665077 0.176174342632293701171875000000 0.007465059403330087661743164062 0.000006351892352540745315602703 0.001934201922267674966099404443 0 0 0 0 
2408333333.3333334923 0.175766944885253906250000000000 0.006331015843898057937622070312 0.000147408354678191190392094745 0.001705802278593182997462607275 0 0 0 0 
2408500000.0000000000 0.174918740987777709960937500000 0.005240148864686489105224609375 0.000001340055746368306942867417 0.001777001540176569981815957178 0 0 0 0 
2408666666.6666665077 0.174298107624054010589276231258 0.004013466648757457733154296875 0.000082930419011972844600677490 0.001655480358749628067016601562 0 0 0 0 
2408833333.3333334923 0.173551917076110812088174384371 0.002906640293076633973362588037 0.000070354741183109581470489502 0.001615532673895359039306640625 0 0 0 0 
2409000000.0000000000 0.172812253236770602127236884371 0.001753770047798753001569438403 -0.000037854068068554631691386564 0.001607216894626616997959756006 0 0 0 0 
2409166666.6666665077 0.172100082039833096603231865629 0.000350872345734387581974583759 0.000159144663484767106458386832 0.001538485987111926078796386719 0 0 0 0 
2409333333.3333334923 0.171470254659652709960937500000 -0.001163582317531109073041606372 0.000061847757024224847555160522 0.001547301770187913937809609521 0 0 0 0 
2409500000.0000000000 0.170776590704917907714843750000 -0.002847935538738965988159179688 0.000027138650693814270198345184 0.001400921493768692016601562500 0 0 0 0 
2409666666.6666665077 0.170145407319068908691406250000 -0.004310100805014371871948242188 0.000086460328020621091127395630 0.001487267087213695049285888672 0 0 0 0 
2409833333.3333334923 0.169538468122482299804687500000 -0.005887609440833330154418945312 0.000121172241051681299083171706 0.001431754208169877962825156104 0 0 0 0 
2410000000.0000000000 0.169092684984207208831463731258 -0.007604820653796195983886718750 0.000000470506790861691115424037 0.001443621586076915047289204175 0 0 0 0 
2410166666.6666665077 0.168672561645507812500000000000 -0.009350534528493881225585937500 0.000144908306538127389833173209 0.001607155660167336897609091650 0 0 0 0 
2410333333.3333334923 0.168235808610916109939736884371 -0.011362230405211450404157069727 0.000026866760890698060393333435 0.001439982792362570979474711841 0 0 0 0 
2410500000.0000000000 0.167818292975425692459268134371 -0.013249292969703670846959298046 0.000057039982493733987212181091 0.001516262069344521002528525244 0 0 0 0 
2410666666.6666665077 0.167617216706275912185830634371 -0.015193581581115719186803048046 0.000148895705933682593420305795 0.001561448909342288970947265625 0 0 0 0 
2410833333.3333334923 0.167301118373870905120526231258 -0.016863387078046798706054687500 -0.000028477614250732589175904921 0.001364253577776253006578754956 0 0 0 0 
2411000000.0000000000 0.167144194245338412185830634371 -0.018929004669189449655553048046 0.000149844796396791907861986703 0.001493350602686404965044331128 0 0 0 0 
2411166666.6666665077 0.166999086737632806975994981258 -0.020853001624345779418945312500 0.000126198530779220190927228384 0.001340767368674278042436909253 0 0 0 0 
2411333333.3333334923 0.167112082242965698242187500000 -0.022831007838249210012415701954 0.000128511514049023389816284180 0.001379340304993093013763427734 0 0 0 0 
2411500000.0000000000 0.167146205902099609375000000000 -0.024860255420207980764368826954 0.000036394136259332299232482910 0.001438015839084983088849711841 0 0 0 0 
2411666666.6666665077 0.167374908924102810958700615629 -0.026969967409968379629114920704 0.000314065255224704688221532001 0.001465743174776434898376464844 0 0 0 0 
2411833333.3333334923 0.167619273066520690917968750000 -0.028626035898923870431920235546 0.000201117887627333402633666992 0.001404226757586001916172646631 0 0 0 0 
2412000000.0000000000 0.167942121624946594238281250000 -0.030728194862604141235351562500 0.000215242747799493399545392447 0.001558339572511612935307168115 0 0 0 0 
2412166666.6666665077 0.168220937252044705489950615629 -0.032577168196439743041992187500 0.000207572316867299405023297720 0.001446123002097011046168661963 0 0 0 0 
2412333333.3333334923 0.168730214238166809082031250000 -0.034301199018955230712890625000 0.000222898073843680295065203256 0.001529484638012946085688925635 0 0 0 0 
2412500000.0000000000 0.169164314866066006759481865629 -0.036217216402292251586914062500 0.000309898634441196918487548828 0.001467557973228394985198974609 0 0 0 0 
2412666666.6666665077 0.169696420431137112716513115629 -0.038108769804239273071289062500 0.000255797902354970574378967285 0.001373704173602164008496928638 0 0 0 0 
2412833333.3333334923 0.170347303152084406097088731258 -0.039795234799385070800781250000 0.000288351846393197774887084961 0.001615661894902586936950683594 0 0 0 0 
2413000000.0000000000 0.170917183160781888107138115629 -0.041243363171815872192382812500 0.000369678804418072104454040527 0.001435998361557722091674804688 0 0 0 0 
2413166666.6666665077 0.171596467494964599609375000000 -0.042856454849243157123606096093 0.000439713097875937819480895996 0.001504805986769496960880898584 0 0 0 0 
2413333333.3333334923 0.172124400734901400467080634371 -0.044398080557584762573242187500 0.000347733322996646220057886945 0.001491088187322020964381552588 0 0 0 0 
2413500000.0000000000 0.172870561480522211272869981258 -0.045820083469152450561523437500 0.000510097655933350324630737305 0.001641242182813585021375346606 0 0 0 0 
2413666666.6666665077 0.173725619912147494217080634371 -0.047266982495784759521484375000 0.000633270246908068656921386719 0.001497978926636279062983847510 0 0 0 0 
2413833333.3333334923 0.174223050475120488922442518742 -0.048502720892429351806640625000 0.000547625357285141944885253906 0.001401208923198282935498881763 0 0 0 0 
2414000000.0000000000 0.174643471837043789962606865629 -0.049567226320505142211914062500 0.000669698521960526704788208008 0.001464137458242475986480712891 0 0 0 0 
2414166666.6666665077 0.175375148653984097579794365629 -0.050696309655904769897460937500 0.000849438307341188192367553711 0.001524192630313337066053080981 0 0 0 0 
2414333333.3333334923 0.176072418689727810958700615629 -0.051721680909395217895507812500 0.000817075022496283054351806641 0.001371907186694443009020161206 0 0 0 0 
2414500000.0000000000 0.176673486828803988357705634371 -0.052647359669208526611328125000 0.000794433348346501588821411133 0.001253610011190176010131835938 0 0 0 0 
2414666666.6666665077 0.177056714892387390136718750000 -0.053440023213624947284738908593 0.000799845030996948480606079102 0.001275393296964467005488730322 0 0 0 0 
2414833333.3333334923 0.177453845739364596267861884371 -0.054188370704650878906250000000 0.000923150684684514999389648438 0.001195644843392074108123779297 0 0 0 0 
2415000000.0000000000 0.177780404686927795410156250000 -0.054842077195644378662109375000 0.000891316798515617847442626953 0.001225217478349805095075297778 0 0 0 0 
2415166666.6666665077 0.178233250975608797928018134371 -0.055304359644651412963867187500 0.001026036334224045059801411206 0.001231093076057732105255126953 0 0 0 0 
2415333333.3333334923 0.178621232509613009353799384371 -0.056023623794317252422292341407 0.001008726772852241992950439453 0.001257243915461003997205424731 0 0 0 0 
2415500000.0000000000 0.178638055920600891113281250000 -0.056319873780012130737304687500 0.001081094029359519915339804541 0.001060486771166325049159384619 0 0 0 0 
2415666666.6666665077 0.178948953747749300857705634371 -0.056559309363365173339843750000 0.001031633932143450000165629810 0.001167972572147846005083393628 0 0 0 0 
2415833333.3333334923 0.178911998867988586425781250000 -0.057062946259975433349609375000 0.001089557074010371945024799878 0.001010433654300868944880820166 0 0 0 0 
2416000000.0000000000 0.178829044103622408767861884371 -0.057327169924974441528320312500 0.001028884202241898016688681494 0.000996485003270208835601806641 0 0 0 0 
2416166666.6666665077 0.178811505436897305587606865629 -0.057570390403270721435546875000 0.001178939943201839923858642578 0.000844676105771213769912719727 0 0 0 0 
2416333333.3333334923 0.178453400731086703201455634371 -0.057730801403522491455078125000 0.001166071160696446895599365234 0.000711990112904459238052368164 0 0 0 0 
2416500000.0000000000 0.178251326084136990646200615629 -0.058067388832569122314453125000 0.001171357929706573920008993994 0.000740178860723972320556640625 0 0 0 0 
2416666666.6666665077 0.177673459053039606292401231258 -0.058114334940910339355468750000 0.001118977321311831907985068213 0.000718681374564766883850097656 0 0 0 0 
2416833333.3333334923 0.177367731928825406173544365629 -0.058438122272491462017018903907 0.001202172716148198084590292822 0.000685930543113499879837036133 0 0 0 0 
2417000000.0000000000 0.176544860005378695388955634371 -0.058568466454744338989257812500 0.001016656751744448921800922925 0.000601773266680538654327392578 0 0 0 0 
2417166666.6666665077 0.175884395837783813476562500000 -0.058737684041261672973632812500 0.001032110885716974952100444263 0.000479709211504086906283778058 0 0 0 0 
2417333333.3333334923 0.175168007612228393554687500000 -0.058906089514493942260742187500 0.001151209347881376960157084888 0.000524429313372820615768432617 0 0 0 0 
2417500000.0000000000 0.174117073416709899902343750000 -0.059357028454542160034179687500 0.001045978977344929955126118237 0.000440044270362704992294311523 0 0 0 0 
2417666666.6666665077 0.173442021012306213378906250000 -0.059590041637420647357981096093 0.000904778018593788146972656250 0.000551891629584133625030517578 0 0 0 0 
2417833333.3333334923 0.172437161207199096679687500000 -0.059867274016141891479492187500 0.000826492439955472946166992188 0.000502753478940576314926147461 0 0 0 0 
2418000000.0000000000 0.171141088008880587478799384371 -0.060528483241796486591379533593 0.000949218752793967723846435547 0.000635779462754726409912109375 0 0 0 0 
2418166666.6666665077 0.170256227254867609222088731258 -0.060725718736648559570312500000 0.000905388558749109506607055664 0.000335183984134346300929468976 0 0 0 0 
2418333333.3333334923 0.169233009219169588943643134371 -0.061329446732997887348215471093 0.000813196005765348672866821289 0.000464931683382019400596618652 0 0 0 0 
2418500000.0000000000 0.167871281504630986969317518742 -0.061877623200416571880300153907 0.000740766176022589206695556641 0.000446657475549727678298950195 0 0 0 0 
2418666666.6666665077 0.166789487004280090332031250000 -0.062572672963142395019531250000 0.000708113715518265962600708008 0.000449395738542079925537109375 0 0 0 0 
2418833333.3333334923 0.165440648794174194335937500000 -0.063290707767009735107421875000 0.000588538823649287223815917969 0.000309444672893732786178588867 0 0 0 0 
2419000000.0000000000 0.164036035537719698806924384371 -0.064045131206512451171875000000 0.000651096925139427185058593750 0.000465090532088652307361048566 0 0 0 0 
2419166666.6666665077 0.162944048643112210372763115629 -0.065010659396648406982421875000 0.000573156925383955240249633789 0.000566830276511609554290771484 0 0 0 0 
2419333333.3333334923 0.161483675241470309158486884371 -0.065723747014999389648437500000 0.000545965682249516248703002930 0.000475182954687625223964136945 0 0 0 0 
2419500000.0000000000 0.160324737429618807693643134371 -0.067003510892391204833984375000 0.000525461393408477306365966797 0.000360210251528769677311497821 0 0 0 0 
2419666666.6666665077 0.159308061003684997558593750000 -0.068034753203392028808593750000 0.000462714087916538119316101074 0.000508593919221311807632446289 0 0 0 0 
2419833333.3333334923 0.158019021153450012207031250000 -0.069237299263477325439453125000 0.000562569475732743740081787109 0.000598574348259717226028442383 0 0 0 0 
2420000000.0000000000 0.157084897160530090332031250000 -0.070545911788940429687500000000 0.000512874685227870941162109375 0.000598521961364895105361938477 0 0 0 0 
