# Hz S RI R 
2400000000.0000000000 0.168965190649032592773437500000 0.040471501648426062847097028907 0.002622153377160429954528808594 0.002189846942201257185695029150 0 0 0 0 
2400166666.6666665077 0.169512227177619906326455634371 0.039931908249855041503906250000 0.002859639702364801926853798975 0.002219288842752575874328613281 0 0 0 0 
2400333333.3333334923 0.170039504766464205642861884371 0.039126880466938018798828125000 0.002943544415757060050964355469 0.002170856809243559837341308594 0 0 0 0 
2400500000.0000000000 0.170622527599334689041299384371 0.038068849593400962139089216407 0.003139141714200377897975302588 0.002127405023202300071716308594 0 0 0 0 
2400666666.6666665077 0.170911192893981905838174384371 0.037553798407316207885742187500 0.003243161598220468001124716650 0.001987300580367445945739746094 0 0 0 0 
2400833333.3333334923 0.171334162354469299316406250000 0.036556303501129150390625000000 0.003319821087643504142761230469 0.001959153451025485992431640625 0 0 0 0 
2401000000.0000000000 0.171689257025718688964843750000 0.035923428833484649658203125000 0.003743916284292935891392373193 0.001692077028565108992932963794 0 0 0 0 
2401166666.6666665077 0.171785712242126492599325615629 0.035108413547277450561523437500 0.003866058075800538063049316406 0.001623658929020165963413857568 0 0 0 0 
2401333333.3333334923 0.171910762786865206619424384371 0.034317545592784881591796875000 0.003718573600053786797764443506 0.001298307324759661934496235425 0 0 0 0 
2401500000.0000000000 0.172081843018531799316406250000 0.033379744738340377807617187500 0.004033701959997416409964277051 0.000989194144494831562042236328 0 0 0 0 
2401666666.6666665077 0.172149717807769803146200615629 0.032949056476354598999023437500 0.004021776374429464340209960938 0.000982745317742228507995605469 0 0 0 0 
2401833333.3333334923 0.172324970364570589920205634371 0.031951338052749626850168596093 0.004120334982872009277343750000 0.000620445236563682556152343750 0 0 0 0 
2402000000.0000000000 0.172260463237762506683026231258 0.031195826828479770315150076954 0.004020049702376127243041992188 0.000418834999436512589454650879 0 0 0 0 
2402166666.6666665077 0.172073662281036404708700615629 0.030200598761439319955846016796 0.003923817072063685330862714551 0.000113655085442587706163683481 0 0 0 0 
2402333333.3333334923 0.172116786241531399825888115629 0.029394380748271938669224923046 0.003869769861921668052673339844 -0.000055633328884141519665718079 0 0 0 0 
2402500000.0000000000 0.172163859009742709060830634371 0.028541894629597660409947579296 0.003895325586199760003330849756 -0.000175987574039027094841003418 0 0 0 0 
2402666666.6666665077 0.171985417604446411132812500000 0.027599265798926349985142891796 0.003879557363688946203944540869 -0.000288129114778712391853332520 0 0 0 0 
2402833333.3333334923 0.171834558248519897460937500000 0.026633953675627708435058593750 0.003769517410546541213989257812 -0.000519616529345512390136718750 0 0 0 0 
2403000000.0000000000 0.171677857637405395507812500000 0.025611957535147670400599295704 0.003967428579926490783691406250 -0.000580229214392602443695068359 0 0 0 0 
2403166666.6666665077 0.171656951308250399490518134371 0.024590838700532909738560860546 0.003597117960453033013584756006 -0.000724607554730027914047241211 0 0 0 0 
2403333333.3333334923 0.171430438756942804534588731258 0.023411281406879428518275076954 0.003614166053012013001682900537 -0.000843081215862184762954711914 0 0 0 0 
2403500000.0000000000 0.171164691448211697677450615629 0.022234907373785969125767891796 0.003663046518340706825256347656 -0.001130909309722482941271137769 0 0 0 0 
2403666666.6666665077 0.170981004834175109863281250000 0.021028306335210800170898437500 0.003486858680844306945800781250 -0.001112016383558511950849223560 0 0 0 0 
2403833333.3333334923 0.170726016163825988769531250000 0.019641490653157230722447579296 0.003690799232572317123413085938 -0.001027847873046993992449116284 0 0 0 0 
2404000000.0000000000 0.170476466417312594314736884371 0.018543366342782970773717110546 0.003504551015794277191162109375 -0.001051284256391227028490376050 0 0 0 0 
2404166666.6666665077 0.170284315943718012054119981258 0.016963325440883639944056326954 0.003458401653915644125697470557 -0.001368123455904423973680805737 0 0 0 0 
2404333333.3333334923 0.170127734541893005371093750000 0.015732437372207641601562500000 0.003329426981508731842041015625 -0.001266805222257971980451274341 0 0 0 0 
2404500000.0000000000 0.169866845011711092849893134371 0.014135455712676050013532069727 0.003563289530575274987461709131 -0.001509989611804485104204487378 0 0 0 0 
2404666666.6666665077 0.169896602630615206619424384371 0.012720495462417600804339024023 0.003399126930162311033961630713 -0.001693444908596575043321919019 0 0 0 0 
2404833333.3333334923 0.169739276170730590820312500000 0.011367091909050939732561680273 0.003552389563992619948146201025 -0.001688870252110064029693603516 0 0 0 0 
2405000000.0000000000 0.169645905494689913650674384371 0.009695228189229965209960937500 0.003417758271098136901855468750 -0.002023286884650588035583496094 0 0 0 0 
2405166666.6666665077 0.169444039463996887207031250000 0.007992475293576717376708984375 0.003279485041275620894191122900 -0.002021140186116098923924111475 0 0 0 0 
2405333333.3333334923 0.169589430093765286544638115629 0.006227976176887750625610351562 0.003194615943357348008396767725 -0.002255103783681989149806357275 0 0 0 0 
2405500000.0000000000 0.169408693909645108321981865629 0.004695801995694637298583984375 0.003091766964644194082972861182 -0.002523596398532391028163290869 0 0 0 0 
2405666666.6666665077 0.169325277209281893631143134371 0.002982773585245012803318642725 0.003035184927284717993495322119 -0.002519654808565973801853798975 0 0 0 0 
2405833333.3333334923 0.169154033064842196365518134371 0.001371916034258902072906494141 0.002840015804395080046412802588 -0.002745490055531262917759560693 0 0 0 0 
2406000000.0000000000 0.169172510504722595214843750000 -0.000439351977547630721896571027 0.002608872950077056884765625000 -0.002778960624709724946262978662 0 0 0 0 
2406166666.6666665077 0.168952301144599886795205634371 -0.001908415229991077943089150537 0.002263793023303151130676269531 -0.002868614858016372160670615088 0 0 0 0 
2406333333.3333334923 0.169023633003234891036825615629 -0.003684163326397538185119628906 0.002198318718001246886012411963 -0.003116190666332840919494628906 0 0 0 0 
2406500000.0000000000 0.168867006897926302810830634371 -0.005343034397810698422903730176 0.002120057120919228033778525244 -0.003219613805413246154785156250 0 0 0 0 
2406666666.6666665077 0.168611228466033907791299384371 -0.006869293749332427978515625000 0.001759990351274609999415732275 -0.003077558940276503996608115088 0 0 0 0 
2406833333.3333334923 0.168695494532585088531817518742 -0.008575515821576118469238281250 0.001555751543492078997968364185 -0.003178306622430682182312011719 0 0 0 0 
2407000000.0000000000 0.168644204735755892654580634371 -0.010195747949182990682581717579 0.001478240010328591086743998950 -0.003061928087845445112941122900 0 0 0 0 
2407166666.6666665077 0.168563738465309087555255018742 -0.011452872306108479935615740430 0.001323892967775464057922363281 -0.002999776508659123940708779443 0 0 0 0 
2407333333.3333334923 0.168346092104911804199218750000 -0.013092568144202230626116367773 0.001049787970259786085841513525 -0.002966156695038080215454101562 0 0 0 0 
2407500000.0000000000 0.168132141232490511795205634371 -0.014370254240930080413818359375 0.001056305016390979073168110425 -0.002891489304602146148681640625 0 0 0 0 
2407666666.6666665077 0.168200358748436001876669365629 -0.015608830377459529531458670704 0.000954445975366979837417602539 -0.002845718292519450187683105469 0 0 0 0 
2407833333.3333334923 0.167991623282432611663494981258 -0.016926344484090808523157889454 0.000894081837031990289688110352 -0.002803546376526356177089072119 0 0 0 0 
2408000000.0000000000 0.168054386973380986969317518742 -0.018007049337029460561732108204 0.000610520655754953622817993164 -0.002704707439988851980922079932 0 0 0 0 
2408166666.6666665077 0.168153494596481295486611884371 -0.018917437642812728881835937500 0.000788589415606111288070678711 -0.002578204497694969177246093750 0 0 0 0 
2408333333.3333334923 0.168325498700141906738281250000 -0.019831253215670589101771170704 0.000679512391798198223114013672 -0.002396251773461699919459677588 0 0 0 0 
2408500000.0000000000 0.168348997831344604492187500000 -0.020999208092689510690709298046 0.000768635771237313747406005859 -0.002484340220689773993251181494 0 0 0 0 
2408666666.6666665077 0.168430343270301791092080634371 -0.021894769743084911001185233204 0.000753831176552921533584594727 -0.002423577476292849020717001807 0 0 0 0 
2408833333.3333334923 0.168502837419509887695312500000 -0.022711953148245811462402343750 0.000660219462588429450988769531 -0.002508131787180901007411337744 0 0 0 0 
2409000000.0000000000 0.168752014636993408203125000000 -0.023464739322662350046178048046 0.000824785674922168254852294922 -0.002447023289278150038478232275 0 0 0 0 
2409166666.6666665077 0.169000297784805297851562500000 -0.024308590218424800527552420704 0.000643262057565152753531301233 -0.002319800201803445816040039062 0 0 0 0 
2409333333.3333334923 0.169285610318183898925781250000 -0.025304522365331649780273437500 0.000674812821671366691589355469 -0.002416484523564577102661132812 0 0 0 0 
2409500000.0000000000 0.169418096542358398437500000000 -0.026082713156938549386998360546 0.000715884903911501169204711914 -0.002427439205348492102382040869 0 0 0 0 
2409666666.6666665077 0.169587463140487698654013115629 -0.026938777416944500314732735546 0.000596111698541790246963500977 -0.002598016988486051993129111182 0 0 0 0 
2409833333.3333334923 0.169770747423171997070312500000 -0.027639996260404590261439139454 0.000745518482290208339691162109 -0.002562047448009252981898642432 0 0 0 0 
2410000000.0000000000 0.170018553733825711349325615629 -0.028347076848149299621582031250 0.000658635573927313089370727539 -0.002516512293368577957153320312 0 0 0 0 
2410166666.6666665077 0.170185327529907198806924384371 -0.029168028384447101247767264454 0.000709806918166577816009521484 -0.002480408409610391096827841650 0 0 0 0 
2410333333.3333334923 0.170254588127136202713174384371 -0.030061777681112289428710937500 0.000497948785778135061264038086 -0.002601516665890812873840332031 0 0 0 0 
2410500000.0000000000 0.170328393578529413421307481258 -0.030782816931605339050292968750 0.000451117521151900291442871094 -0.002568071708083153204676962744 0 0 0 0 
2410666666.6666665077 0.170198217034339904785156250000 -0.031696666032075881958007812500 0.000577278959099203348159790039 -0.002382236998528242111206054688 0 0 0 0 
2410833333.3333334923 0.170320332050323486328125000000 -0.032652214169502258300781250000 0.000457409711088985204696655273 -0.002765402430668472810032509912 0 0 0 0 
2411000000.0000000000 0.170236006379127502441406250000 -0.033228110522031777118723283593 0.000285170652205124497413635254 -0.002658144105225801901576376807 0 0 0 0 
2411166666.6666665077 0.169969409704208401779013115629 -0.034188959747552871704101562500 0.000338361773174256086349487305 -0.002772553358227014975306845557 0 0 0 0 
2411333333.3333334923 0.169767305254936190506143134371 -0.034901201725006096576731096093 0.000291381555143743807643336163 -0.002871624426916242079493857275 0 0 0 0 
2411500000.0000000000 0.169570177793502807617187500000 -0.035802118480205542827565778907 0.000242372800130397108480176382 -0.002928199945017694993260048975 0 0 0 0 
2411666666.6666665077 0.169393405318260192871093750000 -0.036551561206579208374023437500 0.000141583455842919701903742657 -0.002961681224405765967128134619 0 0 0 0 
2411833333.3333334923 0.169141277670860290527343750000 -0.037203103303909301757812500000 0.000119499694847036193735660692 -0.002976951655000447793247841943 0 0 0 0 
2412000000.0000000000 0.168781250715255709549111884371 -0.038190521299839019775390625000 -0.000037143563531571999192237854 -0.003094046143814920945408486475 0 0 0 0 
2412166666.6666665077 0.168231308460235595703125000000 -0.039034891873598098754882812500 -0.000110980174213182194672445979 -0.003298615571111441092250204932 0 0 0 0 
2412333333.3333334923 0.168168202042579706390057481258 -0.039849497377872467041015625000 -0.000387574720662087202072143555 -0.003175735706463456153869628906 0 0 0 0 
2412500000.0000000000 0.167581513524055508712606865629 -0.040765527635812759399414062500 -0.000593796663451939821243286133 -0.003170924494042993025538779150 0 0 0 0 
2412666666.6666665077 0.167382806539535494705361884371 -0.041790664196014397357981096093 -0.000618475954979658126831054688 -0.003183841705322266058680868994 0 0 0 0 
2412833333.3333334923 0.166829541325569208343182481258 -0.042669504880905151367187500000 -0.000799671222921460866928100586 -0.003012864384800196127650595557 0 0 0 0 
2413000000.0000000000 0.166258662939071710784588731258 -0.043805267661809921264648437500 -0.000938791199587285518646240234 -0.002997144823893905119654990088 0 0 0 0 
2413166666.6666665077 0.165739983320236206054687500000 -0.044555515050888061523437500000 -0.001130437245592474937438964844 -0.003003603778779507117030478369 0 0 0 0 
2413333333.3333334923 0.165116637945175198654013115629 -0.045625850558280951763112653907 -0.001181770348921417973162006909 -0.002967684529721736907958984375 0 0 0 0 
2413500000.0000000000 0.164625510573387201507244981258 -0.046548288315534591674804687500 -0.001237132935784756920458149487 -0.002894061617553234100341796875 0 0 0 0 
2413666666.6666665077 0.164110213518142700195312500000 -0.047729182988405227661132812500 -0.001489291083998977921129536206 -0.002859320258721708817722939600 0 0 0 0 
2413833333.3333334923 0.163244649767875699142294365629 -0.048661127686500549316406250000 -0.001378957182168961004969931494 -0.002601784653961658911464072119 0 0 0 0 
2414000000.0000000000 0.162884175777435302734375000000 -0.049719758331775672222097028907 -0.001540178549475968100904155200 -0.002624117536470293998718261719 0 0 0 0 
2414166666.6666665077 0.162390738725662203689736884371 -0.050608001649379730224609375000 -0.001637324457988142967224121094 -0.002423891332000494003295898438 0 0 0 0 
2414333333.3333334923 0.161824971437454195877236884371 -0.051685806363821029663085937500 -0.001590626314282417080522846753 -0.002173912245780230002162314307 0 0 0 0 
2414500000.0000000000 0.161622971296310397049111884371 -0.052621811628341681743581403907 -0.001630058977752923965454101562 -0.002261737827211617989781045068 0 0 0 0 
2414666666.6666665077 0.161167621612548800369424384371 -0.053591039031744003295898437500 -0.001666591735556721904157329028 -0.002070656977593899206874228369 0 0 0 0 
2414833333.3333334923 0.160793468356132507324218750000 -0.054822783917188637470285783593 -0.001594656263478100082994770581 -0.001965860370546578927281045068 0 0 0 0 
2415000000.0000000000 0.160349413752555902679119981258 -0.055824179202318191528320312500 -0.001737581915222107930424355615 -0.001929291291162372069117880713 0 0 0 0 
2415166666.6666665077 0.160118147730827303787393134371 -0.056924708187580108642578125000 -0.001666723284870385906816792065 -0.001851963577792049104805971460 0 0 0 0 
2415333333.3333334923 0.160077095031738309005575615629 -0.058288484811782836914062500000 -0.001729116193018854098079062354 -0.001909729791805147907854389722 0 0 0 0 
2415500000.0000000000 0.159825906157493591308593750000 -0.059328936040401458740234375000 -0.001738661900162697055219340747 -0.001814646646380424933192587744 0 0 0 0 
2415666666.6666665077 0.159473568201065091232138115629 -0.060627378523349761962890625000 -0.001671033445745706991908408057 -0.001584889250807463905931782300 0 0 0 0 
2415833333.3333334923 0.159424856305122403243856865629 -0.061839867383241653442382812500 -0.001817087759263813929316855322 -0.001481400104239583015441894531 0 0 0 0 
2416000000.0000000000 0.159053787589073208907919365629 -0.063163816928863525390625000000 -0.001548107131384313106536865234 -0.001627617864869534969329833984 0 0 0 0 
2416166666.6666665077 0.159057885408401489257812500000 -0.064623564481735229492187500000 -0.001563466736115515015245747144 -0.001605456927791238047956157153 0 0 0 0 
2416333333.3333334923 0.158715635538101196289062500000 -0.065751895308494567871093750000 -0.001480579376220702908159565503 -0.001603254233486949963810586084 0 0 0 0 
2416500000.0000000000 0.158424198627471896072549384371 -0.067057996988296508789062500000 -0.001398832537233829931971884619 -0.001662914990447462038752890479 0 0 0 0 
2416666666.6666665077 0.158119395375251797775106865629 -0.068412475287914276123046875000 -0.001360093592666089968440390479 -0.001671119942329823970794677734 0 0 0 0 
2416833333.3333334923 0.157900631427764892578125000000 -0.069771341979503631591796875000 -0.001396770821884274916407919775 -0.001736530917696655013440776294 0 0 0 0 
2417000000.0000000000 0.157430425286293002029580634371 -0.070978827774524688720703125000 -0.001216423115693032958387065356 -0.001916750567033886909484863281 0 0 0 0 
2417166666.6666665077 0.157220318913459805587606865629 -0.072040855884552001953125000000 -0.001428374205715954086901020581 -0.002154454821720718903782509912 0 0 0 0 
2417333333.3333334923 0.157037153840065002441406250000 -0.073170684278011322021484375000 -0.001483527012169360897661518628 -0.002263038884848355813267373193 0 0 0 0 
2417500000.0000000000 0.156729936599731500823651231258 -0.074244394898414611816406250000 -0.001699769403785466930986713940 -0.002352120354771614074707031250 0 0 0 0 
2417666666.6666665077 0.156494200229644803146200615629 -0.075177192687988281250000000000 -0.001918024732731282927869487231 -0.002372357994318007989170693506 0 0 0 0 
2417833333.3333334923 0.156311750411987304687500000000 -0.076155297458171844482421875000 -0.001950653386302291913273476709 -0.002642047824338078932521201025 0 0 0 0 
2418000000.0000000000 0.156051918864250210861044365629 -0.077208414673805236816406250000 -0.002165895188227295875549316406 -0.002467848593369125886204384912 0 0 0 0 
2418166666.6666665077 0.155792847275734003265057481258 -0.077896647155284881591796875000 -0.002484827535226941108703613281 -0.002469052560627460913417197119 0 0 0 0 
2418333333.3333334923 0.155959412455558804611044365629 -0.078814648091793060302734375000 -0.002698851050809026198146201025 -0.002512371400371193885803222656 0 0 0 0 
2418500000.0000000000 0.155601114034652709960937500000 -0.079593367874622344970703125000 -0.003090666839852929115295410156 -0.002383603714406489892246865381 0 0 0 0 
2418666666.6666665077 0.155451729893684387207031250000 -0.080546095967292785644531250000 -0.003267209045588970184326171875 -0.002240982837975025177001953125 0 0 0 0 
2418833333.3333334923 0.155138283967971801757812500000 -0.081289470195770263671875000000 -0.003371663624420762062072753906 -0.001883286051452160098432231372 0 0 0 0 
2419000000.0000000000 0.154914364218711908538494981258 -0.081942155957221984863281250000 -0.003655788721516727967503213037 -0.001752214389853180105324770288 0 0 0 0 
2419166666.6666665077 0.154836013913154602050781250000 -0.082716241478919982910156250000 -0.003564115380868316130397177588 -0.001706106588244437954546284253 0 0 0 0 
2419333333.3333334923 0.154389038681984003265057481258 -0.083189427852630615234375000000 -0.003769469214603304862976074219 -0.001412253594025969938990927588 0 0 0 0 
2419500000.0000000000 0.154166415333747891525106865629 -0.084021978080272674560546875000 -0.003851024666801095008850097656 -0.001193477422930300018907856519 0 0 0 0 
2419666666.6666665077 0.153984457254409790039062500000 -0.084550961852073669433593750000 -0.003989444114267826080322265625 -0.000954451330471783876419067383 0 0 0 0 
2419833333.3333334923 0.153694093227386502364950615629 -0.084935620427131652832031250000 -0.003926598932594060897827148438 -0.000898656551726162433624267578 0 0 0 0 
