# Hz S RI R 
2400000000.0000000000 0.158571392297744806487713731258 0.062733866274356842041015625000 -0.001295165391638875007629394531 -0.001513098250143229961395263672 0 0 0 0 
2400166666.6666665077 0.158245205879211398025674384371 0.061367969959974288940429687500 -0.001369962701573967933654785156 -0.001520926016382873058319091797 0 0 0 0 
2400333333.3333334923 0.158259734511375399490518134371 0.059287950396537780761718750000 -0.001469706534408032894134521484 -0.001478992286138236956355429541 0 0 0 0 
2400500000.0000000000 0.158152580261230496505575615629 0.057547107338905327533762346093 -0.001510403933934866948368691553 -0.001349421334452926895738911206 0 0 0 0 
2400666666.6666665077 0.157993540167808504959268134371 0.055381733924150466918945312500 -0.001192434341646730899810791016 -0.001315514673478900952580117334 0 0 0 0 
2400833333.3333334923 0.158051565289497403243856865629 0.053585659712553017353098283593 -0.001455280813388526005985879053 -0.001255898503586649894714355469 0 0 0 0 
2401000000.0000000000 0.157985106110572787185830634371 0.051513735204935066913645158593 -0.001407750183716415925266884912 -0.001291320775635540919062949072 0 0 0 0 
2401166666.6666665077 0.158184170722961398025674384371 0.049252536147832870483398437500 -0.001473199808970093943952250903 -0.001223098253831266923191689600 0 0 0 0 
2401333333.3333334923 0.158236235380172701736611884371 0.047331590205430977558176408593 -0.001375945517793297984479594653 -0.001235381467267870903015136719 0 0 0 0 
2401500000.0000000000 0.158528581261634798904580634371 0.045165758579969413066823591407 -0.001581619959324598095537495190 -0.001259138458408415100694965894 0 0 0 0 
2401666666.6666665077 0.158797711133956909179687500000 0.043281219899654388427734375000 -0.001369253848679363944410014575 -0.001210243790410459041595458984 0 0 0 0 
2401833333.3333334923 0.158978834748268099685830634371 0.041231956332921981811523437500 -0.001454113284125923893572163159 -0.001134045538492500998853373950 0 0 0 0 
2402000000.0000000000 0.159465759992599487304687500000 0.039061829447746276855468750000 -0.001676256884820759079576801831 -0.001275441725738347010371542822 0 0 0 0 
2402166666.6666665077 0.159817889332771301269531250000 0.037205182015895836566965471093 -0.001464007422327995083452534253 -0.001209672540426254055620503003 0 0 0 0 
2402333333.3333334923 0.160359337925911005218182481258 0.035183127969503402709960937500 -0.001672004698775708892224955981 -0.001117258914746344089508056641 0 0 0 0 
2402500000.0000000000 0.161148875951766995529013115629 0.033343132585287087177317033593 -0.001769783906638622067095112378 -0.001240333309397100968601845850 0 0 0 0 
2402666666.6666665077 0.161802917718887301345986884371 0.031633663922548287128488908593 -0.001875668182037770964978862231 -0.001159460167400538921356201172 0 0 0 0 
2402833333.3333334923 0.162690833210945101638955634371 0.029877558350563049316406250000 -0.001728867646306752941728901440 -0.001191622111946343941929482568 0 0 0 0 
2403000000.0000000000 0.163203358650207491775674384371 0.028157111257314678537388985546 -0.001823441009037197069880820166 -0.001170937321148812987683940356 0 0 0 0 
2403166666.6666665077 0.164176419377326993087606865629 0.026625502854585651052454764454 -0.001660196227021514935734414209 -0.001127344556152821020839072119 0 0 0 0 
2403333333.3333334923 0.165111467242240905761718750000 0.025057647377252578735351562500 -0.001831517787650227980372763525 -0.001002666424028574986698769678 0 0 0 0 
2403500000.0000000000 0.165816143155097989181356865629 0.023466264829039570199986641796 -0.001782607752829789898516010815 -0.001004269463010132095934223706 0 0 0 0 
2403666666.6666665077 0.166786700487136813064736884371 0.022006947547197338449498360546 -0.001786519773304461999180459131 -0.000925291969906538724899291992 0 0 0 0 
2403833333.3333334923 0.167978674173355102539062500000 0.020809814333915710449218750000 -0.001841640332713722965837788159 -0.000888242153450846672058105469 0 0 0 0 
2404000000.0000000000 0.168893933296203613281250000000 0.019660858437418941152552420704 -0.001839331118389964103698730469 -0.000880660023540258407592773438 0 0 0 0 
2404166666.6666665077 0.169699102640152005294638115629 0.018401049077510830270787423046 -0.002063412684947251839878701318 -0.000859952939208596944808959961 0 0 0 0 
2404333333.3333334923 0.170787036418914794921875000000 0.017236573621630668640136718750 -0.002063198015093802972080849756 -0.000676611263770610094070434570 0 0 0 0 
2404500000.0000000000 0.171748071908950805664062500000 0.016398625448346141469935233204 -0.002030121162533760070800781250 -0.000721914868336170911788940430 0 0 0 0 
2404666666.6666665077 0.172716230154037503341513115629 0.015539192594587799417515938671 -0.002179359085857868194580078125 -0.000552902987692505121231079102 0 0 0 0 
2404833333.3333334923 0.173583045601844787597656250000 0.014719824306666849308977695898 -0.001935419510118663094164204175 -0.000610286602750420570373535156 0 0 0 0 
2405000000.0000000000 0.174486145377159090896768134371 0.013861001469194890803326991602 -0.002116281539201736883876181494 -0.000616005738265812397003173828 0 0 0 0 
2405166666.6666665077 0.175371766090393094161825615629 0.013152640312910079956054687500 -0.002115776762366294860839843750 -0.000490063976030796766281127930 0 0 0 0 
2405333333.3333334923 0.176248267292976407150106865629 0.012438704259693620854387852148 -0.002107744337990880012512207031 -0.000510841608047485351562500000 0 0 0 0 
2405500000.0000000000 0.176973849534988403320312500000 0.012052506208419799804687500000 -0.002165094716474413871765136719 -0.000347348832292482311099451886 0 0 0 0 
2405666666.6666665077 0.177724108099937411209268134371 0.011480730026960369455357735546 -0.002250282559543848037719726562 -0.000329699047142639810412806378 0 0 0 0 
2405833333.3333334923 0.178111493587493896484375000000 0.011176135390996929513951485546 -0.002526749623939394950866699219 -0.000326069071888923699229639874 0 0 0 0 
2406000000.0000000000 0.178897142410278292556924384371 0.010651033371686940628975115430 -0.002326264278963208198547363281 -0.000240278604906052405208033429 0 0 0 0 
2406166666.6666665077 0.179275467991828890701455634371 0.010468609631061550485631173046 -0.002301065716892480850219726562 -0.000126964165247045511573237286 0 0 0 0 
2406333333.3333334923 0.179986223578453091720419365629 0.010190011933445930480957031250 -0.002284075599163771109340048682 -0.000180233371793292489930829459 0 0 0 0 
2406500000.0000000000 0.180092558264732388595419365629 0.009889989160001277923583984375 -0.002462071133777499198913574219 0.000080625162809155881404876709 0 0 0 0 
2406666666.6666665077 0.180307030677795410156250000000 0.009518247097730636596679687500 -0.002373865339905024008509970557 0.000134815112687647288471776141 0 0 0 0 
2406833333.3333334923 0.180658012628555297851562500000 0.009233937598764896392822265625 -0.002308678114786744117736816406 0.000253042264375835711329859601 0 0 0 0 
2407000000.0000000000 0.180783212184906005859375000000 0.008901292458176612854003906250 -0.002215439453721046014073037256 0.000158003298565745407908839093 0 0 0 0 
2407166666.6666665077 0.180953949689865112304687500000 0.008653918281197547912597656250 -0.002386901294812560081481933594 0.000354833086021244525909423828 0 0 0 0 
2407333333.3333334923 0.180711463093757601638955634371 0.008223976939916610717773437500 -0.002317296573892236189601279150 0.000477349472930654883384704590 0 0 0 0 
2407500000.0000000000 0.180567294359207208831463731258 0.007798361591994762420654296875 -0.002297279657796024842503213037 0.000527982134371995925903320312 0 0 0 0 
2407666666.6666665077 0.180461794137954711914062500000 0.007506484165787696838378906250 -0.002240954898297787146327353369 0.000436204340076074004173278809 0 0 0 0 
2407833333.3333334923 0.180057808756828308105468750000 0.006762065924704074859619140625 -0.002276266925036907196044921875 0.000704239297192543853461110803 0 0 0 0 
2408000000.0000000000 0.179751813411712701995526231258 0.006222357507795094576363847949 -0.002051091520115733146667480469 0.000767526566050946712493896484 0 0 0 0 
2408166666.6666665077 0.179311484098434503753338731258 0.005794883705675601959228515625 -0.002213273430243134932277060400 0.000753934902604669332504272461 0 0 0 0 
2408333333.3333334923 0.179176717996597290039062500000 0.005066306330263614654541015625 -0.002003264147788286209106445312 0.000864561123307794332504272461 0 0 0 0 
2408500000.0000000000 0.178379267454147311111611884371 0.004225712269544600573067949512 -0.001946831704117357947705913013 0.001029462902806699059130024487 0 0 0 0 
2408666666.6666665077 0.177935034036636408050213731258 0.003333850298076868057250976562 -0.002046554116532206969020224463 0.001070995465852319977403950269 0 0 0 0 
2408833333.3333334923 0.177115187048912103850994981258 0.002449322957545518875122070312 -0.001974642975255846977233886719 0.001136988983489573001861572266 0 0 0 0 
2409000000.0000000000 0.176510140299797113616619981258 0.001660406589508057074305868994 -0.001797477831132709980010986328 0.001105421804822980923893593896 0 0 0 0 
2409166666.6666665077 0.175848901271820096114950615629 0.000437026232248172218173426495 -0.001893819659017025990727089990 0.001243699924089014963862753760 0 0 0 0 
2409333333.3333334923 0.175203889608383206466513115629 -0.000792082399129867553710937500 -0.001840327400714159011840820312 0.001327343867160380103467631763 0 0 0 0 
2409500000.0000000000 0.174432203173637390136718750000 -0.002192368265241384939906454932 -0.001667729578912257931352924878 0.001287425518967211029650044019 0 0 0 0 
2409666666.6666665077 0.173650577664375305175781250000 -0.003352627158164978027343750000 -0.001767707173712552027461386572 0.001369524979963899092433310400 0 0 0 0 
2409833333.3333334923 0.173008620738983209808026231258 -0.004689191002398729324340820312 -0.001637718756683171012281108325 0.001525922911241651015040732275 0 0 0 0 
2410000000.0000000000 0.172506824135780306717080634371 -0.006262551527470350265502929688 -0.001681760186329483985900878906 0.001426552771590650081634521484 0 0 0 0 
2410166666.6666665077 0.171638265252113286774005018742 -0.007770251948386430740356445312 -0.001616676221601665019989013672 0.001481575542129575989366840894 0 0 0 0 
2410333333.3333334923 0.171062484383583096603231865629 -0.009352059103548526763916015625 -0.001585618359968065998674702222 0.001351903658360243060468364185 0 0 0 0 
2410500000.0000000000 0.170488059520721407791299384371 -0.010850843973457809793492501171 -0.001294477260671555995941162109 0.001480084261856972954393696362 0 0 0 0 
2410666666.6666665077 0.169853985309600802322549384371 -0.012685430236160760361641131055 -0.001260983408428729014155722510 0.001497800811193882985355996240 0 0 0 0 
2410833333.3333334923 0.169512152671813992599325615629 -0.014476041309535499918004219921 -0.001384026720188558101654052734 0.001650837366469203992130898584 0 0 0 0 
2411000000.0000000000 0.169021457433700589279013115629 -0.016229020431637760507603829296 -0.001278596464544534900067973560 0.001568510080687701918958354419 0 0 0 0 
2411166666.6666665077 0.168638288974761990646200615629 -0.018041472882032390939732735546 -0.001064719748683274009107280200 0.001670187106356024958966899341 0 0 0 0 
2411333333.3333334923 0.168458849191665704925213731258 -0.019914198666810989379882812500 -0.001214278629049658992170024341 0.001673175487667321941973042065 0 0 0 0 
2411500000.0000000000 0.168183535337448092361611884371 -0.022068390622735020029088204296 -0.000927701476030051708221435547 0.001534986658953130028368305737 0 0 0 0 
2411666666.6666665077 0.168113753199577303787393134371 -0.023966245353221889841099923046 -0.001062648836523294015171670068 0.001755722099915147044538188403 0 0 0 0 
2411833333.3333334923 0.168058991432189913650674384371 -0.025788199156522750854492187500 -0.000996310496702790260314941406 0.001584132551215589046478271484 0 0 0 0 
2412000000.0000000000 0.168029308319091796875000000000 -0.027835598215460780752161795704 -0.000929463247302919626235961914 0.001743814907968044064165424878 0 0 0 0 
2412166666.6666665077 0.167919903993606595138388115629 -0.029846172779798511159876639454 -0.001019496936351061084150004810 0.001533447648398577950121235425 0 0 0 0 
2412333333.3333334923 0.168306946754455594161825615629 -0.031719565391540527343750000000 -0.000909197202417999505996704102 0.001878000795841217041015625000 0 0 0 0 
2412500000.0000000000 0.168349862098693903167401231258 -0.033435724675655371929128278907 -0.000953736307565122842788696289 0.001509777037426828904392861475 0 0 0 0 
2412666666.6666665077 0.168759584426879910568075615629 -0.035564798861742019653320312500 -0.000918561301659792661666870117 0.001615557353943585915806435693 0 0 0 0 
2412833333.3333334923 0.169084101915359497070312500000 -0.037400372326374047016184221093 -0.000852629891596734523773193359 0.001722255605272948958753276294 0 0 0 0 
2413000000.0000000000 0.169391110539436312576455634371 -0.039149452000856399536132812500 -0.000712982262484729290008544922 0.001758786384016274972202920068 0 0 0 0 
2413166666.6666665077 0.169888168573379488845986884371 -0.041042044758796691894531250000 -0.000605816196184605360031127930 0.001830736175179481940028525244 0 0 0 0 
2413333333.3333334923 0.170177817344665499588174384371 -0.042710430920124047016184221093 -0.000672299182042479515075683594 0.001724877627566457011579204028 0 0 0 0 
2413500000.0000000000 0.170927256345748901367187500000 -0.044417325407266616821289062500 -0.000713804736733436584472656250 0.001900866045616566918016743237 0 0 0 0 
2413666666.6666665077 0.171362102031707791427450615629 -0.046147178858518600463867187500 -0.000675596471410244703292846680 0.001772823743522166988970112378 0 0 0 0 
2413833333.3333334923 0.171898514032363891601562500000 -0.047549083828926093364675153907 -0.000552967889234423637390136719 0.001980858854949473901035927881 0 0 0 0 
2414000000.0000000000 0.172323271632194491287393134371 -0.048984408378601067279856096093 -0.000592509284615516662597656250 0.001776545075699687004089355469 0 0 0 0 
2414166666.6666665077 0.172968938946723910232705634371 -0.050350617617368698120117187500 -0.000453982909675687605708521710 0.001702087698504328944562602466 0 0 0 0 
2414333333.3333334923 0.173462063074111910720986884371 -0.051677774637937552715261091407 -0.000321036786772310679585057391 0.001991510856896638870239257812 0 0 0 0 
2414500000.0000000000 0.174246013164520291427450615629 -0.052742060273885726928710937500 -0.000284855865174904519885462628 0.001837708405219018893000937354 0 0 0 0 
2414666666.6666665077 0.174550518393516512771768134371 -0.053870487958192832256276716407 -0.000256962317507713978916722430 0.001910216291435063102124858325 0 0 0 0 
2414833333.3333334923 0.175197854638099698165731865629 -0.054936558008193969726562500000 -0.000340249476721510291099548340 0.001759416540153325037715292822 0 0 0 0 
2415000000.0000000000 0.175558835268020602127236884371 -0.055668231099843978881835937500 -0.000229634824790991788536625995 0.001835373812355100891710590894 0 0 0 0 
2415166666.6666665077 0.175878077745437594314736884371 -0.056731563061475746845285783593 -0.000196708075236529111862182617 0.001864515827037394046783447266 0 0 0 0 
2415333333.3333334923 0.176477834582328796386718750000 -0.057505965232849121093750000000 -0.000144480232847854495048522949 0.001814791699871421077130961841 0 0 0 0 
2415500000.0000000000 0.176756232976913507659588731258 -0.058070149272680282592773437500 -0.000151572909089736613348284311 0.001891707885079086043714213794 0 0 0 0 
2415666666.6666665077 0.177066758275031987945880018742 -0.058592427521944052959401716407 -0.000196609020349569591596880502 0.001812294940464199023005820166 0 0 0 0 
2415833333.3333334923 0.177380338311195401290731865629 -0.059182569384574890136718750000 -0.000132896078866906491204938345 0.001905268756672739982604980469 0 0 0 0 
2416000000.0000000000 0.177272737026214599609375000000 -0.059691205620765692974050153907 0.000062399521993938833475112915 0.001750687020830810070037841797 0 0 0 0 
2416166666.6666665077 0.177683502435684204101562500000 -0.060057517141103751445729841407 0.000049821956054074689745903015 0.001949492027051747062085795825 0 0 0 0 
2416333333.3333334923 0.177607566118240411956463731258 -0.060393560677766799926757812500 -0.000089789464254863560199737549 0.001825282350182533047319721753 0 0 0 0 
2416500000.0000000000 0.177559256553649902343750000000 -0.060776606202125549316406250000 0.000060166497860336683016230924 0.001837960211560129902483295972 0 0 0 0 
2416666666.6666665077 0.177266031503677395919638115629 -0.060945812612771987915039062500 0.000276785809546709114879053937 0.002056397497653961181640625000 0 0 0 0 
2416833333.3333334923 0.177200436592102106292401231258 -0.061277665197849266742746721093 0.000196061897440813508912763052 0.002013031160458921952488564600 0 0 0 0 
2417000000.0000000000 0.176653072237968389313067518742 -0.061522625386714942241628278907 0.000329067202983424121707362042 0.001882649492472409985185932690 0 0 0 0 
2417166666.6666665077 0.176341921091079711914062500000 -0.061571624130010611797292341407 0.000310824572807177901268005371 0.001840132754296063943150185693 0 0 0 0 
2417333333.3333334923 0.175856813788414001464843750000 -0.061868686228990561748464216407 0.000326420995406806523173731671 0.001947727403603493950487446362 0 0 0 0 
2417500000.0000000000 0.175288930535316495040731865629 -0.062079802155494689941406250000 0.000424421014031395316123962402 0.001914964173920453028437949072 0 0 0 0 
2417666666.6666665077 0.174571186304092407226562500000 -0.062277305871248252178151716407 0.000573258381336927413940429688 0.001899019815027713992475200122 0 0 0 0 
2417833333.3333334923 0.173878416419029208084268134371 -0.062465976923704147338867187500 0.000564382469747215509414672852 0.001901617855764925913569785010 0 0 0 0 
2418000000.0000000000 0.172989144921302795410156250000 -0.062949694693088531494140625000 0.000542535330168902873992919922 0.001963100861757994131800986182 0 0 0 0 
2418166666.6666665077 0.172044768929481506347656250000 -0.063054680824279785156250000000 0.000576718710362911224365234375 0.001867575105279684066772460938 0 0 0 0 
2418333333.3333334923 0.171425029635429410079794365629 -0.063435971736907958984375000000 0.000832557445392012596130371094 0.001838654396124183914781879956 0 0 0 0 
2418500000.0000000000 0.170226141810417203048544365629 -0.063989378511905670166015625000 0.000775078893639147281646728516 0.001737330458126961968065571362 0 0 0 0 
2418666666.6666665077 0.169299587607383700271768134371 -0.064356125891208648681640625000 0.000761979899834841489791870117 0.001762911444529891014099121094 0 0 0 0 
2418833333.3333334923 0.167986378073692294021768134371 -0.064829804003238677978515625000 0.000974854046944528818130493164 0.001732379896566271998761821216 0 0 0 0 
2419000000.0000000000 0.166764527559280395507812500000 -0.065446533262729644775390625000 0.000900406506843864917755126953 0.001781338942237197919132851709 0 0 0 0 
2419166666.6666665077 0.165634781122207613845986884371 -0.066035039722919464111328125000 0.001113778795115649917005229419 0.001647460507228970961329794775 0 0 0 0 
2419333333.3333334923 0.164327859878540011306924384371 -0.066616781055927276611328125000 0.000960680365096777677536010742 0.001736900652758776924730610425 0 0 0 0 
2419500000.0000000000 0.163210615515708895584268134371 -0.067592464387416839599609375000 0.001229682704433799006818461841 0.001733109587803483009338378906 0 0 0 0 
2419666666.6666665077 0.162163466215133694747763115629 -0.068436905741691589355468750000 0.001239211065694689967511821216 0.001728813862428068897844624097 0 0 0 0 
2419833333.3333334923 0.160880863666534396072549384371 -0.069144979119300842285156250000 0.001354793435893953063367534106 0.001652026665396987958195351709 0 0 0 0 
