# Hz S RI R 
2400000000.0000000000 0.173116192221641512771768134371 0.049694158136844641948659528907 0.001829103101044893047930073315 0.001050435472279787063598632812 0 0 0 0 
2400166666.6666665077 0.173581525683402987381143134371 0.049171023070812232280690778907 0.001808597124181688048719096606 0.000991406152024865150451660156 0 0 0 0 
2400333333.3333334923 0.173989072442054804046307481258 0.048345398157835006713867187500 0.001693734549917281107661581885 0.000943401304539293050765991211 0 0 0 0 
2400500000.0000000000 0.174317404627799987792968750000 0.047719143331050872802734375000 0.001438223291188478903529501807 0.000889821851160377264022827148 0 0 0 0 
2400666666.6666665077 0.174499094486236600021200615629 0.047138959169387817382812500000 0.001468238420784472985508584131 0.000919783429708331823348999023 0 0 0 0 
2400833333.3333334923 0.174787476658821105957031250000 0.046482473611831671977956403907 0.001244953367859124920488667065 0.000985448947176337242126464844 0 0 0 0 
2401000000.0000000000 0.174878910183906610686932481258 0.045888915657997131347656250000 0.001255449140444397926330566406 0.001070520607754587910295795972 0 0 0 0 
2401166666.6666665077 0.174852609634399386306924384371 0.045279379934072501445729841407 0.001130137243308126926422119141 0.000969771412201225757598876953 0 0 0 0 
2401333333.3333334923 0.175048470497131403167401231258 0.044493794441223151470143903907 0.001002527074888349013087607275 0.000978511176072061061859130859 0 0 0 0 
2401500000.0000000000 0.175205647945404108245526231258 0.043991923332214362407643903907 0.001161522348411381027818989331 0.001081403112038969993591308594 0 0 0 0 
2401666666.6666665077 0.175003081560134887695312500000 0.043244216591119773174245466407 0.000999732175841927528381347656 0.001187029643915594057795859229 0 0 0 0 
2401833333.3333334923 0.175064578652381896972656250000 0.042323622852563858032226562500 0.000859550433233380317687988281 0.001077141379937529997584677588 0 0 0 0 
2402000000.0000000000 0.174720302224159212967080634371 0.041596040129661560058593750000 0.000970979570411145687103271484 0.001282990560866891904118203271 0 0 0 0 
2402166666.6666665077 0.174606636166572598556356865629 0.040467351675033569335937500000 0.000998313771560788154602050781 0.001117915264330803914311074365 0 0 0 0 
2402333333.3333334923 0.174274399876594487945880018742 0.039642557501792907714843750000 0.001018894719891249916673969800 0.001316614914685487964032817310 0 0 0 0 
2402500000.0000000000 0.174480810761451693435830634371 0.038552064448595046997070312500 0.000869335548486560583114624023 0.001475896802730857892277382959 0 0 0 0 
2402666666.6666665077 0.173914149403572110275106865629 0.037407279014587402343750000000 0.000999022158794105052947998047 0.001446932204999030070063925635 0 0 0 0 
2402833333.3333334923 0.173763260245323208907919365629 0.036277256906032562255859375000 0.000931321061216294765472412109 0.001478579360991715951206826318 0 0 0 0 
2403000000.0000000000 0.173309907317161587814169365629 0.034843366593122482299804687500 0.000985312159173190593719482422 0.001632045488804578997968364185 0 0 0 0 
2403166666.6666665077 0.173202201724052401443643134371 0.033400014042854309082031250000 0.001204327563755213997484516675 0.001709181349724530956865620190 0 0 0 0 
2403333333.3333334923 0.172766745090484591385049384371 0.032032672315835952758789062500 0.001289194333367049910901713794 0.001767623471096158027648925781 0 0 0 0 
2403500000.0000000000 0.172337740659713800628338731258 0.030441639944910999643346016796 0.001193329808302223899243998950 0.001785902422852813980699848706 0 0 0 0 
2403666666.6666665077 0.171864256262779208084268134371 0.028780717402696609497070312500 0.001286496059037744998931884766 0.001738548977300524928449321216 0 0 0 0 
2403833333.3333334923 0.171739444136619595626669365629 0.027057824656367298471471016796 0.001487371511757374026654887622 0.001853425637818872928619384766 0 0 0 0 
2404000000.0000000000 0.171331718564033508300781250000 0.025260820984840389596959298046 0.001525882864370941898943256909 0.001762223197147249958635639722 0 0 0 0 
2404166666.6666665077 0.170881107449531610686932481258 0.023276524618268009531041329296 0.001563345082104206085205078125 0.001766010420396924018859863281 0 0 0 0 
2404333333.3333334923 0.170710355043411310393963731258 0.021421583369374278676966483204 0.001514104893431067900416708838 0.001683356938883662006975483472 0 0 0 0 
2404500000.0000000000 0.170430481433868408203125000000 0.019490670412778850900670235546 0.001794603769667447046992636572 0.001586357364431024031398154150 0 0 0 0 
2404666666.6666665077 0.170187726616859408279580634371 0.017521936446428298950195312500 0.001783697516657412052154541016 0.001620915136300026936772011865 0 0 0 0 
2404833333.3333334923 0.170052245259285000900106865629 0.015447210520505910355537615430 0.001885101431980729103088378906 0.001639729947783052921295166016 0 0 0 0 
2405000000.0000000000 0.169945150613784790039062500000 0.013525448739528659475306326954 0.001844151760451496081111288916 0.001657506800256669955012656104 0 0 0 0 
2405166666.6666665077 0.169800937175750704666299384371 0.011424386873841289175013358204 0.001974344952031970024108886719 0.001679889741353691057917929541 0 0 0 0 
2405333333.3333334923 0.169971391558647211272869981258 0.009171413257718086242675781250 0.001968894386664032936096191406 0.001702472800388932011247944409 0 0 0 0 
2405500000.0000000000 0.169885367155075100997763115629 0.007286709733307361602783203125 0.001989401178434491157531738281 0.001689850003458559946772910010 0 0 0 0 
2405666666.6666665077 0.170099318027496310135049384371 0.005165261216461659345144941113 0.002309823408722877936122275244 0.001766311936080455996869731372 0 0 0 0 
2405833333.3333334923 0.170254677534103393554687500000 0.003242321312427521185633993994 0.002284702612087130980250693213 0.001856382121331989982007670825 0 0 0 0 
2406000000.0000000000 0.170716062188148498535156250000 0.001250441069714725017547607422 0.002475156215950847105738974463 0.001678186701610683961155556787 0 0 0 0 
2406166666.6666665077 0.170892208814620999435263115629 -0.000778916582930833101272583008 0.002697406336665153937098837744 0.001578203751705586910247802734 0 0 0 0 
2406333333.3333334923 0.171504780650138910491619981258 -0.002919806865975261168238974463 0.002756093395873903794529580225 0.001759297098033129952074360425 0 0 0 0 
2406500000.0000000000 0.171924844384193392654580634371 -0.004868363961577416333670331738 0.002803996903821825981140136719 0.001612378749996423938153911060 0 0 0 0 
2406666666.6666665077 0.172233790159225491622763115629 -0.006703746970742940902709960938 0.002980871358886361122131347656 0.001567523577250540039659809644 0 0 0 0 
2406833333.3333334923 0.173025324940681513030682481258 -0.008822640404105186462402343750 0.003094044514000415802001953125 0.001551754423417150974273681641 0 0 0 0 
2407000000.0000000000 0.173728719353675786774005018742 -0.010558929294347759592076485546 0.003191662253811955885646201025 0.001478824997320771000505756909 0 0 0 0 
2407166666.6666665077 0.174397721886634798904580634371 -0.012423004955053329467773437500 0.003260430879890919165370322119 0.001396754523739218928693461841 0 0 0 0 
2407333333.3333334923 0.175003319978713989257812500000 -0.014269393868744369852086251171 0.003663049545139073891880654443 0.001262352918274701075312949072 0 0 0 0 
2407500000.0000000000 0.175726905465126009842080634371 -0.015996644273400310171107108204 0.003823704319074749946594238281 0.001163845066912472031236958081 0 0 0 0 
2407666666.6666665077 0.176582664251327486892861884371 -0.017584627494215968740443045704 0.003942538518458604812622070312 0.000938304990995675325393676758 0 0 0 0 
2407833333.3333334923 0.177219852805137606521768134371 -0.019354375079274181020716483204 0.004051009658724069595336914062 0.000737844908144325017929077148 0 0 0 0 
2408000000.0000000000 0.177999749779701205154580634371 -0.020977906882762908935546875000 0.004093643743544816970825195312 0.000461829709820449406474512921 0 0 0 0 
2408166666.6666665077 0.178750634193420410156250000000 -0.022234108299016949045201485546 0.004204962402582168579101562500 0.000116703835374210002735415048 0 0 0 0 
2408333333.3333334923 0.179545879364013699630575615629 -0.023703571408987048757532889454 0.004269814584404230117797851562 0.000007072160769894254309585972 0 0 0 0 
2408500000.0000000000 0.180024251341819790939169365629 -0.024910982698202129709263985546 0.004245697055011987686157226562 -0.000349991489201784079701024188 0 0 0 0 
2408666666.6666665077 0.180741161108016995529013115629 -0.026260180398821830749511718750 0.004246552940458059310913085938 -0.000560608110390603542327880859 0 0 0 0 
2408833333.3333334923 0.181228652596473693847656250000 -0.027444979175925258291224295704 0.004282025620341300964355468750 -0.000699119933415204286575317383 0 0 0 0 
2409000000.0000000000 0.181728422641754205901776231258 -0.028238493949174880981445312500 0.004290470853447914123535156250 -0.000889628601726144552230834961 0 0 0 0 
2409166666.6666665077 0.182098731398582486251669365629 -0.029191460460424419748326485546 0.004137983079999685287475585938 -0.001229376997798681042314838940 0 0 0 0 
2409333333.3333334923 0.182546243071556091308593750000 -0.030027743428945541381835937500 0.003976978827267885208129882812 -0.001397014711983501911163330078 0 0 0 0 
2409500000.0000000000 0.182869866490364102462606865629 -0.030841268599033359182337576954 0.003988272044807673367972089551 -0.001539643388241529898402548682 0 0 0 0 
2409666666.6666665077 0.183058813214302090743856865629 -0.031250707805156707763671875000 0.003871144261211156845092773438 -0.001724932109937072017072368091 0 0 0 0 
2409833333.3333334923 0.183333575725555392166299384371 -0.031899023801088333129882812500 0.003712213598191738128662109375 -0.001800565863959491036058735425 0 0 0 0 
2410000000.0000000000 0.183428764343261690994424384371 -0.032203823328018188476562500000 0.003752483986318110985996865381 -0.001865683705545962073682475513 0 0 0 0 
2410166666.6666665077 0.183624878525734003265057481258 -0.032672416418790817260742187500 0.003691785736009479002711630713 -0.002114015398547052903416298975 0 0 0 0 
2410333333.3333334923 0.183668315410614013671875000000 -0.033027689903974533081054687500 0.003426155308261514143702841650 -0.002396394032984972000122070312 0 0 0 0 
2410500000.0000000000 0.183600977063178988357705634371 -0.033304858952760703350026716407 0.003373581450432538986206054688 -0.002343362197279930114746093750 0 0 0 0 
2410666666.6666665077 0.183539703488349886795205634371 -0.033557631075382232666015625000 0.003298992989584804014918661963 -0.002594289369881153106689453125 0 0 0 0 
2410833333.3333334923 0.183289721608161898513955634371 -0.033828772604465491558034528907 0.003177306614816188812255859375 -0.002727788174524902863743447412 0 0 0 0 
2411000000.0000000000 0.183353811502456692794638115629 -0.034067321568727493286132812500 0.002880158368498086929321289062 -0.002763944678008555932285927881 0 0 0 0 
2411166666.6666665077 0.182803973555564908126669365629 -0.034466180950403206562082658593 0.002669251756742597059962607275 -0.002979723038151859803440713037 0 0 0 0 
2411333333.3333334923 0.182338953018188504318075615629 -0.034755136817693710327148437500 0.002550399396568537192103720557 -0.002931400667876005172729492188 0 0 0 0 
2411500000.0000000000 0.181773319840431213378906250000 -0.035231105983257286762277971093 0.002330862218514084815979003906 -0.003074505599215627150294638525 0 0 0 0 
2411666666.6666665077 0.181178241968154907226562500000 -0.035445176064968109130859375000 0.002381807658821343941929482568 -0.003292687702924013137817382812 0 0 0 0 
2411833333.3333334923 0.180436536669731112381143134371 -0.035728510469198226928710937500 0.002074470510706305937526083838 -0.003006967948749661011936806787 0 0 0 0 
2412000000.0000000000 0.179647997021675109863281250000 -0.036424551159143447875976562500 0.001814332790672779083251953125 -0.003180710133165121078491210938 0 0 0 0 
2412166666.6666665077 0.178658932447433499435263115629 -0.036801703274250030517578125000 0.001790171139873564026476215894 -0.003039812436327337785008095850 0 0 0 0 
2412333333.3333334923 0.177900657057762201507244981258 -0.037271711975336081767995466407 0.001458533108234405951258993994 -0.003144541755318642096278525244 0 0 0 0 
2412500000.0000000000 0.176752939820289611816406250000 -0.037771537899971008300781250000 0.001362860086373985030530620044 -0.003064942779019474983215332031 0 0 0 0 
2412666666.6666665077 0.175688728690147399902343750000 -0.038770932704210281372070312500 0.001279738615266978957532573169 -0.002971976296976209120509482275 0 0 0 0 
2412833333.3333334923 0.174588620662689208984375000000 -0.039527289569377899169921875000 0.000893919379450380802154541016 -0.002878159983083606199977255713 0 0 0 0 
2413000000.0000000000 0.173274517059326199630575615629 -0.040187768638134002685546875000 0.001078812405467032952549599756 -0.002918130485340952873229980469 0 0 0 0 
2413166666.6666665077 0.171893179416656494140625000000 -0.040961842983961112285573591407 0.000905591761693358421325683594 -0.002654453041031957106349326025 0 0 0 0 
2413333333.3333334923 0.170587882399558993240518134371 -0.042077302932739257812500000000 0.000972568464931100606918334961 -0.002555934945121407942530966650 0 0 0 0 
2413500000.0000000000 0.169464215636253412444744981258 -0.043065298348665237426757812500 0.000983010162599384784698486328 -0.002511007245630025863647460938 0 0 0 0 
2413666666.6666665077 0.168126955628395108321981865629 -0.044099133461713790893554687500 0.000795573287177830934524536133 -0.002385425614193081855773925781 0 0 0 0 
2413833333.3333334923 0.166804581880569513518963731258 -0.045311216264963150024414062500 0.000962444231845438480377197266 -0.002233503852039576010463095557 0 0 0 0 
2414000000.0000000000 0.165337920188903808593750000000 -0.046687699854373931884765625000 0.000887751346454024314880371094 -0.002158808056265116171595908057 0 0 0 0 
2414166666.6666665077 0.164316117763519287109375000000 -0.047924183309078216552734375000 0.001014969660900532982469868237 -0.002228182042017579078674316406 0 0 0 0 
2414333333.3333334923 0.162993147969245910644531250000 -0.049292962998151779174804687500 0.001147317350842059092280722510 -0.002140793250873684883117675781 0 0 0 0 
2414500000.0000000000 0.162123173475265502929687500000 -0.050559330731630332256276716407 0.001305796205997467041015625000 -0.002152870409190655188319540869 0 0 0 0 
2414666666.6666665077 0.160894110798835809905682481258 -0.052263215184211730957031250000 0.001411814009770750999450683594 -0.002229145960882306098937988281 0 0 0 0 
2414833333.3333334923 0.159759253263473510742187500000 -0.054027698934078216552734375000 0.001367238932289182922960590894 -0.002349354326725006103515625000 0 0 0 0 
2415000000.0000000000 0.158799961209297207931356865629 -0.055679805576801300048828125000 0.001514176838099956946132040869 -0.002161161974072455926182412256 0 0 0 0 
2415166666.6666665077 0.157874703407287597656250000000 -0.057370755821466452861745466407 0.001496122917160392024396586841 -0.002532860031351447105407714844 0 0 0 0 
2415333333.3333334923 0.157014653086662292480468750000 -0.059207301586866378784179687500 0.001686573377810419039485312354 -0.002436145208775997161865234375 0 0 0 0 
2415500000.0000000000 0.156311452388763399978799384371 -0.061040785163640982891042341407 0.001603773329406976916669536060 -0.002600089879706501960754394531 0 0 0 0 
2415666666.6666665077 0.155693784356117304046307481258 -0.062875062227249145507812500000 0.001558020594529808001277304541 -0.002824425930157303810119628906 0 0 0 0 
2415833333.3333334923 0.155118778347969110686932481258 -0.064817368984222412109375000000 0.001633556559681891961338662256 -0.003047577105462551116943359375 0 0 0 0 
2416000000.0000000000 0.154438912868499811370526231258 -0.066872328519821166992187500000 0.001585558871738613085505820166 -0.003182948799803853034973144531 0 0 0 0 
2416166666.6666665077 0.154092788696289090255575615629 -0.068805314600467681884765625000 0.001501519815064966895459819263 -0.003369287122040987014770507812 0 0 0 0 
2416333333.3333334923 0.153621628880500793457031250000 -0.070800691843032836914062500000 0.001564466510899364948272705078 -0.003505060216411948204040527344 0 0 0 0 
2416500000.0000000000 0.153177842497825594803018134371 -0.072799339890480041503906250000 0.001403304748237133026123046875 -0.003672358812764286994934082031 0 0 0 0 
2416666666.6666665077 0.152964517474174499511718750000 -0.074686683714389801025390625000 0.001351233338937162919285439600 -0.004007202573120594024658203125 0 0 0 0 
2416833333.3333334923 0.152784839272499112228231865629 -0.076718516647815704345703125000 0.001071910373866558074951171875 -0.004017956554889678955078125000 0 0 0 0 
2417000000.0000000000 0.152376845479011507888955634371 -0.078543223440647125244140625000 0.001012624124996363899828266675 -0.004148251842707396420950605176 0 0 0 0 
2417166666.6666665077 0.152345150709152193924111884371 -0.080367334187030792236328125000 0.000879403611179441213607788086 -0.004474592395126819610595703125 0 0 0 0 
2417333333.3333334923 0.152337983250618008712606865629 -0.082178458571434020996093750000 0.000727881619241088628768920898 -0.004455323796719312667846679688 0 0 0 0 
2417500000.0000000000 0.152246981859207208831463731258 -0.083989307284355163574218750000 0.000485973141621798276901245117 -0.004611473530530930432791425488 0 0 0 0 
2417666666.6666665077 0.152407616376876803299111884371 -0.085291311144828796386718750000 0.000302814529277384281158447266 -0.004643699154257774353027343750 0 0 0 0 
2417833333.3333334923 0.152352154254913302322549384371 -0.086928308010101318359375000000 -0.000037522517231991521339824064 -0.004717661999166011810302734375 0 0 0 0 
2418000000.0000000000 0.152520850300788907150106865629 -0.088376596570014953613281250000 -0.000052195329772075638175010681 -0.004888900555670261383056640625 0 0 0 0 
2418166666.6666665077 0.152674317359924288650674384371 -0.089606948196887969970703125000 -0.000319155369652435183525085449 -0.005073908716440200805664062500 0 0 0 0 
2418333333.3333334923 0.153070881962776211837606865629 -0.090904973447322845458984375000 -0.000496485678013414144515991211 -0.005064771510660648345947265625 0 0 0 0 
2418500000.0000000000 0.153105497360229492187500000000 -0.092048935592174530029296875000 -0.000852596305776387453079223633 -0.005148527678102254867553710938 0 0 0 0 
2418666666.6666665077 0.153394192457199096679687500000 -0.093113124370574951171875000000 -0.001128742354921997027156210791 -0.005105618853121995925903320312 0 0 0 0 
2418833333.3333334923 0.153476595878601101974325615629 -0.093949981033802032470703125000 -0.001272170804440974972368549878 -0.005350286606699228286743164062 0 0 0 0 
2419000000.0000000000 0.153512924909591702560263115629 -0.094715483486652374267578125000 -0.001648369361646472974064492334 -0.005271282047033309936523437500 0 0 0 0 
2419166666.6666665077 0.153827831149101312835369981258 -0.095532946288585662841796875000 -0.001800183206796645901323628003 -0.005173931363970041275024414062 0 0 0 0 
2419333333.3333334923 0.153923690319061307052450615629 -0.095712311565876007080078125000 -0.002162290271371603012084960938 -0.005135697312653064727783203125 0 0 0 0 
2419500000.0000000000 0.154157236218452509124432481258 -0.096500359475612640380859375000 -0.002342268824577331976649618994 -0.005011142231523990631103515625 0 0 0 0 
2419666666.6666665077 0.154354885220527704436932481258 -0.096917867660522460937500000000 -0.002635804004967213110682822119 -0.004913783632218837738037109375 0 0 0 0 
2419833333.3333334923 0.154436647891998291015625000000 -0.096920825541019439697265625000 -0.002886874834075570106506347656 -0.004880491178482770919799804688 0 0 0 0 
