# Hz S RI R 
2400000000.0000000000 0.173383027315139798263388115629 0.049550790339708328247070312500 0.004313993267714977264404296875 0.001940891845151782035827636719 0 0 0 0 
2400166666.6666665077 0.173834025859832791427450615629 0.049097757786512381816823591407 0.004411236383020877838134765625 0.001844794023782015063642192310 0 0 0 0 
2400333333.3333334923 0.174056991934776306152343750000 0.048349641263484961772878278907 0.004265015944838523864746093750 0.001605809084139764092089008862 0 0 0 0 
2400500000.0000000000 0.174710243940353393554687500000 0.047699861228466026996652971093 0.004137224052101373672485351562 0.001518146251328289942500449072 0 0 0 0 
2400666666.6666665077 0.174696952104568509200888115629 0.046975634992122650146484375000 0.004208601545542479428763105176 0.001542155630886554934858012622 0 0 0 0 
2400833333.3333334923 0.175149142742157010177450615629 0.046478882431983947753906250000 0.004092048387974500656127929688 0.001520922174677252986310649341 0 0 0 0 
2401000000.0000000000 0.175275877118110712249432481258 0.045891042798757553100585937500 0.004299057181924582395071698926 0.001403812668286263942718505859 0 0 0 0 
2401166666.6666665077 0.175226002931594904143963731258 0.045203506946563720703125000000 0.004024134483188390731811523438 0.001416523940861224911333393628 0 0 0 0 
2401333333.3333334923 0.175231039524078396896200615629 0.044444378465414047241210937500 0.004271405283361673355102539062 0.001236254465766251087188720703 0 0 0 0 
2401500000.0000000000 0.175516009330749511718750000000 0.043739173561334609985351562500 0.004104037769138813018798828125 0.001310232910327612920048379053 0 0 0 0 
2401666666.6666665077 0.175364986062049893478231865629 0.043070204555988311767578125000 0.004171457141637802124023437500 0.001224016770720482089399028247 0 0 0 0 
2401833333.3333334923 0.175270125269889803787393134371 0.042144376784563071514089216407 0.004040441941469907760620117188 0.001141147338785230896593403394 0 0 0 0 
2402000000.0000000000 0.175033897161483792404013115629 0.041292179375886917114257812500 0.004197391681373119354248046875 0.001174547243863343975664448315 0 0 0 0 
2402166666.6666665077 0.174942553043365506271200615629 0.040293000638484961772878278907 0.004483098629862070083618164062 0.001000078744255006096483540112 0 0 0 0 
2402333333.3333334923 0.174780622124671908279580634371 0.039341136813163757324218750000 0.004465376958251000318045331738 0.000943051534704864025115966797 0 0 0 0 
2402500000.0000000000 0.174458071589469909667968750000 0.038454040884971618652343750000 0.004385633394122123718261718750 0.000787885801400989294052124023 0 0 0 0 
2402666666.6666665077 0.174179315567016601562500000000 0.037235144525766372680664062500 0.004622147418558598432059003613 0.000778942834585905075073242188 0 0 0 0 
2402833333.3333334923 0.174052819609642001053018134371 0.036219369620084762573242187500 0.004717677831649780273437500000 0.000622162537183612585067749023 0 0 0 0 
2403000000.0000000000 0.173566952347755404373330634371 0.034661430865526199340820312500 0.004596083424985408782958984375 0.000475289387395605390698033466 0 0 0 0 
2403166666.6666665077 0.173164620995521600921307481258 0.033589780330657958984375000000 0.004810252692550420761108398438 0.000374303665012121200561523438 0 0 0 0 
2403333333.3333334923 0.172864258289337213714276231258 0.031963452696800231933593750000 0.004785368219017983350271894238 0.000309254828607663512229919434 0 0 0 0 
2403500000.0000000000 0.172449022531509399414062500000 0.030303716659545898437500000000 0.004686654079705476760864257812 0.000142367469379678395673474722 0 0 0 0 
2403666666.6666665077 0.171996667981147793868856865629 0.028736418113112449645996093750 0.004837842192500829696655273438 0.000068046938395127654075622559 0 0 0 0 
2403833333.3333334923 0.171715945005416897872763115629 0.026998948305845260620117187500 0.005016316194087266921997070312 -0.000190822131116874488905230112 0 0 0 0 
2404000000.0000000000 0.171391397714614895919638115629 0.025240739807486530649205391796 0.004756667651236057281494140625 -0.000325257744407281279563903809 0 0 0 0 
2404166666.6666665077 0.170933261513709994217080634371 0.023406164720654491079310233204 0.005102566443383693695068359375 -0.000509132863953709602355957031 0 0 0 0 
2404333333.3333334923 0.170579925179481506347656250000 0.021612210199236869812011718750 0.004887680988758802413940429688 -0.000746830366551876068115234375 0 0 0 0 
2404500000.0000000000 0.170299217104911804199218750000 0.019369859248399731027623360546 0.005031967069953680038452148438 -0.001040556933730840899823832935 0 0 0 0 
2404666666.6666665077 0.170247286558151300628338731258 0.017455458641052249563196951954 0.004689398687332868576049804688 -0.001158437225967646078822470557 0 0 0 0 
2404833333.3333334923 0.169891446828842190841513115629 0.015487520955502990377405936329 0.004894795361906290054321289062 -0.001336172106675804095027304541 0 0 0 0 
2405000000.0000000000 0.169818669557571411132812500000 0.013555092737078670156458670704 0.004710912238806486129760742188 -0.001362321781925857067108154297 0 0 0 0 
2405166666.6666665077 0.169723376631736810882244981258 0.011357032693922519683837890625 0.004792325664311647415161132812 -0.001725709065794944980024028247 0 0 0 0 
2405333333.3333334923 0.169758945703506497482138115629 0.009271335788071155548095703125 0.004830838646739721298217773438 -0.001785789965651928944828652490 0 0 0 0 
2405500000.0000000000 0.169813424348831204513388115629 0.007331750821322202682495117188 0.004643303807824850082397460938 -0.002117273397743701934814453125 0 0 0 0 
2405666666.6666665077 0.169976085424423190017861884371 0.005401025060564280423636152051 0.004544424358755350112915039062 -0.002042785752564669089076376807 0 0 0 0 
2405833333.3333334923 0.170030429959297207931356865629 0.003377230605110526084899902344 0.004576175473630428314208984375 -0.002280562650412321090698242188 0 0 0 0 
2406000000.0000000000 0.170372292399406405349893134371 0.001225956832058727958081889575 0.004265051335096359252929687500 -0.002208457095548510985133505713 0 0 0 0 
2406166666.6666665077 0.170665830373764010330361884371 -0.000669036235194653272628784180 0.004331898875534535321707441113 -0.002424112055450677871704101562 0 0 0 0 
2406333333.3333334923 0.171280235052108792404013115629 -0.002774636959657073020935058594 0.004287403076887130737304687500 -0.002427522791549562974217080225 0 0 0 0 
2406500000.0000000000 0.171653315424919100662393134371 -0.004808171652257443341726972363 0.004205020144581794738769531250 -0.002550516277551651000976562500 0 0 0 0 
2406666666.6666665077 0.172132387757301302810830634371 -0.006756903138011693954467773438 0.004038543440401554107666015625 -0.002698343014344573020935058594 0 0 0 0 
2406833333.3333334923 0.172875925898551913162393134371 -0.008708195760846138000488281250 0.004035108722746372222900390625 -0.002734804758802055878880166162 0 0 0 0 
2407000000.0000000000 0.173546433448791503906250000000 -0.010521697811782360076904296875 0.003861547680571674866917275537 -0.002998414915055036978480673682 0 0 0 0 
2407166666.6666665077 0.174359470605850191970986884371 -0.012416375800967219961146170704 0.004004977643489837646484375000 -0.002978376345708965821507119287 0 0 0 0 
2407333333.3333334923 0.174996882677078302581463731258 -0.014209343120455740147600742773 0.003909192513674497604370117188 -0.003362433752045034928562783350 0 0 0 0 
2407500000.0000000000 0.175785899162292508224325615629 -0.015907408669590950012207031250 0.003718359861522912979125976562 -0.003471159841865301132202148438 0 0 0 0 
2407666666.6666665077 0.176556006073951693435830634371 -0.017527734860777858388880545704 0.003648837795481086210963583838 -0.003630428807809948921203613281 0 0 0 0 
2407833333.3333334923 0.177143499255180386642294365629 -0.019203685224056240427037423046 0.003539877943694591955897665869 -0.003694905433803797201869345557 0 0 0 0 
2408000000.0000000000 0.177991181612014798263388115629 -0.020771449431777000427246093750 0.003462409600615500970127724756 -0.003877779701724648909327841650 0 0 0 0 
2408166666.6666665077 0.178772479295730590820312500000 -0.022328190505504611623743826954 0.003379808273166418075561523438 -0.004039793740957975387573242188 0 0 0 0 
2408333333.3333334923 0.179629489779472406585369981258 -0.023777017369866371154785156250 0.003108347300440073013305664062 -0.004163587465882301330566406250 0 0 0 0 
2408500000.0000000000 0.180106341838836697677450615629 -0.024971488863229751586914062500 0.003138063009828329086303710938 -0.004468636121600866317749023438 0 0 0 0 
2408666666.6666665077 0.180665791034698486328125000000 -0.026402117684483531606653983204 0.002835703780874609947204589844 -0.004448726307600736618041992188 0 0 0 0 
2408833333.3333334923 0.181197211146354703048544365629 -0.027484159916639331472376639454 0.002819729736074804826023720850 -0.004589879419654607772827148438 0 0 0 0 
2409000000.0000000000 0.181657567620277404785156250000 -0.028353404253721240652064139454 0.002443743636831641197204589844 -0.004701043479144573211669921875 0 0 0 0 
2409166666.6666665077 0.182168349623680086990518134371 -0.029328189790248870849609375000 0.002384346444159746170043945312 -0.004869497846812009811401367188 0 0 0 0 
2409333333.3333334923 0.182645082473754910568075615629 -0.030136339366436011577565778907 0.002145414007827640013453818213 -0.004887294489890336990356445312 0 0 0 0 
2409500000.0000000000 0.182807594537735013107138115629 -0.031000245362520221364954764454 0.001828228356316685893415141528 -0.004889612086117267608642578125 0 0 0 0 
2409666666.6666665077 0.183130398392677307128906250000 -0.031466934829950332641601562500 0.001652571605518460056902241284 -0.004952057264745234575753496387 0 0 0 0 
2409833333.3333334923 0.183235019445419311523437500000 -0.031939961016178131103515625000 0.001502388389781117005589150537 -0.004911532159894704818725585938 0 0 0 0 
2410000000.0000000000 0.183670297265052795410156250000 -0.032300990074872970581054687500 0.001238221651874483065364218604 -0.005095940083265305432791425488 0 0 0 0 
2410166666.6666665077 0.183865487575531005859375000000 -0.032762430608272552490234375000 0.001069517456926404996159218896 -0.005001734942197799682617187500 0 0 0 0 
2410333333.3333334923 0.183660969138145502288494981258 -0.032986249774694442749023437500 0.001051250495947897000553750146 -0.005124685354530811309814453125 0 0 0 0 
2410500000.0000000000 0.183894723653793307205361884371 -0.033339310437440872192382812500 0.000704134232364594936370849609 -0.005068258382380008697509765625 0 0 0 0 
2410666666.6666665077 0.183558464050292996505575615629 -0.033740751445293433452565778907 0.000530009623616933822631835938 -0.005060722585767508420462323926 0 0 0 0 
2410833333.3333334923 0.183515042066574096679687500000 -0.033965978771448142314870466407 0.000417545204982161521911621094 -0.005157320294529199600219726562 0 0 0 0 
2411000000.0000000000 0.183383554220199612716513115629 -0.034184820950031280517578125000 0.000182377625606022802278241568 -0.005051799118518829345703125000 0 0 0 0 
2411166666.6666665077 0.183013200759887695312500000000 -0.034479416906833648681640625000 -0.000014773136172152590006589890 -0.005062354728579521179199218750 0 0 0 0 
2411333333.3333334923 0.182516083121299688141192518742 -0.034706633538007743144948591407 -0.000188068413990549688965397968 -0.005082132760435342788696289062 0 0 0 0 
2411500000.0000000000 0.181853428483009310623330634371 -0.035319402813911437988281250000 -0.000314383709337562322616577148 -0.005053264554589986801147460938 0 0 0 0 
2411666666.6666665077 0.181426078081131009200888115629 -0.035595275461673736572265625000 -0.000475430162623524720042628156 -0.005117583088576793670654296875 0 0 0 0 
2411833333.3333334923 0.180712521076202392578125000000 -0.035812415182590491558034528907 -0.000710998952854424715042114258 -0.005183797329664230346679687500 0 0 0 0 
2412000000.0000000000 0.179990947246551513671875000000 -0.036409385502338409423828125000 -0.000930227106437087059020996094 -0.004860111977905035018920898438 0 0 0 0 
2412166666.6666665077 0.178975120186805697342080634371 -0.036969903856515877460520158593 -0.001065523130819201903102255713 -0.004913649521768093109130859375 0 0 0 0 
2412333333.3333334923 0.178217649459838894943075615629 -0.037359192967414862895925153907 -0.001209617592394351959228515625 -0.004694539587944746017456054688 0 0 0 0 
2412500000.0000000000 0.176965996623039301116619981258 -0.037959046661853790283203125000 -0.001510618370957673029658652197 -0.004669388290494680404663085938 0 0 0 0 
2412666666.6666665077 0.176029682159423800369424384371 -0.038760822266340262676198591407 -0.001619776012375951030133891528 -0.004625183530151844024658203125 0 0 0 0 
2412833333.3333334923 0.174800798296928405761718750000 -0.039610993117094039916992187500 -0.001798044308088720061658549731 -0.004549324978142976760864257812 0 0 0 0 
2413000000.0000000000 0.173583015799522399902343750000 -0.040193986147642142559011091407 -0.001940998248755932071088481372 -0.004355931188911199569702148438 0 0 0 0 
2413166666.6666665077 0.172309786081314086914062500000 -0.040977265685796737670898437500 -0.002204782096669077873229980469 -0.004194991663098335266113281250 0 0 0 0 
2413333333.3333334923 0.171014249324798611739950615629 -0.041998505592346191406250000000 -0.002358013531193137168884277344 -0.004021825734525918960571289062 0 0 0 0 
2413500000.0000000000 0.169592976570129394531250000000 -0.043143786489963531494140625000 -0.002292588585987687110900878906 -0.003899897215887904167175292969 0 0 0 0 
2413666666.6666665077 0.168384283781051607986611884371 -0.044336482882499701763112653907 -0.002469431143254042105433798682 -0.003671858925372362136840820312 0 0 0 0 
2413833333.3333334923 0.167088627815246609786825615629 -0.045394603163003921508789062500 -0.002512408653274178938624716650 -0.003637945279479026794433593750 0 0 0 0 
2414000000.0000000000 0.165641129016876192947549384371 -0.046697359532117836689035783593 -0.002471822546795011000392294775 -0.003463638713583350181579589844 0 0 0 0 
2414166666.6666665077 0.164593070745468111892861884371 -0.047995608299970626831054687500 -0.002634999575093388991114951025 -0.003199729602783917947056435693 0 0 0 0 
2414333333.3333334923 0.163320064544677706619424384371 -0.049336891621351242065429687500 -0.002664816332980989976170205225 -0.003173626260831952095031738281 0 0 0 0 
2414500000.0000000000 0.162408873438835088531817518742 -0.050769463181495673442800153907 -0.002735617337748407883885048975 -0.003028128063306211991551064600 0 0 0 0 
2414666666.6666665077 0.161166831851005609710369981258 -0.052180700004100799560546875000 -0.002538408851251006126403808594 -0.002914119977504014968872070312 0 0 0 0 
2414833333.3333334923 0.159856751561164911468182481258 -0.054072674363851547241210937500 -0.002659613499417901039123535156 -0.002839683555066585974452353369 0 0 0 0 
2415000000.0000000000 0.158918052911758395095986884371 -0.055635925382375717163085937500 -0.002766395686194301085231161963 -0.002752641914412378831150673975 0 0 0 0 
2415166666.6666665077 0.158034116029739407638388115629 -0.057330921292304992675781250000 -0.002649599919095634980442666162 -0.002480879193171858787536621094 0 0 0 0 
2415333333.3333334923 0.157353147864341708084268134371 -0.059315729886293411254882812500 -0.002705633873119949860813759912 -0.002479458926245570182800292969 0 0 0 0 
2415500000.0000000000 0.156473770737648010253906250000 -0.061176873743534088134765625000 -0.002482652431353927092311240088 -0.002474395092576742172241210938 0 0 0 0 
2415666666.6666665077 0.155738338828086908538494981258 -0.062900431454181671142578125000 -0.002638929057866334915161132812 -0.002366200089454650878906250000 0 0 0 0 
2415833333.3333334923 0.155100747942924499511718750000 -0.065001972019672393798828125000 -0.002656009281054139137268066406 -0.002295101992785931067225790869 0 0 0 0 
2416000000.0000000000 0.154377922415733309646768134371 -0.066974036395549774169921875000 -0.002498575951904058890101767432 -0.002264568116515874862670898438 0 0 0 0 
2416166666.6666665077 0.154084444046020507812500000000 -0.069012977182865142822265625000 -0.002575860358774662017822265625 -0.002320924540981649918797158350 0 0 0 0 
2416333333.3333334923 0.153621181845665005782919365629 -0.070898219943046569824218750000 -0.002696014940738677978515625000 -0.002147536724805831909179687500 0 0 0 0 
2416500000.0000000000 0.153257519006729098220986884371 -0.072896763682365417480468750000 -0.002742822747677565054652548682 -0.002095737028867005868199013818 0 0 0 0 
2416666666.6666665077 0.152903243899345397949218750000 -0.074894905090332031250000000000 -0.002738242270424962043762207031 -0.002204428194090723991394042969 0 0 0 0 
2416833333.3333334923 0.152709528803825406173544365629 -0.076871454715728759765625000000 -0.002820031484588981108424521338 -0.002227164106443523926975869287 0 0 0 0 
2417000000.0000000000 0.152423053979873712737713731258 -0.078816957771778106689453125000 -0.002765663666650652885437011719 -0.002096326323226093812229775537 0 0 0 0 
2417166666.6666665077 0.152258589863777188400106865629 -0.080458037555217742919921875000 -0.002828006166964768929722451318 -0.002128786873072385787963867188 0 0 0 0 
2417333333.3333334923 0.152346819639205904861611884371 -0.082301072776317596435546875000 -0.003045858116820455031154013525 -0.001993686659261583848240517725 0 0 0 0 
2417500000.0000000000 0.152243256568908691406250000000 -0.084191508591175079345703125000 -0.003030728315934538841247558594 -0.002042213454842567010166787256 0 0 0 0 
2417666666.6666665077 0.152323916554450988769531250000 -0.085627436637878417968750000000 -0.003158809384331107139587402344 -0.002073297277092934088466025244 0 0 0 0 
2417833333.3333334923 0.152282968163490295410156250000 -0.087199732661247253417968750000 -0.003335148328915237946751259912 -0.001902472693473101095912314307 0 0 0 0 
2418000000.0000000000 0.152239039540290804763955634371 -0.088681057095527648925781250000 -0.003423020010814071135279990088 -0.001906135817989706993103027344 0 0 0 0 
2418166666.6666665077 0.152434274554252596756143134371 -0.089834816753864288330078125000 -0.003521936479955912070033408057 -0.001785656204447150013567280347 0 0 0 0 
2418333333.3333334923 0.152717471122741699218750000000 -0.091233320534229278564453125000 -0.003912052605301141738891601562 -0.001770150964148343043086386572 0 0 0 0 
2418500000.0000000000 0.152782961726188687423544365629 -0.092278718948364257812500000000 -0.003800280159339309172389365088 -0.001571555156260729052900004810 0 0 0 0 
2418666666.6666665077 0.153193533420562688629473768742 -0.093305662274360656738281250000 -0.004097931552678346633911132812 -0.001432101475074887058855366284 0 0 0 0 
2418833333.3333334923 0.153193280100822504241619981258 -0.094277545809745788574218750000 -0.004054402466863393783569335938 -0.001356729539111257033107138525 0 0 0 0 
2419000000.0000000000 0.153348699212074307540731865629 -0.094881713390350341796875000000 -0.003981483634561300277709960938 -0.001215290394611657099482870947 0 0 0 0 
2419166666.6666665077 0.153612762689590509612713731258 -0.095706030726432800292968750000 -0.004144586622714996337890625000 -0.000977484742179512977600097656 0 0 0 0 
2419333333.3333334923 0.153618603944778386871661268742 -0.095771282911300659179687500000 -0.004165737424045801162719726562 -0.000780336500611156225204467773 0 0 0 0 
2419500000.0000000000 0.153849676251411410232705634371 -0.096622303128242492675781250000 -0.004222532734274864196777343750 -0.000536092091351747512817382812 0 0 0 0 
2419666666.6666665077 0.154122963547706604003906250000 -0.096857666969299316406250000000 -0.004357063677161931991577148438 -0.000412492256145924275547581805 0 0 0 0 
2419833333.3333334923 0.154296904802322387695312500000 -0.096967644989490509033203125000 -0.004256964195519685745239257812 -0.000226612130063585909918108530 0 0 0 0 
