# Hz S RI R 
2400000000.0000000000 0.173236593604087801834268134371 0.049586802721023559570312500000 0.004302781075239182385916425488 0.001604514545761049010633159106 0 0 0 0 
2400166666.6666665077 0.173819303512573186676348768742 0.048986636102199547504465471093 0.004097641911357641220092773438 0.001754013821482657952549599756 0 0 0 0 
2400333333.3333334923 0.174121394753456087967080634371 0.048309091478586196899414062500 0.004251075442880392074584960938 0.001654851133935153918025351416 0 0 0 0 
2400500000.0000000000 0.174549654126167297363281250000 0.047615565359592437744140625000 0.003898104419931768937351845850 0.001401170273311435959459614331 0 0 0 0 
2400666666.6666665077 0.174522966146469088455361884371 0.047026425600051879882812500000 0.004064707085490226745605468750 0.001424497575499116940739297021 0 0 0 0 
2400833333.3333334923 0.175207734107971191406250000000 0.046428736299276351928710937500 0.004084473941475152969360351562 0.001568200299516320011736225659 0 0 0 0 
2401000000.0000000000 0.175182998180389404296875000000 0.045718487352132797241210937500 0.004018046893179416656494140625 0.001390820019878447055816650391 0 0 0 0 
2401166666.6666665077 0.175272345542907687088174384371 0.045242331922054290771484375000 0.003919827751815319061279296875 0.001224336214363574981689453125 0 0 0 0 
2401333333.3333334923 0.175348088145255986969317518742 0.044459346681833267211914062500 0.004090544767677783966064453125 0.001272885128855705044390034253 0 0 0 0 
2401500000.0000000000 0.175334066152572604080361884371 0.043738652020692832256276716407 0.003957110457122325897216796875 0.001063148840330540917040180737 0 0 0 0 
2401666666.6666665077 0.175162583589553805252236884371 0.043041393160820007324218750000 0.004036960657685995101928710938 0.001127568306401371955871582031 0 0 0 0 
2401833333.3333334923 0.175234377384185791015625000000 0.042269412428140640258789062500 0.004001920111477375030517578125 0.001129188458435236974003457178 0 0 0 0 
2402000000.0000000000 0.174872800707817105392294365629 0.041507095098495483398437500000 0.004221782553941011428833007812 0.001034280983731151060817099463 0 0 0 0 
2402166666.6666665077 0.174722462892532404143963731258 0.040303848683834082866628278907 0.004265116062015295028686523438 0.000964535865932703018188476562 0 0 0 0 
2402333333.3333334923 0.174560084939002990722656250000 0.039423219859600067138671875000 0.004247553180903196334838867188 0.000896306766662746667861938477 0 0 0 0 
2402500000.0000000000 0.174621775746345492263955634371 0.038528356701135642314870466407 0.004385820124298334121704101562 0.000920670747291296720504760742 0 0 0 0 
2402666666.6666665077 0.174112260341644287109375000000 0.037330832332372672344167341407 0.004521192051470279693603515625 0.000827979354653507471084594727 0 0 0 0 
2402833333.3333334923 0.173848420381545992752236884371 0.035919278860092163085937500000 0.004621296655386686325073242188 0.000693344918545335531234741211 0 0 0 0 
2403000000.0000000000 0.173631221055984497070312500000 0.034770589321851730346679687500 0.004586169030517339706420898438 0.000390079774660989587933140887 0 0 0 0 
2403166666.6666665077 0.173187300562858609298544365629 0.033326774835586547851562500000 0.004693245980888605117797851562 0.000607482041232287883758544922 0 0 0 0 
2403333333.3333334923 0.172766298055648803710937500000 0.031845442950725562358815778907 0.004617408383637666702270507812 0.000433847890235483700602930890 0 0 0 0 
2403500000.0000000000 0.172452971339225796798544365629 0.030411893501877791667897810157 0.004747562576085329055786132812 0.000114912858407478806659421378 0 0 0 0 
2403666666.6666665077 0.171994045376777704436932481258 0.028688209131360050546666329296 0.004751654807478190335745527051 -0.000080600577348377555608749390 0 0 0 0 
2403833333.3333334923 0.171609744429588290115518134371 0.026766875758767131460169608204 0.004950271453708410263061523438 -0.000257996027357876300811767578 0 0 0 0 
2404000000.0000000000 0.171354770660400390625000000000 0.025149591267108920705775076954 0.005033765919506549835205078125 -0.000401285738917067701190394269 0 0 0 0 
2404166666.6666665077 0.170834824442863492111044365629 0.023234175518155101430872733204 0.004844846203923225402832031250 -0.000682410667650401592254638672 0 0 0 0 
2404333333.3333334923 0.170668333768844604492187500000 0.021315729245543479919433593750 0.004977613221853972348684980176 -0.000774262298364192247390747070 0 0 0 0 
2404500000.0000000000 0.170222535729408291915731865629 0.019308848306536671030064766796 0.004807064309716224670410156250 -0.000858873652759939432144165039 0 0 0 0 
2404666666.6666665077 0.170010328292846707443075615629 0.017383040860295299184778983204 0.004772894084453582763671875000 -0.000950848101638257503509521484 0 0 0 0 
2404833333.3333334923 0.169878587126731900314169365629 0.015562593936920169485071951954 0.004826848395168781280517578125 -0.001238447031937540011164999854 0 0 0 0 
2405000000.0000000000 0.169825106859207208831463731258 0.013455013744533060246477695898 0.004631939344108104705810546875 -0.001489519258029758930206298828 0 0 0 0 
2405166666.6666665077 0.169604316353797912597656250000 0.011417725123465059453020664648 0.004706443753093481063842773438 -0.001645532203838228962541889722 0 0 0 0 
2405333333.3333334923 0.169751733541488702972088731258 0.009135739877820014953613281250 0.004635110497474670410156250000 -0.001819773344323039054870605469 0 0 0 0 
2405500000.0000000000 0.169771030545234707931356865629 0.007362715899944305419921875000 0.004628797527402639389038085938 -0.002006555441766976876499795068 0 0 0 0 
2405666666.6666665077 0.169938370585441589355468750000 0.005253995768725872039794921875 0.004559519235044717788696289062 -0.001980071188881992860081338037 0 0 0 0 
2405833333.3333334923 0.170008674263954190353231865629 0.003263043472543358802795410156 0.004492370411753655347342206738 -0.002123110927641392187831259619 0 0 0 0 
2406000000.0000000000 0.170392557978630093673544365629 0.001095235813409090042114257812 0.004430694971233606338500976562 -0.002314571756869554953334189307 0 0 0 0 
2406166666.6666665077 0.170648381114005986969317518742 -0.000692316098138689994812011719 0.004327182658016681671142578125 -0.002458407776430249214172363281 0 0 0 0 
2406333333.3333334923 0.171263381838798495193643134371 -0.002835834166035056114196777344 0.004314097110182046890258789062 -0.002495518187060952186584472656 0 0 0 0 
2406500000.0000000000 0.171838715672493008712606865629 -0.004876985680311918258666992188 0.004118105396628379821777343750 -0.002705571940168737931492470850 0 0 0 0 
2406666666.6666665077 0.172057256102562006194744981258 -0.006673700176179409027099609375 0.004035478923469781875610351562 -0.002684221602976322174072265625 0 0 0 0 
2406833333.3333334923 0.172829359769821194747763115629 -0.008657560683786869049072265625 0.004084324464201927185058593750 -0.002947631059214473204371786963 0 0 0 0 
2407000000.0000000000 0.173583507537841796875000000000 -0.010576309636235240591028983204 0.003982260357588529586791992188 -0.002932985313236712975742959131 0 0 0 0 
2407166666.6666665077 0.174313545227050809005575615629 -0.012349914759397510183314139454 0.004033309873193502426147460938 -0.003088430967181921005249023438 0 0 0 0 
2407333333.3333334923 0.174923017621040288727130018742 -0.014306828379631040745745274023 0.003899955190718173980712890625 -0.003305849619209765954258584131 0 0 0 0 
2407500000.0000000000 0.175650537014007596114950615629 -0.015949644148349758493443673046 0.003623917233198881149291992188 -0.003419096348807216124293661963 0 0 0 0 
2407666666.6666665077 0.176466405391693087478799384371 -0.017585577443242069589635079296 0.003671132028102875189540243994 -0.003513104747980833053588867188 0 0 0 0 
2407833333.3333334923 0.177192255854606600662393134371 -0.019224068149924281728724295704 0.003739550942555069923400878906 -0.003648672718554735183715820312 0 0 0 0 
2408000000.0000000000 0.177984416484832791427450615629 -0.020845396444201469421386718750 0.003534188959747552871704101562 -0.003846945473924279212951660156 0 0 0 0 
2408166666.6666665077 0.178682342171669006347656250000 -0.022226676344871520996093750000 0.003342511132359505133387900244 -0.003983836621046066284179687500 0 0 0 0 
2408333333.3333334923 0.179615736007690401931924384371 -0.023602265864610668527623360546 0.003301313612610102133509970557 -0.004228739533573389053344726562 0 0 0 0 
2408500000.0000000000 0.180228799581527709960937500000 -0.024924967437982559204101562500 0.003067107871174811883213662256 -0.004329198505729436874389648438 0 0 0 0 
2408666666.6666665077 0.180732488632202203948651231258 -0.026298422366380691528320312500 0.002877925755456089973449707031 -0.004381121136248111724853515625 0 0 0 0 
2408833333.3333334923 0.181189939379692105392294365629 -0.027432385832071300851842110546 0.002674976829439402060267783057 -0.004640590865164995193481445312 0 0 0 0 
2409000000.0000000000 0.181580632925033597091513115629 -0.028297370299696918832799141796 0.002581840148195623917820595850 -0.004734871909022331237792968750 0 0 0 0 
2409166666.6666665077 0.182149991393089294433593750000 -0.029333496466279029846191406250 0.002323825377970933914184570312 -0.004729906097054482373709394238 0 0 0 0 
2409333333.3333334923 0.182654827833175686935263115629 -0.030132042244076728820800781250 0.002068486530333756966831826318 -0.004920203704386950406546308301 0 0 0 0 
2409500000.0000000000 0.182895675301551791092080634371 -0.030899966135621070861816406250 0.001952177146449685096740722656 -0.004808354191482067108154296875 0 0 0 0 
2409666666.6666665077 0.183010950684547396560830634371 -0.031351849436759948730468750000 0.001724698115140200094935751807 -0.004836858250200747576241777637 0 0 0 0 
2409833333.3333334923 0.183300182223320007324218750000 -0.031718470156192779541015625000 0.001608896185643970966339111328 -0.005027329083532094955444335938 0 0 0 0 
2410000000.0000000000 0.183593228459358187576455634371 -0.032409988343715667724609375000 0.001368357217870652892469096606 -0.005059556104242801666259765625 0 0 0 0 
2410166666.6666665077 0.183748707175254794021768134371 -0.032674580812454216693918596093 0.001144263427704572894452739185 -0.005022976081818342208862304688 0 0 0 0 
2410333333.3333334923 0.183549165725708007812500000000 -0.033070039004087448120117187500 0.000961107201874256134033203125 -0.005110260099172592163085937500 0 0 0 0 
2410500000.0000000000 0.183762192726135309417401231258 -0.033275276422500610351562500000 0.000948137545492500066757202148 -0.005229245405644178390502929688 0 0 0 0 
2410666666.6666665077 0.183593809604644803146200615629 -0.033693090081214911724050153907 0.000703995639923959970474243164 -0.005156731233000755310058593750 0 0 0 0 
2410833333.3333334923 0.183493763208389309982138115629 -0.033798202872276313091237653907 0.000416238501202315092086791992 -0.005126984789967536926269531250 0 0 0 0 
2411000000.0000000000 0.183190062642097500900106865629 -0.034111049026250839233398437500 0.000198386260308325290679931641 -0.005058314185589551925659179688 0 0 0 0 
2411166666.6666665077 0.182964310050010708907919365629 -0.034505650401115417480468750000 0.000056581575336167588829994202 -0.004926840774714946746826171875 0 0 0 0 
2411333333.3333334923 0.182624801993370111663494981258 -0.034747924655675888061523437500 -0.000214733212487772107124328613 -0.005005629267543554306030273438 0 0 0 0 
2411500000.0000000000 0.181956544518470791915731865629 -0.035180490463972091674804687500 -0.000320756284054368680149632587 -0.005184874404221773147583007812 0 0 0 0 
2411666666.6666665077 0.181470870971679687500000000000 -0.035361655056476593017578125000 -0.000635866483207792043685913086 -0.004998112097382546338553144238 0 0 0 0 
2411833333.3333334923 0.180632337927818298339843750000 -0.035860914736986160278320312500 -0.000660154561046510934829711914 -0.004876432940363883972167968750 0 0 0 0 
2412000000.0000000000 0.180020585656166104415731865629 -0.036372791975736618041992187500 -0.001006661099381745078443217700 -0.004873391706496477127075195312 0 0 0 0 
2412166666.6666665077 0.178969115018844604492187500000 -0.036818303167819976806640625000 -0.001087751938030123927472758716 -0.004807339049875736236572265625 0 0 0 0 
2412333333.3333334923 0.178168639540672302246093750000 -0.037318393588066101074218750000 -0.001216679345816374041913676685 -0.004835105501115322113037109375 0 0 0 0 
2412500000.0000000000 0.177049890160560607910156250000 -0.037876218557357788085937500000 -0.001470267190597950978520058740 -0.004645252134650945663452148438 0 0 0 0 
2412666666.6666665077 0.175958335399627713302450615629 -0.038748089224100112915039062500 -0.001594398519955575899836874854 -0.004563346039503812789916992188 0 0 0 0 
2412833333.3333334923 0.174721211194992093185263115629 -0.039417177438735961914062500000 -0.001925986143760382912279438550 -0.004461773671209812164306640625 0 0 0 0 
2413000000.0000000000 0.173621013760566711425781250000 -0.040183585137128829956054687500 -0.001989735523238778114318847656 -0.004419336095452308654785156250 0 0 0 0 
2413166666.6666665077 0.172289505600929288009481865629 -0.040907755494117736816406250000 -0.002164325211197137832641601562 -0.004230418242514134320730878613 0 0 0 0 
2413333333.3333334923 0.170913979411125210861044365629 -0.042059905827045440673828125000 -0.002218581968918443159816122900 -0.003923934884369373321533203125 0 0 0 0 
2413500000.0000000000 0.169633418321609497070312500000 -0.043084450066089630126953125000 -0.002360294805839657783508300781 -0.003968968987464904785156250000 0 0 0 0 
2413666666.6666665077 0.168533936142921503265057481258 -0.044274672865867621684987653907 -0.002445802325382829146144247900 -0.003837225027382373809814453125 0 0 0 0 
2413833333.3333334923 0.167108148336410494705361884371 -0.045361299067735671997070312500 -0.002442322671413422064540243994 -0.003664824645966290993931435693 0 0 0 0 
2414000000.0000000000 0.165732368826866205413494981258 -0.046531789004802696918527971093 -0.002512667328119277954101562500 -0.003484357381239532990696572412 0 0 0 0 
2414166666.6666665077 0.164641037583351107498330634371 -0.047940641641616821289062500000 -0.002474807901307940916774130713 -0.003308103652670979933497763525 0 0 0 0 
2414333333.3333334923 0.163339272141456604003906250000 -0.049336202442646026611328125000 -0.002703118138015269799473427881 -0.003216788871213794188258505713 0 0 0 0 
2414500000.0000000000 0.162377044558525113204794365629 -0.050802700221538536762277971093 -0.002741601318120955987217568506 -0.002948954002931714057922363281 0 0 0 0 
2414666666.6666665077 0.161055043339729309082031250000 -0.052293807268142700195312500000 -0.002641504164785147146937704932 -0.003026569029316306114196777344 0 0 0 0 
2414833333.3333334923 0.159938901662826510330361884371 -0.054005093872547149658203125000 -0.002729318803176283836364746094 -0.002770304214209318161010742188 0 0 0 0 
2415000000.0000000000 0.158944427967071505447549384371 -0.055617760866880416870117187500 -0.002645014552399516105651855469 -0.002834300510585308074951171875 0 0 0 0 
2415166666.6666665077 0.158013731241226196289062500000 -0.057510521262884140014648437500 -0.002616099547594786123988486182 -0.002613010350614786148071289062 0 0 0 0 
2415333333.3333334923 0.157310783863067599197549384371 -0.059312380850315087055246721093 -0.002713369671255350112915039062 -0.002526790369302033944370888818 0 0 0 0 
2415500000.0000000000 0.156590729951858492752236884371 -0.060952473431825637817382812500 -0.002619455801323055787327431787 -0.002367080654948949813842773438 0 0 0 0 
2415666666.6666665077 0.155726343393325805664062500000 -0.063022859394550323486328125000 -0.002698484808206557793858193506 -0.002400469733402132987976074219 0 0 0 0 
2415833333.3333334923 0.155135869979858398437500000000 -0.065009035170078277587890625000 -0.002539386274293065071105957031 -0.002478200476616621017456054688 0 0 0 0 
2416000000.0000000000 0.154401659965515108963174384371 -0.067082628607749938964843750000 -0.002774868858978151841404580225 -0.002455277834087609811070107568 0 0 0 0 
2416166666.6666665077 0.154116779565811212737713731258 -0.068947330117225646972656250000 -0.002634038683027029037475585938 -0.002322940155863761901855468750 0 0 0 0 
2416333333.3333334923 0.153688162565231295486611884371 -0.070900812745094299316406250000 -0.002635724609717727141139365088 -0.002415040042251348929164267432 0 0 0 0 
2416500000.0000000000 0.153298035264015197753906250000 -0.072962999343872070312500000000 -0.002668042900040746168849326025 -0.002263662870973349051234579932 0 0 0 0 
2416666666.6666665077 0.152934253215789794921875000000 -0.074847474694252014160156250000 -0.002612271578982471986057900537 -0.002288860501721500916721963037 0 0 0 0 
2416833333.3333334923 0.152771174907684298416299384371 -0.077009372413158416748046875000 -0.002812293590977787971496582031 -0.002333846408873796896693564307 0 0 0 0 
2417000000.0000000000 0.152443155646324213225994981258 -0.078819125890731811523437500000 -0.002858788473531603813171386719 -0.002234532264992595152613974463 0 0 0 0 
2417166666.6666665077 0.152185633778572110275106865629 -0.080574467778205871582031250000 -0.002929057693108915848972939600 -0.002147672232240438894984579932 0 0 0 0 
2417333333.3333334923 0.152204260230064392089843750000 -0.082410350441932678222656250000 -0.002890912117436528205871582031 -0.002255925210192800001857138525 0 0 0 0 
2417500000.0000000000 0.152126133441925104339276231258 -0.084192104637622833251953125000 -0.002944362349808216094970703125 -0.002115402836352587179896689307 0 0 0 0 
2417666666.6666665077 0.152229636907577486892861884371 -0.085654824972152709960937500000 -0.003158277366310358047485351562 -0.001956423046067357063293457031 0 0 0 0 
2417833333.3333334923 0.152252972126007107833700615629 -0.087365813553333282470703125000 -0.003245983039960265159606933594 -0.002017287770286201997044228662 0 0 0 0 
2418000000.0000000000 0.152261838316917391678018134371 -0.088679589331150054931640625000 -0.003446544054895638985874795068 -0.001950183417648077011108398438 0 0 0 0 
2418166666.6666665077 0.152464106678962707519531250000 -0.089894473552703857421875000000 -0.003465187037363647980930947412 -0.001825746614485979080200195312 0 0 0 0 
2418333333.3333334923 0.152755260467529296875000000000 -0.091267868876457214355468750000 -0.003699452383443713188171386719 -0.001931917271576822020887065356 0 0 0 0 
2418500000.0000000000 0.152815014123916598220986884371 -0.092215411365032196044921875000 -0.003807250177487730979919433594 -0.001745890825986861965776753003 0 0 0 0 
2418666666.6666665077 0.153188943862915011306924384371 -0.093293115496635437011718750000 -0.003825277555733919143676757812 -0.001406342955306171937229775537 0 0 0 0 
2418833333.3333334923 0.153248235583305386642294365629 -0.094205759465694427490234375000 -0.004031595773994922637939453125 -0.001516679301857948086382221753 0 0 0 0 
2419000000.0000000000 0.153265610337257413009481865629 -0.094855010509490966796875000000 -0.004042763262987136840820312500 -0.001292478642426430962206196362 0 0 0 0 
2419166666.6666665077 0.153629004955291803558026231258 -0.095582880079746246337890625000 -0.004129744600504636764526367188 -0.000843027606606483459472656250 0 0 0 0 
2419333333.3333334923 0.153617635369300786774005018742 -0.095840528607368469238281250000 -0.004361470229923725128173828125 -0.000879365659784525632858276367 0 0 0 0 
2419500000.0000000000 0.153819516301155090332031250000 -0.096480913460254669189453125000 -0.004250228870660066604614257812 -0.000622532505076378583908081055 0 0 0 0 
2419666666.6666665077 0.154232859611511202713174384371 -0.096999786794185638427734375000 -0.004396951757371425628662109375 -0.000437882292317226474911290302 0 0 0 0 
2419833333.3333334923 0.154128134250640896896200615629 -0.096864938735961914062500000000 -0.004295676946640014648437500000 -0.000131978595163673189565381461 0 0 0 0 
