# Version 1.00
#
freq[Hz];re:Trc1_S11;im:Trc1_S11;re:Trc2_S21;im:Trc2_S21;
2.400000000000000E+009;1.583744138479233E-001;6.274453550577164E-002;-4.047760739922524E-003;7.658698013983667E-004;
2.400166666666667E+009;1.581223309040070E-001;6.117191910743713E-002;-3.997928928583860E-003;8.739294135011733E-004;
2.400333333333334E+009;1.580013036727905E-001;5.914279446005821E-002;-3.907647915184498E-003;1.028804341331124E-003;
2.400500000000000E+009;1.578383594751358E-001;5.744545534253120E-002;-3.834666218608618E-003;1.191334333270788E-003;
2.400666666666667E+009;1.577936112880707E-001;5.529378727078438E-002;-3.817901713773608E-003;1.056513749063015E-003;
2.400833333333334E+009;1.578460782766342E-001;5.364540219306946E-002;-3.919536713510752E-003;1.275947317481041E-003;
2.401000000000000E+009;1.579010337591171E-001;5.153179168701172E-002;-3.716421546414495E-003;1.232619979418814E-003;
2.401166666666667E+009;1.581025421619415E-001;4.936211928725243E-002;-3.692817408591509E-003;1.435259589925408E-003;
2.401333333333334E+009;1.579536944627762E-001;4.733591526746750E-002;-3.569907974451780E-003;1.548487343825400E-003;
2.401500000000000E+009;1.582801043987274E-001;4.542541503906250E-002;-3.478643018752337E-003;1.439886866137385E-003;
2.401666666666667E+009;1.585897058248520E-001;4.331620782613754E-002;-3.579469164833427E-003;1.597870723344386E-003;
2.401833333333334E+009;1.588916480541229E-001;4.121401160955429E-002;-3.505166852846742E-003;1.639418536797166E-003;
2.402000000000000E+009;1.590640395879746E-001;3.930855542421341E-002;-3.467273432761431E-003;1.779462210834026E-003;
2.402166666666667E+009;1.597749739885330E-001;3.719747066497803E-002;-3.253408242017031E-003;1.799677149392664E-003;
2.402333333333334E+009;1.602038443088532E-001;3.550891578197479E-002;-3.380776848644018E-003;1.781467231921852E-003;
2.402500000000000E+009;1.608843207359314E-001;3.361125662922859E-002;-3.185218432918191E-003;2.063364023342729E-003;
2.402666666666667E+009;1.615076363086700E-001;3.167467564344406E-002;-3.054733388125897E-003;2.110976260155439E-003;
2.402833333333334E+009;1.623686254024506E-001;3.006890229880810E-002;-3.144243033602834E-003;2.234133426100016E-003;
2.403000000000000E+009;1.631900668144226E-001;2.841928042471409E-002;-3.042836673557758E-003;2.148640807718039E-003;
2.403166666666667E+009;1.641135662794113E-001;2.681743539869785E-002;-3.030371619388461E-003;2.245863666757941E-003;
2.403333333333334E+009;1.649015843868256E-001;2.527697943150997E-002;-2.906220732256770E-003;2.310118405148387E-003;
2.403500000000000E+009;1.655648201704025E-001;2.381614036858082E-002;-2.970461267977953E-003;2.347948728129268E-003;
2.403666666666667E+009;1.666533499956131E-001;2.227847091853619E-002;-2.826827578246594E-003;2.486606827005744E-003;
2.403833333333334E+009;1.677118539810181E-001;2.114264480769634E-002;-2.853505546227098E-003;2.418338321149349E-003;
2.404000000000000E+009;1.686960458755493E-001;1.985277980566025E-002;-2.718393458053470E-003;2.585693495348096E-003;
2.404166666666667E+009;1.696258187294006E-001;1.874838024377823E-002;-2.651890274137259E-003;2.619783859699965E-003;
2.404333333333334E+009;1.705582886934280E-001;1.764319837093353E-002;-2.508029574528337E-003;2.691122936084867E-003;
2.404500000000000E+009;1.715902537107468E-001;1.661322079598904E-002;-2.488010330125690E-003;2.864253940060735E-003;
2.404666666666667E+009;1.724896430969238E-001;1.575903780758381E-002;-2.335800556465983E-003;2.898122416809201E-003;
2.404833333333334E+009;1.734150648117065E-001;1.499840803444386E-002;-2.297101076692343E-003;2.934884512796998E-003;
2.405000000000000E+009;1.744047552347183E-001;1.413326058536768E-002;-2.067439723759890E-003;3.042724682018161E-003;
2.405166666666667E+009;1.753169596195221E-001;1.360807195305824E-002;-1.951137790456414E-003;3.143965499475598E-003;
2.405333333333334E+009;1.762273907661438E-001;1.263300888240337E-002;-1.996123231947422E-003;3.097268752753735E-003;
2.405500000000000E+009;1.770388036966324E-001;1.236402615904808E-002;-1.788580324500799E-003;3.302596509456635E-003;
2.405666666666667E+009;1.777227371931076E-001;1.201732363551855E-002;-1.756086479872465E-003;3.289920045062900E-003;
2.405833333333334E+009;1.781956255435944E-001;1.150931138545275E-002;-1.577227958478034E-003;3.311698324978352E-003;
2.406000000000000E+009;1.789841502904892E-001;1.105851307511330E-002;-1.511097420006990E-003;3.231049515306950E-003;
2.406166666666667E+009;1.793471574783325E-001;1.088577508926392E-002;-1.405063434503973E-003;3.402500879019499E-003;
2.406333333333334E+009;1.800736635923386E-001;1.040777657181025E-002;-1.134348683990538E-003;3.353771287947893E-003;
2.406500000000000E+009;1.803303956985474E-001;1.001855079084635E-002;-9.438444394618273E-004;3.690667683258653E-003;
2.406666666666667E+009;1.804485321044922E-001;9.757976979017258E-003;-9.087671060115099E-004;3.593725385144353E-003;
2.406833333333334E+009;1.809416562318802E-001;9.487857110798359E-003;-7.340795709751546E-004;3.557891119271517E-003;
2.407000000000000E+009;1.809825152158737E-001;9.163576178252697E-003;-6.475146510638297E-004;3.472500247880817E-003;
2.407166666666667E+009;1.811558306217194E-001;8.822125382721424E-003;-4.686635220423341E-004;3.555342555046082E-003;
2.407333333333334E+009;1.811344027519226E-001;8.279412984848023E-003;-6.474266410805285E-004;3.392150858417153E-003;
2.407500000000000E+009;1.809719055891037E-001;7.971150800585747E-003;-3.186582180205733E-004;3.357985289767385E-003;
2.407666666666667E+009;1.807795464992523E-001;7.548578549176455E-003;-1.248321059392765E-004;3.478500526398420E-003;
2.407833333333334E+009;1.805260181427002E-001;6.892323959618807E-003;-1.575790956849232E-004;3.339369781315327E-003;
2.408000000000000E+009;1.802016943693161E-001;6.234550848603249E-003;7.789416849846020E-005;3.176057478412986E-003;
2.408166666666667E+009;1.797604709863663E-001;5.850137677043676E-003;2.138421259587631E-004;3.239353420212865E-003;
2.408333333333334E+009;1.794432848691940E-001;5.216861609369516E-003;2.593377721495926E-004;3.183024236932397E-003;
2.408500000000000E+009;1.788043379783630E-001;4.386202432215214E-003;2.329446142539382E-004;3.192129312083125E-003;
2.408666666666667E+009;1.782668679952622E-001;3.382646478712559E-003;2.632511022966355E-004;3.034464083611965E-003;
2.408833333333334E+009;1.775521486997604E-001;2.369860187172890E-003;3.459810395725071E-004;2.901457715779543E-003;
2.409000000000000E+009;1.768978983163834E-001;1.540334429591894E-003;4.561955574899912E-004;2.916900441050530E-003;
2.409166666666667E+009;1.762663573026657E-001;2.676863805390894E-004;4.353824188001454E-004;2.731943270191550E-003;
2.409333333333334E+009;1.756666898727417E-001;-7.869540713727474E-004;4.233148647472262E-004;2.800991293042898E-003;
2.409500000000000E+009;1.748594045639038E-001;-2.183657139539719E-003;6.225351826287806E-004;2.763997297734022E-003;
2.409666666666667E+009;1.740154325962067E-001;-3.381405025720596E-003;5.666735232807696E-004;2.569250529631972E-003;
2.409833333333334E+009;1.733541041612625E-001;-4.779257345944643E-003;4.310023796278983E-004;2.755457302555442E-003;
2.410000000000000E+009;1.727955639362335E-001;-6.165051832795143E-003;6.658914498984814E-004;2.595437923446298E-003;
2.410166666666667E+009;1.721095144748688E-001;-7.746297400444746E-003;4.795303684659302E-004;2.645131666213274E-003;
2.410333333333334E+009;1.714218854904175E-001;-9.438071399927139E-003;6.298666121438146E-004;2.535209758207202E-003;
2.410500000000000E+009;1.707507669925690E-001;-1.096612028777599E-002;5.953456275165081E-004;2.465879777446389E-003;
2.410666666666667E+009;1.701503545045853E-001;-1.301190070807934E-002;5.713407299481332E-004;2.534011844545603E-003;
2.410833333333334E+009;1.697334349155426E-001;-1.467787940055132E-002;7.343092001974583E-004;2.406756859272718E-003;
2.411000000000000E+009;1.691880524158478E-001;-1.644955947995186E-002;6.130687543191016E-004;2.449889900162816E-003;
2.411166666666667E+009;1.688455194234848E-001;-1.818474382162094E-002;6.272354512475431E-004;2.439509145915508E-003;
2.411333333333334E+009;1.685913056135178E-001;-2.010769210755825E-002;7.247208268381655E-004;2.502472838386893E-003;
2.411500000000000E+009;1.684089899063110E-001;-2.224146947264671E-002;5.938049871474505E-004;2.645890926942229E-003;
2.411666666666667E+009;1.682699471712112E-001;-2.412058413028717E-002;7.072134176269174E-004;2.442318713292480E-003;
2.411833333333334E+009;1.681172996759415E-001;-2.600346505641937E-002;7.990848971530795E-004;2.544177230447531E-003;
2.412000000000000E+009;1.682866364717484E-001;-2.787009999155998E-002;8.763601072132587E-004;2.634822623804212E-003;
2.412166666666667E+009;1.681244671344757E-001;-2.999552153050900E-002;8.960908162407577E-004;2.416718052700162E-003;
2.412333333333334E+009;1.684225797653198E-001;-3.197423368692398E-002;1.019687275402248E-003;2.439747098833323E-003;
2.412500000000000E+009;1.683401763439179E-001;-3.380940482020378E-002;1.030939514748752E-003;2.574677113443613E-003;
2.412666666666667E+009;1.686818897724152E-001;-3.581554070115089E-002;1.193048432469368E-003;2.422859426587820E-003;
2.412833333333334E+009;1.691689491271973E-001;-3.774817660450935E-002;1.115593709982932E-003;2.454980276525021E-003;
2.413000000000000E+009;1.694047749042511E-001;-3.928989171981812E-002;1.335048465989530E-003;2.501158742234111E-003;
2.413166666666667E+009;1.697028279304504E-001;-4.116933047771454E-002;1.261182129383087E-003;2.466230886057019E-003;
2.413333333333334E+009;1.700263321399689E-001;-4.288488253951073E-002;1.340722665190697E-003;2.473812550306320E-003;
2.413500000000000E+009;1.708284020423889E-001;-4.459549486637116E-002;1.559050870127976E-003;2.418547403067350E-003;
2.413666666666667E+009;1.711992323398590E-001;-4.619633033871651E-002;1.330248778685927E-003;2.378223929554224E-003;
2.413833333333334E+009;1.715505719184876E-001;-4.761253669857979E-002;1.649051904678345E-003;2.419524360448122E-003;
2.414000000000000E+009;1.719682663679123E-001;-4.929174855351448E-002;1.671893754974008E-003;2.288775984197855E-003;
2.414166666666667E+009;1.727137267589569E-001;-5.054643750190735E-002;1.766267698258162E-003;2.364985877647996E-003;
2.414333333333334E+009;1.733689308166504E-001;-5.191755667328835E-002;1.663244329392910E-003;2.382848644629121E-003;
2.414500000000000E+009;1.741065084934235E-001;-5.299458280205727E-002;1.944512594491243E-003;2.126384992152453E-003;
2.414666666666667E+009;1.743512302637100E-001;-5.400147661566734E-002;1.794166513718665E-003;2.205181168392301E-003;
2.414833333333334E+009;1.747881323099136E-001;-5.513193830847740E-002;2.081644022837281E-003;2.140306401997805E-003;
2.415000000000000E+009;1.753572523593903E-001;-5.589551478624344E-002;2.134080743417144E-003;2.217853209003806E-003;
2.415166666666667E+009;1.758603602647781E-001;-5.678318813443184E-002;2.102597150951624E-003;2.186253899708390E-003;
2.415333333333334E+009;1.762499213218689E-001;-5.754799768328667E-002;2.017778810113668E-003;2.001257846131921E-003;
2.415500000000000E+009;1.765836924314499E-001;-5.813379213213921E-002;2.327357186004520E-003;2.062469488009810E-003;
2.415666666666667E+009;1.769515275955200E-001;-5.868270993232727E-002;2.347937319427729E-003;1.984638627618551E-003;
2.415833333333334E+009;1.770708709955216E-001;-5.925025790929794E-002;2.314898418262601E-003;1.940041314810515E-003;
2.416000000000000E+009;1.770437061786652E-001;-5.983316898345947E-002;2.278932835906744E-003;1.783926738426089E-003;
2.416166666666667E+009;1.774670630693436E-001;-6.016124039888382E-002;2.408062806352973E-003;1.791868242435157E-003;
2.416333333333334E+009;1.774081736803055E-001;-6.037897244095802E-002;2.463090466335416E-003;1.768988789990544E-003;
2.416500000000000E+009;1.773169487714768E-001;-6.076561659574509E-002;2.540206303820014E-003;1.717053703032434E-003;
2.416666666666667E+009;1.772404611110687E-001;-6.097427755594254E-002;2.497639972716570E-003;1.648043864406645E-003;
2.416833333333334E+009;1.768722981214523E-001;-6.126779690384865E-002;2.682915655896068E-003;1.532916910946369E-003;
2.417000000000000E+009;1.765619665384293E-001;-6.152613461017609E-002;2.710286760702729E-003;1.436763908714056E-003;
2.417166666666667E+009;1.761124283075333E-001;-6.165025010704994E-002;2.734605222940445E-003;1.482722698710859E-003;
2.417333333333334E+009;1.756671518087387E-001;-6.186663731932640E-002;2.686911728233099E-003;1.504779676906765E-003;
2.417500000000000E+009;1.751340329647064E-001;-6.225028634071350E-002;2.900729421526194E-003;1.298438524827361E-003;
2.417666666666667E+009;1.745029240846634E-001;-6.223414465785027E-002;2.865064889192581E-003;1.266808016225696E-003;
2.417833333333334E+009;1.736835092306137E-001;-6.248443573713303E-002;2.901942236348987E-003;1.198288984596729E-003;
2.418000000000000E+009;1.729170829057694E-001;-6.289434432983398E-002;2.928008558228612E-003;1.239824574440718E-003;
2.418166666666667E+009;1.720029413700104E-001;-6.304974108934403E-002;2.871158765628934E-003;1.019593910314143E-003;
2.418333333333334E+009;1.711708158254623E-001;-6.354183703660965E-002;3.065248718485236E-003;1.039059483446181E-003;
2.418500000000000E+009;1.701374351978302E-001;-6.384678930044174E-002;3.063460346311331E-003;1.027591293677688E-003;
2.418666666666667E+009;1.690576970577240E-001;-6.438819319009781E-002;3.111049300059676E-003;8.499438408762217E-004;
2.418833333333334E+009;1.678471118211746E-001;-6.484933197498322E-002;3.148977877572179E-003;8.241070900112391E-004;
2.419000000000000E+009;1.667186915874481E-001;-6.530798226594925E-002;3.200854174792767E-003;7.582507096230984E-004;
2.419166666666667E+009;1.655332744121552E-001;-6.613499671220779E-002;3.204659791663289E-003;6.592097925022245E-004;
2.419333333333334E+009;1.643148809671402E-001;-6.665408611297607E-002;3.143750596791506E-003;5.468085291795433E-004;
2.419500000000000E+009;1.631371080875397E-001;-6.766075640916824E-002;3.229264402762055E-003;4.589682212099433E-004;
2.419666666666667E+009;1.621159166097641E-001;-6.845742464065552E-002;3.196053905412555E-003;5.753232399001718E-004;
2.419833333333334E+009;1.607173830270767E-001;-6.915901601314545E-002;3.417249070480466E-003;3.560693294275552E-004;
2.420000000000000E+009;1.596749424934387E-001;-7.039152085781097E-002;3.257697913795710E-003;3.312128246761859E-004;
2.420166666666667E+009;1.585011482238770E-001;-7.121917605400085E-002;3.378759603947401E-003;2.666308719199151E-004;
2.420333333333334E+009;1.572790592908859E-001;-7.249376922845841E-002;3.422618610784411E-003;2.614036202430725E-004;
2.420500000000000E+009;1.563245654106140E-001;-7.361160963773727E-002;3.421728964895010E-003;1.650069607421756E-004;
2.420666666666667E+009;1.554503887891769E-001;-7.474721223115921E-002;3.387016244232655E-003;-8.151905058184639E-005;
2.420833333333334E+009;1.544343084096909E-001;-7.638550549745560E-002;3.563464852049947E-003;-5.374815737013705E-005;
2.421000000000000E+009;1.534964144229889E-001;-7.764814049005508E-002;3.679572138935328E-003;-1.524352555861697E-004;
2.421166666666667E+009;1.528410315513611E-001;-7.921912521123886E-002;3.779564751312137E-003;-3.001719887834042E-004;
2.421333333333334E+009;1.521831452846527E-001;-8.078847080469132E-002;3.831773065030575E-003;-3.172820433974266E-004;
2.421500000000000E+009;1.513674408197403E-001;-8.219278603792191E-002;3.660193411633372E-003;-5.526416352950037E-004;
2.421666666666667E+009;1.508364975452423E-001;-8.380997925996780E-002;3.587167244404554E-003;-6.713212933391333E-004;
2.421833333333334E+009;1.503804475069046E-001;-8.538389950990677E-002;3.780295141041279E-003;-7.843239582143724E-004;
2.422000000000000E+009;1.498634815216065E-001;-8.713000267744064E-002;3.671017009764910E-003;-1.063554547727108E-003;
2.422166666666667E+009;1.497867852449417E-001;-8.897993713617325E-002;3.899214323610067E-003;-1.164348446764052E-003;
2.422333333333334E+009;1.494867205619812E-001;-9.064293652772903E-002;3.769414965063334E-003;-1.329837366938591E-003;
2.422500000000000E+009;1.493152081966400E-001;-9.222074598073959E-002;3.660888876765966E-003;-1.465766341425479E-003;
2.422666666666667E+009;1.491643339395523E-001;-9.381052106618881E-002;3.844159189611673E-003;-1.483663334511221E-003;
2.422833333333334E+009;1.493717879056931E-001;-9.559538960456848E-002;3.563974983990192E-003;-1.635235617868602E-003;
2.423000000000000E+009;1.494938582181931E-001;-9.725576639175415E-002;3.555600298568606E-003;-1.808967674151063E-003;
2.423166666666667E+009;1.496377438306809E-001;-9.895843267440796E-002;3.430743701756001E-003;-2.249640645459294E-003;
2.423333333333334E+009;1.498545557260513E-001;-1.005510464310646E-001;3.415115177631378E-003;-2.179627772420645E-003;
2.423500000000000E+009;1.501841843128204E-001;-1.021220758557320E-001;3.477373160421848E-003;-2.208377234637737E-003;
2.423666666666667E+009;1.504025906324387E-001;-1.037062332034111E-001;3.351553808897734E-003;-2.589560579508543E-003;
2.423833333333334E+009;1.510066986083984E-001;-1.051514670252800E-001;3.105329116806388E-003;-2.694192342460156E-003;
2.424000000000000E+009;1.512163132429123E-001;-1.065230593085289E-001;3.011334221810103E-003;-2.779544098302722E-003;
2.424166666666667E+009;1.517743170261383E-001;-1.079017370939255E-001;3.002345096319914E-003;-2.931453287601471E-003;
2.424333333333334E+009;1.523304283618927E-001;-1.089409813284874E-001;2.909924136474729E-003;-2.850853372365236E-003;
2.424500000000000E+009;1.527319997549057E-001;-1.103847846388817E-001;2.739482792094350E-003;-3.163632703945041E-003;
2.424666666666667E+009;1.533973366022110E-001;-1.112708151340485E-001;2.543289214372635E-003;-3.144333371892571E-003;
2.424833333333334E+009;1.536163836717606E-001;-1.124321445822716E-001;2.396334661170840E-003;-3.202366875484586E-003;
2.425000000000000E+009;1.541502028703690E-001;-1.133920252323151E-001;2.260216744616628E-003;-3.221196588128805E-003;
2.425166666666667E+009;1.543679535388947E-001;-1.143158152699471E-001;2.150191459804773E-003;-3.370978636667132E-003;
2.425333333333334E+009;1.548913419246674E-001;-1.150585934519768E-001;1.951404497958720E-003;-3.420056309551001E-003;
2.425500000000000E+009;1.553426235914230E-001;-1.158269271254540E-001;1.891515101306140E-003;-3.455169964581728E-003;
2.425666666666667E+009;1.555126011371613E-001;-1.165110617876053E-001;1.716790953651071E-003;-3.551785135641694E-003;
2.425833333333334E+009;1.559240520000458E-001;-1.171078532934189E-001;1.546127023175359E-003;-3.532626666128635E-003;
2.426000000000000E+009;1.559778451919556E-001;-1.175772622227669E-001;1.451029675081372E-003;-3.476410405710340E-003;
2.426166666666667E+009;1.564154177904129E-001;-1.180063858628273E-001;1.374969840981066E-003;-3.556890180334449E-003;
2.426333333333334E+009;1.563014090061188E-001;-1.183233633637428E-001;1.187341171316803E-003;-3.536944976076484E-003;
2.426500000000000E+009;1.563488543033600E-001;-1.186670139431953E-001;9.743128903210163E-004;-3.572223009541631E-003;
2.426666666666667E+009;1.563210785388947E-001;-1.187495365738869E-001;9.593055583536625E-004;-3.511548275128007E-003;
2.426833333333334E+009;1.560885459184647E-001;-1.189918369054794E-001;7.815443677827716E-004;-3.508337307721376E-003;
2.427000000000000E+009;1.558842062950134E-001;-1.191885918378830E-001;6.744196289218962E-004;-3.388977143913508E-003;
2.427166666666667E+009;1.554794013500214E-001;-1.191629692912102E-001;5.256965523585677E-004;-3.585176775231957E-003;
2.427333333333334E+009;1.550347208976746E-001;-1.192442104220390E-001;3.980719193350524E-004;-3.427876625210047E-003;
2.427500000000000E+009;1.545919179916382E-001;-1.194131448864937E-001;4.223488504067063E-004;-3.367219818755984E-003;
2.427666666666667E+009;1.538693606853485E-001;-1.196364089846611E-001;4.843036003876478E-004;-3.419070970267057E-003;
2.427833333333334E+009;1.531517952680588E-001;-1.195917055010796E-001;2.686104853637517E-004;-3.487130859866738E-003;
