# Version 1.00
#
freq[Hz];re:Trc1_S11;im:Trc1_S11;re:Trc2_S21;im:Trc2_S21;
2.400000000000000E+009;1.583154648542404E-001;6.267546117305756E-002;-3.990885801613331E-003;1.007588813081384E-003;
2.400166666666667E+009;1.582084447145462E-001;6.117356941103935E-002;-3.902042051777244E-003;8.977981633506715E-004;
2.400333333333334E+009;1.580020189285278E-001;5.917244777083397E-002;-3.822309663519263E-003;8.752440917305648E-004;
2.400500000000000E+009;1.578605771064758E-001;5.727555975317955E-002;-3.955896012485027E-003;9.022452868521214E-004;
2.400666666666667E+009;1.577785015106201E-001;5.544578284025192E-002;-3.878739429637790E-003;1.044528326019645E-003;
2.400833333333334E+009;1.578601002693176E-001;5.348274111747742E-002;-3.850124077871442E-003;1.271870685741305E-003;
2.401000000000000E+009;1.578100174665451E-001;5.144183337688446E-002;-3.694961080327630E-003;1.177610713057220E-003;
2.401166666666667E+009;1.580351293087006E-001;4.936723783612251E-002;-3.750408533960581E-003;1.368713099509478E-003;
2.401333333333334E+009;1.580259948968887E-001;4.734131321310997E-002;-3.628337522968650E-003;1.573450514115393E-003;
2.401500000000000E+009;1.585140228271484E-001;4.542426019906998E-002;-3.486167639493942E-003;1.421711989678443E-003;
2.401666666666667E+009;1.584760844707489E-001;4.327834770083427E-002;-3.532856004312635E-003;1.584373880177736E-003;
2.401833333333334E+009;1.589264869689941E-001;4.118949547410011E-002;-3.607522463425994E-003;1.723676105029881E-003;
2.402000000000000E+009;1.592961698770523E-001;3.925839066505432E-002;-3.370243357494474E-003;1.721978886052966E-003;
2.402166666666667E+009;1.597312092781067E-001;3.720586374402046E-002;-3.417773870751262E-003;1.801488921046257E-003;
2.402333333333334E+009;1.601339429616928E-001;3.544683754444122E-002;-3.260626457631588E-003;1.884231693111360E-003;
2.402500000000000E+009;1.609127819538117E-001;3.357752040028572E-002;-3.279827302321792E-003;1.908855163492262E-003;
2.402666666666667E+009;1.616309434175491E-001;3.167489171028137E-002;-3.198308404535055E-003;2.002889523282647E-003;
2.402833333333334E+009;1.623679101467133E-001;3.010178357362747E-002;-3.178599756211042E-003;2.190607134252787E-003;
2.403000000000000E+009;1.630501002073288E-001;2.837912365794182E-002;-2.992350142449141E-003;2.256232546642423E-003;
2.403166666666667E+009;1.639155745506287E-001;2.670041099190712E-002;-2.916792174801230E-003;2.193236257880926E-003;
2.403333333333334E+009;1.648139208555222E-001;2.541275136172772E-002;-2.913317177444696E-003;2.233587438240647E-003;
2.403500000000000E+009;1.655952632427216E-001;2.393328025937080E-002;-2.709422260522842E-003;2.516722073778510E-003;
2.403666666666667E+009;1.666326969861984E-001;2.229704707860947E-002;-2.785944379866123E-003;2.467405050992966E-003;
2.403833333333334E+009;1.677130460739136E-001;2.096769399940968E-002;-2.681995742022991E-003;2.386145060881972E-003;
2.404000000000000E+009;1.686557829380035E-001;1.991132274270058E-002;-2.806128934025765E-003;2.543038688600063E-003;
2.404166666666667E+009;1.695870608091354E-001;1.875276863574982E-002;-2.718409756198525E-003;2.720426768064499E-003;
2.404333333333334E+009;1.705015450716019E-001;1.773034594953060E-002;-2.499479101970792E-003;2.654094016179442E-003;
2.404500000000000E+009;1.714764386415482E-001;1.651076972484589E-002;-2.427460160106421E-003;2.779535483568907E-003;
2.404666666666667E+009;1.723630428314209E-001;1.573772355914116E-002;-2.506735501810908E-003;2.824776340276003E-003;
2.404833333333334E+009;1.733931303024292E-001;1.501564681529999E-002;-2.230075187981129E-003;2.936458447948098E-003;
2.405000000000000E+009;1.742991805076599E-001;1.426832377910614E-002;-2.273679245263338E-003;3.170320298522711E-003;
2.405166666666667E+009;1.753077358007431E-001;1.340315677225590E-002;-2.225451869890094E-003;3.125586081296206E-003;
2.405333333333334E+009;1.762054413557053E-001;1.281226705759764E-002;-1.894736196845770E-003;3.057785099372268E-003;
2.405500000000000E+009;1.769384145736694E-001;1.237554848194122E-002;-1.840366167016327E-003;3.244420746341348E-003;
2.405666666666667E+009;1.776642799377441E-001;1.194923836737871E-002;-1.703878398984671E-003;3.338899696245790E-003;
2.405833333333334E+009;1.782258749008179E-001;1.158867403864861E-002;-1.596914255060256E-003;3.384774317964912E-003;
2.406000000000000E+009;1.789126098155975E-001;1.094561722129583E-002;-1.499029574915767E-003;3.403124399483204E-003;
2.406166666666667E+009;1.793427020311356E-001;1.077863760292530E-002;-1.339098438620567E-003;3.463163971900940E-003;
2.406333333333334E+009;1.799052357673645E-001;1.045467518270016E-002;-1.304412726312876E-003;3.419383661821485E-003;
2.406500000000000E+009;1.802953779697418E-001;1.011727377772331E-002;-1.131224911659956E-003;3.498314181342721E-003;
2.406666666666667E+009;1.804643124341965E-001;9.765267372131348E-003;-1.026165904477239E-003;3.638247260823846E-003;
2.406833333333334E+009;1.808016300201416E-001;9.472145698964596E-003;-8.714814903214574E-004;3.451316850259900E-003;
2.407000000000000E+009;1.810599714517593E-001;9.140663780272007E-003;-6.833879742771387E-004;3.348337020725012E-003;
2.407166666666667E+009;1.811259388923645E-001;8.868261240422726E-003;-5.786227411590517E-004;3.401008434593678E-003;
2.407333333333334E+009;1.810356825590134E-001;8.381921797990799E-003;-6.113226991146803E-004;3.276379080489278E-003;
2.407500000000000E+009;1.809338182210922E-001;7.991427555680275E-003;-4.475254681892693E-004;3.419698216021061E-003;
2.407666666666667E+009;1.807959377765656E-001;7.540430407971144E-003;-2.296387538081035E-004;3.377473680302501E-003;
2.407833333333334E+009;1.803546696901321E-001;6.983570754528046E-003;-9.091536776395515E-005;3.197804326191545E-003;
2.408000000000000E+009;1.801286339759827E-001;6.315103266388178E-003;4.332048411015421E-005;3.015030175447464E-003;
2.408166666666667E+009;1.797383278608322E-001;5.901750177145004E-003;8.458918455289677E-005;3.292920067906380E-003;
2.408333333333334E+009;1.793713867664337E-001;4.985016304999590E-003;2.267999225296080E-004;3.203495871275663E-003;
2.408500000000000E+009;1.787904053926468E-001;4.357340279966593E-003;2.233560517197475E-004;3.044235752895474E-003;
2.408666666666667E+009;1.782738715410233E-001;3.481033258140087E-003;3.259806544519961E-004;3.017981536686420E-003;
2.408833333333334E+009;1.775593161582947E-001;2.616624813526869E-003;2.286319795530289E-004;2.899117534980178E-003;
2.409000000000000E+009;1.769174784421921E-001;1.573772518895567E-003;3.669251163955778E-004;2.884835936129093E-003;
2.409166666666667E+009;1.762767136096954E-001;3.691771707963198E-004;5.483003333210945E-004;2.721427008509636E-003;
2.409333333333334E+009;1.756399273872376E-001;-6.272723549045622E-004;4.978870274499059E-004;2.636077115312219E-003;
2.409500000000000E+009;1.749484390020371E-001;-2.022522967308760E-003;3.873157547786832E-004;2.680548001080751E-003;
2.409666666666667E+009;1.741760373115540E-001;-3.306321566924453E-003;4.420060140546411E-004;2.628047252073884E-003;
2.409833333333334E+009;1.734023392200470E-001;-4.617208614945412E-003;4.066876426804811E-004;2.618704224005342E-003;
2.410000000000000E+009;1.728441566228867E-001;-6.200292613357306E-003;5.083051510155201E-004;2.621244871988893E-003;
2.410166666666667E+009;1.721917539834976E-001;-7.648782338947058E-003;5.509664770215750E-004;2.559313550591469E-003;
2.410333333333334E+009;1.715403497219086E-001;-9.212370961904526E-003;4.953322350047529E-004;2.614345168694854E-003;
2.410500000000000E+009;1.709197908639908E-001;-1.116678677499294E-002;4.686211177613586E-004;2.626280765980482E-003;
2.410666666666667E+009;1.702696233987808E-001;-1.298811193555594E-002;5.033764755353332E-004;2.559701912105084E-003;
2.410833333333334E+009;1.698802709579468E-001;-1.447122823446989E-002;7.173951598815620E-004;2.618637867271900E-003;
2.411000000000000E+009;1.694206744432449E-001;-1.646595261991024E-002;4.636525991372764E-004;2.488100901246071E-003;
2.411166666666667E+009;1.691413074731827E-001;-1.822201721370220E-002;6.391230272129178E-004;2.576912287622690E-003;
2.411333333333334E+009;1.688300222158432E-001;-2.012803219258785E-002;7.514287717640400E-004;2.619044855237007E-003;
2.411500000000000E+009;1.683418452739716E-001;-2.228686213493347E-002;7.396199507638812E-004;2.572252880781889E-003;
2.411666666666667E+009;1.683040708303452E-001;-2.415401116013527E-002;6.963494815863669E-004;2.534548752009869E-003;
2.411833333333334E+009;1.682427674531937E-001;-2.581400796771050E-002;8.003104012459517E-004;2.550920937210321E-003;
2.412000000000000E+009;1.683239787817001E-001;-2.795711904764175E-002;8.205385529436171E-004;2.478680806234479E-003;
2.412166666666667E+009;1.680940240621567E-001;-2.984644658863545E-002;8.586824405938387E-004;2.542949281632900E-003;
2.412333333333334E+009;1.684472858905792E-001;-3.164537623524666E-002;9.438477572984994E-004;2.515010535717011E-003;
2.412500000000000E+009;1.684255003929138E-001;-3.369206190109253E-002;9.819804690778256E-004;2.589274663478136E-003;
2.412666666666667E+009;1.686461418867111E-001;-3.578913584351540E-002;1.050218241289258E-003;2.475562971085310E-003;
2.412833333333334E+009;1.691567748785019E-001;-3.762656077742577E-002;1.144869136624038E-003;2.432233886793256E-003;
2.413000000000000E+009;1.693666577339172E-001;-3.925789520144463E-002;1.037466223351657E-003;2.597243990749121E-003;
2.413166666666667E+009;1.697416603565216E-001;-4.104826226830483E-002;1.150991651229560E-003;2.471587155014277E-003;
2.413333333333334E+009;1.701065599918366E-001;-4.293167591094971E-002;1.390760298818350E-003;2.576126949861646E-003;
2.413500000000000E+009;1.707619577646256E-001;-4.461903497576714E-002;1.204148982651532E-003;2.434751251712441E-003;
2.413666666666667E+009;1.711448282003403E-001;-4.625193402171135E-002;1.383927185088396E-003;2.417420968413353E-003;
2.413833333333334E+009;1.717183738946915E-001;-4.760121181607246E-002;1.556588802486658E-003;2.370724454522133E-003;
2.414000000000000E+009;1.721437126398087E-001;-4.904327169060707E-002;1.655723666772246E-003;2.352871466428042E-003;
2.414166666666667E+009;1.727680712938309E-001;-5.031275004148483E-002;1.687004347331822E-003;2.447978127747774E-003;
2.414333333333334E+009;1.733091920614243E-001;-5.183847621083260E-002;1.847993582487106E-003;2.347989007830620E-003;
2.414500000000000E+009;1.739567667245865E-001;-5.280562862753868E-002;1.769868889823556E-003;2.233554143458605E-003;
2.414666666666667E+009;1.744553148746491E-001;-5.394771695137024E-002;1.873294473625720E-003;2.130393870174885E-003;
2.414833333333334E+009;1.748432666063309E-001;-5.497909709811211E-002;1.921050250530243E-003;2.254223683848977E-003;
2.415000000000000E+009;1.751490831375122E-001;-5.591397732496262E-002;2.169315004721284E-003;2.198201371356845E-003;
2.415166666666667E+009;1.757156401872635E-001;-5.685822293162346E-002;2.094188705086708E-003;2.083711326122284E-003;
2.415333333333334E+009;1.761401444673538E-001;-5.755602195858955E-002;2.018555998802185E-003;2.111614914610982E-003;
2.415500000000000E+009;1.764580756425858E-001;-5.807061120867729E-002;2.012743148952723E-003;2.025255933403969E-003;
2.415666666666667E+009;1.768147647380829E-001;-5.864308029413223E-002;2.258558990433812E-003;2.017132705077529E-003;
2.415833333333334E+009;1.771529167890549E-001;-5.920646712183952E-002;2.285106806084514E-003;1.918706344440579E-003;
2.416000000000000E+009;1.771736741065979E-001;-5.961355566978455E-002;2.245086943730712E-003;1.823847065679729E-003;
2.416166666666667E+009;1.775071620941162E-001;-6.013637036085129E-002;2.492415718734264E-003;1.698171254247427E-003;
2.416333333333334E+009;1.773536503314972E-001;-6.031863018870354E-002;2.332909498363733E-003;1.785444561392069E-003;
2.416500000000000E+009;1.772985756397247E-001;-6.074456870555878E-002;2.452857326716185E-003;1.770113478414714E-003;
2.416666666666667E+009;1.771721392869949E-001;-6.087345257401466E-002;2.613881835713983E-003;1.602433505468071E-003;
2.416833333333334E+009;1.769855618476868E-001;-6.129571050405502E-002;2.520791953429580E-003;1.601982279680669E-003;
2.417000000000000E+009;1.764050871133804E-001;-6.160674989223480E-002;2.735495567321777E-003;1.510206842795014E-003;
2.417166666666667E+009;1.760600060224533E-001;-6.163679808378220E-002;2.597240032628179E-003;1.533093280158937E-003;
2.417333333333334E+009;1.756682693958283E-001;-6.179183721542358E-002;2.674732822924852E-003;1.503132632933557E-003;
2.417500000000000E+009;1.750434041023254E-001;-6.226365268230438E-002;2.917126053944230E-003;1.444663852453232E-003;
2.417666666666667E+009;1.745697557926178E-001;-6.232484802603722E-002;2.806351287290454E-003;1.319995848461986E-003;
2.417833333333334E+009;1.737779676914215E-001;-6.253978610038757E-002;2.818699227645993E-003;1.226299093104899E-003;
2.418000000000000E+009;1.728572845458984E-001;-6.294716149568558E-002;3.002847544848919E-003;1.186419278383255E-003;
2.418166666666667E+009;1.719770878553391E-001;-6.303578615188599E-002;2.950692549347878E-003;1.272537163458765E-003;
2.418333333333334E+009;1.712433248758316E-001;-6.351295858621597E-002;3.008364699780941E-003;9.257342317141593E-004;
2.418500000000000E+009;1.700632572174072E-001;-6.381770223379135E-002;3.027654252946377E-003;9.549981332384050E-004;
2.418666666666667E+009;1.691994071006775E-001;-6.430397927761078E-002;3.041883930563927E-003;1.024649012833834E-003;
2.418833333333334E+009;1.678354293107987E-001;-6.490655243396759E-002;3.130170283839107E-003;8.291333797387779E-004;
2.419000000000000E+009;1.666498333215714E-001;-6.544563919305801E-002;3.210865426808596E-003;7.769212825223804E-004;
2.419166666666667E+009;1.656174510717392E-001;-6.607723236083984E-002;3.172479337081313E-003;7.255292148329318E-004;
2.419333333333334E+009;1.643491238355637E-001;-6.646611541509628E-002;3.123165573924780E-003;6.555449217557907E-004;
2.419500000000000E+009;1.631049662828445E-001;-6.772100180387497E-002;3.205183427780867E-003;5.053747445344925E-004;
2.419666666666667E+009;1.619986593723297E-001;-6.840460747480393E-002;3.156289691105485E-003;6.298827938735485E-004;
2.419833333333334E+009;1.608087569475174E-001;-6.918695569038391E-002;3.470762399956584E-003;4.882161447312683E-004;
2.420000000000000E+009;1.596923470497131E-001;-7.024309784173966E-002;3.286053892225027E-003;3.148294345010072E-004;
2.420166666666667E+009;1.585671007633209E-001;-7.130205631256104E-002;3.529449691995978E-003;3.508660593070090E-004;
2.420333333333334E+009;1.574436724185944E-001;-7.260971516370773E-002;3.468954935669899E-003;1.814578135963529E-004;
2.420500000000000E+009;1.565706729888916E-001;-7.361765205860138E-002;3.468417096883059E-003;1.788478039088659E-005;
2.420666666666667E+009;1.552448719739914E-001;-7.480970025062561E-002;3.496765857562423E-003;9.186178067466244E-005;
2.420833333333334E+009;1.546742618083954E-001;-7.630204409360886E-002;3.693949198350310E-003;-1.731456723064184E-004;
2.421000000000000E+009;1.534421294927597E-001;-7.761820405721664E-002;3.603279124945402E-003;-1.865908416220918E-004;
2.421166666666667E+009;1.528627425432205E-001;-7.909566164016724E-002;3.629545681178570E-003;-1.973667385755107E-004;
2.421333333333334E+009;1.521613597869873E-001;-8.075380325317383E-002;3.650673199445009E-003;-4.167416482232511E-004;
2.421500000000000E+009;1.513601243495941E-001;-8.221852034330368E-002;3.765252418816090E-003;-4.918290069326758E-004;
2.421666666666667E+009;1.509065032005310E-001;-8.381769061088562E-002;3.690446261316538E-003;-6.766344304196537E-004;
2.421833333333334E+009;1.505089402198792E-001;-8.551127463579178E-002;3.753905883058906E-003;-7.227109745144844E-004;
2.422000000000000E+009;1.501494795084000E-001;-8.717780560255051E-002;3.923872485756874E-003;-1.003019511699677E-003;
2.422166666666667E+009;1.496877670288086E-001;-8.897171914577484E-002;3.734035184606910E-003;-1.055392320267856E-003;
2.422333333333334E+009;1.495849788188934E-001;-9.060388803482056E-002;3.864662488922477E-003;-1.199014019221067E-003;
2.422500000000000E+009;1.493016481399536E-001;-9.208758175373077E-002;3.843980608507991E-003;-1.347554149106145E-003;
2.422666666666667E+009;1.491004228591919E-001;-9.403499960899353E-002;3.613556735217571E-003;-1.463277731090784E-003;
2.422833333333334E+009;1.493232697248459E-001;-9.576929360628128E-002;3.763001412153244E-003;-1.765412744134665E-003;
2.423000000000000E+009;1.494635939598084E-001;-9.731192141771317E-002;3.607226070016623E-003;-1.954932929947972E-003;
2.423166666666667E+009;1.496635973453522E-001;-9.904587268829346E-002;3.549851709976792E-003;-2.041381550952792E-003;
2.423333333333334E+009;1.498184055089951E-001;-1.004656404256821E-001;3.561929799616337E-003;-2.141481265425682E-003;
2.423500000000000E+009;1.501791328191757E-001;-1.020641252398491E-001;3.303960664197803E-003;-2.406515646725893E-003;
2.423666666666667E+009;1.502479016780853E-001;-1.036900207400322E-001;3.483527805656195E-003;-2.410690300166607E-003;
2.423833333333334E+009;1.509305834770203E-001;-1.051675826311112E-001;3.103905357420445E-003;-2.551828743889928E-003;
2.424000000000000E+009;1.512656956911087E-001;-1.064951345324516E-001;3.092830767855048E-003;-2.746102167293429E-003;
2.424166666666667E+009;1.516447961330414E-001;-1.078089922666550E-001;2.938820747658610E-003;-2.816927852109075E-003;
2.424333333333334E+009;1.521948724985123E-001;-1.090868189930916E-001;2.875837730243802E-003;-2.972454763948917E-003;
2.424500000000000E+009;1.527456641197205E-001;-1.102782413363457E-001;2.808067714795470E-003;-3.018243005499244E-003;
2.424666666666667E+009;1.533279120922089E-001;-1.113117262721062E-001;2.503225347027183E-003;-3.159756073728204E-003;
2.424833333333334E+009;1.534820795059204E-001;-1.123905181884766E-001;2.467954298481345E-003;-3.251556539908052E-003;
2.425000000000000E+009;1.541188359260559E-001;-1.132940128445625E-001;2.292737830430269E-003;-3.220915328711271E-003;
2.425166666666667E+009;1.544380336999893E-001;-1.142037808895111E-001;2.124893013387919E-003;-3.347810823470354E-003;
2.425333333333334E+009;1.549476385116577E-001;-1.149511784315109E-001;2.039323793724179E-003;-3.395920619368553E-003;
2.425500000000000E+009;1.553427428007126E-001;-1.158423349261284E-001;1.933326013386250E-003;-3.520110389217734E-003;
2.425666666666667E+009;1.555516570806503E-001;-1.164457872509956E-001;1.572069828398526E-003;-3.512520110234618E-003;
2.425833333333334E+009;1.558461785316467E-001;-1.170074641704559E-001;1.628667931072414E-003;-3.528949106112123E-003;
2.426000000000000E+009;1.560894697904587E-001;-1.175330802798271E-001;1.648760749958456E-003;-3.335503162816167E-003;
2.426166666666667E+009;1.564307063817978E-001;-1.180246621370316E-001;1.339875627309084E-003;-3.462116001173854E-003;
2.426333333333334E+009;1.563751995563507E-001;-1.182476952672005E-001;1.155527424998581E-003;-3.450216725468636E-003;
2.426500000000000E+009;1.564080566167831E-001;-1.186218112707138E-001;1.115801045671105E-003;-3.480517538264394E-003;
2.426666666666667E+009;1.563846766948700E-001;-1.187176182866097E-001;1.077643013559282E-003;-3.450631396844983E-003;
2.426833333333334E+009;1.563060283660889E-001;-1.189070269465447E-001;9.050964727066457E-004;-3.578943433240056E-003;
2.427000000000000E+009;1.559327095746994E-001;-1.192479878664017E-001;8.933300268836319E-004;-3.504930064082146E-003;
2.427166666666667E+009;1.555210500955582E-001;-1.191776767373085E-001;7.600523531436920E-004;-3.413440659642220E-003;
2.427333333333334E+009;1.549941897392273E-001;-1.193858087062836E-001;4.226653254590929E-004;-3.474888158962131E-003;
2.427500000000000E+009;1.546698063611984E-001;-1.194075718522072E-001;4.153127665631473E-004;-3.427968826144934E-003;
2.427666666666667E+009;1.538765281438828E-001;-1.195599287748337E-001;4.077424237038940E-004;-3.513030242174864E-003;
2.427833333333334E+009;1.530395001173019E-001;-1.196415573358536E-001;3.037322894670069E-004;-3.441589418798685E-003;
