# Hz S RI R 
2400000000.0000000000 0.154976591467857388595419365629 0.106418952345848097373881557814 -0.000269062962615862488746643066 0.001162466127425431988359760815 0 0 0 0 
2400166666.6666665077 0.154749214649200411697549384371 0.103874675929546397834535298443 -0.000335204880684614181518554688 0.001228957786224782900569296729 0 0 0 0 
2400333333.3333334923 0.154794454574584988693075615629 0.101723887026309994796591240629 -0.000228164353757165399476727896 0.001314461114816368059871054541 0 0 0 0 
2400500000.0000000000 0.154706925153732299804687500000 0.098891995847225189208984375000 -0.000182124014827422797679901123 0.001274768728762865066528320312 0 0 0 0 
2400666666.6666665077 0.155025571584701510330361884371 0.096567101776599884033203125000 -0.000137129740323871401235303336 0.001231052679941057942034077222 0 0 0 0 
2400833333.3333334923 0.155024707317352294921875000000 0.093659028410911560058593750000 0.000121650780783966197214941707 0.001330798026174307086347270435 0 0 0 0 
2401000000.0000000000 0.155166313052177401443643134371 0.090859092772006988525390625000 0.000056527107517467811703681946 0.001219250378198921897290873950 0 0 0 0 
2401166666.6666665077 0.155259922146797207931356865629 0.087994463741779327392578125000 0.000018307984646526168694699935 0.001310770399868488094927143628 0 0 0 0 
2401333333.3333334923 0.155636534094810513595419365629 0.085240468382835388183593750000 -0.000044841635826742283325602872 0.001251226523891090913059853662 0 0 0 0 
2401500000.0000000000 0.156248718500137301345986884371 0.082280680537223815917968750000 0.000173421562067232998922625131 0.001339755137450993061065673828 0 0 0 0 
2401666666.6666665077 0.156594350934028597732705634371 0.079556316137313842773437500000 0.000140223419293761307567042218 0.001200436265207827091217041016 0 0 0 0 
2401833333.3333334923 0.157113552093505887130575615629 0.076880730688571929931640625000 0.000066444306867197155952453613 0.001040910487063229084014892578 0 0 0 0 
2402000000.0000000000 0.157962515950202886383380018742 0.074129007756710052490234375000 0.000076181408076081424951553345 0.001207695924676954963086772388 0 0 0 0 
2402166666.6666665077 0.158926919102668789962606865629 0.071717157959938049316406250000 0.000104070990346372100427904672 0.000920447404496371746063232422 0 0 0 0 
2402333333.3333334923 0.159914016723632812500000000000 0.068840138614177703857421875000 -0.000052142950153211131691932678 0.001162110944278538010240864331 0 0 0 0 
2402500000.0000000000 0.161131471395492609222088731258 0.066504351794719696044921875000 -0.000054288910178001970052719116 0.000996453105472028255462646484 0 0 0 0 
2402666666.6666665077 0.162389069795608492752236884371 0.064321473240852355957031250000 -0.000099026336101815104484558105 0.001119983964599668979644775391 0 0 0 0 
2402833333.3333334923 0.163568660616874694824218750000 0.061765640974044799804687500000 -0.000282608903944492285877782001 0.001099455868825315995457314600 0 0 0 0 
2403000000.0000000000 0.165150970220565795898437500000 0.059393823146820068359375000000 -0.000402110628783702904551905499 0.001160620828159153895137167822 0 0 0 0 
2403166666.6666665077 0.166851550340652493575888115629 0.057358052581548690795898437500 -0.000381717836717143709033411847 0.001349495607428252913831401294 0 0 0 0 
2403333333.3333334923 0.168226957321166992187500000000 0.055132631212472922588307966407 -0.000377997435862198526233118878 0.001464796485379338047624897534 0 0 0 0 
2403500000.0000000000 0.170094788074493408203125000000 0.053118254989385611797292341407 -0.000467341480543837005465906964 0.001602588221430778937098837744 0 0 0 0 
2403666666.6666665077 0.171773508191108703613281250000 0.051172126084566123271901716407 -0.000373546470655128414004725323 0.002050703158602118925807333838 0 0 0 0 
2403833333.3333334923 0.173338264226913507659588731258 0.049449872225523001934011091407 -0.000227412499953061288029271259 0.002045337576419115066528320312 0 0 0 0 
2404000000.0000000000 0.174989730119705200195312500000 0.047832954674959182739257812500 -0.000082015299994964152574539185 0.002302078297361731962916708838 0 0 0 0 
2404166666.6666665077 0.176753401756286593338174384371 0.046250022947788238525390625000 -0.000016500905985594730487073592 0.002464424353092908859252929688 0 0 0 0 
2404333333.3333334923 0.177978634834289606292401231258 0.044897336512804031372070312500 0.000358350895112380385398864746 0.002618788974359631972071982275 0 0 0 0 
2404500000.0000000000 0.179825559258460998535156250000 0.043266907334327697753906250000 0.000399148440919816493988037109 0.002799908164888619942906045068 0 0 0 0 
2404666666.6666665077 0.181368917226791409591513115629 0.042347863316535949707031250000 0.000789352983701974153518676758 0.002987645799294114112854003906 0 0 0 0 
2404833333.3333334923 0.183100745081901605804119981258 0.041339050978422171855886091407 0.000951961963437497615814208984 0.002986581297591329054591513525 0 0 0 0 
2405000000.0000000000 0.184223189949989291092080634371 0.040570024400949478149414062500 0.001337481196969747977015829932 0.002783241681754589080810546875 0 0 0 0 
2405166666.6666665077 0.185799852013588007171307481258 0.039860598742961876606027971093 0.001485564396716654083849262769 0.002852192381396890120265341650 0 0 0 0 
2405333333.3333334923 0.186991512775421087066973768742 0.039352603256702423095703125000 0.001707013230770825906040810693 0.002797688823193312124965048682 0 0 0 0 
2405500000.0000000000 0.188414216041564913650674384371 0.039025958627462387084960937500 0.001873838482424617030500102466 0.002641515340656042098999023438 0 0 0 0 
2405666666.6666665077 0.189681619405746487716513115629 0.038514755666255950927734375000 0.002035397803410888151881552588 0.002443895209580659866333007812 0 0 0 0 
2405833333.3333334923 0.190784007310867309570312500000 0.038270972669124603271484375000 0.002222675830125809149501181494 0.002384248888120055198669433594 0 0 0 0 
2406000000.0000000000 0.191724121570587213714276231258 0.038191691040992736816406250000 0.002480969531461596922633505713 0.002137996954843401908874511719 0 0 0 0 
2406166666.6666665077 0.192709460854530306717080634371 0.037917081266641616821289062500 0.002447658218443394140956259619 0.002170491032302380041835165869 0 0 0 0 
2406333333.3333334923 0.193730533123016412933026231258 0.038087505847215652465820312500 0.002573158359155058860778808594 0.001878136419691144986393593896 0 0 0 0 
2406500000.0000000000 0.194405943155288696289062500000 0.038088228553533547138254533593 0.002674688817933201789855957031 0.001904142322018742995021201025 0 0 0 0 
2406666666.6666665077 0.194927170872688293457031250000 0.038126260042190551757812500000 0.002816084073856472969055175781 0.001689525321125983975054096753 0 0 0 0 
2406833333.3333334923 0.195390388369560186188067518742 0.038032393902540206909179687500 0.002802791772410273985621786963 0.001751787727698683955548930591 0 0 0 0 
2407000000.0000000000 0.195622384548187311370526231258 0.038213487714529037475585937500 0.003001837525516747994663857568 0.001765711698681116104125976562 0 0 0 0 
2407166666.6666665077 0.196022719144821194747763115629 0.037897385656833648681640625000 0.003343692980706692175624228369 0.001568481093272567012189555591 0 0 0 0 
2407333333.3333334923 0.196103662252426202972088731258 0.038091592490673072124440778907 0.003421120345592499212977743994 0.001300138537772000052808452075 0 0 0 0 
2407500000.0000000000 0.195914238691330011565838731258 0.038241237401962280273437500000 0.003393846331164240837097167969 0.001236129202879965088487934644 0 0 0 0 
2407666666.6666665077 0.195817336440086392501669365629 0.038092900067567832256276716407 0.003630420891568065123317099463 0.001025473582558334090589213794 0 0 0 0 
2407833333.3333334923 0.195291146636009188553018134371 0.037894036620855331420898437500 0.003797684563323854966404580225 0.000806123367510735988616943359 0 0 0 0 
2408000000.0000000000 0.195212081074714688400106865629 0.037620525807142257690429687500 0.003819814417511225180384970557 0.000531093508470803499221801758 0 0 0 0 
2408166666.6666665077 0.194593593478202792068643134371 0.037534851580858230590820312500 0.003802535822615026993992470850 0.000468070764327421784400939941 0 0 0 0 
2408333333.3333334923 0.194170489907264709472656250000 0.036813195794820792461354841407 0.003875137539580463929417275537 0.000000131946819692529997249795 0 0 0 0 
2408500000.0000000000 0.193649962544441195388955634371 0.036360330879688262939453125000 0.004009944386780261993408203125 -0.000308368587866425514221191406 0 0 0 0 
2408666666.6666665077 0.192922860383987399002236884371 0.035764895379543297504465471093 0.003991525154560804367065429688 -0.000562743982300162315368652344 0 0 0 0 
2408833333.3333334923 0.191920310258865411956463731258 0.034864455461502082134206403907 0.003858514362946153120753622900 -0.000809451739769428968429565430 0 0 0 0 
2409000000.0000000000 0.191274374723434503753338731258 0.034010391682386398315429687500 0.003860719967633485794067382812 -0.001123331720009445927263569409 0 0 0 0 
2409166666.6666665077 0.190271660685539301116619981258 0.032948527485132217407226562500 0.003815581789240241050720214844 -0.001487292232923210100886679541 0 0 0 0 
2409333333.3333334923 0.189521417021751403808593750000 0.031927943229675292968750000000 0.003545338753610848946812295068 -0.001630960498005151965497661060 0 0 0 0 
2409500000.0000000000 0.188405826687812805175781250000 0.030589329078793529165247733204 0.003399718087166548208949423682 -0.001797262928448617892024374854 0 0 0 0 
2409666666.6666665077 0.187246039509773309905682481258 0.029252089560031890869140625000 0.003296629758551716804504394531 -0.002050431445240973992588662256 0 0 0 0 
2409833333.3333334923 0.186351045966148404220419365629 0.027728969231247898447056954296 0.003171361051499844031092978369 -0.002259727334603666825535439600 0 0 0 0 
2410000000.0000000000 0.185480505228042602539062500000 0.025979461148381229745885079296 0.002904630266129970984217978369 -0.002430276479572058157679892432 0 0 0 0 
2410166666.6666665077 0.184335604310035705566406250000 0.024036761373281478881835937500 0.002650351729243994192836142432 -0.002357171382755041122436523438 0 0 0 0 
2410333333.3333334923 0.183526888489723205566406250000 0.022422250360250469553013985546 0.002472451189532876014709472656 -0.002557657426223158836364746094 0 0 0 0 
2410500000.0000000000 0.182429358363151605804119981258 0.020393123850226398813267891796 0.002220916328951715989353798975 -0.002735311863943934006931923975 0 0 0 0 
2410666666.6666665077 0.181559592485427911956463731258 0.018006488680839538574218750000 0.002065898152068256898167275537 -0.002687688218429685072657919775 0 0 0 0 
2410833333.3333334923 0.181131646037101801116619981258 0.015853069722652438772181326954 0.001850088709034026102778769385 -0.002915984950959682898280478369 0 0 0 0 
2411000000.0000000000 0.180277168750762911697549384371 0.013691216707229610788365548046 0.001851927372626960060716938550 -0.002925599226728082136866904150 0 0 0 0 
2411166666.6666665077 0.179554283618927001953125000000 0.011520691215991970407506173046 0.001521056052297353961347270435 -0.003021591110154985947849892725 0 0 0 0 
2411333333.3333334923 0.179048404097557095626669365629 0.008950865827500820159912109375 0.001508431043475866100908588940 -0.003049758262932301001307822119 0 0 0 0 
2411500000.0000000000 0.178595036268234308440838731258 0.006618176586925983428955078125 0.001233882037922739982604980469 -0.003076876047998667196986533057 0 0 0 0 
2411666666.6666665077 0.178647220134735107421875000000 0.004239922389388084411621093750 0.001023090095259248993517231519 -0.003164554014801979064941406250 0 0 0 0 
2411833333.3333334923 0.178336635231971712967080634371 0.001892175059765577099443745190 0.000737149093765765428543090820 -0.003106095828115940093994140625 0 0 0 0 
2412000000.0000000000 0.178520008921623202224893134371 -0.000578892475459724664688110352 0.000610781949944794178009033203 -0.003138926578685640855076455225 0 0 0 0 
2412166666.6666665077 0.178531318902969388107138115629 -0.002810568781569600105285644531 0.000226652962737716707304277963 -0.003179802093654870986938476562 0 0 0 0 
2412333333.3333334923 0.178602397441864013671875000000 -0.005404590163379907608032226562 0.000136577698867768103450220929 -0.003139644395560026168823242188 0 0 0 0 
2412500000.0000000000 0.179246321320533807952557481258 -0.007878017611801624298095703125 -0.000043662763346219442110469205 -0.003122674068436027006862021338 0 0 0 0 
2412666666.6666665077 0.179635584354400607010049384371 -0.010252906009554859506627266796 -0.000240198627579957300990504132 -0.003125140909105538888218545068 0 0 0 0 
2412833333.3333334923 0.180403456091880798339843750000 -0.012810330837965009861956211523 -0.000505546748172491788864135742 -0.002886890666559339003321982275 0 0 0 0 
2413000000.0000000000 0.181038156151771600921307481258 -0.014883597381412979471226876171 -0.000854858080856502056121826172 -0.002959629753604530854466103662 0 0 0 0 
2413166666.6666665077 0.181835651397705105880575615629 -0.017120562493801120412806326954 -0.000897614983841776847839355469 -0.002807188546285032792332314600 0 0 0 0 
2413333333.3333334923 0.182902812957763699630575615629 -0.019366649910807609558105468750 -0.001222900580614805004717182690 -0.002475432585924863815307617188 0 0 0 0 
2413500000.0000000000 0.183754518628120394607705634371 -0.021536288782954219472864920704 -0.001408729469403624968287802588 -0.002307401970028876824619912256 0 0 0 0 
2413666666.6666665077 0.184987515211105402190838731258 -0.023669309914112091064453125000 -0.001627053483389317989349365234 -0.001952792983502150015590048682 0 0 0 0 
2413833333.3333334923 0.186193108558654812911825615629 -0.025501891970634460449218750000 -0.001683366484940052032470703125 -0.001832777634263039068934775244 0 0 0 0 
2414000000.0000000000 0.187164530158042907714843750000 -0.027528265491127971303919608204 -0.001793735078535974025726318359 -0.001481948536820709922193217700 0 0 0 0 
2414166666.6666665077 0.188460439443588312347088731258 -0.029160728678107261657714843750 -0.001873996225185692093492817456 -0.001076311222277581908582377856 0 0 0 0 
2414333333.3333334923 0.189477935433387811858807481258 -0.031214212998747829092005545704 -0.001909603015519679026362753760 -0.000864741276018321514129638672 0 0 0 0 
2414500000.0000000000 0.190797507762908907791299384371 -0.032456636428833007812500000000 -0.001708061899989842934849404443 -0.000782303046435117721557617188 0 0 0 0 
2414666666.6666665077 0.191948607563972500900106865629 -0.033966567367315292358398437500 -0.001582844881340861103655170972 -0.000497518631163984537124633789 0 0 0 0 
2414833333.3333334923 0.193040922284126309493856865629 -0.035392988473176963115651716407 -0.001459207269363105080248188550 -0.000252463854849338477284032001 0 0 0 0 
2415000000.0000000000 0.194055303931236294845419365629 -0.036579679697751998901367187500 -0.001308134756982326941249228369 -0.000121116951049771200544895311 0 0 0 0 
2415166666.6666665077 0.195372954010963412185830634371 -0.037629932165145867084543596093 -0.001233852817676960988285683740 0.000096155039500445127487182617 0 0 0 0 
2415333333.3333334923 0.196352899074554387848223768742 -0.038576729595661163330078125000 -0.000934589304961264133453369141 0.000213017381611280089050847186 0 0 0 0 
2415500000.0000000000 0.197596997022628811935263115629 -0.039213344454765319824218750000 -0.000901694351341575384140014648 0.000219550522160716409057062970 0 0 0 0 
2415666666.6666665077 0.198492720723152188400106865629 -0.040006913244724266742746721093 -0.000904910673853009939193725586 0.000357670767698436975479125977 0 0 0 0 
2415833333.3333334923 0.199302554130554199218750000000 -0.040654938668012619018554687500 -0.000685245438944548368453979492 0.000396773481043055707782191144 0 0 0 0 
2416000000.0000000000 0.200078621506691006759481865629 -0.041257821023464202880859375000 -0.000651784823276102542877197266 0.000673830392770469188690185547 0 0 0 0 
2416166666.6666665077 0.200863569974899291992187500000 -0.041747510433197021484375000000 -0.000403776939492672681808471680 0.000642284285277128219604492188 0 0 0 0 
2416333333.3333334923 0.201293855905532809158486884371 -0.041896093636751181865651716407 -0.000319502345519140416949671613 0.000478921283502131700515747070 0 0 0 0 
2416500000.0000000000 0.201864510774612399002236884371 -0.042251452803611762309987653907 -0.000045726123062195263128688200 0.000643215316813439130783081055 0 0 0 0 
2416666666.6666665077 0.202094137668609591385049384371 -0.042667765170335769653320312500 -0.000011221623026358429342508316 0.000658666016533970832824707031 0 0 0 0 
2416833333.3333334923 0.202297240495681790450888115629 -0.042546376585960388183593750000 0.000265530252363532781600952148 0.000531495839823037385940551758 0 0 0 0 
2417000000.0000000000 0.202345758676528902908486884371 -0.042769994586706161499023437500 0.000394551549106836318969726562 0.000640444050077348947525024414 0 0 0 0 
2417166666.6666665077 0.201928794384002713302450615629 -0.042682819068431847309152971093 0.000704258156474679708480834961 0.000627007859293371438980102539 0 0 0 0 
2417333333.3333334923 0.201841592788696289062500000000 -0.042474359273910522460937500000 0.000893394637387245893478393555 0.000441250973381102085113525391 0 0 0 0 
2417500000.0000000000 0.201447635889053289215411268742 -0.042485050857067108154296875000 0.000964441045653074979782104492 0.000308586313622072284847813739 0 0 0 0 
2417666666.6666665077 0.200828969478607205489950615629 -0.042385239154100418090820312500 0.001160357613116502978681254810 0.000116429124318528893307009286 0 0 0 0 
2417833333.3333334923 0.200412973761558504959268134371 -0.042147614061832427978515625000 0.001198103069327772097346640479 -0.000132684755953960093572893686 0 0 0 0 
2418000000.0000000000 0.199725881218910189529580634371 -0.042006969451904296875000000000 0.001266747014597058079363178784 -0.000139178097015246803134363995 0 0 0 0 
2418166666.6666665077 0.198749810457229586502236884371 -0.041949283331632607196848283593 0.001489854184910655021667480469 -0.000403534038923680782318115234 0 0 0 0 
2418333333.3333334923 0.197848364710807800292968750000 -0.041780300438404083251953125000 0.001614650595001875920536660303 -0.000673082948196679353713989258 0 0 0 0 
2418500000.0000000000 0.196859627962112399002236884371 -0.041774656623601913452148437500 0.001552586210891603989842080225 -0.000803584815002977848052978516 0 0 0 0 
2418666666.6666665077 0.195959925651550292968750000000 -0.041600722819566726684570312500 0.001676278305239976102944399194 -0.001077867578715085983276367188 0 0 0 0 
2418833333.3333334923 0.194615125656127901931924384371 -0.041909225285053253173828125000 0.001581289689056575081468891675 -0.001285089878365398103829408960 0 0 0 0 
2419000000.0000000000 0.193265259265899713714276231258 -0.042173534631729132915456403907 0.001485145185142755942103720557 -0.001465078676119446971296000903 0 0 0 0 
2419166666.6666665077 0.192169710993766812423544365629 -0.042556617408990859985351562500 0.001373493229039012952091836084 -0.001623330754227936051012348706 0 0 0 0 
2419333333.3333334923 0.190715700387954711914062500000 -0.043045353144407272338867187500 0.001205672509968281009076762622 -0.001841518795117736079572368091 0 0 0 0 
2419500000.0000000000 0.189227476716041592696981865629 -0.043428480625152587890625000000 0.001089544850401579900028847803 -0.002050993731245398955104208838 0 0 0 0 
2419666666.6666665077 0.187621831893920898437500000000 -0.044129211455583572387695312500 0.000956744886934757232666015625 -0.002169022103771566910984658350 0 0 0 0 
2419833333.3333334923 0.186074972152709988693075615629 -0.044920958578586578369140625000 0.000841377768665552139282226562 -0.002106365980580449104309082031 0 0 0 0 
