# Hz S RI R 
2400000000.0000000000 0.161712378263473510742187500000 0.052935078740119927143137346093 -0.002972178626805543899536132812 -0.004481514915823937329764081738 0 0 0 0 
2400166666.6666665077 0.161727547645568903167401231258 0.051251336932182312011718750000 -0.003339522052556275887730263818 -0.004470949992537499341482831738 0 0 0 0 
2400333333.3333334923 0.161534875631332397460937500000 0.049106918275356292724609375000 -0.003333764616400002999546670068 -0.004331316798925399780273437500 0 0 0 0 
2400500000.0000000000 0.161439821124076787750567518742 0.047312151640653610229492187500 -0.003611521329730749130249023438 -0.004362331237643957138061523438 0 0 0 0 
2400666666.6666665077 0.161444216966629000564736884371 0.045239806175231926654856096093 -0.003780374303460121154785156250 -0.004257990512996912002563476562 0 0 0 0 
2400833333.3333334923 0.161467239260673495193643134371 0.043235231190919883037526716407 -0.003923625219613313674926757812 -0.004385434091091156005859375000 0 0 0 0 
2401000000.0000000000 0.161813646554946899414062500000 0.040990311652421951293945312500 -0.004185103811323642730712890625 -0.004239746369421482086181640625 0 0 0 0 
2401166666.6666665077 0.161859154701232910156250000000 0.038762968033552169799804687500 -0.004237068817019462585449218750 -0.004135016817599534988403320312 0 0 0 0 
2401333333.3333334923 0.161988720297813387771768134371 0.036747965961694717407226562500 -0.004510323051363229751586914062 -0.004061110317707061767578125000 0 0 0 0 
2401500000.0000000000 0.162068083882331903655682481258 0.034773547202348709106445312500 -0.004853130318224430084228515625 -0.003744930028915404839756631006 0 0 0 0 
2401666666.6666665077 0.162324637174606295486611884371 0.032729495316743850708007812500 -0.004766717553138732910156250000 -0.003825131570920348167419433594 0 0 0 0 
2401833333.3333334923 0.162941992282867403885049384371 0.030390389263629909860631173046 -0.005087907426059246063232421875 -0.003711142810061573982238769531 0 0 0 0 
2402000000.0000000000 0.163174062967300387283486884371 0.028518293052911758422851562500 -0.005200167186558246612548828125 -0.003618115559220314025878906250 0 0 0 0 
2402166666.6666665077 0.163396328687667902190838731258 0.026586400344967838632603829296 -0.005460047163069248199462890625 -0.003389702411368488831761025537 0 0 0 0 
2402333333.3333334923 0.164200276136398287674111884371 0.024704089388251311565358747657 -0.005732920486479997634887695312 -0.003429973963648080825805664062 0 0 0 0 
2402500000.0000000000 0.165044546127319308181924384371 0.022632863372564319265345389454 -0.005908271763473749160766601562 -0.003032173495739697976353310693 0 0 0 0 
2402666666.6666665077 0.165428951382636996170205634371 0.020817881450057029724121093750 -0.006052603945136070251464843750 -0.002711335197091103033778525244 0 0 0 0 
2402833333.3333334923 0.166181832551956204513388115629 0.019147248938679698598841483204 -0.006338065490126609802246093750 -0.002577376551926136016845703125 0 0 0 0 
2403000000.0000000000 0.166766837239265386383380018742 0.017578043043613430368443673046 -0.006644037552177906036376953125 -0.002244024304673076109645224463 0 0 0 0 
2403166666.6666665077 0.167692542076110812088174384371 0.015965091064572330820103829296 -0.006830278784036636352539062500 -0.001875347224995494105695414966 0 0 0 0 
2403333333.3333334923 0.168493881821632413009481865629 0.014439733698964120692243007227 -0.006871986668556928634643554688 -0.001744546112604439041735004956 0 0 0 0 
2403500000.0000000000 0.169256463646888705154580634371 0.013084530830383300781250000000 -0.007030293811112642288208007812 -0.001435825601220130920410156250 0 0 0 0 
2403666666.6666665077 0.170174822211265591720419365629 0.011487068608403209341028983204 -0.007103075273334980010986328125 -0.001222614897415041923522949219 0 0 0 0 
2403833333.3333334923 0.171091228723526000976562500000 0.010166333988308910024622733204 -0.007264598272740840911865234375 -0.000841140397824347019195556641 0 0 0 0 
2404000000.0000000000 0.171847000718116788009481865629 0.009092915803194046020507812500 -0.007295635994523763656616210938 -0.000467553269118070602416992188 0 0 0 0 
2404166666.6666665077 0.172699466347694396972656250000 0.007861744612455368041992187500 -0.007468665950000286102294921875 -0.000040598297346150502562522888 0 0 0 0 
2404333333.3333334923 0.173508301377296503265057481258 0.006987541913986206054687500000 -0.007366045378148555755615234375 0.000227095370064489489227849139 0 0 0 0 
2404500000.0000000000 0.174319595098495511154013115629 0.005979760549962520599365234375 -0.007418848108500242233276367188 0.000607519759796559810638427734 0 0 0 0 
2404666666.6666665077 0.175110608339309692382812500000 0.005058143753558397293090820312 -0.007394209038466215133666992188 0.001143759931437670967699360425 0 0 0 0 
2404833333.3333334923 0.175916090607643099685830634371 0.004463886842131614685058593750 -0.007315285969525575637817382812 0.001593628781847655990003276294 0 0 0 0 
2405000000.0000000000 0.176720634102821405608807481258 0.003658225992694497108459472656 -0.007276306394487619400024414062 0.001813700073398649909375834888 0 0 0 0 
2405166666.6666665077 0.177533149719238309005575615629 0.003134027589112519784214638818 -0.007064807694405317306518554688 0.002133245579898356957676552881 0 0 0 0 
2405333333.3333334923 0.178338453173637390136718750000 0.002463473007082939147949218750 -0.006970284506678581237792968750 0.002618674188852310180664062500 0 0 0 0 
2405500000.0000000000 0.178908348083496093750000000000 0.002172849606722592873814248193 -0.006859152112156152725219726562 0.002638713922351599173304892432 0 0 0 0 
2405666666.6666665077 0.179498374462127713302450615629 0.001779981888830661990522075122 -0.006788063794374465942382812500 0.003208004403859376907348632812 0 0 0 0 
2405833333.3333334923 0.179717943072319003006143134371 0.001461232197470963001251220703 -0.006401288788765668869018554688 0.003470089752227067947387695312 0 0 0 0 
2406000000.0000000000 0.180355280637741088867187500000 0.001073492458090185902239155347 -0.006107531487941741943359375000 0.003786797169595956802368164062 0 0 0 0 
2406166666.6666665077 0.180677220225334195236044365629 0.001025724224746227047563862378 -0.005944349337369203567504882812 0.003798529272899032072779990088 0 0 0 0 
2406333333.3333334923 0.181032270193100003341513115629 0.000803394417744129896163940430 -0.005850481800734996795654296875 0.004220285452902317047119140625 0 0 0 0 
2406500000.0000000000 0.181116610765457208831463731258 0.000497019791509956121444702148 -0.005636324640363454818725585938 0.004417863208800554275512695312 0 0 0 0 
2406666666.6666665077 0.181201189756393404861611884371 0.000396928604459389990002232684 -0.005266699474304915341849042676 0.004590490367263556394095136426 0 0 0 0 
2406833333.3333334923 0.181158766150474603850994981258 0.000018246651961817409506047896 -0.005075784865766763687133789062 0.004926773719489574432373046875 0 0 0 0 
2407000000.0000000000 0.181214570999145507812500000000 -0.000215715423109941211625775748 -0.004888710565865039825439453125 0.005077619105577468872070312500 0 0 0 0 
2407166666.6666665077 0.181208357214927701095419365629 -0.000283609813777729923098963605 -0.004614080768078565597534179688 0.005300667136907578382010175488 0 0 0 0 
2407333333.3333334923 0.180839076638221712967080634371 -0.000739097129553556442260742188 -0.004552545025944709777832031250 0.005356132984161376953125000000 0 0 0 0 
2407500000.0000000000 0.180601760745048495193643134371 -0.001015330897644161961199116284 -0.004187628161162137985229492188 0.005556040443480014801025390625 0 0 0 0 
2407666666.6666665077 0.180236965417861910720986884371 -0.001422650762833655097364116138 -0.003719473257660865783691406250 0.005653121042996644973754882812 0 0 0 0 
2407833333.3333334923 0.179730221629142788986044365629 -0.001742004300467669963836669922 -0.003641013987362384796142578125 0.005820265039801597595214843750 0 0 0 0 
2408000000.0000000000 0.179287523031234713455361884371 -0.002421515295282005830052041162 -0.003239455632865428924560546875 0.005813681054860354337210370801 0 0 0 0 
2408166666.6666665077 0.178672939538955688476562500000 -0.002745512407273054122924804688 -0.003138237865641713142395019531 0.006142879370599985122680664062 0 0 0 0 
2408333333.3333334923 0.178204104304313687423544365629 -0.003397978143766521973850869287 -0.002824323019012808799743652344 0.005937751848250628385061933301 0 0 0 0 
2408500000.0000000000 0.177480101585388211349325615629 -0.004176289774477481842041015625 -0.002469559665769339041468954932 0.006148035172373056411743164062 0 0 0 0 
2408666666.6666665077 0.176767274737358093261718750000 -0.004988337866961956024169921875 -0.002177766291424632072448730469 0.006007332820445299148559570312 0 0 0 0 
2408833333.3333334923 0.175837650895118713378906250000 -0.005855181254446507367605878613 -0.001936716726049781062482524341 0.006263139657676219940185546875 0 0 0 0 
2409000000.0000000000 0.175122469663619995117187500000 -0.006855542305856943130493164062 -0.001749551505781709931017231519 0.006159433163702487945556640625 0 0 0 0 
2409166666.6666665077 0.174393802881240789215411268742 -0.007880563847720623016357421875 -0.001447646995075047016143798828 0.006153180729597806930541992188 0 0 0 0 
2409333333.3333334923 0.173657268285751287262286268742 -0.009138463996350765228271484375 -0.001066423254087566895725869287 0.005972921382635831832885742188 0 0 0 0 
2409500000.0000000000 0.172693058848380986969317518742 -0.010305479168891910207728201954 -0.000957721611484885215759277344 0.006054338067770004272460937500 0 0 0 0 
2409666666.6666665077 0.171795099973678588867187500000 -0.011767749674618240701695626171 -0.000782010960392653942108154297 0.006000223569571971893310546875 0 0 0 0 
2409833333.3333334923 0.170969992876052911956463731258 -0.012906761839985849207868007227 -0.000563277106266468763351440430 0.005889165680855512619018554688 0 0 0 0 
2410000000.0000000000 0.170212402939796503265057481258 -0.014449440874159339559534842579 -0.000148158520460128811284741812 0.005812610965222120285034179688 0 0 0 0 
2410166666.6666665077 0.169607445597648592849893134371 -0.016103994101285930978795235546 -0.000082961327279917895793914795 0.005843030754476785659790039062 0 0 0 0 
2410333333.3333334923 0.168847650289535494705361884371 -0.017810674384236339223841483204 0.000172660176758654388502398080 0.005801252089440822601318359375 0 0 0 0 
2410500000.0000000000 0.168194040656089810470419365629 -0.019476849585771560668945312500 0.000237277272390201687812805176 0.005694286432117223739624023438 0 0 0 0 
2410666666.6666665077 0.167509764432907104492187500000 -0.021235784515738490713099295704 0.000579253886826336383819580078 0.005622378084808588027954101562 0 0 0 0 
2410833333.3333334923 0.166817456483840886871661268742 -0.023199867457151409494420235546 0.000739002134650945663452148438 0.005521801766008138656616210938 0 0 0 0 
2411000000.0000000000 0.166342213749885586837606865629 -0.024852504953742030752161795704 0.000835558050312101840972900391 0.005430951248854398727416992188 0 0 0 0 
2411166666.6666665077 0.165903791785240201095419365629 -0.027030138298869129526158516796 0.000975292932707816362380981445 0.005205224733799695968627929688 0 0 0 0 
2411333333.3333334923 0.165568187832832308670205634371 -0.028746990486979491496999372657 0.001164665329270065047620463794 0.005252932664006949338431073926 0 0 0 0 
2411500000.0000000000 0.165461659431457491775674384371 -0.030778001993894580495814139454 0.001340885879471898078918457031 0.005246584303677082061767578125 0 0 0 0 
2411666666.6666665077 0.165275454521179199218750000000 -0.032812327146530151367187500000 0.001412215759046375968335795825 0.005111021455377340316772460938 0 0 0 0 
2411833333.3333334923 0.165034845471382113357705634371 -0.034706380218267440795898437500 0.001463465625420212962506938403 0.004997977521270514401907636426 0 0 0 0 
2412000000.0000000000 0.165010258555412292480468750000 -0.036931902170181267475168596093 0.001666756113991141102434467847 0.004922744352370501431936933301 0 0 0 0 
2412166666.6666665077 0.164973154664039611816406250000 -0.039030566811561577533762346093 0.001837498974055052020429301685 0.004825601354241371154785156250 0 0 0 0 
2412333333.3333334923 0.165361523628234891036825615629 -0.040918599814176559448242187500 0.001884855329990386962890625000 0.004815695341676473617553710938 0 0 0 0 
2412500000.0000000000 0.165242105722427395919638115629 -0.042817469686269760131835937500 0.001846148166805505969403911060 0.004800770431756973266601562500 0 0 0 0 
2412666666.6666665077 0.165623739361763000488281250000 -0.045080576092004782939870466407 0.002129012951627374129054404150 0.004598177969455718994140625000 0 0 0 0 
2412833333.3333334923 0.165888205170631408691406250000 -0.046794213354587561870534528907 0.002343718893826007843017578125 0.004557976499199867248535156250 0 0 0 0 
2413000000.0000000000 0.166290611028671292404013115629 -0.048642117530107498168945312500 0.002392721595242619948146201025 0.004413998220115900039672851562 0 0 0 0 
2413166666.6666665077 0.166704982519149808029013115629 -0.050481811165809631347656250000 0.002596070524305105209350585938 0.004295377526432275772094726562 0 0 0 0 
2413333333.3333334923 0.166972443461418207366619981258 -0.052231188863515846942942033593 0.002698489930480719046351767432 0.004260094370692968368530273438 0 0 0 0 
2413500000.0000000000 0.167460396885871887207031250000 -0.053889598697423941875417341407 0.002887262031435966925380087744 0.004096183925867080688476562500 0 0 0 0 
2413666666.6666665077 0.168153569102287292480468750000 -0.055457983165979392314870466407 0.003088173922151327133178710938 0.004132969304919242858886718750 0 0 0 0 
2413833333.3333334923 0.168688625097274808029013115629 -0.056932274252176291728932966407 0.003100357716903090910670615088 0.003976053558290004730224609375 0 0 0 0 
2414000000.0000000000 0.168979868292808504959268134371 -0.058518301695585250854492187500 0.003254355397075415091273642432 0.003655279288068414168116904150 0 0 0 0 
2414166666.6666665077 0.169736176729202298263388115629 -0.059814933687448501586914062500 0.003444616449996829032897949219 0.003734294325113296942469931494 0 0 0 0 
2414333333.3333334923 0.170261740684509305099325615629 -0.061053439974784851074218750000 0.003520661499351263046264648438 0.003606203710660337968113564600 0 0 0 0 
2414500000.0000000000 0.170994505286216708084268134371 -0.062194783240556716918945312500 0.003635824425145984129664755713 0.003235596464946866035461425781 0 0 0 0 
2414666666.6666665077 0.171457156538963290115518134371 -0.063186757266521453857421875000 0.003736456390470265908482216943 0.003165554720908402962925576318 0 0 0 0 
2414833333.3333334923 0.171929970383644104003906250000 -0.064308345317840576171875000000 0.003792931325733662085292197119 0.003134167753159999847412109375 0 0 0 0 
2415000000.0000000000 0.172397390007972689529580634371 -0.064978055655956268310546875000 0.003865993348881601853611611475 0.002841837238520383834838867188 0 0 0 0 
2415166666.6666665077 0.172844827175140408614950615629 -0.065780960023403167724609375000 0.004009603057056665420532226562 0.002754128072410821914672851562 0 0 0 0 
2415333333.3333334923 0.173417448997497586349325615629 -0.066604413092136383056640625000 0.004080613609403371810913085938 0.002737710718065499825718545068 0 0 0 0 
2415500000.0000000000 0.173755154013633700271768134371 -0.067103892564773559570312500000 0.004155845846980810165405273438 0.002413370180875062942504882812 0 0 0 0 
2415666666.6666665077 0.174035832285880986969317518742 -0.067611210048198699951171875000 0.004368747118860483169555664062 0.002364187967032194137573242188 0 0 0 0 
2415833333.3333334923 0.174341723322868402679119981258 -0.068080618977546691894531250000 0.004249881487339735031127929688 0.002054650569334626197814941406 0 0 0 0 
2416000000.0000000000 0.174420610070228604415731865629 -0.068344593048095703125000000000 0.004357771016657351580148027637 0.002033470431342720985412597656 0 0 0 0 
2416166666.6666665077 0.174624845385551508147869981258 -0.068764023482799530029296875000 0.004478781018406152725219726562 0.001947181182913481972338032300 0 0 0 0 
2416333333.3333334923 0.174562245607376098632812500000 -0.068995393812656402587890625000 0.004593702498823404312133789062 0.001758271595463156916974711841 0 0 0 0 
2416500000.0000000000 0.174453914165496798416299384371 -0.069333970546722412109375000000 0.004514732398092746734619140625 0.001592521672137082056758261572 0 0 0 0 
2416666666.6666665077 0.174196690320968600174111884371 -0.069291234016418457031250000000 0.004562350455671548843383789062 0.001333664986304939010022807544 0 0 0 0 
2416833333.3333334923 0.174229547381401089767294365629 -0.069660469889640808105468750000 0.004649586044251918792724609375 0.001060326583683490970014262622 0 0 0 0 
2417000000.0000000000 0.173590496182441711425781250000 -0.069804891943931579589843750000 0.004707937594503164291381835938 0.000899901730008423328399658203 0 0 0 0 
2417166666.6666665077 0.173179596662521390060263115629 -0.069738648831844329833984375000 0.004580675624310970306396484375 0.000777034263592213392257690430 0 0 0 0 
2417333333.3333334923 0.172680720686912508865518134371 -0.069913990795612335205078125000 0.004629092756658793363089277051 0.000522638496477156877517700195 0 0 0 0 
2417500000.0000000000 0.171904131770133999923544365629 -0.070173136889934539794921875000 0.004503857810050249099731445312 0.000395300856325775384902954102 0 0 0 0 
2417666666.6666665077 0.171224445104598999023437500000 -0.070146970450878143310546875000 0.004698070231825113296508789062 0.000131589273223653408602037973 0 0 0 0 
2417833333.3333334923 0.170430749654769897460937500000 -0.070345014333724975585937500000 0.004454521462321281433105468750 0.000091502588475123047828674316 0 0 0 0 
2418000000.0000000000 0.169479146599769592285156250000 -0.070552214980125427246093750000 0.004553987178951501846313476562 -0.000110438304545823498211722102 0 0 0 0 
2418166666.6666665077 0.168456405401229886154013115629 -0.070611827075481414794921875000 0.004439071286469697952270507812 -0.000113543319457676302321018358 0 0 0 0 
2418333333.3333334923 0.167622223496437100509481865629 -0.070941790938377380371093750000 0.004329975694417954358572675488 -0.000413302041124552488327026367 0 0 0 0 
2418500000.0000000000 0.166344463825225802322549384371 -0.071199700236320495605468750000 0.004212124273180961608886718750 -0.000569386000279337167739868164 0 0 0 0 
2418666666.6666665077 0.165297076106071499923544365629 -0.071586355566978454589843750000 0.004269985482096672058105468750 -0.000770147482398897409439086914 0 0 0 0 
2418833333.3333334923 0.163847580552101107498330634371 -0.072122715413570404052734375000 0.004251190926879644393920898438 -0.000823458307422697544097900391 0 0 0 0 
2419000000.0000000000 0.162482857704162597656250000000 -0.072489075362682342529296875000 0.004189099185168743133544921875 -0.000944147701375186443328857422 0 0 0 0 
2419166666.6666665077 0.161364018917083712478799384371 -0.073243841528892517089843750000 0.004066933412104845046997070312 -0.001199009944684803919551230322 0 0 0 0 
2419333333.3333334923 0.159852281212806701660156250000 -0.073505394160747528076171875000 0.004010948818176984786987304688 -0.001204943982884288051007914966 0 0 0 0 
2419500000.0000000000 0.158498778939247103592080634371 -0.074486605823040008544921875000 0.004054372198879718780517578125 -0.001363550662063061974169086987 0 0 0 0 
2419666666.6666665077 0.157258078455924987792968750000 -0.075366057455539703369140625000 0.003821454243734478950500488281 -0.001532825524918735027313232422 0 0 0 0 
2419833333.3333334923 0.155872881412506103515625000000 -0.076196342706680297851562500000 0.003802273655310273170471191406 -0.001588250044733285903930664062 0 0 0 0 
