# Hz S RI R 
2400000000.0000000000 0.167704552412033108810263115629 0.041163902729749679565429687500 -0.000493172032292932271957397461 -0.002650573384016751809361123193 0 0 0 0 
2400166666.6666665077 0.168370217084884588043536268742 0.040634699165821082378347028907 -0.000622181047219783067703247070 -0.002863249741494656042811728369 0 0 0 0 
2400333333.3333334923 0.168985590338706997970419365629 0.039424687623977661132812500000 -0.000600420229602605104446411133 -0.002632623305544257164001464844 0 0 0 0 
2400500000.0000000000 0.169340401887893704513388115629 0.038697179406881332397460937500 -0.000630423484835773706436157227 -0.002737154485657811164855957031 0 0 0 0 
2400666666.6666665077 0.169620931148529108245526231258 0.037769425660371780395507812500 -0.000461763847852125818103236066 -0.002596296370029449896571493994 0 0 0 0 
2400833333.3333334923 0.170348390936851501464843750000 0.037087004631757743144948591407 -0.000540079956408590078353881836 -0.002683781087398529052734375000 0 0 0 0 
2401000000.0000000000 0.170473173260688809493856865629 0.036087587475776672363281250000 -0.000788661243859678506851196289 -0.002727861749008297920227050781 0 0 0 0 
2401166666.6666665077 0.170854210853576687911825615629 0.035024344921112060546875000000 -0.000658734992612153291702270508 -0.002787761623039842085597372900 0 0 0 0 
2401333333.3333334923 0.171011105179786709884481865629 0.034302964806556701660156250000 -0.000794163555838167667388916016 -0.002689301501959561867954873193 0 0 0 0 
2401500000.0000000000 0.171280041337013189117755018742 0.033369518816471099853515625000 -0.000829015101771801710128784180 -0.002746792510151863098144531250 0 0 0 0 
2401666666.6666665077 0.171441808342933710296307481258 0.032557725906372070312500000000 -0.000912584480829536914825439453 -0.002670329529792069955113076318 0 0 0 0 
2401833333.3333334923 0.171566396951675387283486884371 0.031534131616353988647460937500 -0.000933766714297235012054443359 -0.002625606255605816841125488281 0 0 0 0 
2402000000.0000000000 0.171253815293312100509481865629 0.030702576041221618652343750000 -0.000875137280672788619995117188 -0.002741550328209995789768838037 0 0 0 0 
2402166666.6666665077 0.171635851263999911209268134371 0.029469544067978858947753906250 -0.001130504999309777996660542065 -0.002647821558639407157897949219 0 0 0 0 
2402333333.3333334923 0.171441853046417208572549384371 0.028804974630475040781041329296 -0.001041170442476869063136435400 -0.002699007978662848906276083838 0 0 0 0 
2402500000.0000000000 0.171652406454086303710937500000 0.027677562087774280202845389454 -0.001120909233577550108071352319 -0.002539178589358925819396972656 0 0 0 0 
2402666666.6666665077 0.171636968851089505294638115629 0.026727380231022841716725935157 -0.001183682703413069031359028394 -0.002556882565841079191920615088 0 0 0 0 
2402833333.3333334923 0.171512335538864107986611884371 0.025960788130760189401646798046 -0.001261687721125781969783163916 -0.002505707787349820137023925781 0 0 0 0 
2403000000.0000000000 0.171568617224693298339843750000 0.024603191763162609445592110546 -0.001190350740216671986820839990 -0.002413915470242499871494912256 0 0 0 0 
2403166666.6666665077 0.171454653143882806975994981258 0.023531140759587291372278983204 -0.001152937766164541027666401440 -0.002575836842879652976989746094 0 0 0 0 
2403333333.3333334923 0.171455591917037991622763115629 0.022500518709421161306361014454 -0.001249259104952215931536030347 -0.002488647121936082839965820312 0 0 0 0 
2403500000.0000000000 0.171110928058624295333700615629 0.021256338804960250854492187500 -0.001187026966363192038295126807 -0.002527880715206265015843056787 0 0 0 0 
2403666666.6666665077 0.171202704310417203048544365629 0.019800389185547828674316406250 -0.001246168627403676943538046729 -0.002502695657312870025634765625 0 0 0 0 
2403833333.3333334923 0.171187296509742709060830634371 0.018747156485915180551549141796 -0.001386838848702609972712851416 -0.002594079356640576882603310693 0 0 0 0 
2404000000.0000000000 0.170831575989723205566406250000 0.017415456473827358591099923046 -0.001312392880208790085436176831 -0.002796154934912919998168945312 0 0 0 0 
2404166666.6666665077 0.170954048633575411697549384371 0.016061296686530109750767891796 -0.001487498171627521948573447119 -0.002982961013913155035731650244 0 0 0 0 
2404333333.3333334923 0.170707285404205294510049384371 0.014825549907982349395751953125 -0.001565908896736801104304648291 -0.002823147457092999978306435693 0 0 0 0 
2404500000.0000000000 0.170482158660888699630575615629 0.013278708793222900735875313671 -0.001874395878985523960710835034 -0.003058808855712413787841796875 0 0 0 0 
2404666666.6666665077 0.170466288924217196365518134371 0.012026607990264890843401524023 -0.001888302504085003896000527490 -0.003198857419192790985107421875 0 0 0 0 
2404833333.3333334923 0.170415535569191006759481865629 0.010572251863777639216412929102 -0.001982809742912650108337402344 -0.003071018261834979057312011719 0 0 0 0 
2405000000.0000000000 0.170406669378280611892861884371 0.009078602306544780731201171875 -0.002114857779815793037414550781 -0.003082773648202418847324990381 0 0 0 0 
2405166666.6666665077 0.170272365212440490722656250000 0.007427797187119722366333007812 -0.002212139079347252845764160156 -0.003070014296099544005153036963 0 0 0 0 
2405333333.3333334923 0.170265242457389803787393134371 0.005999580956995487213134765625 -0.002314740093424915833714150537 -0.002993955276906489892246865381 0 0 0 0 
2405500000.0000000000 0.170164838433265713790731865629 0.004491028841584920883178710938 -0.002576877130195498900172568213 -0.002854309277608991102931357275 0 0 0 0 
2405666666.6666665077 0.170281663537025507171307481258 0.002941414946690202193019247900 -0.002792998217046260833740234375 -0.002768193604424595832824707031 0 0 0 0 
2405833333.3333334923 0.170202076435089111328125000000 0.001448160503059626059291220557 -0.002905767876654862923863076318 -0.002980100689455866813659667969 0 0 0 0 
2406000000.0000000000 0.170183151960372897049111884371 -0.000403369544073939323425292969 -0.003072263905778526826145791162 -0.002644273918122053146362304688 0 0 0 0 
2406166666.6666665077 0.169964998960494995117187500000 -0.001773732830770313956617045825 -0.003224318847060203985926962744 -0.002768242033198475837707519531 0 0 0 0 
2406333333.3333334923 0.170129850506782503982705634371 -0.003359859110787510871887207031 -0.003521338338032364845275878906 -0.002621944528073071999790810693 0 0 0 0 
2406500000.0000000000 0.169823572039604187011718750000 -0.005119938403367996215820312500 -0.003627756843343377113342285156 -0.002469998085871338844299316406 0 0 0 0 
2406666666.6666665077 0.169547945261001586914062500000 -0.006443547084927558898925781250 -0.003718684427440166907069540869 -0.002464602701365948157069540869 0 0 0 0 
2406833333.3333334923 0.169450417160987909515057481258 -0.008166980929672718048095703125 -0.003894393332302569909336709131 -0.002290358301252127127406454932 0 0 0 0 
2407000000.0000000000 0.169379353523254394531250000000 -0.009535756893455982208251953125 -0.004031122196465730667114257812 -0.002114280592650175094604492188 0 0 0 0 
2407166666.6666665077 0.169245302677154513260049384371 -0.010988540016114710026751133398 -0.004117557313293218612670898438 -0.001937780878506601073621440356 0 0 0 0 
2407333333.3333334923 0.169044002890586908538494981258 -0.012452281080186370504359061329 -0.004259141162037849426269531250 -0.001712986268103122928022075122 0 0 0 0 
2407500000.0000000000 0.168912336230277987381143134371 -0.013613555580377580470075038477 -0.004318905994296073913574218750 -0.001763302367180586078046489185 0 0 0 0 
2407666666.6666665077 0.168636649847030611892861884371 -0.014850397594273090362548828125 -0.004378512036055327329153730176 -0.001543609541840851090074848706 0 0 0 0 
2407833333.3333334923 0.168334856629371587555255018742 -0.016061056405305858957310860546 -0.004452951718121767044067382812 -0.001377398613840342001674033057 0 0 0 0 
2408000000.0000000000 0.168294921517372103592080634371 -0.017267379909753799438476562500 -0.004546612501144409179687500000 -0.001061699120327830097795795972 0 0 0 0 
2408166666.6666665077 0.168168440461158807952557481258 -0.017981352284550670278528983204 -0.004553010221570730209350585938 -0.000916447781492024660110473633 0 0 0 0 
2408333333.3333334923 0.168252140283584594726562500000 -0.019118005409836769104003906250 -0.004595627542585135373587323926 -0.000859654159285128116607666016 0 0 0 0 
2408500000.0000000000 0.168164387345313998123330634371 -0.020005706697702411306361014454 -0.004743684548884630203247070312 -0.000637130578979849815368652344 0 0 0 0 
2408666666.6666665077 0.168193414807319613357705634371 -0.020936919376254081726074218750 -0.004770456347614526748657226562 -0.000437359325587749481201171875 0 0 0 0 
2408833333.3333334923 0.168111994862556513030682481258 -0.021891625598073009145716483204 -0.004911306779831647872924804688 -0.000253192731179297024577540265 0 0 0 0 
2409000000.0000000000 0.168330654501915005782919365629 -0.022550018504261970520019531250 -0.004902289714664220809936523438 0.000028572456358233470132554702 0 0 0 0 
2409166666.6666665077 0.168465733528137207031250000000 -0.023536596447229388845423514454 -0.004905238281935453414916992188 0.000246917130425572395324707031 0 0 0 0 
2409333333.3333334923 0.168710306286811800857705634371 -0.024419352412223819387415701954 -0.005003231577575206756591796875 0.000506552227307111024856567383 0 0 0 0 
2409500000.0000000000 0.168639153242111206054687500000 -0.025186091661453250539759451954 -0.005036104470491409301757812500 0.000781027250923216342926025391 0 0 0 0 
2409666666.6666665077 0.168782040476799011230468750000 -0.026102578267455101013183593750 -0.004876587539911270141601562500 0.001021247357130051092860556494 0 0 0 0 
2409833333.3333334923 0.168857365846633911132812500000 -0.026922702789306640625000000000 -0.004811029881238937377929687500 0.001141678891144692897796630859 0 0 0 0 
2410000000.0000000000 0.169066667556762695312500000000 -0.027834534645080569875696951954 -0.004958408884704113006591796875 0.001463032094761729023577045972 0 0 0 0 
2410166666.6666665077 0.169107690453529413421307481258 -0.028847400099039081228236014454 -0.004617347847670316696166992188 0.001692434423603117899653769385 0 0 0 0 
2410333333.3333334923 0.169149860739708002288494981258 -0.029491998255252841604212576954 -0.004572227131575345993041992188 0.002116713905707002119777060400 0 0 0 0 
2410500000.0000000000 0.169267237186431912521200615629 -0.030530311167240139352818673046 -0.004356900695711374282836914062 0.002272717421874403953552246094 0 0 0 0 
2410666666.6666665077 0.169091403484344510177450615629 -0.031504642218351357196848283593 -0.004429425578564404573922441699 0.002409459790214896202087402344 0 0 0 0 
2410833333.3333334923 0.168867647647857693771200615629 -0.032193433493375778198242187500 -0.003956404514610767364501953125 0.002705957507714629173278808594 0 0 0 0 
2411000000.0000000000 0.168786019086837796310263115629 -0.033376231789588928222656250000 -0.003912374842911958694458007812 0.003003176068887114958522177588 0 0 0 0 
2411166666.6666665077 0.168653085827827509124432481258 -0.034360364079475402832031250000 -0.003699997439980506896972656250 0.003121914342045783996582031250 0 0 0 0 
2411333333.3333334923 0.168550103902816800216513115629 -0.035034403204917907714843750000 -0.003325298661366105079650878906 0.003317014081403613090515136719 0 0 0 0 
2411500000.0000000000 0.168201744556427001953125000000 -0.036046713590621948242187500000 -0.003127269679680467085597372900 0.003418282605707644982578896631 0 0 0 0 
2411666666.6666665077 0.168131411075592013260049384371 -0.036975909024477011943776716407 -0.002772790612652897834777832031 0.003483921289443970160243368994 0 0 0 0 
2411833333.3333334923 0.167777881026268005371093750000 -0.037797320634126663208007812500 -0.002318433718755840821507119287 0.003600599709898232980015420068 0 0 0 0 
2412000000.0000000000 0.167593896389007596114950615629 -0.038687575608491897583007812500 -0.002200718736276030974147177588 0.003692204132676125006434775244 0 0 0 0 
2412166666.6666665077 0.167287200689315795898437500000 -0.039510712027549736713449846093 -0.001979361288249493078944540869 0.003464627312496304945704794775 0 0 0 0 
2412333333.3333334923 0.167077094316482488434161268742 -0.040655259042978286743164062500 -0.001598793664015829996821738135 0.003466515801846981048583984375 0 0 0 0 
2412500000.0000000000 0.166608706116676302810830634371 -0.041486039757728576660156250000 -0.001276583061553538062452006763 0.003271233523264526887180947412 0 0 0 0 
2412666666.6666665077 0.166367560625076293945312500000 -0.042563483119010932231862653907 -0.001030469778925180001499795068 0.003060245653614401817321777344 0 0 0 0 
2412833333.3333334923 0.166021704673767089843750000000 -0.043411057442426681518554687500 -0.000855974329169839620590209961 0.002971358597278594970703125000 0 0 0 0 
2413000000.0000000000 0.165435463190078707595986884371 -0.044385753571987152099609375000 -0.000738744623959064483642578125 0.002832632279023528099060058594 0 0 0 0 
2413166666.6666665077 0.164894148707389803787393134371 -0.045471232384443283081054687500 -0.000689060136210173368453979492 0.002346731722354888916015625000 0 0 0 0 
2413333333.3333334923 0.164425939321517888824786268742 -0.046497993171215057373046875000 -0.000667572254315018653869628906 0.002141277538612484931945800781 0 0 0 0 
2413500000.0000000000 0.163980752229690607268963731258 -0.047583777457475662231445312500 -0.000744142977055162191390991211 0.002228515222668648199794150244 0 0 0 0 
2413666666.6666665077 0.163599461317062405685263115629 -0.048550382256507866596262346093 -0.000865253619849681854248046875 0.001959062181413174109217978369 0 0 0 0 
2413833333.3333334923 0.163143679499626187423544365629 -0.049478035420179367065429687500 -0.000741450581699609756469726562 0.001804901403374969959259033203 0 0 0 0 
2414000000.0000000000 0.162559479475021390060263115629 -0.050429228693246841430664062500 -0.001037403708323835892918252100 0.001672175480052829005597758716 0 0 0 0 
2414166666.6666665077 0.162434443831443786621093750000 -0.051464486867189407348632812500 -0.000951616326346993446350097656 0.001702670822851360061048198169 0 0 0 0 
2414333333.3333334923 0.162008956074714688400106865629 -0.052425328642129898071289062500 -0.001161901047453284046770405347 0.001534236245788634040235209888 0 0 0 0 
2414500000.0000000000 0.161815598607063293457031250000 -0.053283140063285827636718750000 -0.001195796416141092994092631763 0.001626318669877945943119668115 0 0 0 0 
2414666666.6666665077 0.161316111683845492263955634371 -0.054333094507455832744557966407 -0.001181300147436558983446430737 0.001782690058462321975110698169 0 0 0 0 
2414833333.3333334923 0.161044150590896606445312500000 -0.055398706346750259399414062500 -0.001182415755465626933454204028 0.001694461563602090098737407153 0 0 0 0 
2415000000.0000000000 0.160811200737953213790731865629 -0.056259389966726303100585937500 -0.001220279140397906086565327222 0.001774220610968769030330038916 0 0 0 0 
2415166666.6666665077 0.160587966442108209808026231258 -0.057502057403326041484792341407 -0.001369181554764508984209370190 0.001583076315000653050066303784 0 0 0 0 
2415333333.3333334923 0.160572811961174011230468750000 -0.058679495006799697875976562500 -0.001462361426092684052110981519 0.001735251280479132912279438550 0 0 0 0 
2415500000.0000000000 0.160475686192512512207031250000 -0.059593919664621353149414062500 -0.001472030882723629908320761572 0.001661315793171525001525878906 0 0 0 0 
2415666666.6666665077 0.160343229770660400390625000000 -0.060753863304853439331054687500 -0.001320650335401297049281454932 0.001891926396638154983520507812 0 0 0 0 
2415833333.3333334923 0.160146191716194208343182481258 -0.062126100063323981548268903907 -0.001570653636008501052856445312 0.001760499668307601971867226709 0 0 0 0 
2416000000.0000000000 0.159865155816078213790731865629 -0.063289009034633636474609375000 -0.001461650477722286961199116284 0.001764119253493845896479941260 0 0 0 0 
2416166666.6666665077 0.159864738583564813811932481258 -0.064506299793720245361328125000 -0.001622624578885734081268310547 0.001661098911426960988285683740 0 0 0 0 
2416333333.3333334923 0.159570574760437011718750000000 -0.065611660480499267578125000000 -0.001635768217965960936305380713 0.001855993876233696937561035156 0 0 0 0 
2416500000.0000000000 0.159191876649856595138388115629 -0.066883869469165802001953125000 -0.001752262469381093978881835938 0.001882395707070827917811728369 0 0 0 0 
2416666666.6666665077 0.158942386507988003829794365629 -0.068133175373077392578125000000 -0.001790441572666167996050190503 0.002122448058798909187316894531 0 0 0 0 
2416833333.3333334923 0.158743485808372497558593750000 -0.069351971149444580078125000000 -0.001958691049367188973667763818 0.002189836231991649107692099463 0 0 0 0 
2417000000.0000000000 0.158224090933799688141192518742 -0.070485055446624755859375000000 -0.001957722706720232963562011719 0.002213333500549197196960449219 0 0 0 0 
2417166666.6666665077 0.157893523573875399490518134371 -0.071453802287578582763671875000 -0.002014502184465527968165732275 0.002501327311620115800144814600 0 0 0 0 
2417333333.3333334923 0.157617658376693697830361884371 -0.072455838322639465332031250000 -0.002017928753048181967494345557 0.002758932299911975860595703125 0 0 0 0 
2417500000.0000000000 0.157146587967872591873330634371 -0.073421835899353027343750000000 -0.001975693739950656890869140625 0.002898884005844593048095703125 0 0 0 0 
2417666666.6666665077 0.157053127884864807128906250000 -0.074272684752941131591796875000 -0.001877370523288846015930175781 0.003119463333860040144679404150 0 0 0 0 
2417833333.3333334923 0.156577408313751192947549384371 -0.075088813900947570800781250000 -0.001887130900286138057708740234 0.003283489495515822930576943506 0 0 0 0 
2418000000.0000000000 0.156263947486877413650674384371 -0.076154246926307678222656250000 -0.001669807825237513022181845557 0.003512986470013856887817382812 0 0 0 0 
2418166666.6666665077 0.155958712100982693771200615629 -0.076681248843669891357421875000 -0.001554606715217232921003032153 0.003529253881424665884730673682 0 0 0 0 
2418333333.3333334923 0.155985862016677911956463731258 -0.077598631381988525390625000000 -0.001418474595993757031084370190 0.003791571361944078965428017725 0 0 0 0 
2418500000.0000000000 0.155446067452430697342080634371 -0.078493833541870117187500000000 -0.001181467203423381068586039966 0.003903352189809083938598632812 0 0 0 0 
2418666666.6666665077 0.155373454093933105468750000000 -0.079172335565090179443359375000 -0.000944960571359843015670776367 0.004006380215287209424490644238 0 0 0 0 
2418833333.3333334923 0.154855370521545410156250000000 -0.079895734786987304687500000000 -0.000830466684419661760330200195 0.004105062223970890045166015625 0 0 0 0 
2419000000.0000000000 0.154568836092948913574218750000 -0.080569803714752197265625000000 -0.000583494373131543397903442383 0.004181679338216781616210937500 0 0 0 0 
2419166666.6666665077 0.154221802949905395507812500000 -0.081327065825462341308593750000 -0.000274762132903560996055603027 0.004212166648358106613159179688 0 0 0 0 
2419333333.3333334923 0.153817161917686490157919365629 -0.081750281155109405517578125000 -0.000149785890243947505950927734 0.004333691205829381942749023438 0 0 0 0 
2419500000.0000000000 0.153531998395919799804687500000 -0.082493349909782409667968750000 0.000252378114964812994003295898 0.004339987412095069885253906250 0 0 0 0 
2419666666.6666665077 0.153240457177162198165731865629 -0.083245046436786651611328125000 0.000297487946227192878723144531 0.004268610849976539611816406250 0 0 0 0 
2419833333.3333334923 0.152834638953208895584268134371 -0.083592504262924194335937500000 0.000527540454640984535217285156 0.004067933186888694763183593750 0 0 0 0 
