# Hz S RI R 
2400000000.0000000000 0.163418903946876498123330634371 0.057563360780477516864817033593 0.003164957743138074874877929688 0.002856881823390721841099404443 0 0 0 0 
2400166666.6666665077 0.163535460829734802246093750000 0.056046202778816223144531250000 0.003216434270143508911132812500 0.002922399202361702919006347656 0 0 0 0 
2400333333.3333334923 0.163487255573272705078125000000 0.054435934871435172344167341407 0.003183073364198207855224609375 0.002984829014167190031764365088 0 0 0 0 
2400500000.0000000000 0.163360625505447387695312500000 0.052827585488557822490651716407 0.003597469069063663916346884619 0.002985690487548708915710449219 0 0 0 0 
2400666666.6666665077 0.163199394941330011565838731258 0.051051296293735497211496721093 0.003615825669839977784397744287 0.003109212731942534013035439600 0 0 0 0 
2400833333.3333334923 0.163401573896408108810263115629 0.049391508102416992187500000000 0.003669952275231481032130576025 0.003039379604160786108729697119 0 0 0 0 
2401000000.0000000000 0.163337007164955111404580634371 0.047663725912570953369140625000 0.003926711156964302062988281250 0.003078743349760770797729492188 0 0 0 0 
2401166666.6666665077 0.163431942462921087066973768742 0.045700918883085250854492187500 0.004061124753206968307495117188 0.003051732899621129035949707031 0 0 0 0 
2401333333.3333334923 0.163299635052680996993856865629 0.044057223945856087421457658593 0.004304168280214071273803710938 0.003096344647929071946385048975 0 0 0 0 
2401500000.0000000000 0.163647487759590204436932481258 0.042144894599914550781250000000 0.004296385217458009719848632812 0.002978475298732519149780273438 0 0 0 0 
2401666666.6666665077 0.163638770580291803558026231258 0.040440633893013000488281250000 0.004553178790956735610961914062 0.002950669964775443077087402344 0 0 0 0 
2401833333.3333334923 0.163883596658706692794638115629 0.038479909300804138183593750000 0.004731044173240661621093750000 0.003017519833520054817199707031 0 0 0 0 
2402000000.0000000000 0.163706973195075988769531250000 0.036784898489713668823242187500 0.004983644001185894012451171875 0.002716539660468697981593466650 0 0 0 0 
2402166666.6666665077 0.164014726877212496658486884371 0.034957557916641242290456403907 0.005061550065875053405761718750 0.002742406213656067848205566406 0 0 0 0 
2402333333.3333334923 0.164137810468673706054687500000 0.033373814076185233379323591407 0.005259959958493710431570722363 0.002506487304344772858860634912 0 0 0 0 
2402500000.0000000000 0.164706379175186212737713731258 0.031499743461608886718750000000 0.005433658603578805923461914062 0.002435714704915881156921386719 0 0 0 0 
2402666666.6666665077 0.164964616298675509353799384371 0.029967859387397769582728201954 0.005675657652318477630615234375 0.002242059446871281103846884619 0 0 0 0 
2402833333.3333334923 0.165473267436027499099893134371 0.028453769162297248840332031250 0.005894570611417294415945722363 0.001991481287404894828796386719 0 0 0 0 
2403000000.0000000000 0.166022315621376009842080634371 0.026710927486419681203821951954 0.006039893720299006375784589551 0.001821483136154711029650044019 0 0 0 0 
2403166666.6666665077 0.166492030024528503417968750000 0.025211207568645480764368826954 0.006245245225727558135986328125 0.001503734849393367984174418872 0 0 0 0 
2403333333.3333334923 0.166917800903320312500000000000 0.023852314800024029123326485546 0.006317249499261379241943359375 0.001388594741001724979997944409 0 0 0 0 
2403500000.0000000000 0.167373836040496798416299384371 0.022424956783652309072474295704 0.006591982673853635787963867188 0.001174127915874124006984091650 0 0 0 0 
2403666666.6666665077 0.167975798249244689941406250000 0.020745981484651569021204764454 0.006546385586261749267578125000 0.000952800153754651546478271484 0 0 0 0 
2403833333.3333334923 0.168742030858993502517861884371 0.019586130976676940917968750000 0.006416336167603731155395507812 0.000618455582298338413238525391 0 0 0 0 
2404000000.0000000000 0.169334873557090787032919365629 0.018363287672400481487233747657 0.006563556846231222152709960938 0.000308661983581259900897425519 0 0 0 0 
2404166666.6666665077 0.169823735952377291580361884371 0.017087822780013080942174141796 0.006696896161884068575387285449 0.000067697852500714361667633057 0 0 0 0 
2404333333.3333334923 0.170300632715225191970986884371 0.015980171039700511587122733204 0.006773303728550673398489667676 -0.000351810827851295525401514874 0 0 0 0 
2404500000.0000000000 0.170940056443214388748330634371 0.014733464457094669342041015625 0.006749968975782394409179687500 -0.000549015763681381940841674805 0 0 0 0 
2404666666.6666665077 0.171830505132675198654013115629 0.013861484825611119706123552930 0.006651637610048055648803710938 -0.000923838233575224876403808594 0 0 0 0 
2404833333.3333334923 0.172365859150886507888955634371 0.012691819109022620809534842579 0.006627695634961128234863281250 -0.001113448408432305076001811450 0 0 0 0 
2405000000.0000000000 0.173026561737060602386151231258 0.011899940669536590576171875000 0.006433884147554636001586914062 -0.001518605393357574939727783203 0 0 0 0 
2405166666.6666665077 0.173690855503082303146200615629 0.011071325279772279912005039648 0.006511453539133071899414062500 -0.001679937005974351926090859521 0 0 0 0 
2405333333.3333334923 0.174318447709083612640057481258 0.010165663436055179941197579296 0.006397993769496679306030273438 -0.001835136325098573944689106519 0 0 0 0 
2405500000.0000000000 0.174837306141853304763955634371 0.009530861862003803253173828125 0.006248286925256252288818359375 -0.002109866356477140946629189600 0 0 0 0 
2405666666.6666665077 0.175337836146354703048544365629 0.008796442300081253051757812500 0.006035647355020046234130859375 -0.002193599473685026168823242188 0 0 0 0 
2405833333.3333334923 0.175874769687652587890625000000 0.008246758021414279937744140625 0.006017618346959353360647870801 -0.002452703425660728974583291162 0 0 0 0 
2406000000.0000000000 0.176358997821807889083700615629 0.007607505656778812408447265625 0.005923205055296421051025390625 -0.002548479940742253823521279443 0 0 0 0 
2406166666.6666665077 0.176647126674652099609375000000 0.007256209384649991989135742188 0.005724567919969558715820312500 -0.002498417627066373825073242188 0 0 0 0 
2406333333.3333334923 0.177215442061424310882244981258 0.006656508427113294601440429688 0.005709615070372819900512695312 -0.002982675330713390870335244287 0 0 0 0 
2406500000.0000000000 0.177476525306701687911825615629 0.006182896904647350311279296875 0.005497725680470466613769531250 -0.003024842124432324929478310693 0 0 0 0 
2406666666.6666665077 0.177598595619201687911825615629 0.005647697020322084426879882812 0.005373081192374229431152343750 -0.003330322913825511932373046875 0 0 0 0 
2406833333.3333334923 0.177928104996681213378906250000 0.005071659106761217117309570312 0.005426453892141580581665039062 -0.003248100867494941191432333838 0 0 0 0 
2407000000.0000000000 0.178171202540397588531817518742 0.004558655899018049240112304688 0.005211143754422664642333984375 -0.003576313843950628800633095850 0 0 0 0 
2407166666.6666665077 0.178316891193389892578125000000 0.004141341429203748703002929688 0.005191990640014410018920898438 -0.003475608304142951965332031250 0 0 0 0 
2407333333.3333334923 0.178286388516426086425781250000 0.003600317751988769011256552588 0.004927874077111482620239257812 -0.003687631338834763006923056494 0 0 0 0 
2407500000.0000000000 0.178244784474372891525106865629 0.003242319915443658828735351562 0.004898359999060630798339843750 -0.003727862611413002014160156250 0 0 0 0 
2407666666.6666665077 0.178220212459564208984375000000 0.002644501393660902976989746094 0.004750076681375504407400800488 -0.003882620716467500166652060400 0 0 0 0 
2407833333.3333334923 0.177939787507057189941406250000 0.001910234452225268103955913013 0.004596728365868330001831054688 -0.004030501935631036758422851562 0 0 0 0 
2408000000.0000000000 0.177860915660858209808026231258 0.001245137071236968040466308594 0.004392066504806280136108398438 -0.004071918781846761703491210938 0 0 0 0 
2408166666.6666665077 0.177615910768508911132812500000 0.000710767460986971855163574219 0.004468556959182024002075195312 -0.004225216805934906005859375000 0 0 0 0 
2408333333.3333334923 0.177460744976997403243856865629 -0.000088160129962489008903503418 0.004139525350183249387259198926 -0.004421841818839311599731445312 0 0 0 0 
2408500000.0000000000 0.177043169736862210372763115629 -0.000959291821345686912536621094 0.004186538048088550567626953125 -0.004405429121106863021850585938 0 0 0 0 
2408666666.6666665077 0.176725685596466092208700615629 -0.001761571737006307081935263525 0.004027725663036108016967773438 -0.004441114608198404312133789062 0 0 0 0 
2408833333.3333334923 0.176146328449249295333700615629 -0.002660449128597975210902548682 0.003849455621093512015101767432 -0.004550718236714602384085370801 0 0 0 0 
2409000000.0000000000 0.175602644681930486481036268742 -0.003632258391007781028747558594 0.003818258410319685935974121094 -0.004619798157364130020141601562 0 0 0 0 
2409166666.6666665077 0.175403699278831509689169365629 -0.004641865380108357343191816113 0.003707683179527521133422851562 -0.004640097729861736297607421875 0 0 0 0 
2409333333.3333334923 0.174908250570297213455361884371 -0.005546147469431161880493164062 0.003546215826645493941066122900 -0.004844768438488245010375976562 0 0 0 0 
2409500000.0000000000 0.174426242709159906585369981258 -0.006865858100354672345633222363 0.003430342068895698027369833838 -0.004779178183525800704956054688 0 0 0 0 
2409666666.6666665077 0.173750266432762201507244981258 -0.008005205541849136352539062500 0.003521301783621311187744140625 -0.004918206948786973953247070312 0 0 0 0 
2409833333.3333334923 0.173243880271911593338174384371 -0.009178978390991687774658203125 0.003224809886887669996974326025 -0.005014210008084774017333984375 0 0 0 0 
2410000000.0000000000 0.172837227582931490799111884371 -0.010571976192295549565325352148 0.003456555772572755813598632812 -0.004971738904714584350585937500 0 0 0 0 
2410166666.6666665077 0.172287002205848693847656250000 -0.011868054047226909292200858204 0.003122359514236450195312500000 -0.004961188416928052902221679688 0 0 0 0 
2410333333.3333334923 0.171652898192405700683593750000 -0.013245555572211740666399570898 0.003153912723064423041102743994 -0.005165218841284514340872480176 0 0 0 0 
2410500000.0000000000 0.171338051557540893554687500000 -0.014841229654848580796211443555 0.002988372696563601927516318213 -0.005118549801409245404715253613 0 0 0 0 
2410666666.6666665077 0.170742794871330288986044365629 -0.016551069915294650686243826954 0.002990094712004065947291708838 -0.005427022464573383331298828125 0 0 0 0 
2410833333.3333334923 0.170519396662712097167968750000 -0.017823362722992900503138358204 0.002883193781599401993992470850 -0.005399126093834638595581054688 0 0 0 0 
2411000000.0000000000 0.170056268572807312011718750000 -0.019553851336240768432617187500 0.002876068931072949929478310693 -0.005546841770410537719726562500 0 0 0 0 
2411166666.6666665077 0.169752761721610995193643134371 -0.021338785067200660705566406250 0.002850139047950506210327148438 -0.005849418696016073226928710938 0 0 0 0 
2411333333.3333334923 0.169380217790603609939736884371 -0.023011432960629459726353829296 0.002732047112658619880676269531 -0.005905124358832836151123046875 0 0 0 0 
2411500000.0000000000 0.169193446636200006683026231258 -0.024852277711033821105957031250 0.002599795581772923903224326025 -0.006066248752176761627197265625 0 0 0 0 
2411666666.6666665077 0.169134035706520108321981865629 -0.026592629030346870422363281250 0.002506357384845613999607705225 -0.006047445815056562423706054688 0 0 0 0 
2411833333.3333334923 0.168793946504592895507812500000 -0.028136070817708969116210937500 0.002463437151163816885707236182 -0.006291258148849011334891034863 0 0 0 0 
2412000000.0000000000 0.168871358036994906326455634371 -0.030113391578197479248046875000 0.002173542045056819915771484375 -0.006446512881666421890258789062 0 0 0 0 
2412166666.6666665077 0.168840214610099792480468750000 -0.031804095953702926635742187500 0.002168928273022174835205078125 -0.006722388789057731628417968750 0 0 0 0 
2412333333.3333334923 0.169003963470459012130575615629 -0.033466696739196777343750000000 0.001917618443258106925367045825 -0.006859206594526767730712890625 0 0 0 0 
2412500000.0000000000 0.168798312544822692871093750000 -0.035392265766859061504323591407 0.001793659059330821037292480469 -0.007090573199093341827392578125 0 0 0 0 
2412666666.6666665077 0.169032856822013910491619981258 -0.037279993295669562602956403907 0.001448684837669133923174213940 -0.007218810264021158218383789062 0 0 0 0 
2412833333.3333334923 0.169193387031555203536825615629 -0.038939058780670172954518903907 0.001341034658253192901611328125 -0.007400636561214923858642578125 0 0 0 0 
2413000000.0000000000 0.169364422559738186935263115629 -0.040688537061214447021484375000 0.000985753838904201984405517578 -0.007826407440006732940673828125 0 0 0 0 
2413166666.6666665077 0.169518753886222811599893134371 -0.042426045984029769897460937500 0.000610416405834257602691650391 -0.007720394060015678405761718750 0 0 0 0 
2413333333.3333334923 0.169528961181640597244424384371 -0.044075567275285720825195312500 0.000329677219269797205924987793 -0.007934296503663063049316406250 0 0 0 0 
2413500000.0000000000 0.169995576143264798263388115629 -0.045711394399404532695729841407 -0.000118272844702005399905066219 -0.007937744259834289550781250000 0 0 0 0 
2413666666.6666665077 0.170361578464508112151776231258 -0.047337219119071960449218750000 -0.000366004504030570387840270996 -0.008010038174688816070556640625 0 0 0 0 
2413833333.3333334923 0.170651867985725402832031250000 -0.048717081546783447265625000000 -0.000712336506694555282592773438 -0.008109154179692268371582031250 0 0 0 0 
2414000000.0000000000 0.170785874128341702560263115629 -0.050240416079759597778320312500 -0.001139674568548798994777060400 -0.008171320892870426177978515625 0 0 0 0 
2414166666.6666665077 0.171363621950149508377236884371 -0.051446128636598587036132812500 -0.001520876539871097044703818213 -0.008129352703690528869628906250 0 0 0 0 
2414333333.3333334923 0.171594813466072110275106865629 -0.052947014570236212993581403907 -0.001719098305329680009129189600 -0.008172145113348960876464843750 0 0 0 0 
2414500000.0000000000 0.172174066305160494705361884371 -0.053958393633365631103515625000 -0.002314165467396378950831747900 -0.008005301468074321746826171875 0 0 0 0 
2414666666.6666665077 0.172391891479492187500000000000 -0.055108062922954559326171875000 -0.002539317123591899871826171875 -0.007927058264613151550292968750 0 0 0 0 
2414833333.3333334923 0.172732606530189486404580634371 -0.056302785873413092876393903907 -0.002981787081807851791381835938 -0.007807191461324691772460937500 0 0 0 0 
2415000000.0000000000 0.173144474625587491134481865629 -0.057183053344488136982004533593 -0.003205192741006613211390829932 -0.007749589160084724426269531250 0 0 0 0 
2415166666.6666665077 0.173421651124954195877236884371 -0.058167979121208190917968750000 -0.003739425446838140921351767432 -0.007452732417732477188110351562 0 0 0 0 
2415333333.3333334923 0.173757627606391906738281250000 -0.059082128107547760009765625000 -0.003943960648030042648315429688 -0.007409688085317611694335937500 0 0 0 0 
2415500000.0000000000 0.174043774604797391036825615629 -0.059849746525287628173828125000 -0.004300832748413085937500000000 -0.007253281306475400924682617188 0 0 0 0 
2415666666.6666665077 0.174161404371261596679687500000 -0.060362387448549270629882812500 -0.004702757112681865692138671875 -0.006972913164645433425903320312 0 0 0 0 
2415833333.3333334923 0.174437850713729886154013115629 -0.061099823564291000366210937500 -0.004781666211783885955810546875 -0.006757492665201426419729902051 0 0 0 0 
2416000000.0000000000 0.174362733960151700118856865629 -0.061715770512819290161132812500 -0.005057634785771369934082031250 -0.006466905586421489715576171875 0 0 0 0 
2416166666.6666665077 0.174737364053726196289062500000 -0.062276162207126617431640625000 -0.005347034893929958343505859375 -0.006210158113390207290649414062 0 0 0 0 
2416333333.3333334923 0.174660682678222711761151231258 -0.062758110463619232177734375000 -0.005563788581639528274536132812 -0.006028126925230026245117187500 0 0 0 0 
2416500000.0000000000 0.174651935696601895431356865629 -0.063164725899696350097656250000 -0.005826225969940423965454101562 -0.005771322175860404968261718750 0 0 0 0 
2416666666.6666665077 0.174459591507911709884481865629 -0.063481420278549194335937500000 -0.005996465217322111129760742188 -0.005402485374361276626586914062 0 0 0 0 
2416833333.3333334923 0.174429848790168789962606865629 -0.063978143036365509033203125000 -0.006149938795715569582467363574 -0.005265663377940654754638671875 0 0 0 0 
2417000000.0000000000 0.173920333385467501541299384371 -0.064310260117053985595703125000 -0.006241539027541875839233398438 -0.004940210841596127423758222363 0 0 0 0 
2417166666.6666665077 0.173595890402793912032919365629 -0.064469896256923675537109375000 -0.006643920671194791793823242188 -0.004614930599927902221679687500 0 0 0 0 
2417333333.3333334923 0.173313066363334711272869981258 -0.064895272254943847656250000000 -0.006485743913799524307250976562 -0.004337151534855365753173828125 0 0 0 0 
2417500000.0000000000 0.172782048583030700683593750000 -0.065299838781356811523437500000 -0.006742430850863456726074218750 -0.003935253247618675231933593750 0 0 0 0 
2417666666.6666665077 0.172303304076194790939169365629 -0.065390557050704956054687500000 -0.006756990216672421369070722363 -0.003811397124081850051879882812 0 0 0 0 
2417833333.3333334923 0.171593591570854187011718750000 -0.065612599253654479980468750000 -0.006821013521403074264526367188 -0.003524781670421361923217773438 0 0 0 0 
2418000000.0000000000 0.170925676822662409026776231258 -0.066227801144123077392578125000 -0.006831601262092590332031250000 -0.003134823404252529144287109375 0 0 0 0 
2418166666.6666665077 0.170164793729782104492187500000 -0.066248863935470581054687500000 -0.006984623149037361145019531250 -0.003165025962516665892360068213 0 0 0 0 
2418333333.3333334923 0.169482246041297912597656250000 -0.066727608442306518554687500000 -0.006970366463065147399902343750 -0.002829455072060226960423134912 0 0 0 0 
2418500000.0000000000 0.168520137667655889313067518742 -0.067083857953548431396484375000 -0.007064843084663152694702148438 -0.002613828983157873153686523438 0 0 0 0 
2418666666.6666665077 0.167644709348678588867187500000 -0.067585483193397521972656250000 -0.007056682370603085431570722363 -0.002211984014138578934910439600 0 0 0 0 
2418833333.3333334923 0.166525945067405700683593750000 -0.067996874451637268066406250000 -0.007126054260879755020141601562 -0.001901846029795706055284809644 0 0 0 0 
2419000000.0000000000 0.165456980466842706878338731258 -0.068502120673656463623046875000 -0.007064279168844223022460937500 -0.001651522936299443028093647534 0 0 0 0 
2419166666.6666665077 0.164588093757629394531250000000 -0.069154404103755950927734375000 -0.007124335970729590329642011426 -0.001429923460818826935411762769 0 0 0 0 
2419333333.3333334923 0.163266375660896301269531250000 -0.069413945078849792480468750000 -0.007123176474124193191528320312 -0.001245139748789370059967041016 0 0 0 0 
2419500000.0000000000 0.162248015403747586349325615629 -0.070453368127346038818359375000 -0.007059966679662466049194335938 -0.000952031114138662815093994141 0 0 0 0 
2419666666.6666665077 0.161519706249237088302450615629 -0.071090966463088989257812500000 -0.007128721568733453750610351562 -0.000682502635754644870758056641 0 0 0 0 
2419833333.3333334923 0.160041227936744689941406250000 -0.071819745004177093505859375000 -0.006962237413972616195678710938 -0.000582271604798734188079833984 0 0 0 0 
