# Hz S RI R 50
2400000000.0000000000 0.156512066721916198730468750000 0.060225278139114379882812500000 -0.003376655979081987900974892725 0.005552999209612607955932617188 0 0 0 0 
2400166666.6666665077 0.156535714864730807205361884371 0.058525174856185913085937500000 -0.003064594231545925140380859375 0.005731539800763130187988281250 0 0 0 0 
2400333333.3333334923 0.156652584671974209884481865629 0.056334603577852249145507812500 -0.003089677076786756949183798682 0.005903412587940692901611328125 0 0 0 0 
2400500000.0000000000 0.157051548361778287032919365629 0.054478142410516738891601562500 -0.002788639161735773086547851562 0.005823513492941856384277343750 0 0 0 0 
2400666666.6666665077 0.157200336456298800369424384371 0.052051153033971793437917341407 -0.002516350941732525825500488281 0.005926334299147129058837890625 0 0 0 0 
2400833333.3333334923 0.157432109117507906814736884371 0.050223629921674728393554687500 -0.002421517623588442802429199219 0.006124226376414299011230468750 0 0 0 0 
2401000000.0000000000 0.157833322882652310470419365629 0.047887239605188369750976562500 -0.002173018408939241929295205225 0.006176263093948364257812500000 0 0 0 0 
2401166666.6666665077 0.158327862620353698730468750000 0.045989930629730231548268903907 -0.001928993267938494899152446216 0.006113211158663033571725176074 0 0 0 0 
2401333333.3333334923 0.158939659595489501953125000000 0.043840724974870681762695312500 -0.001866024686023592948913574219 0.006425318308174610137939453125 0 0 0 0 
2401500000.0000000000 0.159317582845687893966513115629 0.041660334914922707294504533593 -0.001689846394583583094953227466 0.006280386354774236679077148438 0 0 0 0 
2401666666.6666665077 0.159950211644172696212606865629 0.039972431957721710205078125000 -0.001324650365859270095825195312 0.006320367101579905423636152051 0 0 0 0 
2401833333.3333334923 0.160681590437889099121093750000 0.037616811692714691162109375000 -0.001307942671701312065124511719 0.006432940717786551389212323926 0 0 0 0 
2402000000.0000000000 0.161151647567748995681924384371 0.035890329629182822490651716407 -0.000999617739580571651458740234 0.006598480977118015289306640625 0 0 0 0 
2402166666.6666665077 0.161910921335220309158486884371 0.033802688121795647357981096093 -0.000828440068289637565612792969 0.006576117128133773803710937500 0 0 0 0 
2402333333.3333334923 0.162692368030548095703125000000 0.032306481152772903442382812500 -0.000576635473407804965972900391 0.006728046108037233352661132812 0 0 0 0 
2402500000.0000000000 0.163662850856781005859375000000 0.030572257936000820505162423046 -0.000374597264453768675953465594 0.006664937362074851989746093750 0 0 0 0 
2402666666.6666665077 0.164405360817909212967080634371 0.028953945264220241201380545704 -0.000041170835174852982163429260 0.006716598756611347198486328125 0 0 0 0 
2402833333.3333334923 0.165529668331146212478799384371 0.027560168877243999135950858204 0.000344786356436088681221008301 0.006720404140651226043701171875 0 0 0 0 
2403000000.0000000000 0.166313663125038202483807481258 0.026035200804471969604492187500 0.000444062316091731190681457520 0.006574259605258703231811523438 0 0 0 0 
2403166666.6666665077 0.167355448007583590408486884371 0.024756923317909240722656250000 0.000558272004127502441406250000 0.006680622231215238571166992188 0 0 0 0 
2403333333.3333334923 0.168309956789016695877236884371 0.023416606709361079824427420704 0.000852806260809302330017089844 0.006639476399868726730346679688 0 0 0 0 
2403500000.0000000000 0.169119715690612792968750000000 0.022230787202715870248814766796 0.001310205901972949938533163916 0.006472484674304723739624023438 0 0 0 0 
2403666666.6666665077 0.170044779777526910979901231258 0.021102100610733028757115548046 0.001303402357734739997266459888 0.006680799182504416379446698926 0 0 0 0 
2403833333.3333334923 0.171244040131568908691406250000 0.020068762823939319955846016796 0.001661920687183737971662211841 0.006554351653903722763061523438 0 0 0 0 
2404000000.0000000000 0.171874046325683593750000000000 0.019232176244258880615234375000 0.001872444991022347970249795068 0.006393490824848414334768964551 0 0 0 0 
2404166666.6666665077 0.172988563776016207595986884371 0.018295269459486011159876639454 0.002209309488534926934483193506 0.006341211497783660888671875000 0 0 0 0 
2404333333.3333334923 0.173834323883056612869424384371 0.017536560073494911193847656250 0.002413136418908834891078329932 0.006448815576732158660888671875 0 0 0 0 
2404500000.0000000000 0.174548357725143404861611884371 0.016762524843215938913365548046 0.002579882508143783049342490088 0.006022606045007705688476562500 0 0 0 0 
2404666666.6666665077 0.175398975610733004470986884371 0.016206139698624610900878906250 0.002922262996435164971592568506 0.006052279379218816757202148438 0 0 0 0 
2404833333.3333334923 0.176007792353630093673544365629 0.015651602298021319997767264454 0.003090774873271584944484091650 0.005833887495100498199462890625 0 0 0 0 
2405000000.0000000000 0.176917657256126403808593750000 0.015078866854310039175013358204 0.003359282622113823890686035156 0.005733097437769174575805664062 0 0 0 0 
2405166666.6666665077 0.177474141120910589020098768742 0.014773027040064340073555193555 0.003701124805957078933715820312 0.005737111903727054595947265625 0 0 0 0 
2405333333.3333334923 0.177931651473045404632244981258 0.014242153614759450394600115430 0.003705056849867105917689658057 0.005578023847192525863647460938 0 0 0 0 
2405500000.0000000000 0.178395375609397888183593750000 0.013998203910887239628801914648 0.004099588375538587570190429688 0.005232597701251506805419921875 0 0 0 0 
2405666666.6666665077 0.178898140788078308105468750000 0.013688678853213790548304373829 0.004252120386809110641479492188 0.005184260662645102414602948926 0 0 0 0 
2405833333.3333334923 0.179247394204139709472656250000 0.013519375585019590205182460352 0.004395272582769393920898437500 0.004984272643923760327810956738 0 0 0 0 
2406000000.0000000000 0.179561078548431396484375000000 0.013173528946936130523681640625 0.004528743214905261993408203125 0.004923730622977018356323242188 0 0 0 0 
2406166666.6666665077 0.179480254650115994552450615629 0.013008077628910539799700352148 0.004833466373383998870849609375 0.004578979220241308212280273438 0 0 0 0 
2406333333.3333334923 0.179715022444725008865518134371 0.012726623564958570652971836523 0.005036536138504743576049804688 0.004294455051422119140625000000 0 0 0 0 
2406500000.0000000000 0.179687798023223904708700615629 0.012373375706374650437324724805 0.005211134441196919354910566113 0.004330713767558336257934570312 0 0 0 0 
2406666666.6666665077 0.179560542106628390213174384371 0.012190913781523709732979021680 0.005287960171699523925781250000 0.003945163916796445846557617188 0 0 0 0 
2406833333.3333334923 0.179432541131973294357138115629 0.011825577355921270197858241602 0.005386081524193286895751953125 0.003713823622092605070826865088 0 0 0 0 
2407000000.0000000000 0.179387778043747003753338731258 0.011451176367700099945068359375 0.005537838675081729888916015625 0.003466310445219277901890420068 0 0 0 0 
2407166666.6666665077 0.179099723696708706954794365629 0.011069471016526220494280430273 0.005671013612300158414358808301 0.003113821847364306016209267725 0 0 0 0 
2407333333.3333334923 0.178608715534210205078125000000 0.010611025616526600229283516796 0.005817771889269351959228515625 0.002927890280261636214015341650 0 0 0 0 
2407500000.0000000000 0.178315192461013793945312500000 0.010071915574371819931953631055 0.005812298040837050351614667676 0.002690590918064116997959756006 0 0 0 0 
2407666666.6666665077 0.177813947200775201995526231258 0.009608513675630092620849609375 0.005852506030350924405569745801 0.002495198044925928115844726562 0 0 0 0 
2407833333.3333334923 0.177149981260299710372763115629 0.008782819844782352447509765625 0.006107948720455169677734375000 0.002231261460110545158386230469 0 0 0 0 
2408000000.0000000000 0.176688164472580011565838731258 0.008017729036509990692138671875 0.005879948846995831403250409863 0.001837795600295067050336528247 0 0 0 0 
2408166666.6666665077 0.176030039787292508224325615629 0.007291730958968400955200195312 0.006052690558135510358328534863 0.001819245517253875949262309497 0 0 0 0 
2408333333.3333334923 0.175527393817901611328125000000 0.006230817176401615142822265625 0.006019240710884332656860351562 0.001521680969744920947431254810 0 0 0 0 
2408500000.0000000000 0.174886375665664700607138115629 0.005242765881121158599853515625 0.005893604364246129989624023438 0.001157761784270405986188579028 0 0 0 0 
2408666666.6666665077 0.174151614308357211013955634371 0.004122179467231035232543945312 0.006186059210449457168579101562 0.001033324748277663967729878003 0 0 0 0 
2408833333.3333334923 0.173214182257652310470419365629 0.003004623344168066978454589844 0.006040771026164293289184570312 0.000638029188849031925201416016 0 0 0 0 
2409000000.0000000000 0.172569260001182611663494981258 0.001707090414129198031184531104 0.005975084379315376281738281250 0.000474990403745323419570922852 0 0 0 0 
2409166666.6666665077 0.172051191329956110198651231258 0.000247517717070877606242579327 0.005990577396005392074584960938 0.000184304852155037197187700815 0 0 0 0 
2409333333.3333334923 0.171484559774398803710937500000 -0.001198105048388242938398051685 0.005833602044731379422659589551 -0.000075621443102136254310607910 0 0 0 0 
2409500000.0000000000 0.170701563358306912521200615629 -0.002804631134495139122009277344 0.005741079803556203842163085938 -0.000148943465319462093427935190 0 0 0 0 
2409666666.6666665077 0.169976174831390408614950615629 -0.004444670397788286209106445312 0.005616927519440650939941406250 -0.000323028478305786902278345929 0 0 0 0 
2409833333.3333334923 0.169439733028411892989950615629 -0.005798238795250654220581054688 0.005469876341521739959716796875 -0.000789670099038630723953247070 0 0 0 0 
2410000000.0000000000 0.169083401560783386230468750000 -0.007621829863637685775756835938 0.005395012907683849334716796875 -0.000772445520851761102676391602 0 0 0 0 
2410166666.6666665077 0.168543994426727294921875000000 -0.009450759738683700561523437500 0.005349250044673681259155273438 -0.001094657112844287915470742334 0 0 0 0 
2410333333.3333334923 0.167911097407341003417968750000 -0.011256144382059570657750313671 0.005215375218540430068969726562 -0.001326066674664617018458701025 0 0 0 0 
2410500000.0000000000 0.167740404605865506271200615629 -0.013046522624790670222272304102 0.005202518310397863388061523438 -0.001366095850244164900538779150 0 0 0 0 
2410666666.6666665077 0.167382836341857910156250000000 -0.015100607648491859436035156250 0.004954967647790908813476562500 -0.001591291278600692965863871997 0 0 0 0 
2410833333.3333334923 0.167188271880149813553018134371 -0.016842994838953021657923514454 0.004919311031699180603027343750 -0.001675995532423258044599223560 0 0 0 0 
2411000000.0000000000 0.166884660720825195312500000000 -0.018863614648580551147460937500 0.004622113890945911407470703125 -0.001724285306409000916721963037 0 0 0 0 
2411166666.6666665077 0.166853770613670404632244981258 -0.021052336320281028747558593750 0.004552025813609361648559570312 -0.001955987885594367980957031250 0 0 0 0 
2411333333.3333334923 0.167000740766525296310263115629 -0.022614402696490291250208670704 0.004591478966176509857177734375 -0.002272516721859573884251259912 0 0 0 0 
2411500000.0000000000 0.166947945952415494064169365629 -0.024845540523529049264928048046 0.004433222580701112747192382812 -0.002215442480519413948059082031 0 0 0 0 
2411666666.6666665077 0.167308866977691705901776231258 -0.026739059016108509408971016796 0.004137223586440086364746093750 -0.002236578380689024925231933594 0 0 0 0 
2411833333.3333334923 0.167380079627037103850994981258 -0.028710663318634029733678048046 0.004071834962815046310424804688 -0.002498085144907236099243164062 0 0 0 0 
2412000000.0000000000 0.167808026075363186935263115629 -0.030672760680317878723144531250 0.003907410427927970886230468750 -0.002586672548204659981968545068 0 0 0 0 
2412166666.6666665077 0.168264284729957608321981865629 -0.032492436468601226806640625000 0.003777430392801762060878134619 -0.002593908226117492155787802588 0 0 0 0 
2412333333.3333334923 0.168810397386550903320312500000 -0.034201651811599731445312500000 0.003572538727894424958470009912 -0.002845246577635407014134072412 0 0 0 0 
2412500000.0000000000 0.169123291969299288650674384371 -0.036137484014034271240234375000 0.003524866187945007844212197412 -0.002859535859897733168361044775 0 0 0 0 
2412666666.6666665077 0.169704347848892211914062500000 -0.037858385592699050903320312500 0.003455190220847725868225097656 -0.002863198751583694978001259912 0 0 0 0 
2412833333.3333334923 0.170400068163871792892294365629 -0.039600990712642669677734375000 0.003195223398506640954258584131 -0.002900554332882165908813476562 0 0 0 0 
2413000000.0000000000 0.170918121933937100509481865629 -0.041243992745876312255859375000 0.003128194482997059822082519531 -0.003113967832177876992466591943 0 0 0 0 
2413166666.6666665077 0.171504855155944796463174384371 -0.042670469731092453002929687500 0.002988293301314115957972861182 -0.003024940611794590950012207031 0 0 0 0 
2413333333.3333334923 0.172240883111953707595986884371 -0.044317930936813347553293596093 0.002899821149185299873352050781 -0.003280594246461987929103232275 0 0 0 0 
2413500000.0000000000 0.172949850559234591385049384371 -0.045812278985977172851562500000 0.002696020994335412979125976562 -0.003153784433379768891575478662 0 0 0 0 
2413666666.6666665077 0.173597410321235712249432481258 -0.047197088599205017089843750000 0.002610832219943404197692871094 -0.003217759774997829957249306787 0 0 0 0 
2413833333.3333334923 0.174073949456214904785156250000 -0.048344179987907409667968750000 0.002397592645138502120971679688 -0.003225641325116157965419150244 0 0 0 0 
2414000000.0000000000 0.174607247114181490799111884371 -0.049561884254217147827148437500 0.002288996241986751990077353369 -0.003456290112808347182032919775 0 0 0 0 
2414166666.6666665077 0.175378426909446688553018134371 -0.050589647144079208374023437500 0.002147333696484566168544150244 -0.003399060107767581939697265625 0 0 0 0 
2414333333.3333334923 0.176043912768364008147869981258 -0.051538813859224319458007812500 0.002060736529529095129725790869 -0.003383563831448554992675781250 0 0 0 0 
2414500000.0000000000 0.176742240786552401443643134371 -0.052457634359598159790039062500 0.001845729071646929004071879810 -0.003531849710270762009861611475 0 0 0 0 
2414666666.6666665077 0.177191108465194702148437500000 -0.053391836583614349365234375000 0.001873358385637402968165732275 -0.003796865465119481086730957031 0 0 0 0 
2414833333.3333334923 0.177615240216255187988281250000 -0.054284844547510147094726562500 0.001683813170529901981353759766 -0.003543112659826875166652060400 0 0 0 0 
2415000000.0000000000 0.178095921874046297928018134371 -0.054741539061069488525390625000 0.001592629472725092931034707178 -0.003406204283237456841709756006 0 0 0 0 
2415166666.6666665077 0.178371697664260892013388115629 -0.055388834327459342266042341407 0.001284676021896302916883159106 -0.003450690302997827963588095557 0 0 0 0 
2415333333.3333334923 0.178706824779510498046875000000 -0.055900923907756812358815778907 0.001374875311739742972730327075 -0.003535824595019220872166298975 0 0 0 0 
2415500000.0000000000 0.178871169686317388336505018742 -0.056386064738035202026367187500 0.000966494088061153888702392578 -0.003521096892654896216151572119 0 0 0 0 
2415666666.6666665077 0.179002463817596407791299384371 -0.056708935648202903057057966407 0.000938884157221764326095581055 -0.003513143397867680029628134619 0 0 0 0 
2415833333.3333334923 0.179087951779365511795205634371 -0.057121433317661292339284528907 0.000843796529807150363922119141 -0.003542789025232195854187011719 0 0 0 0 
2416000000.0000000000 0.178798109292984008789062500000 -0.057400375604629516601562500000 0.000706784252543002367019653320 -0.003406417788937687873840332031 0 0 0 0 
2416166666.6666665077 0.179037004709243802169638115629 -0.057673852890729897235910783593 0.000560157757718116044998168945 -0.003192863892763853073120117188 0 0 0 0 
2416333333.3333334923 0.178747013211250305175781250000 -0.057858571410179138183593750000 0.000441111129475757479667663574 -0.003245890373364090919494628906 0 0 0 0 
2416500000.0000000000 0.178496345877647399902343750000 -0.058098729699850082397460937500 0.000258528743870556408732813702 -0.003204811830073595046997070312 0 0 0 0 
2416666666.6666665077 0.177951604127883911132812500000 -0.058227092027664191509206403907 0.000159740564413368701934814453 -0.003271501278504728837254189600 0 0 0 0 
2416833333.3333334923 0.177475303411483792404013115629 -0.058650389313697821880300153907 0.000042196217691525816917419434 -0.003202217863872646851780556787 0 0 0 0 
2417000000.0000000000 0.176684319972991887848223768742 -0.058831490576267242431640625000 -0.000053856583690503612160682678 -0.003048560349270700974705361475 0 0 0 0 
2417166666.6666665077 0.176051989197730990310830634371 -0.058931056410074227069895158593 -0.000248639436904340982437133789 -0.003104355884715915159938193213 0 0 0 0 
2417333333.3333334923 0.175337448716163607498330634371 -0.059180468320846557617187500000 -0.000170593062648549703046521597 -0.002963894046843051910400390625 0 0 0 0 
2417500000.0000000000 0.174363926053047207931356865629 -0.059687297791242599487304687500 -0.000181097624590620398521423340 -0.003049355698749423027038574219 0 0 0 0 
2417666666.6666665077 0.173563256859779413421307481258 -0.059831429272890090942382812500 -0.000359537312760949080616551532 -0.002870656084269285202026367188 0 0 0 0 
2417833333.3333334923 0.172497838735580388824786268742 -0.060224473476409912109375000000 -0.000392609479604288881451207294 -0.002832175232470035986659384619 0 0 0 0 
2418000000.0000000000 0.171401485800743103027343750000 -0.060714188963174819946289062500 -0.000469650549348443800776881085 -0.002801259513944387002232216943 0 0 0 0 
2418166666.6666665077 0.170129939913749694824218750000 -0.060974635183811187744140625000 -0.000562197528779506683349609375 -0.002798740286380053000209189307 0 0 0 0 
2418333333.3333334923 0.169191539287567110916299384371 -0.061509110033512122417409528907 -0.000631416973192244768142700195 -0.002722967416048049926757812500 0 0 0 0 
2418500000.0000000000 0.167909026145935086349325615629 -0.062113348394632339477539062500 -0.000828656193334609270095825195 -0.002616743324324489073512411963 0 0 0 0 
2418666666.6666665077 0.166847527027130099197549384371 -0.062917292118072509765625000000 -0.000859199324622750282287597656 -0.002593015786260366006138466943 0 0 0 0 
2418833333.3333334923 0.165351852774620111663494981258 -0.063699640333652496337890625000 -0.000945048755966126918792724609 -0.002420974895358086066005087744 0 0 0 0 
2419000000.0000000000 0.163908451795578002929687500000 -0.064400002360343933105468750000 -0.000958779593929648399353027344 -0.002539134817197918891906738281 0 0 0 0 
2419166666.6666665077 0.162920609116554288009481865629 -0.065242975950241088867187500000 -0.001088554738089442036272358472 -0.002305707428604363961460732568 0 0 0 0 
2419333333.3333334923 0.161420479416847201248330634371 -0.066195376217365264892578125000 -0.000970362860243767499923706055 -0.002215306274592876000645302881 0 0 0 0 
2419500000.0000000000 0.160134971141815213302450615629 -0.067310258746147155761718750000 -0.000982743804343044757843017578 -0.002200095914304256005528115381 0 0 0 0 
2419666666.6666665077 0.159057110548019409179687500000 -0.068551793694496154785156250000 -0.001297927228733896992327045972 -0.002218745416030288176295615088 0 0 0 0 
2419833333.3333334923 0.157719478011131286621093750000 -0.069433696568012237548828125000 -0.001164688146673142910003662109 -0.001906903693452478105660463648 0 0 0 0 
