# Version 1.00
#
freq[Hz];re:Trc1_S11;im:Trc1_S11;re:Trc2_S21;im:Trc2_S21;
2.400000000000000E+009;1.678201705217362E-001;4.122282192111015E-002;-4.971525631844997E-004;-3.476937534287572E-003;
2.400166666666667E+009;1.683483719825745E-001;4.053756222128868E-002;-6.682556704618037E-004;-3.441876964643598E-003;
2.400333333333334E+009;1.689585000276566E-001;3.938066214323044E-002;-8.569307974539697E-004;-3.589235711842775E-003;
2.400500000000000E+009;1.693046092987061E-001;3.839241340756416E-002;-7.434099097736180E-004;-3.586153034120798E-003;
2.400666666666667E+009;1.696097105741501E-001;3.756171464920044E-002;-1.044385950081050E-003;-3.336806548759341E-003;
2.400833333333334E+009;1.699875146150589E-001;3.671845793724060E-002;-9.666751720942557E-004;-3.347735619172454E-003;
2.401000000000000E+009;1.704034507274628E-001;3.573774918913841E-002;-1.139371888712049E-003;-3.270399756729603E-003;
2.401166666666667E+009;1.705151051282883E-001;3.476729243993759E-002;-1.301078824326396E-003;-3.217285033315420E-003;
2.401333333333334E+009;1.705720722675324E-001;3.392165526747704E-002;-1.458946964703500E-003;-3.194635035470128E-003;
2.401500000000000E+009;1.708756536245346E-001;3.298185393214226E-002;-1.596965710632503E-003;-3.271685447543860E-003;
2.401666666666667E+009;1.711050570011139E-001;3.208262100815773E-002;-1.591183128766716E-003;-3.096093889325857E-003;
2.401833333333334E+009;1.710911989212036E-001;3.121693059802055E-002;-1.837803283706307E-003;-2.969144145026803E-003;
2.402000000000000E+009;1.709539443254471E-001;3.059034980833530E-002;-1.852588844485581E-003;-2.989443717524409E-003;
2.402166666666667E+009;1.711297780275345E-001;2.936778962612152E-002;-1.996467122808099E-003;-2.905987901613116E-003;
2.402333333333334E+009;1.710269302129746E-001;2.854661829769611E-002;-2.270354889333248E-003;-2.777388552203775E-003;
2.402500000000000E+009;1.713383495807648E-001;2.758199162781239E-002;-2.188774757087231E-003;-2.636693650856614E-003;
2.402666666666667E+009;1.712977737188339E-001;2.648565918207169E-002;-2.258724300190806E-003;-2.435063943266869E-003;
2.402833333333334E+009;1.710626035928726E-001;2.550515718758106E-002;-2.339673228561878E-003;-2.388968598097563E-003;
2.403000000000000E+009;1.712594330310822E-001;2.450351044535637E-002;-2.410021377727389E-003;-2.327394671738148E-003;
2.403166666666667E+009;1.712676733732224E-001;2.335738018155098E-002;-2.351833041757345E-003;-2.108910121023655E-003;
2.403333333333334E+009;1.713012754917145E-001;2.223768271505833E-002;-2.373038325458765E-003;-2.097613876685500E-003;
2.403500000000000E+009;1.710346341133118E-001;2.100267261266708E-002;-2.423428697511554E-003;-2.027929062023759E-003;
2.403666666666667E+009;1.709667146205902E-001;1.965355873107910E-002;-2.327052177861333E-003;-1.907087746076286E-003;
2.403833333333334E+009;1.709152758121491E-001;1.848272606730461E-002;-2.095202915370464E-003;-1.789636793546379E-003;
2.404000000000000E+009;1.710347831249237E-001;1.723531261086464E-002;-2.310010604560375E-003;-1.828232198022306E-003;
2.404166666666667E+009;1.708496063947678E-001;1.592276431620121E-002;-2.293871948495507E-003;-1.901652431115508E-003;
2.404333333333334E+009;1.708615571260452E-001;1.469960529357195E-002;-2.389461733400822E-003;-1.842427300289273E-003;
2.404500000000000E+009;1.705763041973114E-001;1.320406235754490E-002;-2.328361850231886E-003;-1.930992351844907E-003;
2.404666666666667E+009;1.705530583858490E-001;1.180904265493155E-002;-2.539456821978092E-003;-1.766572357155383E-003;
2.404833333333334E+009;1.703054457902908E-001;1.023066788911820E-002;-2.510132268071175E-003;-1.807311666198075E-003;
2.405000000000000E+009;1.705401837825775E-001;8.901080116629601E-003;-2.657672390341759E-003;-1.719803316518664E-003;
2.405166666666667E+009;1.705593764781952E-001;7.449716795235872E-003;-2.604368841275573E-003;-1.761547289788723E-003;
2.405333333333334E+009;1.706044077873230E-001;5.858087912201881E-003;-2.737848553806543E-003;-1.559871248900890E-003;
2.405500000000000E+009;1.704374849796295E-001;4.250159021466970E-003;-2.698212862014771E-003;-1.573074725456536E-003;
2.405666666666667E+009;1.704842895269394E-001;2.670125570148230E-003;-2.834300743415952E-003;-1.480248873122037E-003;
2.405833333333334E+009;1.702569127082825E-001;1.226345426402986E-003;-2.939681056886911E-003;-1.269143074750900E-003;
2.406000000000000E+009;1.702328622341156E-001;-5.450088647194207E-004;-3.057242836803198E-003;-1.311065978370607E-003;
2.406166666666667E+009;1.700360924005508E-001;-1.865848316811025E-003;-2.970162313431501E-003;-1.130193704739213E-003;
2.406333333333334E+009;1.700429022312164E-001;-3.404155140742660E-003;-2.999958582222462E-003;-9.267702698707581E-004;
2.406500000000000E+009;1.698269993066788E-001;-4.997553769499064E-003;-2.902061911299825E-003;-9.580118930898607E-004;
2.406666666666667E+009;1.696490198373795E-001;-6.508620455861092E-003;-2.816246356815100E-003;-8.235240820795298E-004;
2.406833333333334E+009;1.695207357406616E-001;-7.982811890542507E-003;-2.840875880792737E-003;-6.345346337184310E-004;
2.407000000000000E+009;1.695617884397507E-001;-9.471712633967400E-003;-2.828049473464489E-003;-7.190008764155209E-004;
2.407166666666667E+009;1.693890392780304E-001;-1.075770240277052E-002;-2.813422586768866E-003;-6.807020399719477E-004;
2.407333333333334E+009;1.690764427185059E-001;-1.220060139894486E-002;-2.702089957892895E-003;-6.471571396104991E-004;
2.407500000000000E+009;1.689082235097885E-001;-1.342797931283712E-002;-2.807054203003645E-003;-6.133421557024121E-004;
2.407666666666667E+009;1.688939183950424E-001;-1.455488801002502E-002;-2.738971728831530E-003;-4.435601294972003E-004;
2.407833333333334E+009;1.684317141771317E-001;-1.577597483992577E-002;-2.681580837816000E-003;-4.591504693962634E-004;
2.408000000000000E+009;1.682987809181213E-001;-1.692122034728527E-002;-2.853088779374957E-003;-5.728818359784782E-004;
2.408166666666667E+009;1.682491153478622E-001;-1.776173524558544E-002;-2.724674530327320E-003;-5.290198605507612E-004;
2.408333333333334E+009;1.682825386524200E-001;-1.882353052496910E-002;-2.870558528229594E-003;-2.585335168987513E-004;
2.408500000000000E+009;1.682191938161850E-001;-1.972597278654575E-002;-3.018867224454880E-003;-3.543448110576719E-004;
2.408666666666667E+009;1.682287305593491E-001;-2.068310230970383E-002;-3.027801867574453E-003;-5.391779122874141E-004;
2.408833333333334E+009;1.682424843311310E-001;-2.144679427146912E-002;-2.980845980346203E-003;-4.407872038427740E-004;
2.409000000000000E+009;1.681478768587112E-001;-2.235737629234791E-002;-3.109848126769066E-003;-4.536809283308685E-004;
2.409166666666667E+009;1.684868931770325E-001;-2.325281314551830E-002;-3.227878827601671E-003;-2.585543552413583E-004;
2.409333333333334E+009;1.684941798448563E-001;-2.421493269503117E-002;-3.235916374251247E-003;-1.754586701281369E-004;
2.409500000000000E+009;1.686094105243683E-001;-2.510829269886017E-002;-3.211799310520291E-003;-1.044186719809659E-004;
2.409666666666667E+009;1.685688942670822E-001;-2.594931796193123E-002;-3.316489979624748E-003;-6.770927575416863E-005;
2.409833333333334E+009;1.686154305934906E-001;-2.672970667481422E-002;-3.468258539214730E-003;8.900139073375613E-005;
2.410000000000000E+009;1.688250452280045E-001;-2.760964632034302E-002;-3.626805264502764E-003;1.857160532381386E-004;
2.410166666666667E+009;1.688389033079147E-001;-2.859572879970074E-002;-3.630665363743901E-003;4.215043154545128E-004;
2.410333333333334E+009;1.687756478786469E-001;-2.951871044933796E-002;-3.394440980628133E-003;5.513862706720829E-004;
2.410500000000000E+009;1.687666028738022E-001;-3.036249801516533E-002;-3.541827667504549E-003;6.764572462998331E-004;
2.410666666666667E+009;1.685734838247299E-001;-3.139470517635346E-002;-3.512470284476876E-003;8.139560231938958E-004;
2.410833333333334E+009;1.686152666807175E-001;-3.215362504124641E-002;-3.382293973118067E-003;9.363117860630155E-004;
2.411000000000000E+009;1.683025807142258E-001;-3.309696912765503E-002;-3.446243936195970E-003;9.714034968055785E-004;
2.411166666666667E+009;1.682037115097046E-001;-3.404169157147408E-002;-3.311392152681947E-003;1.045919023454189E-003;
2.411333333333334E+009;1.680406928062439E-001;-3.479661792516708E-002;-3.260442987084389E-003;1.364830648526549E-003;
2.411500000000000E+009;1.678021550178528E-001;-3.578184172511101E-002;-3.267534077167511E-003;1.444631721824408E-003;
2.411666666666667E+009;1.677212715148926E-001;-3.676854819059372E-002;-3.256420372053981E-003;1.554045244120061E-003;
2.411833333333334E+009;1.675498336553574E-001;-3.758157417178154E-002;-3.099438734352589E-003;1.390318269841373E-003;
2.412000000000000E+009;1.674522459506989E-001;-3.849036991596222E-002;-3.192655742168427E-003;1.583180739544332E-003;
2.412166666666667E+009;1.669830679893494E-001;-3.962453827261925E-002;-3.229657420888543E-003;1.596587477251887E-003;
2.412333333333334E+009;1.668974757194519E-001;-4.056246578693390E-002;-3.243974409997463E-003;1.831387053243816E-003;
2.412500000000000E+009;1.664178818464279E-001;-4.146153479814529E-002;-3.114331746473908E-003;1.913610845804215E-003;
2.412666666666667E+009;1.661290526390076E-001;-4.273652657866478E-002;-3.074547043070197E-003;1.899188500829041E-003;
2.412833333333334E+009;1.657953709363937E-001;-4.365665838122368E-002;-3.010212443768978E-003;1.962302951142192E-003;
2.413000000000000E+009;1.654988676309586E-001;-4.441547766327858E-002;-3.265819279477000E-003;2.162795746698976E-003;
2.413166666666667E+009;1.648264378309250E-001;-4.565183818340302E-002;-2.935459837317467E-003;2.232278930023313E-003;
2.413333333333334E+009;1.644425839185715E-001;-4.661665856838226E-002;-3.051465144380927E-003;2.548688091337681E-003;
2.413500000000000E+009;1.640769541263580E-001;-4.776510223746300E-002;-2.797279972583056E-003;2.534224884584546E-003;
2.413666666666667E+009;1.637040525674820E-001;-4.875383153557777E-002;-2.792790532112122E-003;2.788756042718887E-003;
2.413833333333334E+009;1.631584018468857E-001;-4.976910725235939E-002;-2.753418404608965E-003;2.895226702094078E-003;
2.414000000000000E+009;1.625499129295349E-001;-5.089582130312920E-002;-2.621528459712863E-003;2.941846847534180E-003;
2.414166666666667E+009;1.623518913984299E-001;-5.170464515686035E-002;-2.555548679083586E-003;3.001931123435497E-003;
2.414333333333334E+009;1.620175689458847E-001;-5.271960422396660E-002;-2.381262369453907E-003;3.127504838630557E-003;
2.414500000000000E+009;1.617525517940521E-001;-5.362567678093910E-002;-2.237217500805855E-003;3.168359631672502E-003;
2.414666666666667E+009;1.614438295364380E-001;-5.458546429872513E-002;-2.084261504933238E-003;3.385315416380763E-003;
2.414833333333334E+009;1.612711697816849E-001;-5.576028302311897E-002;-1.917815883643925E-003;3.408716293051839E-003;
2.415000000000000E+009;1.608548909425736E-001;-5.666446313261986E-002;-1.844073412939906E-003;3.499389858916402E-003;
2.415166666666667E+009;1.606741994619370E-001;-5.772040039300919E-002;-1.515037845820189E-003;3.404960501939058E-003;
2.415333333333334E+009;1.606781929731369E-001;-5.889756977558136E-002;-1.330329803749919E-003;3.641442395746708E-003;
2.415500000000000E+009;1.604545563459396E-001;-5.993643403053284E-002;-1.410843920893967E-003;3.529341658577323E-003;
2.415666666666667E+009;1.603419035673142E-001;-6.095190718770027E-002;-1.160968560725451E-003;3.752108896151185E-003;
2.415833333333334E+009;1.602371186017990E-001;-6.220578402280808E-002;-9.656627080403268E-004;3.625877667218447E-003;
2.416000000000000E+009;1.599181890487671E-001;-6.338601559400559E-002;-8.915369398891926E-004;3.496249206364155E-003;
2.416166666666667E+009;1.599719077348709E-001;-6.466016173362732E-002;-7.244354928843677E-004;3.587376326322556E-003;
2.416333333333334E+009;1.596716195344925E-001;-6.570082902908325E-002;-5.871545290574431E-004;3.711995435878635E-003;
2.416500000000000E+009;1.592679172754288E-001;-6.692936271429062E-002;-6.491899257525802E-004;3.530394053086639E-003;
2.416666666666667E+009;1.589941084384918E-001;-6.800087541341782E-002;-3.325576835777611E-004;3.650198457762599E-003;
2.416833333333334E+009;1.589308083057404E-001;-6.931894272565842E-002;-2.105775492964312E-004;3.592512337490916E-003;
2.417000000000000E+009;1.583041697740555E-001;-7.041539996862412E-002;-1.421003689756617E-004;3.490435192361474E-003;
2.417166666666667E+009;1.580481082201004E-001;-7.137583196163178E-002;-1.162245825980790E-004;3.532707691192627E-003;
2.417333333333334E+009;1.577920466661453E-001;-7.220315933227539E-002;1.981627574423328E-004;3.338025184348226E-003;
2.417500000000000E+009;1.574155092239380E-001;-7.337107509374619E-002;1.946840784512460E-004;3.225973807275295E-003;
2.417666666666667E+009;1.571059525012970E-001;-7.419985532760620E-002;4.161818360444158E-004;3.319742390885949E-003;
2.417833333333334E+009;1.568323224782944E-001;-7.497363537549973E-002;4.272014193702489E-004;3.224605228751898E-003;
2.418000000000000E+009;1.564315408468247E-001;-7.596562802791596E-002;6.625209352932870E-004;3.075789660215378E-003;
2.418166666666667E+009;1.562024950981140E-001;-7.657358795404434E-002;5.637830472551286E-004;2.754081971943378E-003;
2.418333333333334E+009;1.560456156730652E-001;-7.744242995977402E-002;6.272464524954557E-004;2.658630721271038E-003;
2.418500000000000E+009;1.556835770606995E-001;-7.822868973016739E-002;6.696593482047319E-004;2.692129462957382E-003;
2.418666666666667E+009;1.554803252220154E-001;-7.898888736963272E-002;5.563400336541235E-004;2.530459547415376E-003;
2.418833333333334E+009;1.549767851829529E-001;-7.980936020612717E-002;5.589904030784965E-004;2.394376322627068E-003;
2.419000000000000E+009;1.546967327594757E-001;-8.044320344924927E-002;5.323321092873812E-004;2.353927353397012E-003;
2.419166666666667E+009;1.544340848922730E-001;-8.102324604988098E-002;3.160600026603788E-004;2.268378389999270E-003;
2.419333333333334E+009;1.538140177726746E-001;-8.160618692636490E-002;2.409240260021761E-004;2.279666252434254E-003;
2.419500000000000E+009;1.534638404846191E-001;-8.240934461355209E-002;2.034829813055694E-004;2.373265568166971E-003;
2.419666666666667E+009;1.532508283853531E-001;-8.302389830350876E-002;5.005086131859571E-005;2.497963141649962E-003;
2.419833333333334E+009;1.528394520282745E-001;-8.345895260572434E-002;5.758581028203480E-005;2.460374264046550E-003;
2.420000000000000E+009;1.525304615497589E-001;-8.411966264247894E-002;-7.420352631015703E-005;2.587646013125777E-003;
2.420166666666667E+009;1.521313786506653E-001;-8.459179103374481E-002;1.094229082809761E-005;2.926050219684839E-003;
2.420333333333334E+009;1.518194675445557E-001;-8.520983159542084E-002;8.469711610814557E-005;2.997914096340537E-003;
2.420500000000000E+009;1.514225155115128E-001;-8.570906519889832E-002;1.789800007827580E-004;3.315815236419439E-003;
2.420666666666667E+009;1.509843170642853E-001;-8.615157753229141E-002;1.718803978292272E-004;3.271874971687794E-003;
2.420833333333334E+009;1.506971567869186E-001;-8.702036738395691E-002;3.899350122082979E-004;3.465878777205944E-003;
2.421000000000000E+009;1.501275599002838E-001;-8.770855516195297E-002;4.706393519882113E-004;3.484508488327265E-003;
2.421166666666667E+009;1.497780084609985E-001;-8.839444071054459E-002;7.259916746988893E-004;3.761180443689227E-003;
2.421333333333334E+009;1.495605409145355E-001;-8.912966400384903E-002;7.948320126160979E-004;3.792239353060722E-003;
2.421500000000000E+009;1.488211154937744E-001;-8.975687623023987E-002;1.165964524261653E-003;3.759145038202405E-003;
2.421666666666667E+009;1.483373641967773E-001;-9.048929810523987E-002;1.284775556996465E-003;3.790963906794787E-003;
2.421833333333334E+009;1.477838456630707E-001;-9.120565652847290E-002;1.416447805240750E-003;3.741358174011111E-003;
2.422000000000000E+009;1.471310853958130E-001;-9.198044985532761E-002;1.849832828156650E-003;3.774587763473392E-003;
2.422166666666667E+009;1.463844776153565E-001;-9.295866638422012E-002;2.006823662668467E-003;3.812612732872367E-003;
2.422333333333334E+009;1.459013670682907E-001;-9.350256621837616E-002;2.125166356563568E-003;3.617998445406556E-003;
2.422500000000000E+009;1.453103721141815E-001;-9.435579180717468E-002;2.417501993477345E-003;3.652330022305250E-003;
2.422666666666667E+009;1.446334868669510E-001;-9.544238448143005E-002;2.458214526996017E-003;3.517329227179289E-003;
2.422833333333334E+009;1.440746039152145E-001;-9.608247131109238E-002;2.862206427380443E-003;3.505543572828174E-003;
2.423000000000000E+009;1.434067040681839E-001;-9.696010500192642E-002;3.050326136872172E-003;3.196997335180640E-003;
2.423166666666667E+009;1.428984701633453E-001;-9.800834953784943E-002;3.156548365950584E-003;2.970690838992596E-003;
2.423333333333334E+009;1.422704011201859E-001;-9.867320209741592E-002;3.344991011545062E-003;2.785476390272379E-003;
2.423500000000000E+009;1.414947658777237E-001;-9.973149001598358E-002;3.366676857694984E-003;2.592849778011441E-003;
2.423666666666667E+009;1.408083587884903E-001;-1.008252650499344E-001;3.407707437872887E-003;2.435236005112529E-003;
2.423833333333334E+009;1.403923779726028E-001;-1.017930805683136E-001;3.562415950000286E-003;2.135106362402439E-003;
2.424000000000000E+009;1.393591463565826E-001;-1.024621203541756E-001;3.471130039542913E-003;2.248281147330999E-003;
2.424166666666667E+009;1.387428641319275E-001;-1.035741791129112E-001;3.494635690003634E-003;1.909754821099341E-003;
2.424333333333334E+009;1.383206844329834E-001;-1.044616922736168E-001;3.528357716277242E-003;1.724580186419189E-003;
2.424500000000000E+009;1.376974284648895E-001;-1.055767089128494E-001;3.531481837853789E-003;1.691898680292070E-003;
2.424666666666667E+009;1.371990591287613E-001;-1.062786132097244E-001;3.662035800516605E-003;1.492536626756191E-003;
2.424833333333334E+009;1.364609748125076E-001;-1.074029654264450E-001;3.622496733441949E-003;1.339996699243784E-003;
2.425000000000000E+009;1.361436545848846E-001;-1.082870215177536E-001;3.699672408401966E-003;1.284276484511793E-003;
2.425166666666667E+009;1.354492306709290E-001;-1.093253493309021E-001;3.861578414216638E-003;1.383916474878788E-003;
2.425333333333334E+009;1.348302215337753E-001;-1.101981326937676E-001;3.673978382721543E-003;9.453445090912283E-004;
2.425500000000000E+009;1.344458609819412E-001;-1.113776788115501E-001;3.765217261388898E-003;8.582440786994994E-004;
2.425666666666667E+009;1.338238120079041E-001;-1.123159602284432E-001;3.834391711279750E-003;6.239020731300116E-004;
2.425833333333334E+009;1.334979385137558E-001;-1.132450029253960E-001;3.881070530042052E-003;5.572565132752061E-004;
2.426000000000000E+009;1.329177469015122E-001;-1.143000125885010E-001;3.692048136144877E-003;3.909948864020407E-004;
2.426166666666667E+009;1.327513903379440E-001;-1.152158901095390E-001;3.751471871510148E-003;1.009703919407912E-004;
2.426333333333334E+009;1.321096420288086E-001;-1.160488352179527E-001;3.778627607971430E-003;-4.248836194165051E-005;
2.426500000000000E+009;1.318477541208267E-001;-1.168175563216209E-001;3.642057767137885E-003;-2.980070712510496E-004;
2.426666666666667E+009;1.315793395042419E-001;-1.176264062523842E-001;3.478783648461103E-003;-3.505163185764104E-004;
2.426833333333334E+009;1.310185194015503E-001;-1.184623390436173E-001;3.274782793596387E-003;-6.258767680265009E-004;
2.427000000000000E+009;1.307117193937302E-001;-1.194156110286713E-001;3.242023056373000E-003;-6.985382642596960E-004;
2.427166666666667E+009;1.303056925535202E-001;-1.199984326958656E-001;3.077636240050197E-003;-7.286470499821007E-004;
2.427333333333334E+009;1.298804432153702E-001;-1.207396313548088E-001;2.819055458530784E-003;-9.251122246496379E-004;
2.427500000000000E+009;1.297291070222855E-001;-1.215091496706009E-001;2.730259206146002E-003;-9.165274095721543E-004;
2.427666666666667E+009;1.293915361166000E-001;-1.222095862030983E-001;2.446923404932022E-003;-8.586292969994247E-004;
