# Hz S RI R 
2400000000.0000000000 0.167935341596603393554687500000 0.040836531668901436542551408593 0.000914282631129026412963867188 -0.000757131492719054222106933594 0 0 0 0 
2400166666.6666665077 0.168502762913703890701455634371 0.040248729288578033447265625000 0.001109862816520035050035786206 -0.000727640930563211441040039062 0 0 0 0 
2400333333.3333334923 0.168874040246009798904580634371 0.039233401417732238769531250000 0.001100306631997228102443076025 -0.000691744091454893350601196289 0 0 0 0 
2400500000.0000000000 0.169466495513915987869424384371 0.038340639322996139526367187500 0.001225968357175589041468954932 -0.000561139313504099845886230469 0 0 0 0 
2400666666.6666665077 0.169840827584266690353231865629 0.037405449897050857543945312500 0.001483517349697649912593222510 -0.000484288670122623389393407001 0 0 0 0 
2400833333.3333334923 0.170119345188140896896200615629 0.036628726869821548461914062500 0.001448818948119878985761332935 -0.000709812040440738201141357422 0 0 0 0 
2401000000.0000000000 0.170437619090080288986044365629 0.035741899162530899047851562500 0.001685847993940114974975585938 -0.000660897232592105865478515625 0 0 0 0 
2401166666.6666665077 0.170741736888885498046875000000 0.034706350415945053100585937500 0.001684611430391669056536030347 -0.000522499787621200084686279297 0 0 0 0 
2401333333.3333334923 0.170940726995468111892861884371 0.033910222351551062847097028907 0.001715399906970560984370566260 -0.000663178041577339172363281250 0 0 0 0 
2401500000.0000000000 0.171057075262069702148437500000 0.032896757125854492187500000000 0.001930608879774809100507426685 -0.000641169259324669837951660156 0 0 0 0 
2401666666.6666665077 0.171196609735488891601562500000 0.032325394451618201518972028907 0.002054504817351698875427246094 -0.000738319882657378911972045898 0 0 0 0 
2401833333.3333334923 0.171414673328399713714276231258 0.031337294727563858032226562500 0.002015044679865241050720214844 -0.000900205632206052541732788086 0 0 0 0 
2402000000.0000000000 0.171206399798393305022869981258 0.030562277883291251445729841407 0.002180446404963732199427939307 -0.000888709793798625469207763672 0 0 0 0 
2402166666.6666665077 0.171222209930419894119424384371 0.029446618631482120859166329296 0.002410687506198883056640625000 -0.001150915864855051040649414062 0 0 0 0 
2402333333.3333334923 0.171292200684547396560830634371 0.028353124856948849069615548046 0.002308114897459744973423623193 -0.001244931598193943934199667822 0 0 0 0 
2402500000.0000000000 0.171486392617225702483807481258 0.027638336643576618539830391796 0.002500959206372499899623251807 -0.001359219313599169037462544019 0 0 0 0 
2402666666.6666665077 0.171270340681076105315838731258 0.026701396331191059457799141796 0.002549182856455444855930947412 -0.001579946489073335907579731519 0 0 0 0 
2402833333.3333334923 0.171414718031883211990518134371 0.025654334574937820434570312500 0.002528286539018154144287109375 -0.001700233086012304046033549731 0 0 0 0 
2403000000.0000000000 0.171237453818321200271768134371 0.024547832086682319641113281250 0.002481347881257534027099609375 -0.001755089848302304961560893481 0 0 0 0 
2403166666.6666665077 0.171236366033554104904013115629 0.023248534649610519409179687500 0.002667702268809080123901367188 -0.001862094970420002937316894531 0 0 0 0 
2403333333.3333334923 0.171253606677055386642294365629 0.022310469299554828298548514454 0.002476808149367570877075195312 -0.002101926365867257118225097656 0 0 0 0 
2403500000.0000000000 0.170986935496330288986044365629 0.021142141893506050109863281250 0.002475117333233356909510947119 -0.002354622818529605865478515625 0 0 0 0 
2403666666.6666665077 0.170965179800987188141192518742 0.019778896123170849191685860546 0.002405269071459770202636718750 -0.002593664918094872994663857568 0 0 0 0 
2403833333.3333334923 0.170893117785453796386718750000 0.018749466165900230407714843750 0.002271198434755206108093261719 -0.002788843819871544837951660156 0 0 0 0 
2404000000.0000000000 0.170751526951789911468182481258 0.017329424619674679147740548046 0.002342128660529851913452148438 -0.002834120765328406853916787256 0 0 0 0 
2404166666.6666665077 0.170560523867607088943643134371 0.015910293906927108764648437500 0.002182980766519904136657714844 -0.003178217448294163183925009619 0 0 0 0 
2404333333.3333334923 0.170469194650649996658486884371 0.014823700301349159585972969921 0.002005313755944370789768838037 -0.003206569002941250801086425781 0 0 0 0 
2404500000.0000000000 0.170404195785522488693075615629 0.013183100149035450326939766796 0.001856261049397289969800639575 -0.003301859367638825936558388818 0 0 0 0 
2404666666.6666665077 0.170328304171562194824218750000 0.011961865238845350092877772852 0.001957208616659044785740517725 -0.003339889459311962127685546875 0 0 0 0 
2404833333.3333334923 0.170386627316474886795205634371 0.010488686151802539825439453125 0.001826832420192658901214599609 -0.003433290170505642890930175781 0 0 0 0 
2405000000.0000000000 0.170408874750137301345986884371 0.008984446525573730468750000000 0.001719187945127486965776753003 -0.003608541097491980032679892432 0 0 0 0 
2405166666.6666665077 0.170377522706985501388388115629 0.007509055081754922866821289062 0.001460988423787056966068886865 -0.003757789963856339888331747900 0 0 0 0 
2405333333.3333334923 0.170364782214164706131143134371 0.005942563060671091079711914062 0.001393785816617310047149658203 -0.003919741604477167129516601562 0 0 0 0 
2405500000.0000000000 0.170397043228149386306924384371 0.004410250112414360046386718750 0.001148513169027864933013916016 -0.004036663100123406323904706738 0 0 0 0 
2405666666.6666665077 0.170251891016960088531817518742 0.002845115028321743011474609375 0.001218028366565703912022256006 -0.004017054103314877423758222363 0 0 0 0 
2405833333.3333334923 0.170150682330131503006143134371 0.001289396197535098032710410010 0.000792417558841407299041748047 -0.004341255873441696166992187500 0 0 0 0 
2406000000.0000000000 0.170100107789039611816406250000 -0.000418273441027849912643432617 0.000571981421671807765960693359 -0.004365688189864158630371093750 0 0 0 0 
2406166666.6666665077 0.169922396540641812423544365629 -0.001754180644638835950138711084 0.000337357196258381009101867676 -0.004397608805447816848754882812 0 0 0 0 
2406333333.3333334923 0.170025378465652493575888115629 -0.003477121004834771156311035156 0.000225243464228697094038286752 -0.004551011603325605392456054688 0 0 0 0 
2406500000.0000000000 0.169874817132949801345986884371 -0.005036611575633287429809570312 0.000119648728286847499295911246 -0.004557951819151639938354492188 0 0 0 0 
2406666666.6666665077 0.169474303722381591796875000000 -0.006461681798100472363943769238 -0.000040310704207513481378555298 -0.004503644537180662155151367188 0 0 0 0 
2406833333.3333334923 0.169543027877807589431924384371 -0.008178537711501121520996093750 -0.000477812311146408319473266602 -0.004551438149064779281616210938 0 0 0 0 
2407000000.0000000000 0.169428482651710510253906250000 -0.009511915035545825958251953125 -0.000561628432478755712509155273 -0.004388411529362201690673828125 0 0 0 0 
2407166666.6666665077 0.169362440705299405196981865629 -0.010885558091104030609130859375 -0.000820475572254508733749389648 -0.004477323032915592193603515625 0 0 0 0 
2407333333.3333334923 0.168974488973617609222088731258 -0.012272609397768970834752266796 -0.001166454516351222991943359375 -0.004354637581855058670043945312 0 0 0 0 
2407500000.0000000000 0.168897271156311007400674384371 -0.013535737991333009547223475977 -0.001272920868359505913378071362 -0.004278695210814476013183593750 0 0 0 0 
2407666666.6666665077 0.168686255812644986251669365629 -0.014726059511303899937639805273 -0.001490053837187587998033833081 -0.004241307731717824935913085938 0 0 0 0 
2407833333.3333334923 0.168394997715950012207031250000 -0.016000356525182720529576485546 -0.001814299845136702060699462891 -0.004070646595209836959838867188 0 0 0 0 
2408000000.0000000000 0.168330416083335904220419365629 -0.017108878120779991149902343750 -0.001846644910983741066576313550 -0.003904344281181693077087402344 0 0 0 0 
2408166666.6666665077 0.168251872062683105468750000000 -0.017941210418939590454101562500 -0.002253214828670024871826171875 -0.003712561912834643883946084131 0 0 0 0 
2408333333.3333334923 0.168334469199180603027343750000 -0.019003285095095630991002266796 -0.002242780290544033050537109375 -0.003451578319072722954991006006 0 0 0 0 
2408500000.0000000000 0.168228477239608792404013115629 -0.020004361867904659616490548046 -0.002398844575509428977966308594 -0.003452642122283577919006347656 0 0 0 0 
2408666666.6666665077 0.168316468596458407303018134371 -0.020945705473423000680943673046 -0.002469743369147181944606161963 -0.003188772825524210929870605469 0 0 0 0 
2408833333.3333334923 0.168302118778228787521200615629 -0.021741248667240139352818673046 -0.002417990239337087111232138525 -0.002923280699178576903102255713 0 0 0 0 
2409000000.0000000000 0.168421566486358587066973768742 -0.022534210234880450857142264454 -0.002539069857448339895961142432 -0.002661148319020866914036416162 0 0 0 0 
2409166666.6666665077 0.168608203530311612228231865629 -0.023342274129390720022181326954 -0.002554214559495449066162109375 -0.002592124743387103080749511719 0 0 0 0 
2409333333.3333334923 0.168826922774314908126669365629 -0.024436764419078830373743826954 -0.002633964177221059799194335938 -0.002403881167992949919459677588 0 0 0 0 
2409500000.0000000000 0.168890431523323086837606865629 -0.025265678763389590871790701954 -0.002328165341168642044067382812 -0.002220103982836008071899414062 0 0 0 0 
2409666666.6666665077 0.168729811906814602950888115629 -0.026215560734271999704381173046 -0.002361181657761334939243935693 -0.002133339177817105813267373193 0 0 0 0 
2409833333.3333334923 0.168854802846908597091513115629 -0.026913063600659370422363281250 -0.002387811429798603057861328125 -0.002084148582071065902709960938 0 0 0 0 
2410000000.0000000000 0.169209718704223605056924384371 -0.027972649782896038400670235546 -0.002351507311686873002293252100 -0.002095338655635714964625693213 0 0 0 0 
2410166666.6666665077 0.169027894735336303710937500000 -0.028669083490967750549316406250 -0.002355586970224976973292685400 -0.002103185746818780899047851562 0 0 0 0 
2410333333.3333334923 0.169140204787254305740518134371 -0.029643723741173740732213204296 -0.002227430930361152128932333838 -0.001905316137708723978755331885 0 0 0 0 
2410500000.0000000000 0.169167175889015197753906250000 -0.030567040666937831533411795704 -0.002271966775879263877868652344 -0.002043360611423850059509277344 0 0 0 0 
2410666666.6666665077 0.169024333357811001876669365629 -0.031645275652408599853515625000 -0.002496943576261401176452636719 -0.001871122512966393990757607568 0 0 0 0 
2410833333.3333334923 0.168855786323547391036825615629 -0.032415624707937240600585937500 -0.002388336928561329841613769531 -0.001955543644726275964024209131 0 0 0 0 
2411000000.0000000000 0.168766766786575289627236884371 -0.033314380794763572002370466407 -0.002406955463811755180358886719 -0.001823497586883604960200644385 0 0 0 0 
2411166666.6666665077 0.168470963835716303069744981258 -0.034249138087034232402761091407 -0.002343449974432588057277060400 -0.001695763668976723930956196362 0 0 0 0 
2411333333.3333334923 0.168326914310455294510049384371 -0.035083983093500137329101562500 -0.002451079199090600013732910156 -0.001668188837356864972355507959 0 0 0 0 
2411500000.0000000000 0.168106228113174410720986884371 -0.036072868853807449340820312500 -0.002322257962077856063842773438 -0.001724818372167647101758647388 0 0 0 0 
2411666666.6666665077 0.168003976345062311370526231258 -0.036998584866523742675781250000 -0.002471081679686903953552246094 -0.001825556857511400959612202222 0 0 0 0 
2411833333.3333334923 0.167618840932846097091513115629 -0.037673708051443099975585937500 -0.002338665537536143822910927881 -0.001806627726182342009303427588 0 0 0 0 
2412000000.0000000000 0.167463272809982299804687500000 -0.038613360375165939331054687500 -0.002510199090465902848484658350 -0.002002573106437921957728720557 0 0 0 0 
2412166666.6666665077 0.167020350694656399825888115629 -0.039534330368041992187500000000 -0.002745669335126876831054687500 -0.001913117594085633971570659106 0 0 0 0 
2412333333.3333334923 0.166906997561454800704794365629 -0.040594384074211120605468750000 -0.002610857598483562903163290869 -0.001842917408794165091273642432 0 0 0 0 
2412500000.0000000000 0.166456684470176696777343750000 -0.041415899991989142681081403907 -0.002789708552882074876072548975 -0.001910926541313529014587402344 0 0 0 0 
2412666666.6666665077 0.165990158915519686599893134371 -0.042600587010383612895925153907 -0.002927352674305438995361328125 -0.001752511365339159965515136719 0 0 0 0 
2412833333.3333334923 0.165755733847618103027343750000 -0.043651472777128219604492187500 -0.003031769534572958946228027344 -0.001795291667804121971130371094 0 0 0 0 
2413000000.0000000000 0.165445014834403991699218750000 -0.044614963233470916748046875000 -0.003134483238682150840759277344 -0.001755667733959854082820273291 0 0 0 0 
2413166666.6666665077 0.164780199527740506271200615629 -0.045463155955076217651367187500 -0.003400046844035387039184570312 -0.001696389983408153057098388672 0 0 0 0 
2413333333.3333334923 0.164372324943542508224325615629 -0.046702813357114791870117187500 -0.003410007338970900015590048682 -0.001799351652152836105943989331 0 0 0 0 
2413500000.0000000000 0.163969233632087707519531250000 -0.047532711178064353252370466407 -0.003717015497386455969569540869 -0.001593916676938533999799418872 0 0 0 0 
2413666666.6666665077 0.163658440113067599197549384371 -0.048607435077428817749023437500 -0.003731527598574758009669638525 -0.001528148655779659964917827075 0 0 0 0 
2413833333.3333334923 0.163168609142303494552450615629 -0.049642529338598251342773437500 -0.003847196465358138084411621094 -0.001151010510511695904972695459 0 0 0 0 
2414000000.0000000000 0.162468791007995605468750000000 -0.050715293735265731811523437500 -0.004057174082845448580270097949 -0.001117373933084309101104736328 0 0 0 0 
2414166666.6666665077 0.162242129445075988769531250000 -0.051458619534969329833984375000 -0.004270381294190883636474609375 -0.000736736401449888944625854492 0 0 0 0 
2414333333.3333334923 0.161843463778495788574218750000 -0.052592474967241287231445312500 -0.004143362399190664291381835938 -0.000463032658444717526435852051 0 0 0 0 
2414500000.0000000000 0.161625936627388000488281250000 -0.053502418100833892822265625000 -0.004136363044381141662597656250 -0.000332005671225488185882568359 0 0 0 0 
2414666666.6666665077 0.161395624279975891113281250000 -0.054499827325344092632253278907 -0.004230185411870479583740234375 -0.000022761169020668600091730424 0 0 0 0 
2414833333.3333334923 0.160849317908287103850994981258 -0.055428564548492431640625000000 -0.004292805679142475128173828125 0.000051139686547685421328952177 0 0 0 0 
2415000000.0000000000 0.160790294408798190017861884371 -0.056493695825338356708567033593 -0.004212781786918640136718750000 0.000394552655052393674850463867 0 0 0 0 
2415166666.6666665077 0.160759374499321011642294365629 -0.057603538036346442485768903907 -0.003914131317287684354300214551 0.000475149776320904493331909180 0 0 0 0 
2415333333.3333334923 0.160612970590591402908486884371 -0.058841131627559661865234375000 -0.003743410110473632812500000000 0.000695896393153816461563110352 0 0 0 0 
2415500000.0000000000 0.160317376255989102462606865629 -0.059988394379615776752512346093 -0.003591789864003657860996865381 0.000807677512057125568389892578 0 0 0 0 
2415666666.6666665077 0.160266637802123995681924384371 -0.061031915247440338134765625000 -0.003770690644159913063049316406 0.000920222373679280281066894531 0 0 0 0 
2415833333.3333334923 0.160117566585540799239950615629 -0.062201879918575286865234375000 -0.003526383312419056892395019531 0.000853552890475839376449584961 0 0 0 0 
2416000000.0000000000 0.159668430685997009277343750000 -0.063524879515171051025390625000 -0.003493538824841380119323730469 0.000997385708615183830261230469 0 0 0 0 
2416166666.6666665077 0.159775584936141995529013115629 -0.064740762114524841308593750000 -0.003602104261517525152919150244 0.000981117947958409786224365234 0 0 0 0 
2416333333.3333334923 0.159383103251457186599893134371 -0.065765246748924255371093750000 -0.003483202075585722923278808594 0.001318836933933199102517153101 0 0 0 0 
2416500000.0000000000 0.159109786152839688400106865629 -0.067144088447093963623046875000 -0.003507689340040088133571005713 0.001298435730859637043596577222 0 0 0 0 
2416666666.6666665077 0.158885106444358797928018134371 -0.068231843411922454833984375000 -0.003519951598718761964085244287 0.001344922930002212958094931494 0 0 0 0 
2416833333.3333334923 0.158590808510780306717080634371 -0.069504395127296447753906250000 -0.003456044476479291915893554688 0.001576467067934572913526225513 0 0 0 0 
2417000000.0000000000 0.158130884170532198806924384371 -0.070465870201587677001953125000 -0.003391757840290666060206747900 0.001695579965598881027818989331 0 0 0 0 
2417166666.6666665077 0.157823637127876309493856865629 -0.071482539176940917968750000000 -0.003381668124347925186157226562 0.001978667452931404113769531250 0 0 0 0 
2417333333.3333334923 0.157553017139434786697549384371 -0.072440288960933685302734375000 -0.003133854130282998085021972656 0.002196940360590815977809286963 0 0 0 0 
2417500000.0000000000 0.157093569636344909667968750000 -0.073617570102214813232421875000 -0.002910226583480834960937500000 0.002266854979097843170166015625 0 0 0 0 
2417666666.6666665077 0.157000720500945989410723768742 -0.074274078011512756347656250000 -0.002717293100431561903712607275 0.002470703097060323195216513525 0 0 0 0 
2417833333.3333334923 0.156637474894523592849893134371 -0.075159907341003417968750000000 -0.002686445834115148024318076025 0.002569854957982898192164755713 0 0 0 0 
2418000000.0000000000 0.156294658780097989181356865629 -0.076125524938106536865234375000 -0.002349173882976173920872353662 0.002670717425644398169276572119 0 0 0 0 
2418166666.6666665077 0.156086355447769192794638115629 -0.076653197407722473144531250000 -0.001995238475501536889317177881 0.002684069331735372977015829932 0 0 0 0 
2418333333.3333334923 0.156009167432785006424111884371 -0.077559463679790496826171875000 -0.001928709214553236961364746094 0.002837184350937604904174804688 0 0 0 0 
2418500000.0000000000 0.155572056770324707031250000000 -0.078231289982795715332031250000 -0.001546657178550959067103720557 0.002728268504142760796787881006 0 0 0 0 
2418666666.6666665077 0.155387893319129888336505018742 -0.079169772565364837646484375000 -0.001381822745315731005427695166 0.002693770686164497895481728662 0 0 0 0 
2418833333.3333334923 0.154882863163948086837606865629 -0.079898640513420104980468750000 -0.001215030788443983034846640479 0.002306542126461863951442099463 0 0 0 0 
2419000000.0000000000 0.154537454247474698165731865629 -0.080608442425727844238281250000 -0.001031576772220432975171733325 0.002238245448097587065455771338 0 0 0 0 
2419166666.6666665077 0.154385566711425809005575615629 -0.081241719424724578857421875000 -0.000887269037775695323944091797 0.001918235211633146026014018481 0 0 0 0 
2419333333.3333334923 0.154002040624618502517861884371 -0.081783547997474670410156250000 -0.000800307490862905979156494141 0.001853288384154438972473144531 0 0 0 0 
2419500000.0000000000 0.153575003147125188629473768742 -0.082580760121345520019531250000 -0.000895983946975320577621459961 0.001789193600416183905360556494 0 0 0 0 
2419666666.6666665077 0.153486669063568087478799384371 -0.083312280476093292236328125000 -0.000886812631506472826004028320 0.001527673099189996936200786060 0 0 0 0 
2419833333.3333334923 0.152870833873748807052450615629 -0.083641678094863891601562500000 -0.000901191437151283025741577148 0.001488162437453866004943847656 0 0 0 0 
