# Version 1.00
#
freq[Hz];re:Trc1_S11;im:Trc1_S11;re:Trc2_S21;im:Trc2_S21;
2.400000000000000E+009;1.564287245273590E-001;6.037778407335281E-002;1.348931691609323E-003;2.031800831900910E-004;
2.400166666666667E+009;1.565343886613846E-001;5.854880809783936E-002;1.260121120139957E-003;1.895484747365117E-004;
2.400333333333334E+009;1.565802693367004E-001;5.648237466812134E-002;1.329012913629413E-003;6.250773003557697E-005;
2.400500000000000E+009;1.567830294370651E-001;5.438416078686714E-002;1.119398279115558E-003;1.362904440611601E-004;
2.400666666666667E+009;1.571051627397537E-001;5.238278955221176E-002;1.134784193709493E-003;2.899700484704226E-004;
2.400833333333334E+009;1.573558598756790E-001;5.036840587854385E-002;1.195683726109564E-003;3.692414902616292E-004;
2.401000000000000E+009;1.576759666204453E-001;4.826377704739571E-002;1.216769916936755E-003;2.276978339068592E-004;
2.401166666666667E+009;1.579260677099228E-001;4.615068063139916E-002;1.127956900745630E-003;1.517644705018029E-004;
2.401333333333334E+009;1.584755778312683E-001;4.403689131140709E-002;1.249100081622601E-003;1.851810811785981E-004;
2.401500000000000E+009;1.590992510318756E-001;4.209888353943825E-002;1.198521000333130E-003;2.457592636346817E-004;
2.401666666666667E+009;1.596027463674545E-001;4.029271379113197E-002;1.113538281060755E-003;3.485142369754612E-004;
2.401833333333334E+009;1.602640151977539E-001;3.814544901251793E-002;1.092066755518317E-003;3.739797102753073E-004;
2.402000000000000E+009;1.605578660964966E-001;3.627054765820503E-002;1.166255446150899E-003;3.924296761397272E-004;
2.402166666666667E+009;1.613715738058090E-001;3.443921729922295E-002;1.215956406667829E-003;3.738595696631819E-004;
2.402333333333334E+009;1.620312631130219E-001;3.284874930977821E-002;1.024598139338195E-003;3.214643802493811E-004;
2.402500000000000E+009;1.630243659019470E-001;3.113197907805443E-002;1.303766272030771E-003;4.538049688562751E-004;
2.402666666666667E+009;1.639307141304016E-001;2.945536002516747E-002;1.122336252592504E-003;6.065221969038248E-004;
2.402833333333334E+009;1.647233217954636E-001;2.799203246831894E-002;1.399687957018614E-003;4.641798150260001E-004;
2.403000000000000E+009;1.654614955186844E-001;2.661012299358845E-002;1.335396198555827E-003;7.078627822920680E-004;
2.403166666666667E+009;1.665440648794174E-001;2.536591514945030E-002;1.366770709864795E-003;5.131377256475389E-004;
2.403333333333334E+009;1.675525754690170E-001;2.400491945445538E-002;1.415966078639031E-003;5.363306263461709E-004;
2.403500000000000E+009;1.683732271194458E-001;2.286605536937714E-002;1.620373106561601E-003;5.335190217010677E-004;
2.403666666666667E+009;1.694496423006058E-001;2.156912907958031E-002;1.581687247380614E-003;6.052378448657692E-004;
2.403833333333334E+009;1.705670803785324E-001;2.072594873607159E-002;1.704128924757242E-003;4.929089336656034E-004;
2.404000000000000E+009;1.713031679391861E-001;1.983879134058952E-002;1.642628456465900E-003;6.393041694536805E-004;
2.404166666666667E+009;1.722188889980316E-001;1.893084496259689E-002;1.884869416244328E-003;6.398497498594225E-004;
2.404333333333334E+009;1.730087250471115E-001;1.805957220494747E-002;1.750096096657217E-003;7.126933196559548E-004;
2.404500000000000E+009;1.739115118980408E-001;1.731972210109234E-002;1.956083113327622E-003;5.212147370912135E-004;
2.404666666666667E+009;1.748464256525040E-001;1.683199778199196E-002;2.028922084718943E-003;4.186864825896919E-004;
2.404833333333334E+009;1.755784153938294E-001;1.611809991300106E-002;2.089072484523058E-003;4.420705372467637E-004;
2.405000000000000E+009;1.762977093458176E-001;1.580184511840344E-002;2.449891297146678E-003;4.067942209076136E-004;
2.405166666666667E+009;1.769172102212906E-001;1.534725353121758E-002;2.342424355447292E-003;3.160584601573646E-004;
2.405333333333334E+009;1.776245683431625E-001;1.471496559679508E-002;2.454661065712571E-003;2.566323964856565E-004;
2.405500000000000E+009;1.781432479619980E-001;1.459910813719034E-002;2.644208027049899E-003;-1.460134444641881E-005;
2.405666666666667E+009;1.786594837903976E-001;1.433238107711077E-002;2.582998014986515E-003;-2.273800600960385E-005;
2.405833333333334E+009;1.789545118808746E-001;1.397971995174885E-002;2.537581836804748E-003;-9.399565897183493E-005;
2.406000000000000E+009;1.792496740818024E-001;1.348197087645531E-002;2.709129359573126E-003;5.798687197966501E-005;
2.406166666666667E+009;1.794341504573822E-001;1.352644152939320E-002;2.647707704454660E-003;-2.422626130282879E-004;
2.406333333333334E+009;1.798219680786133E-001;1.300067268311977E-002;2.760570030659437E-003;-2.611347881611437E-004;
2.406500000000000E+009;1.798146814107895E-001;1.278460118919611E-002;2.944930456578732E-003;-4.660639679059386E-004;
2.406666666666667E+009;1.796407103538513E-001;1.248174812644720E-002;2.736590337008238E-003;-4.719157295767218E-004;
2.406833333333334E+009;1.797104328870773E-001;1.212513539940119E-002;2.804231364279985E-003;-7.108162972144783E-004;
2.407000000000000E+009;1.796144396066666E-001;1.185525208711624E-002;2.820217283442617E-003;-6.504025077447295E-004;
2.407166666666667E+009;1.794933676719666E-001;1.139953825622797E-002;2.799562877044082E-003;-7.570604211650789E-004;
2.407333333333334E+009;1.790422350168228E-001;1.094123441725969E-002;2.820208668708801E-003;-9.085790952667594E-004;
2.407500000000000E+009;1.787407845258713E-001;1.031785923987627E-002;2.780557144433260E-003;-1.047456404194236E-003;
2.407666666666667E+009;1.783986836671829E-001;9.808965958654881E-003;2.711632521823049E-003;-1.153755467385054E-003;
2.407833333333334E+009;1.776804327964783E-001;8.971938863396645E-003;2.869900781661272E-003;-1.243603532202542E-003;
2.408000000000000E+009;1.773311495780945E-001;8.245813660323620E-003;2.826287411153317E-003;-1.364689785987139E-003;
2.408166666666667E+009;1.767862290143967E-001;7.585480343550444E-003;2.717400202527642E-003;-1.484227133914828E-003;
2.408333333333334E+009;1.763147711753845E-001;6.577676627784967E-003;2.773608313873410E-003;-1.646736520342529E-003;
2.408500000000000E+009;1.756422668695450E-001;5.399068351835012E-003;2.870367839932442E-003;-1.674787141382694E-003;
2.408666666666667E+009;1.748677790164948E-001;4.203334450721741E-003;2.765705576166511E-003;-1.856549410149455E-003;
2.408833333333334E+009;1.741466969251633E-001;3.042719559744000E-003;2.873213728889823E-003;-1.893699634820223E-003;
2.409000000000000E+009;1.735221147537231E-001;1.854413887485862E-003;2.790765138342977E-003;-1.992619363591075E-003;
2.409166666666667E+009;1.728047728538513E-001;3.869773936457932E-004;2.690685912966728E-003;-2.230247016996145E-003;
2.409333333333334E+009;1.723304092884064E-001;-1.040126546286047E-003;2.594017190858722E-003;-2.213374245911837E-003;
2.409500000000000E+009;1.716036200523377E-001;-2.629214199259877E-003;2.512508537620306E-003;-2.446367638185620E-003;
2.409666666666667E+009;1.709160208702087E-001;-4.206065088510513E-003;2.506482647731900E-003;-2.498715883120894E-003;
2.409833333333334E+009;1.702887862920761E-001;-5.802692845463753E-003;2.505277516320348E-003;-2.582472516223788E-003;
2.410000000000000E+009;1.698576956987381E-001;-7.495952304452658E-003;2.328133909031749E-003;-2.785535994917154E-003;
2.410166666666667E+009;1.693466007709503E-001;-9.175035171210766E-003;2.475294051691890E-003;-2.987357787787914E-003;
2.410333333333334E+009;1.688012182712555E-001;-1.098856236785650E-002;2.204697113484144E-003;-3.037073416635394E-003;
2.410500000000000E+009;1.683950126171112E-001;-1.289188489317894E-002;2.165170386433601E-003;-3.236538730561733E-003;
2.410666666666667E+009;1.681432425975800E-001;-1.493683923035860E-002;2.062295097857714E-003;-3.365576267242432E-003;
2.410833333333334E+009;1.680663824081421E-001;-1.679432205855846E-002;1.994446152821183E-003;-3.398649394512177E-003;
2.411000000000000E+009;1.679323315620422E-001;-1.878510415554047E-002;1.890995888970792E-003;-3.582922741770744E-003;
2.411166666666667E+009;1.677018851041794E-001;-2.079021558165550E-002;1.639118301682174E-003;-3.717228304594755E-003;
2.411333333333334E+009;1.676665246486664E-001;-2.265367284417152E-002;1.502924482338131E-003;-3.851350629702210E-003;
2.411500000000000E+009;1.675704121589661E-001;-2.474731020629406E-002;1.504649058915675E-003;-3.909811377525330E-003;
2.411666666666667E+009;1.678871363401413E-001;-2.666557952761650E-002;1.345549011602998E-003;-4.197830334305763E-003;
2.411833333333334E+009;1.680634915828705E-001;-2.825840935111046E-002;1.134163467213512E-003;-4.355539102107287E-003;
2.412000000000000E+009;1.683066636323929E-001;-3.048968128859997E-002;9.791369084268808E-004;-4.081264603883028E-003;
2.412166666666667E+009;1.684693545103073E-001;-3.235795721411705E-002;8.093926589936018E-004;-4.365322645753622E-003;
2.412333333333334E+009;1.691383123397827E-001;-3.431218862533569E-002;6.328223389573395E-004;-4.392856266349554E-003;
2.412500000000000E+009;1.693819165229797E-001;-3.594670817255974E-002;5.103761213831604E-004;-4.434438887983561E-003;
2.412666666666667E+009;1.698458790779114E-001;-3.782007470726967E-002;2.750537241809070E-004;-4.489637445658445E-003;
2.412833333333334E+009;1.704765558242798E-001;-3.962257876992226E-002;1.952048842213117E-005;-4.321264568716288E-003;
2.413000000000000E+009;1.710521280765533E-001;-4.114983603358269E-002;-3.486174973659217E-004;-4.457528702914715E-003;
2.413166666666667E+009;1.716107279062271E-001;-4.278362169861794E-002;-4.893739824183285E-004;-4.570442717522383E-003;
2.413333333333334E+009;1.721085906028748E-001;-4.429180547595024E-002;-7.730710785835981E-004;-4.422055091708899E-003;
2.413500000000000E+009;1.725365966558456E-001;-4.568280652165413E-002;-7.843766943551600E-004;-4.401401150971651E-003;
2.413666666666667E+009;1.733895391225815E-001;-4.722134396433830E-002;-1.033698557876051E-003;-4.406854975968599E-003;
2.413833333333334E+009;1.739805489778519E-001;-4.845540970563889E-002;-1.294042100198567E-003;-4.260879475623369E-003;
2.414000000000000E+009;1.744249612092972E-001;-4.968854412436485E-002;-1.463599968701601E-003;-4.241168033331633E-003;
2.414166666666667E+009;1.751326918601990E-001;-5.068313702940941E-002;-1.532272202894092E-003;-4.165273625403643E-003;
2.414333333333334E+009;1.756974905729294E-001;-5.179135128855705E-002;-1.769492984749377E-003;-4.171157255768776E-003;
2.414500000000000E+009;1.765041500329971E-001;-5.266920104622841E-002;-1.940197427757084E-003;-4.033595323562622E-003;
2.414666666666667E+009;1.766963899135590E-001;-5.343673750758171E-002;-2.240713452920318E-003;-3.891963511705399E-003;
2.414833333333334E+009;1.772077083587647E-001;-5.434665456414223E-002;-2.303810091689229E-003;-3.947025630623102E-003;
2.415000000000000E+009;1.776516884565353E-001;-5.487579852342606E-002;-2.421526005491614E-003;-3.746019909158349E-003;
2.415166666666667E+009;1.779541969299316E-001;-5.557475984096527E-002;-2.518492517992854E-003;-3.599649993702769E-003;
2.415333333333334E+009;1.782101988792419E-001;-5.612028017640114E-002;-2.773110987618566E-003;-3.447755007073283E-003;
2.415500000000000E+009;1.783953160047531E-001;-5.668827146291733E-002;-2.807789016515017E-003;-3.498916281387210E-003;
2.415666666666667E+009;1.785253137350082E-001;-5.691086873412132E-002;-2.914196113124490E-003;-3.389602294191718E-003;
2.415833333333334E+009;1.785476207733154E-001;-5.718535557389259E-002;-3.131559584289789E-003;-3.026616061106324E-003;
2.416000000000000E+009;1.783947795629501E-001;-5.751467123627663E-002;-3.215418430045247E-003;-2.916688332334161E-003;
2.416166666666667E+009;1.785413473844528E-001;-5.783211439847946E-002;-3.211983013898134E-003;-2.868477022275329E-003;
2.416333333333334E+009;1.782041192054749E-001;-5.804052948951721E-002;-3.356307279318571E-003;-2.843868685886264E-003;
2.416500000000000E+009;1.779553890228272E-001;-5.821077153086662E-002;-3.475896082818508E-003;-2.699323231354356E-003;
2.416666666666667E+009;1.774897426366806E-001;-5.841915309429169E-002;-3.595063928514719E-003;-2.243352821096778E-003;
2.416833333333334E+009;1.771208196878433E-001;-5.883233621716499E-002;-3.717793617397547E-003;-2.252880716696382E-003;
2.417000000000000E+009;1.763736903667450E-001;-5.888207256793976E-002;-3.658286994323134E-003;-2.079583937302232E-003;
2.417166666666667E+009;1.757449060678482E-001;-5.907492712140083E-002;-3.861636854708195E-003;-1.944755204021931E-003;
2.417333333333334E+009;1.750556379556656E-001;-5.929457023739815E-002;-3.792201867327094E-003;-1.787725719623268E-003;
2.417500000000000E+009;1.742752939462662E-001;-5.974499508738518E-002;-3.986801952123642E-003;-1.650647260248661E-003;
2.417666666666667E+009;1.733626723289490E-001;-5.991244688630104E-002;-3.858100622892380E-003;-1.436742139048874E-003;
2.417833333333334E+009;1.723614931106567E-001;-6.022864952683449E-002;-3.900000592693687E-003;-1.277375617064536E-003;
2.418000000000000E+009;1.712102144956589E-001;-6.065842509269714E-002;-3.994068130850792E-003;-1.176785794086754E-003;
2.418166666666667E+009;1.701124310493469E-001;-6.100939586758614E-002;-3.971160389482975E-003;-9.053228422999382E-004;
2.418333333333334E+009;1.693717688322067E-001;-6.149437651038170E-002;-4.041306674480438E-003;-7.648156606592238E-004;
2.418500000000000E+009;1.680680215358734E-001;-6.208361312747002E-002;-3.994159866124392E-003;-6.217182963155210E-004;
2.418666666666667E+009;1.668654382228851E-001;-6.267128139734268E-002;-4.070229362696409E-003;-6.976987351663411E-004;
2.418833333333334E+009;1.654391735792160E-001;-6.353595107793808E-002;-3.982031717896462E-003;-3.736899816431105E-004;
2.419000000000000E+009;1.641991287469864E-001;-6.417740136384964E-002;-4.021663684397936E-003;-3.182467189617455E-004;
2.419166666666667E+009;1.630001962184906E-001;-6.508805602788925E-002;-3.843369893729687E-003;-1.524619729025289E-004;
2.419333333333334E+009;1.615902483463287E-001;-6.585917621850967E-002;-3.877469338476658E-003;-8.714087744010612E-005;
2.419500000000000E+009;1.605348289012909E-001;-6.702303141355515E-002;-3.924604505300522E-003;1.253958034794778E-004;
2.419666666666667E+009;1.594565361738205E-001;-6.824731081724167E-002;-3.907930571585894E-003;2.335075696464628E-004;
2.419833333333334E+009;1.582192182540894E-001;-6.926076859235764E-002;-3.858646610751748E-003;4.465883539523929E-004;
2.420000000000000E+009;1.572645008563995E-001;-7.044833153486252E-002;-3.692144760861993E-003;5.574197857640684E-004;
2.420166666666667E+009;1.560701727867127E-001;-7.178372889757156E-002;-3.751921234652400E-003;5.981359281577170E-004;
2.420333333333334E+009;1.550716459751129E-001;-7.308709621429443E-002;-3.659066278487444E-003;7.255699019879103E-004;
2.420500000000000E+009;1.541944891214371E-001;-7.430428266525269E-002;-3.684579860419035E-003;8.534804801456630E-004;
2.420666666666667E+009;1.534012109041214E-001;-7.592743635177612E-002;-3.675527637824416E-003;8.543810108676553E-004;
2.420833333333334E+009;1.525491029024124E-001;-7.745439559221268E-002;-3.562571015208960E-003;1.056658453308046E-003;
2.421000000000000E+009;1.517928391695023E-001;-7.904390245676041E-002;-3.619398456066847E-003;1.266835373826325E-003;
2.421166666666667E+009;1.513434946537018E-001;-8.049258589744568E-002;-3.515867283567786E-003;1.288219122216106E-003;
2.421333333333334E+009;1.507746875286102E-001;-8.228886872529984E-002;-3.461068728938699E-003;1.346038072369993E-003;
2.421500000000000E+009;1.502414345741272E-001;-8.379974216222763E-002;-3.403316251933575E-003;1.607823069207370E-003;
2.421666666666667E+009;1.500071287155151E-001;-8.562645316123962E-002;-3.316445741802454E-003;1.737548387609422E-003;
2.421833333333334E+009;1.497638970613480E-001;-8.735966682434082E-002;-3.116116859018803E-003;1.726017217151821E-003;
2.422000000000000E+009;1.495267003774643E-001;-8.892907947301865E-002;-3.176465630531311E-003;1.963676884770393E-003;
2.422166666666667E+009;1.494531929492950E-001;-9.069150686264038E-002;-2.943005179986358E-003;2.084964653477073E-003;
2.422333333333334E+009;1.495072990655899E-001;-9.233947098255158E-002;-2.977460855618119E-003;2.120024291798472E-003;
2.422500000000000E+009;1.495983153581619E-001;-9.384733438491821E-002;-2.919238526374102E-003;2.354353433474898E-003;
2.422666666666667E+009;1.495925635099411E-001;-9.562185406684876E-002;-2.702512778341770E-003;2.549617551267147E-003;
2.422833333333334E+009;1.498743891716003E-001;-9.738471359014511E-002;-2.602762077003717E-003;2.474106848239899E-003;
2.423000000000000E+009;1.501617878675461E-001;-9.893222898244858E-002;-2.458000322803855E-003;2.644004300236702E-003;
2.423166666666667E+009;1.505490094423294E-001;-1.005473658442497E-001;-2.362274564802647E-003;2.822749782353640E-003;
2.423333333333334E+009;1.511216461658478E-001;-1.017778888344765E-001;-2.185276011005044E-003;2.928678411990404E-003;
2.423500000000000E+009;1.514320075511932E-001;-1.032869517803192E-001;-1.993227051571012E-003;3.036009613424540E-003;
2.423666666666667E+009;1.518084108829498E-001;-1.047232225537300E-001;-1.830645836889744E-003;3.120933193713427E-003;
2.423833333333334E+009;1.524050831794739E-001;-1.060000509023666E-001;-1.604974735528231E-003;3.012793837115169E-003;
2.424000000000000E+009;1.528499126434326E-001;-1.071549728512764E-001;-1.551053137518466E-003;3.049425547942519E-003;
2.424166666666667E+009;1.534162312746048E-001;-1.083048358559609E-001;-1.459257677197456E-003;3.085255157202482E-003;
2.424333333333334E+009;1.539660245180130E-001;-1.092913597822189E-001;-1.215436495840550E-003;3.227323293685913E-003;
2.424500000000000E+009;1.544163674116135E-001;-1.104031130671501E-001;-9.565300424583256E-004;3.065474098548293E-003;
2.424666666666667E+009;1.549900174140930E-001;-1.113218143582344E-001;-6.595174199901521E-004;3.201594110578299E-003;
2.424833333333334E+009;1.554007828235626E-001;-1.122075170278549E-001;-6.320520187728107E-004;3.175211837515235E-003;
2.425000000000000E+009;1.558955013751984E-001;-1.128959581255913E-001;-4.578007210511714E-004;3.191773779690266E-003;
2.425166666666667E+009;1.560404747724533E-001;-1.136597394943237E-001;-2.368862333241850E-004;3.029384883120656E-003;
2.425333333333334E+009;1.564609259366989E-001;-1.141155958175659E-001;4.340542727732100E-005;2.922100713476539E-003;
2.425500000000000E+009;1.568079292774200E-001;-1.148047447204590E-001;1.051630606525578E-004;2.842242596670985E-003;
2.425666666666667E+009;1.568988412618637E-001;-1.151924058794975E-001;2.768600243143737E-004;2.780483802780509E-003;
2.425833333333334E+009;1.570323407649994E-001;-1.155874431133270E-001;3.126685332972556E-004;2.667317399755120E-003;
2.426000000000000E+009;1.569707393646240E-001;-1.159468516707420E-001;5.461662658490241E-004;2.609255257993937E-003;
2.426166666666667E+009;1.572861671447754E-001;-1.162223294377327E-001;5.230862880125642E-004;2.597994403913617E-003;
2.426333333333334E+009;1.570810675621033E-001;-1.164533719420433E-001;7.106743869371712E-004;2.325895242393017E-003;
2.426500000000000E+009;1.568373590707779E-001;-1.166045218706131E-001;7.653194479644299E-004;2.301729517057538E-003;
2.426666666666667E+009;1.566997468471527E-001;-1.166404485702515E-001;8.617312414571643E-004;2.079035853967071E-003;
2.426833333333334E+009;1.562917381525040E-001;-1.168834492564201E-001;9.838705882430077E-004;2.068302128463984E-003;
2.427000000000000E+009;1.558744013309479E-001;-1.170575469732285E-001;9.516112040728331E-004;1.840722048655152E-003;
2.427166666666667E+009;1.553230881690979E-001;-1.169311106204987E-001;8.912520715966821E-004;1.812267815694213E-003;
2.427333333333334E+009;1.545678526163101E-001;-1.171907484531403E-001;1.083644106984139E-003;1.662483671680093E-003;
2.427500000000000E+009;1.540820747613907E-001;-1.173102557659149E-001;9.722851100377739E-004;1.484660198912025E-003;
2.427666666666667E+009;1.531101167201996E-001;-1.175372004508972E-001;1.105369534343481E-003;1.458927174098790E-003;
