# Hz S RI R 
2400000000.0000000000 0.173199176788330105880575615629 0.049164582043886191631276716407 0.007426567841321229934692382812 0.002278268337249755859375000000 0 0 0 0 
2400166666.6666665077 0.173841282725334195236044365629 0.048607233911752700805664062500 0.007494249381124973297119140625 0.001929951598867774009704589844 0 0 0 0 
2400333333.3333334923 0.174016728997230502029580634371 0.047915123403072357177734375000 0.007669413462281227111816406250 0.001851299079135060093523335034 0 0 0 0 
2400500000.0000000000 0.174469619989395113845986884371 0.047160215675830841064453125000 0.007726842071861028671264648438 0.001528228283859788937809609521 0 0 0 0 
2400666666.6666665077 0.174817562103271512130575615629 0.046543531119823462749440778907 0.007739867083728312578683183887 0.001263289945200086073634482275 0 0 0 0 
2400833333.3333334923 0.175167232751846313476562500000 0.046065684407949447631835937500 0.007802667096257209777832031250 0.000977110466919839382171630859 0 0 0 0 
2401000000.0000000000 0.175107046961784390548544365629 0.045308079570531852031667341407 0.007927578873932361602783203125 0.000715913251042366027832031250 0 0 0 0 
2401166666.6666665077 0.175195232033729608733807481258 0.044581834226846701885182966407 0.008052723482251167297363281250 0.000245634146267548203468322754 0 0 0 0 
2401333333.3333334923 0.175096824765205411056356865629 0.043933525681495673442800153907 0.008166026324033737182617187500 0.000242576817981898811742505484 0 0 0 0 
2401500000.0000000000 0.175485715270042391678018134371 0.043300338089466101909597028907 0.008068837225437164306640625000 -0.000262055313214659690856933594 0 0 0 0 
2401666666.6666665077 0.175394892692565890213174384371 0.042565524578094482421875000000 0.008098254911601543426513671875 -0.000673847447615116834640502930 0 0 0 0 
2401833333.3333334923 0.175337180495262201507244981258 0.041759435087442398071289062500 0.008389714173972606658935546875 -0.000865826616063714027404785156 0 0 0 0 
2402000000.0000000000 0.174907088279724093338174384371 0.040997296571731567382812500000 0.008197822608053684234619140625 -0.001169513794593513011932373047 0 0 0 0 
2402166666.6666665077 0.174783989787101801116619981258 0.039851121604442603374440778907 0.008212835527956485748291015625 -0.001639141468331217982648539966 0 0 0 0 
2402333333.3333334923 0.174554228782653808593750000000 0.039158239960670471191406250000 0.008106333203613758087158203125 -0.002014690311625599861145019531 0 0 0 0 
2402500000.0000000000 0.174484789371490506271200615629 0.038130551576614379882812500000 0.008171034045517444610595703125 -0.002430603839457035064697265625 0 0 0 0 
2402666666.6666665077 0.174426957964897211272869981258 0.037113815546035766601562500000 0.008248187601566314697265625000 -0.002677784999832510948181152344 0 0 0 0 
2402833333.3333334923 0.174028053879737909515057481258 0.035930089652538299560546875000 0.007900259457528591156005859375 -0.003012510016560554938075400244 0 0 0 0 
2403000000.0000000000 0.173605680465698186676348768742 0.034463468939065933227539062500 0.007750442251563072204589843750 -0.003450991353020071983337402344 0 0 0 0 
2403166666.6666665077 0.173562869429588290115518134371 0.033249050378799438476562500000 0.007532713934779167175292968750 -0.003780334489420055909397744287 0 0 0 0 
2403333333.3333334923 0.173067986965179387848223768742 0.031894639134407043457031250000 0.007261849474161863327026367188 -0.003875719616189599037170410156 0 0 0 0 
2403500000.0000000000 0.172681495547294588943643134371 0.030397418886423110961914062500 0.007002139464020729064941406250 -0.004305408801883459091186523438 0 0 0 0 
2403666666.6666665077 0.172325700521469088455361884371 0.028651772066950801504114920704 0.006816118955612182617187500000 -0.004598403349518775939941406250 0 0 0 0 
2403833333.3333334923 0.172134518623352106292401231258 0.027010308578610420227050781250 0.006537615787237882614135742188 -0.004731125663965941342825605176 0 0 0 0 
2404000000.0000000000 0.171848505735397311111611884371 0.025387089699506759643554687500 0.006319766864180564880371093750 -0.004883484914898872375488281250 0 0 0 0 
2404166666.6666665077 0.171427726745605496505575615629 0.023526741191744800912877266796 0.005976829677820205688476562500 -0.005102361086755990982055664062 0 0 0 0 
2404333333.3333334923 0.170999690890312194824218750000 0.021783135831356048583984375000 0.005818839650601148605346679688 -0.005322242155671119689941406250 0 0 0 0 
2404500000.0000000000 0.170765861868858309646768134371 0.019616933539509769784947579296 0.005593709181994199752807617188 -0.005177884362637996673583984375 0 0 0 0 
2404666666.6666665077 0.170565724372863797286825615629 0.017886666581034660339355468750 0.005371318664401769638061523438 -0.005398602690547704696655273438 0 0 0 0 
2404833333.3333334923 0.170382171869278009612713731258 0.015871843323111530649205391796 0.004972176626324653625488281250 -0.005384027957916259765625000000 0 0 0 0 
2405000000.0000000000 0.170321583747863797286825615629 0.013829295523464679718017578125 0.004871767945587635040283203125 -0.005630148574709892272949218750 0 0 0 0 
2405166666.6666665077 0.170194864273071289062500000000 0.011785232461988929403284842579 0.004647088237106800079345703125 -0.005459598265588284406180097363 0 0 0 0 
2405333333.3333334923 0.170446544885635403732138115629 0.009698650799691677093505859375 0.004648154135793448361868573926 -0.005759987514466047286987304688 0 0 0 0 
2405500000.0000000000 0.170431524515152005294638115629 0.007808057125657796859741210938 0.004276758525520563125610351562 -0.005755956750363112363333417676 0 0 0 0 
2405666666.6666665077 0.170547917485237093826455634371 0.005697043146938086423392011426 0.004335165023803710937500000000 -0.005685193929821252822875976562 0 0 0 0 
2405833333.3333334923 0.170658141374588012695312500000 0.003579217009246348901035927881 0.004105113446712493896484375000 -0.005903596058487892150878906250 0 0 0 0 
2406000000.0000000000 0.170948624610900906661825615629 0.001512074843049048943760537256 0.003905389225110412077662802588 -0.005694434512406587600708007812 0 0 0 0 
2406166666.6666665077 0.171326085925102206131143134371 -0.000519029970746487379074096680 0.003732109442353249029872275244 -0.005829817615449429425711347363 0 0 0 0 
2406333333.3333334923 0.171785101294517489334268134371 -0.002528161974623798890354775537 0.003723877249285579161403036963 -0.005984157789498567581176757812 0 0 0 0 
2406500000.0000000000 0.172206804156303405761718750000 -0.004405528772622346878051757812 0.003650586819276214079615927588 -0.006053018849343060579781816699 0 0 0 0 
2406666666.6666665077 0.172537967562675503829794365629 -0.006458616815507411956787109375 0.003424047259613872008082724463 -0.006086315494030714035034179688 0 0 0 0 
2406833333.3333334923 0.173332855105400113204794365629 -0.008455052040517330169677734375 0.003381746355444192886352539062 -0.006205343641340732574462890625 0 0 0 0 
2407000000.0000000000 0.173787593841552706619424384371 -0.010379586368799209594726562500 0.003287859028205275969264365088 -0.006311336997896432876586914062 0 0 0 0 
2407166666.6666665077 0.174604356288909912109375000000 -0.011983472853899000340471836523 0.003324892837554215951206826318 -0.006372367963194847106933593750 0 0 0 0 
2407333333.3333334923 0.175269052386283902267294365629 -0.013981404714286330831507498829 0.003155394224449992179870605469 -0.006550402380526065826416015625 0 0 0 0 
2407500000.0000000000 0.175951391458511408050213731258 -0.015717107802629470825195312500 0.003086903830990194840672158350 -0.006679102778434753417968750000 0 0 0 0 
2407666666.6666665077 0.176649376749992398361044365629 -0.017281958833336830139160156250 0.003108145669102669195887900244 -0.007039944175630807876586914062 0 0 0 0 
2407833333.3333334923 0.177332878112792996505575615629 -0.019093213602900508535364920704 0.002828291850164533095118857275 -0.007181703578680753707885742188 0 0 0 0 
2408000000.0000000000 0.178109079599380493164062500000 -0.020740173757076259958287423046 0.002772476291283965110778808594 -0.007422399241477251052856445312 0 0 0 0 
2408166666.6666665077 0.178870961070060702224893134371 -0.021915871649980548513392264454 0.002360556041821836991551064600 -0.007622031494975090026855468750 0 0 0 0 
2408333333.3333334923 0.179692581295967102050781250000 -0.023417482152581218374232108204 0.002234410727396606965305947412 -0.007622828241437673568725585938 0 0 0 0 
2408500000.0000000000 0.180274531245231600662393134371 -0.024915479123592380178431326954 0.001927194534800946929334330981 -0.007905437611043453216552734375 0 0 0 0 
2408666666.6666665077 0.180932193994522094726562500000 -0.026164371520280841482142264454 0.001797585864551364941837929834 -0.008226434700191020965576171875 0 0 0 0 
2408833333.3333334923 0.181307137012481689453125000000 -0.027328530326485630380650704296 0.001405798131600022099138569409 -0.008203133009374141693115234375 0 0 0 0 
2409000000.0000000000 0.181835934519767788986044365629 -0.028422916308045390737513358204 0.001103725400753319046617817456 -0.008504897356033325195312500000 0 0 0 0 
2409166666.6666665077 0.182281970977783203125000000000 -0.029386902227997779846191406250 0.000763310643378645181655883789 -0.008694531396031379699707031250 0 0 0 0 
2409333333.3333334923 0.182871118187904413421307481258 -0.030268725007772449148157889454 0.000508118653669953346252441406 -0.008843674324452877044677734375 0 0 0 0 
2409500000.0000000000 0.183032229542732211013955634371 -0.031125739216804500925084298046 0.000026044843252748250961303711 -0.008954496122896671295166015625 0 0 0 0 
2409666666.6666665077 0.183196514844894409179687500000 -0.031728662550449371337890625000 -0.000320984923746436780125218524 -0.009040921926498413085937500000 0 0 0 0 
2409833333.3333334923 0.183470726013183593750000000000 -0.032204475253820419311523437500 -0.000676313240546733140945434570 -0.009112987667322158813476562500 0 0 0 0 
2410000000.0000000000 0.183732151985168512542401231258 -0.032780706882476806640625000000 -0.001152938464656471989275288159 -0.009030727669596672058105468750 0 0 0 0 
2410166666.6666665077 0.183787673711776705642861884371 -0.033216293901205062866210937500 -0.001630707760341465906855917822 -0.009090001694858074188232421875 0 0 0 0 
2410333333.3333334923 0.184002190828323392013388115629 -0.033580593764781951904296875000 -0.002109343418851494789123535156 -0.009107910096645355224609375000 0 0 0 0 
2410500000.0000000000 0.183845937252044705489950615629 -0.033978290855884552001953125000 -0.002556521212682127952575683594 -0.009063277393579483032226562500 0 0 0 0 
2410666666.6666665077 0.183701545000076293945312500000 -0.034549087285995483398437500000 -0.002885034075006843046901083838 -0.009153961203992366790771484375 0 0 0 0 
2410833333.3333334923 0.183672532439231900314169365629 -0.034603856503963470458984375000 -0.003334835637360810799839638818 -0.009047702886164188385009765625 0 0 0 0 
2411000000.0000000000 0.183338284492492703536825615629 -0.034980844706296920776367187500 -0.003848460502922534942626953125 -0.008948169648647308349609375000 0 0 0 0 
2411166666.6666665077 0.182966962456703213790731865629 -0.035394016653299331665039062500 -0.004253898281604051589965820312 -0.008665580302476882934570312500 0 0 0 0 
2411333333.3333334923 0.182561188936233492752236884371 -0.035775031894445419311523437500 -0.004448382183909416198730468750 -0.008578913286328315734863281250 0 0 0 0 
2411500000.0000000000 0.181907206773757906814736884371 -0.036199260503053672100026716407 -0.004949452355504035949707031250 -0.008302205242216587066650390625 0 0 0 0 
2411666666.6666665077 0.181362420320510892013388115629 -0.036386519670486450195312500000 -0.005457860417664051055908203125 -0.008027535863220691680908203125 0 0 0 0 
2411833333.3333334923 0.180711552500724792480468750000 -0.036886263638734817504882812500 -0.005900680553168058395385742188 -0.007851711474359035491943359375 0 0 0 0 
2412000000.0000000000 0.179785370826721191406250000000 -0.037378512322902679443359375000 -0.006352339871227741241455078125 -0.007321328390389680862426757812 0 0 0 0 
2412166666.6666665077 0.178783714771270807464276231258 -0.037981506437063217163085937500 -0.006690560840070247650146484375 -0.007024138234555721282958984375 0 0 0 0 
2412333333.3333334923 0.178086385130882290939169365629 -0.038329057395458221435546875000 -0.006846019066870213422293378613 -0.006657925434410572052001953125 0 0 0 0 
2412500000.0000000000 0.176960229873657198806924384371 -0.038687031716108322143554687500 -0.007322874851524829864501953125 -0.006253693252801895141601562500 0 0 0 0 
2412666666.6666665077 0.175808206200599698165731865629 -0.039521642029285430908203125000 -0.007419902365654706954956054688 -0.005774597171694040298461914062 0 0 0 0 
2412833333.3333334923 0.174766138195991488357705634371 -0.040230151265859596942942033593 -0.007612652145326138410086347363 -0.005455300211906433105468750000 0 0 0 0 
2413000000.0000000000 0.173336446285247802734375000000 -0.040982123464345932006835937500 -0.007946901954710483551025390625 -0.004836127627640962600708007812 0 0 0 0 
2413166666.6666665077 0.172021970152854891678018134371 -0.041693668812513351440429687500 -0.007909148000180721282958984375 -0.004523233976215124130249023438 0 0 0 0 
2413333333.3333334923 0.170733556151390103439169365629 -0.042575120925903320312500000000 -0.008105593733489513397216796875 -0.004081340972334147366995527051 0 0 0 0 
2413500000.0000000000 0.169506818056106595138388115629 -0.043594092130661010742187500000 -0.008021641522645950317382812500 -0.003430122975260018868687295068 0 0 0 0 
2413666666.6666665077 0.168417289853096008300781250000 -0.044674161821603781963307966407 -0.008189573884010314941406250000 -0.003186602378264069990870810400 0 0 0 0 
2413833333.3333334923 0.166944250464439392089843750000 -0.045813512057065956806223283593 -0.008229418657720088958740234375 -0.002692465903237462043762207031 0 0 0 0 
2414000000.0000000000 0.165572553873062106033486884371 -0.047110654413700096820871721093 -0.008076981641352176666259765625 -0.002350693335756659941432333838 0 0 0 0 
2414166666.6666665077 0.164506763219833401779013115629 -0.048218470066785812377929687500 -0.008069805800914764404296875000 -0.001908359932713211016414023291 0 0 0 0 
2414333333.3333334923 0.163251936435699490646200615629 -0.049664206802845001220703125000 -0.007992831990122795104980468750 -0.001640189555473626093623495947 0 0 0 0 
2414500000.0000000000 0.162339136004447909256143134371 -0.050995998084545142436940778907 -0.007829214446246623992919921875 -0.001089007360860704941990517725 0 0 0 0 
2414666666.6666665077 0.161014795303344698806924384371 -0.052523307502269751811940778907 -0.007572883740067481994628906250 -0.000908768444787710905075073242 0 0 0 0 
2414833333.3333334923 0.159980893135070800781250000000 -0.054155860096216201782226562500 -0.007463579531759023666381835938 -0.000629997404757887125015258789 0 0 0 0 
2415000000.0000000000 0.158914819359779413421307481258 -0.055731222033500671386718750000 -0.007410997524857521057128906250 -0.000406957871746271902888697491 0 0 0 0 
2415166666.6666665077 0.157910868525505093673544365629 -0.057404167950153350830078125000 -0.007207989692687988281250000000 -0.000058809688198380172252655029 0 0 0 0 
2415333333.3333334923 0.157170102000236511230468750000 -0.059221249073743820190429687500 -0.006965051870793104171752929688 0.000050389706302667036652565002 0 0 0 0 
2415500000.0000000000 0.156323194503784207443075615629 -0.060907140374183661724050153907 -0.006715546827763319015502929688 0.000486713834106922203868311749 0 0 0 0 
2415666666.6666665077 0.155597150325775201995526231258 -0.062794372439384460449218750000 -0.006769913248717784881591796875 0.000488541321828961372375488281 0 0 0 0 
2415833333.3333334923 0.154982477426528902908486884371 -0.064742319285869598388671875000 -0.006607270333915948867797851562 0.000746858830098062753677368164 0 0 0 0 
2416000000.0000000000 0.154352083802223205566406250000 -0.066588364541530609130859375000 -0.006457078736275435361380292676 0.000874060671776533126831054688 0 0 0 0 
2416166666.6666665077 0.154059976339340209960937500000 -0.068531200289726257324218750000 -0.006261739414185285568237304688 0.000846689101308584213256835938 0 0 0 0 
2416333333.3333334923 0.153529107570648193359375000000 -0.070567011833190917968750000000 -0.006009124219417572021484375000 0.001119205029681324958801269531 0 0 0 0 
2416500000.0000000000 0.153140708804130609710369981258 -0.072538547217845916748046875000 -0.006081629544496536254882812500 0.001355876564048231081721640479 0 0 0 0 
2416666666.6666665077 0.152763530611991910079794365629 -0.074331730604171752929687500000 -0.005901735741645097732543945312 0.001504807267338037924525595557 0 0 0 0 
2416833333.3333334923 0.152626201510429410079794365629 -0.076463259756565093994140625000 -0.005678803659975528717041015625 0.001661226153373718044878315503 0 0 0 0 
2417000000.0000000000 0.152146741747856112381143134371 -0.078331716358661651611328125000 -0.005463116336613894376272870801 0.001794641721062361977220844800 0 0 0 0 
2417166666.6666665077 0.152128353714942904373330634371 -0.079973854124546051025390625000 -0.005381030961871147155761718750 0.001787278917618096091626811450 0 0 0 0 
2417333333.3333334923 0.152134746313095092773437500000 -0.081719569861888885498046875000 -0.005091143772006034851074218750 0.002077590441331266923191689600 0 0 0 0 
2417500000.0000000000 0.152027532458305386642294365629 -0.083678983151912689208984375000 -0.005018890835344791412353515625 0.002215460408478974862339638818 0 0 0 0 
2417666666.6666665077 0.152141854166984613616619981258 -0.085006229579448699951171875000 -0.004818235523998737335205078125 0.002304977038875222206115722656 0 0 0 0 
2417833333.3333334923 0.152062892913818387130575615629 -0.086613498628139495849609375000 -0.004547724034637212753295898438 0.002355637028813362121582031250 0 0 0 0 
2418000000.0000000000 0.152265697717666598220986884371 -0.088310308754444122314453125000 -0.004400936886668205261230468750 0.002395271556451917128321982275 0 0 0 0 
2418166666.6666665077 0.152222469449043301681356865629 -0.089382082223892211914062500000 -0.004210325889289379119873046875 0.002376684453338385061976767432 0 0 0 0 
2418333333.3333334923 0.152723878622055109222088731258 -0.090710997581481933593750000000 -0.004100950900465250015258789062 0.002298662671819328828098916162 0 0 0 0 
2418500000.0000000000 0.152805984020233209808026231258 -0.091872602701187133789062500000 -0.004027782939374446868896484375 0.002293526893481612205505371094 0 0 0 0 
2418666666.6666665077 0.153015613555908203125000000000 -0.092893458902835845947265625000 -0.003883972764015198187587118994 0.002213180065155028863194131006 0 0 0 0 
2418833333.3333334923 0.153241351246833801269531250000 -0.093877054750919342041015625000 -0.003749002236872911886927939307 0.002173550659790635108947753906 0 0 0 0 
2419000000.0000000000 0.153263285756111200530682481258 -0.094727091491222381591796875000 -0.003739785635843873023986816406 0.002166285878047347068786621094 0 0 0 0 
2419166666.6666665077 0.153600707650184603592080634371 -0.095440879464149475097656250000 -0.003711232217028737068176269531 0.002091125585138798193690634619 0 0 0 0 
2419333333.3333334923 0.153609082102775601486044365629 -0.095813855528831481933593750000 -0.003655638312920928001403808594 0.002142769517377018928527832031 0 0 0 0 
2419500000.0000000000 0.153854191303253201583700615629 -0.096550621092319488525390625000 -0.003684702096506952805760048975 0.002200595336034893989562988281 0 0 0 0 
2419666666.6666665077 0.154066950082778902908486884371 -0.096937581896781921386718750000 -0.003856121096760034994838095557 0.002094493480399250984191894531 0 0 0 0 
2419833333.3333334923 0.154164746403694208343182481258 -0.097023844718933105468750000000 -0.003813989926129579977748251807 0.002113687107339500947239541162 0 0 0 0 
