# Hz S RI R 
2400000000.0000000000 0.155100211501121493240518134371 0.107338443398475702483807481258 -0.003785666776821016831638955225 0.000867702125106006860733032227 0 0 0 0 
2400166666.6666665077 0.154903680086135892013388115629 0.105041623115539606292401231258 -0.003820083569735289053675986182 0.000850843673106282949447631836 0 0 0 0 
2400333333.3333334923 0.154789760708808898925781250000 0.102612748742103604415731865629 -0.003800678299739956855773925781 0.000975798408035188913345336914 0 0 0 0 
2400500000.0000000000 0.154769957065582303146200615629 0.099847972393035888671875000000 -0.003620756557211279869079589844 0.001102422480471431992174458081 0 0 0 0 
2400666666.6666665077 0.154797211289405794998330634371 0.097394466400146484375000000000 -0.003589623840525745911839150537 0.001317442045547067902208637769 0 0 0 0 
2400833333.3333334923 0.154985606670379610916299384371 0.094550438225269317626953125000 -0.003656987333670258955714560400 0.001425871043466031985041952979 0 0 0 0 
2401000000.0000000000 0.155223265290260287185830634371 0.091542474925518035888671875000 -0.003537796437740325927734375000 0.001368584227748214981676411206 0 0 0 0 
2401166666.6666665077 0.155172437429428100585937500000 0.088686570525169372558593750000 -0.003486358327791095213649130713 0.001556668197736144065856933594 0 0 0 0 
2401333333.3333334923 0.155639857053756713867187500000 0.085935503244400024414062500000 -0.003422848880290985107421875000 0.001607529004104435010197304834 0 0 0 0 
2401500000.0000000000 0.155947938561439486404580634371 0.083042778074741363525390625000 -0.003532353322952986197230673682 0.001754745375365019061444926685 0 0 0 0 
2401666666.6666665077 0.156441926956176813323651231258 0.080176122486591339111328125000 -0.003503821557387710051295615088 0.001919374568387866020202636719 0 0 0 0 
2401833333.3333334923 0.156844586133956909179687500000 0.077332086861133575439453125000 -0.003223311854526400999781943213 0.001983556663617492155787802588 0 0 0 0 
2402000000.0000000000 0.157816529273986788650674384371 0.074549213051795959472656250000 -0.003268071915954350991490029443 0.002043925924226642088649130713 0 0 0 0 
2402166666.6666665077 0.158665835857391412933026231258 0.071972109377384185791015625000 -0.003185079665854572816136025537 0.002275220351293683052062988281 0 0 0 0 
2402333333.3333334923 0.159654453396797207931356865629 0.069266974925994873046875000000 -0.003162304637953639030456542969 0.002097966615110636191127158057 0 0 0 0 
2402500000.0000000000 0.160773128271102905273437500000 0.066766403615474700927734375000 -0.003156784223392606215236044775 0.002395106945186852975132607568 0 0 0 0 
2402666666.6666665077 0.162039622664451599121093750000 0.064417272806167602539062500000 -0.002879462903365492820739746094 0.002435493748635054068324423682 0 0 0 0 
2402833333.3333334923 0.163124561309814508636151231258 0.061932351440191268920898437500 -0.003001001197844744162318564307 0.002503645839169621901271201025 0 0 0 0 
2403000000.0000000000 0.164621382951736505706463731258 0.059709142893552780151367187500 -0.002889615017920732931849814307 0.002424940699711441993713378906 0 0 0 0 
2403166666.6666665077 0.166388481855392511565838731258 0.057449113577604286884348283593 -0.002956411102786660194396972656 0.002548409858718514008762978662 0 0 0 0 
2403333333.3333334923 0.167930811643600491622763115629 0.055104594677686691284179687500 -0.003025586018338799910304404150 0.002791799139231442971470498193 0 0 0 0 
2403500000.0000000000 0.169706448912620488922442518742 0.053005725145339972759206403907 -0.002844725735485554175135947119 0.002660437719896436171290732275 0 0 0 0 
2403666666.6666665077 0.171414896845817593673544365629 0.051153328269720077514648437500 -0.002894707256928085847141884912 0.002937863813713192939758300781 0 0 0 0 
2403833333.3333334923 0.172984704375267001053018134371 0.049289010465145111083984375000 -0.002856392879039049148559570312 0.003028467763215302987339638818 0 0 0 0 
2404000000.0000000000 0.174527555704116793533486884371 0.047430954873561859130859375000 -0.002652375260367989973780966650 0.003086564596742392019984579932 0 0 0 0 
2404166666.6666665077 0.176378533244132995605468750000 0.045982748270034790039062500000 -0.002763769123703240914585732568 0.003440189408138393922093056787 0 0 0 0 
2404333333.3333334923 0.178038671612739590743856865629 0.044593058526515960693359375000 -0.002561893314123154120204306494 0.003595311427488923072814941406 0 0 0 0 
2404500000.0000000000 0.179668873548507690429687500000 0.042934771627187728881835937500 -0.002490599406883120970485068213 0.003695816034451127052307128906 0 0 0 0 
2404666666.6666665077 0.181190833449363708496093750000 0.042035378515720367431640625000 -0.002423914847895503044128417969 0.003917313646525144577026367188 0 0 0 0 
2404833333.3333334923 0.183088675141334505935830634371 0.040885340422391891479492187500 -0.002121716504916549162623740088 0.004022791050374507904052734375 0 0 0 0 
2405000000.0000000000 0.184418991208076504806356865629 0.040050946176052086566965471093 -0.001976746134459971947910927881 0.004047797527164220809936523438 0 0 0 0 
2405166666.6666665077 0.185841888189315795898437500000 0.039558820426464080810546875000 -0.001572942594066262028337788159 0.004225672688335180282592773438 0 0 0 0 
2405333333.3333334923 0.187304079532623291015625000000 0.039023753255605697631835937500 -0.001398706808686255975010537256 0.004303848836570978164672851562 0 0 0 0 
2405500000.0000000000 0.188675820827484103103799384371 0.038546536117792129516601562500 -0.001232563517987727902056049878 0.004158615600317716598510742188 0 0 0 0 
2405666666.6666665077 0.190061941742897005935830634371 0.038153856992721557617187500000 -0.001052397652529180049896240234 0.004353952594101428985595703125 0 0 0 0 
2405833333.3333334923 0.191292300820350702483807481258 0.037865161895751953125000000000 -0.000696409901138395071029663086 0.004422339145094156265258789062 0 0 0 0 
2406000000.0000000000 0.192287474870681790450888115629 0.037687584757804870605468750000 -0.000866773771122097969055175781 0.004284269176423549652099609375 0 0 0 0 
2406166666.6666665077 0.193402931094169588943643134371 0.037582069635391242290456403907 -0.000479354290291666984558105469 0.004304970148950815200805664062 0 0 0 0 
2406333333.3333334923 0.194345325231552096267861884371 0.037603840231895446777343750000 -0.000399418902816250920295715332 0.004174641799181699752807617188 0 0 0 0 
2406500000.0000000000 0.195022463798523004729901231258 0.037662047892808907245676408593 -0.000078056400525383651256561279 0.004181051626801490783691406250 0 0 0 0 
2406666666.6666665077 0.195657297968864413162393134371 0.037767864763736731792409528907 0.000052247971325414262037684782 0.004147744271904230117797851562 0 0 0 0 
2406833333.3333334923 0.196220293641090393066406250000 0.037710085511207580566406250000 0.000020490328097366731276715926 0.004172446671873331069946289062 0 0 0 0 
2407000000.0000000000 0.196554183959960909744424384371 0.037908930331468582153320312500 0.000127212348161265308230799542 0.004035745747387409210205078125 0 0 0 0 
2407166666.6666665077 0.196809932589530889313067518742 0.037781525403261191631276716407 0.000245502102188766002655029297 0.003852220252156258063075400244 0 0 0 0 
2407333333.3333334923 0.196865305304527310470419365629 0.037896711379289627075195312500 0.000288314069621264880329686298 0.003871686290949583053588867188 0 0 0 0 
2407500000.0000000000 0.196727231144905090332031250000 0.037855617702007286762277971093 0.000563405803404748439788818359 0.003858088050037622885463095557 0 0 0 0 
2407666666.6666665077 0.196739047765731811523437500000 0.037874624133110053325612653907 0.000691035820636898279190063477 0.003826360451057552857639931787 0 0 0 0 
2407833333.3333334923 0.196272358298301696777343750000 0.037797603756189353252370466407 0.000728320388589054346084594727 0.003739919513463973999023437500 0 0 0 0 
2408000000.0000000000 0.196242630481719998458700615629 0.037651855498552322387695312500 0.000600480474531650543212890625 0.003690075129270554022548056494 0 0 0 0 
2408166666.6666665077 0.195520952343940707107705634371 0.037328515201807022094726562500 0.000755765184294432401657104492 0.003585837548598647117614746094 0 0 0 0 
2408333333.3333334923 0.195108026266097994705361884371 0.037000168114900588989257812500 0.000947332184296101331710815430 0.003548756707459688186645507812 0 0 0 0 
2408500000.0000000000 0.194511041045188903808593750000 0.036428902298212051391601562500 0.000968913489487022161483764648 0.003445617388933897018432617188 0 0 0 0 
2408666666.6666665077 0.193671450018882806975994981258 0.035944432020187377929687500000 0.000929013942368328571319580078 0.003435014281421899795532226562 0 0 0 0 
2408833333.3333334923 0.192784279584884588043536268742 0.035049252212047576904296875000 0.001057824585586786053301167065 0.003233746392652391953709267725 0 0 0 0 
2409000000.0000000000 0.191958725452423095703125000000 0.034232500940561301494557966407 0.001120428089052438952802348560 0.003264715429395436806919716943 0 0 0 0 
2409166666.6666665077 0.190831884741783086578692518742 0.033277820795774459838867187500 0.001018600421957672075984335791 0.003186170710250734849217080225 0 0 0 0 
2409333333.3333334923 0.189962759613990811446981865629 0.032329902052879326557199846093 0.001087101059965789101244282300 0.003376428037881851196289062500 0 0 0 0 
2409500000.0000000000 0.188646197319030789474325615629 0.031092319637536999094029610546 0.001159918145276606082916259766 0.003383780363947153091430664062 0 0 0 0 
2409666666.6666665077 0.187686637043952886383380018742 0.029622064903378490102747733204 0.001103625050745904011967324365 0.003384272335097194151637411963 0 0 0 0 
2409833333.3333334923 0.186678931117057800292968750000 0.028096042573451999319056326954 0.001090081757865845940233540112 0.003349885577335954146144247900 0 0 0 0 
2410000000.0000000000 0.185709998011589105804119981258 0.026596747338771820068359375000 0.001227042637765407995936728369 0.003467162372544407844543457031 0 0 0 0 
2410166666.6666665077 0.184615328907966613769531250000 0.024653157219290729867955391796 0.001337190391495824077008891528 0.003423805581405758857727050781 0 0 0 0 
2410333333.3333334923 0.183552160859107998946981865629 0.022945772856473919260045235546 0.001263569225557149107094789819 0.003609860083088279204127646338 0 0 0 0 
2410500000.0000000000 0.182516127824783297439736884371 0.020981805399060249328613281250 0.001465862151235342025756835938 0.003532694419845939116237021338 0 0 0 0 
2410666666.6666665077 0.181697756052017211914062500000 0.018786406144499778747558593750 0.001675245468504727103589702075 0.003582206554710865020751953125 0 0 0 0 
2410833333.3333334923 0.181138560175895690917968750000 0.016552111133933070791224295704 0.001780755817890167019487690503 0.003521078033372759819030761719 0 0 0 0 
2411000000.0000000000 0.180083677172660799881143134371 0.014477722346782680856724923046 0.001909824437461792989018105615 0.003475807141512631936314248193 0 0 0 0 
2411166666.6666665077 0.179600894451141412933026231258 0.012050987221300600224505039648 0.001947482000105082988739013672 0.003512021619826554818394326318 0 0 0 0 
2411333333.3333334923 0.179002255201339693924111884371 0.009735438041388988494873046875 0.002067433670163155035731650244 0.003621902549639344215393066406 0 0 0 0 
2411500000.0000000000 0.178533732891082791427450615629 0.007277708500623703002929687500 0.002235189080238341851475381006 0.003557731397449969811680459131 0 0 0 0 
2411666666.6666665077 0.178443223237991305252236884371 0.004954185802489519119262695312 0.002503064926713705062866210938 0.003505418077111244201660156250 0 0 0 0 
2411833333.3333334923 0.177965566515922601897869981258 0.002577695064246654944178915869 0.002478077774867414994480752100 0.003470788709819316864013671875 0 0 0 0 
2412000000.0000000000 0.178316250443458612640057481258 -0.000163595235790125998571672983 0.002693856600672007040736533057 0.003445848822593688964843750000 0 0 0 0 
2412166666.6666665077 0.178280293941497802734375000000 -0.002402411773800849914550781250 0.002928954781964420838596963037 0.003215762786567211151123046875 0 0 0 0 
2412333333.3333334923 0.178399011492729187011718750000 -0.004799605812877416610717773438 0.003163730027154088020324707031 0.003189292270690203146693564307 0 0 0 0 
2412500000.0000000000 0.178806394338607788085937500000 -0.007423183880746364593505859375 0.003245555562898517088649130713 0.002864616923034191131591796875 0 0 0 0 
2412666666.6666665077 0.179348528385162409026776231258 -0.009854776784777641296386718750 0.003429470350965857939479208838 0.002982391975820064978358603369 0 0 0 0 
2412833333.3333334923 0.180077955126762390136718750000 -0.012134811840951439249058907421 0.003507853019982575936558388818 0.002780163194984198050258017432 0 0 0 0 
2413000000.0000000000 0.181017979979515103439169365629 -0.014629946090281009674072265625 0.003720387816429138183593750000 0.002572789322584867911097861182 0 0 0 0 
2413166666.6666665077 0.181687653064727810958700615629 -0.016751164570450779306431954296 0.003851493587717413902282714844 0.002356936922296882109401083838 0 0 0 0 
2413333333.3333334923 0.182715252041816711425781250000 -0.019161991775035861623743826954 0.003744185436517000198364257812 0.002120906487107276916503906250 0 0 0 0 
2413500000.0000000000 0.183735966682434109786825615629 -0.021445734426379200326939766796 0.003935019485652446746826171875 0.001941223512403666973114013672 0 0 0 0 
2413666666.6666665077 0.184799194335937500000000000000 -0.023512156680226329458216483204 0.003986684139817953109741210938 0.001750972587615251974818564307 0 0 0 0 
2413833333.3333334923 0.185841143131256103515625000000 -0.025551369413733478891392891796 0.004033521283417940139770507812 0.001580620650202035903930664062 0 0 0 0 
2414000000.0000000000 0.186923980712890597244424384371 -0.027581153437495231628417968750 0.003839432494714856147766113281 0.001436383230611681938171386719 0 0 0 0 
2414166666.6666665077 0.188217401504516601562500000000 -0.029320897534489631652832031250 0.003980852663516998291015625000 0.001203693798743187947514199365 0 0 0 0 
2414333333.3333334923 0.189456716179847689529580634371 -0.031315796077251427387277971093 0.003963085357099772366995527051 0.001111248042434453964233398438 0 0 0 0 
2414500000.0000000000 0.190776154398918207366619981258 -0.032753646373748779296875000000 0.004012577701359987258911132812 0.001190773211419581933262490381 0 0 0 0 
2414666666.6666665077 0.191780343651771600921307481258 -0.034262232482433319091796875000 0.004003910347819328308105468750 0.000898750382475554943084716797 0 0 0 0 
2414833333.3333334923 0.193013131618499811370526231258 -0.035650927573442459106445312500 0.003986121155321598052978515625 0.000678049982525408267974853516 0 0 0 0 
2415000000.0000000000 0.194089904427528409103231865629 -0.036956630647182471538503278907 0.003934978041797876358032226562 0.000759065616875886917114257812 0 0 0 0 
2415166666.6666665077 0.195368736982345608810263115629 -0.037905029952526092529296875000 0.003970998339354991912841796875 0.000474049185868352705806177960 0 0 0 0 
2415333333.3333334923 0.196514487266540499588174384371 -0.038865100592374801635742187500 0.003874990390613675117492675781 0.000466761935967952013015747070 0 0 0 0 
2415500000.0000000000 0.197648987174034090896768134371 -0.039511058479547500610351562500 0.003848541760817170143127441406 0.000252600351814180612564086914 0 0 0 0 
2415666666.6666665077 0.198770165443420410156250000000 -0.040422488003969192504882812500 0.003852868685498834089991904150 0.000035679178836289793252944946 0 0 0 0 
2415833333.3333334923 0.199665084481239291092080634371 -0.040872387588024139404296875000 0.003884691512212156815769814600 0.000240676352404989302158355713 0 0 0 0 
2416000000.0000000000 0.200401633977889986892861884371 -0.041601326316595077514648437500 0.003756101708859204812290810693 -0.000019290209820610471069812775 0 0 0 0 
2416166666.6666665077 0.201099008321762112716513115629 -0.042051542550325386737863908593 0.003908623475581408414358808301 -0.000070862675784155726432800293 0 0 0 0 
2416333333.3333334923 0.201746731996536310393963731258 -0.042422447353601462627370466407 0.003811129834502934975865029443 -0.000265380251221358776092529297 0 0 0 0 
2416500000.0000000000 0.202257290482521112640057481258 -0.042606148868799209594726562500 0.003710351884365081787109375000 -0.000260144879575818777084350586 0 0 0 0 
2416666666.6666665077 0.202506780624389703948651231258 -0.042818963527679443359375000000 0.003766424488276243209838867188 -0.000461336894659325480461120605 0 0 0 0 
2416833333.3333334923 0.202665075659751892089843750000 -0.042859196662902832031250000000 0.003580925054848194122314453125 -0.000377973861759528517723083496 0 0 0 0 
2417000000.0000000000 0.202860698103904696365518134371 -0.043019864708185202861745466407 0.003755992511287332014796591650 -0.000620531674940139055252075195 0 0 0 0 
2417166666.6666665077 0.202533289790153503417968750000 -0.042855873703956597065012346093 0.003546121763065456910374306787 -0.000702289107721298933029174805 0 0 0 0 
2417333333.3333334923 0.202356308698654202560263115629 -0.042711947113275527954101562500 0.003597340080887078805210732568 -0.000690814806148409843444824219 0 0 0 0 
2417500000.0000000000 0.202111691236495999435263115629 -0.042685568332672119140625000000 0.003603905206546186967137002100 -0.001023741555400192954419780200 0 0 0 0 
2417666666.6666665077 0.201570823788642911056356865629 -0.042471472173929207538645158593 0.003573793685063720183131552588 -0.000949995417613536119461059570 0 0 0 0 
2417833333.3333334923 0.201044037938118008712606865629 -0.042269464582204818725585937500 0.003789342707023024992701865088 -0.000999983982183039188385009766 0 0 0 0 
2418000000.0000000000 0.200500190258026095291299384371 -0.041907954961061477661132812500 0.003595448331907391981837607275 -0.001143457833677530071855854565 0 0 0 0 
2418166666.6666665077 0.199571326375007601638955634371 -0.041885066777467727661132812500 0.003512259339913725852966308594 -0.001234165159985423088073730469 0 0 0 0 
2418333333.3333334923 0.198691442608833312988281250000 -0.041812021285295493389089216407 0.003444193163886665864231728662 -0.001472289441153407096862792969 0 0 0 0 
2418500000.0000000000 0.197649806737899808029013115629 -0.041725207120180130004882812500 0.003298312891274691061732626807 -0.001482787192799150943756103516 0 0 0 0 
2418666666.6666665077 0.196693450212478609939736884371 -0.041581500321626663208007812500 0.003371431957930326895472861182 -0.001650974969379604079602885669 0 0 0 0 
2418833333.3333334923 0.195363119244575500488281250000 -0.041790697723627090454101562500 0.003229307942092419104335165869 -0.001625692122615874030469584888 0 0 0 0 
2419000000.0000000000 0.194180920720100402832031250000 -0.041963882744312293315847028907 0.003226103493943810896632529150 -0.001731402822770178101183247144 0 0 0 0 
2419166666.6666665077 0.192808896303176907638388115629 -0.042259369045495986938476562500 0.003147881478071213202235556494 -0.001899629482068120999577187646 0 0 0 0 
2419333333.3333334923 0.191358923912048312088174384371 -0.042814861983060836791992187500 0.002982213161885737939121865381 -0.002097892807796597914454794775 0 0 0 0 
2419500000.0000000000 0.190040171146392794510049384371 -0.043240867555141448974609375000 0.002988331485539675192592001807 -0.001869269879534841017482138525 0 0 0 0 
2419666666.6666665077 0.188325420022010803222656250000 -0.043916925787925720214843750000 0.002845743438228964805603027344 -0.002026706235483289198634482275 0 0 0 0 
2419833333.3333334923 0.186750411987304687500000000000 -0.044637531042098999023437500000 0.002521156566217542128321982275 -0.001946541015058756091474223560 0 0 0 0 
2420000000.0000000000 0.185183480381965609451455634371 -0.045557830482721328735351562500 0.002677473938092588944676064600 -0.002011535922065376801731728662 0 0 0 0 
