# Hz S RI R 
2400000000.0000000000 0.167680785059928894042968750000 0.041117474436759948730468750000 -0.000430800340836867690086364746 -0.003445142181590199904200888525 0 0 0 0 
2400166666.6666665077 0.168338194489479092696981865629 0.040465317666530609130859375000 -0.000607126101385802030563354492 -0.003412041580304503007176064600 0 0 0 0 
2400333333.3333334923 0.168911308050155611892861884371 0.039507597684860229492187500000 -0.000677509291563183069229125977 -0.003474537516012787818908691406 0 0 0 0 
2400500000.0000000000 0.169279649853706387618856865629 0.038429878652095801616628278907 -0.000895511533599346876144409180 -0.003445482579991220994236611475 0 0 0 0 
2400666666.6666665077 0.169554427266120910644531250000 0.037605017423629760742187500000 -0.000939030956942588090896606445 -0.003340168856084347204921103369 0 0 0 0 
2400833333.3333334923 0.169998541474342401702557481258 0.036795951426029212261159528907 -0.001087656128220259926439594800 -0.003309128805994987921473837744 0 0 0 0 
2401000000.0000000000 0.170208543539047213455361884371 0.035792101174592971801757812500 -0.001139502855949104049085307544 -0.003221723251044750213623046875 0 0 0 0 
2401166666.6666665077 0.170582845807075500488281250000 0.034979723393917076801340471093 -0.001160171697847544930101704175 -0.003391647245734930038452148438 0 0 0 0 
2401333333.3333334923 0.170635521411895807464276231258 0.033917173743247992778737653907 -0.001467825844883918979047465747 -0.003291092580184340910670615088 0 0 0 0 
2401500000.0000000000 0.170900970697403009612713731258 0.033139970153570182109792341407 -0.001558737014420330958125449072 -0.003268977161496878103968954932 0 0 0 0 
2401666666.6666665077 0.171014338731765802581463731258 0.032211601734161376953125000000 -0.001693890430033206939697265625 -0.003148401156067848205566406250 0 0 0 0 
2401833333.3333334923 0.171194210648536709884481865629 0.031241873279213908803919608204 -0.001824758481234312057495117188 -0.003043249482288957075831747900 0 0 0 0 
2402000000.0000000000 0.170895397663116510589276231258 0.030398743227124210702916329296 -0.002014460042119026184082031250 -0.003035044530406593842747353662 0 0 0 0 
2402166666.6666665077 0.171176388859748812576455634371 0.029355974867939949035644531250 -0.002059188904240726990940713037 -0.002916855039075016975402832031 0 0 0 0 
2402333333.3333334923 0.171140402555465698242187500000 0.028519595041871070861816406250 -0.002140119671821593804600381006 -0.002803506096825004057643271338 0 0 0 0 
2402500000.0000000000 0.171262636780738802810830634371 0.027628606185317039489746093750 -0.002143864752724767164943076025 -0.002793611027300357818603515625 0 0 0 0 
2402666666.6666665077 0.171296536922454806228799384371 0.026673000305891040456751639454 -0.002287613460794090790989541162 -0.002373704686760901971104287256 0 0 0 0 
2402833333.3333334923 0.171349361538886996170205634371 0.025519069284200668334960937500 -0.002325817476958035989048623193 -0.002398558892309666113612509619 0 0 0 0 
2403000000.0000000000 0.171199932694435091873330634371 0.024479707702994350088099295704 -0.002465298632159829139709472656 -0.002397758187726140022277832031 0 0 0 0 
2403166666.6666665077 0.171327665448188809493856865629 0.023338960483670241619069685157 -0.002214896492660046057460165869 -0.002161277458071709112880087744 0 0 0 0 
2403333333.3333334923 0.171172723174095209319744981258 0.022161772474646568298339843750 -0.002266261493787169890162802588 -0.001996797276660799980163574219 0 0 0 0 
2403500000.0000000000 0.171048611402511596679687500000 0.021034196019172668457031250000 -0.002183751435950398011448525537 -0.001965387724339962005615234375 0 0 0 0 
2403666666.6666665077 0.171053856611251803299111884371 0.019732682034373279916783516796 -0.002274413360282779173610068213 -0.001850699074566364071489643628 0 0 0 0 
2403833333.3333334923 0.170994266867637606521768134371 0.018494928255677219736119454296 -0.002323328284546732902526855469 -0.001880047493614255948307656396 0 0 0 0 
2404000000.0000000000 0.170918688178062411209268134371 0.017177272588014599191685860546 -0.002380405785515903992893838037 -0.001792131923139095089556049878 0 0 0 0 
2404166666.6666665077 0.170871794223785400390625000000 0.015858063474297520029088204296 -0.002323686610907316207885742188 -0.001818279270082711956621479565 0 0 0 0 
2404333333.3333334923 0.170622810721397399902343750000 0.014635150320827959233294102148 -0.002309016184881329970118857275 -0.002032690215855836868286132812 0 0 0 0 
2404500000.0000000000 0.170605927705764798263388115629 0.013220716267824169504185860546 -0.002397032454609870910644531250 -0.001709261559881269931793212891 0 0 0 0 
2404666666.6666665077 0.170499682426452608963174384371 0.011767297983169559133509451954 -0.002366424538195133209228515625 -0.001698564970865845897077250903 0 0 0 0 
2404833333.3333334923 0.170477733016014099121093750000 0.010278452187776570755928240430 -0.002447613747790455818176269531 -0.001853108406066894964930868994 0 0 0 0 
2405000000.0000000000 0.170486137270927401443643134371 0.008851153776049613952636718750 -0.002550143981352448897120810400 -0.001752898562699555917027138818 0 0 0 0 
2405166666.6666665077 0.170386239886283902267294365629 0.007430518046021462354178144238 -0.002520404523238540129420615088 -0.001603148062713444016100239331 0 0 0 0 
2405333333.3333334923 0.170490816235542297363281250000 0.005727186333388090133666992188 -0.002861514920368791060206747900 -0.001510116388089955069898295825 0 0 0 0 
2405500000.0000000000 0.170421257615089388748330634371 0.004341143183410167694091796875 -0.002884707413613795800449990381 -0.001596811111085117080091166919 0 0 0 0 
2405666666.6666665077 0.170329466462135287185830634371 0.002641690894961357116699218750 -0.002882773056626319885253906250 -0.001486165914684534072875976562 0 0 0 0 
2405833333.3333334923 0.170164361596107510665731865629 0.001333357184194027943852089990 -0.002877330407500267028808593750 -0.001262758509255945899366069263 0 0 0 0 
2406000000.0000000000 0.170317977666854886154013115629 -0.000550405005924403667449951172 -0.002905265660956501960754394531 -0.001201622770167886994005512769 0 0 0 0 
2406166666.6666665077 0.170003190636634798904580634371 -0.001811448484659194946289062500 -0.002953939139842987060546875000 -0.000974895723629742860794067383 0 0 0 0 
2406333333.3333334923 0.169948667287826510330361884371 -0.003408597782254219055175781250 -0.002707988023757935003993368994 -0.000877304119057953357696533203 0 0 0 0 
2406500000.0000000000 0.169837877154350308517294365629 -0.005046404432505369186401367188 -0.003056603251025081114528036963 -0.000988609390333294868469238281 0 0 0 0 
2406666666.6666665077 0.169580578804016113281250000000 -0.006455093156546354293823242188 -0.002924086060374975204467773438 -0.000841614790260791778564453125 0 0 0 0 
2406833333.3333334923 0.169541060924530001541299384371 -0.008079234510660171508789062500 -0.002819277113303542137145996094 -0.000753990549128502607345581055 0 0 0 0 
2407000000.0000000000 0.169439658522605895996093750000 -0.009392410516738891601562500000 -0.002726568141952157020568847656 -0.000687775958795100450515747070 0 0 0 0 
2407166666.6666665077 0.169268310070037786285723768742 -0.010655215010046960658063319727 -0.002954817144200205802917480469 -0.000756155408453196287155151367 0 0 0 0 
2407333333.3333334923 0.169066831469535799881143134371 -0.012086430564522739755650704296 -0.002819969551637769179103232275 -0.000661771802697330713272094727 0 0 0 0 
2407500000.0000000000 0.168867141008377102950888115629 -0.013251909986138340341588204296 -0.002738505601882935003993368994 -0.000622538151219487190246582031 0 0 0 0 
2407666666.6666665077 0.168828934431076105315838731258 -0.014402151107788089406946951954 -0.002774938708171248002293252100 -0.000619185098912566900253295898 0 0 0 0 
2407833333.3333334923 0.168475285172462491134481865629 -0.015683157369494441640833670704 -0.002766035031527280807495117188 -0.000618003017734736204147338867 0 0 0 0 
2408000000.0000000000 0.168488800525665310958700615629 -0.016836255788803100585937500000 -0.002729500411078333854675292969 -0.000515855383127927780151367188 0 0 0 0 
2408166666.6666665077 0.168243184685707092285156250000 -0.017730018123984340322474295704 -0.002848047763109207153320312500 -0.000510421581566333770751953125 0 0 0 0 
2408333333.3333334923 0.168278276920318603515625000000 -0.018691273406147960317591483204 -0.002896326594054698944091796875 -0.000533067563083022832870483398 0 0 0 0 
2408500000.0000000000 0.168199270963668795486611884371 -0.019685607403516769409179687500 -0.002828768221661448912379599463 -0.000515967374667525291442871094 0 0 0 0 
2408666666.6666665077 0.168153882026672391036825615629 -0.020594183355569839477539062500 -0.002928921720013021989109658350 -0.000573177123442292213439941406 0 0 0 0 
2408833333.3333334923 0.168249845504760686676348768742 -0.021426219493150711059570312500 -0.002953395014628767967224121094 -0.000347281427821144515841883527 0 0 0 0 
2409000000.0000000000 0.168153688311576787750567518742 -0.022192500531673431396484375000 -0.003087120829150081114528036963 -0.000357708224328234791755676270 0 0 0 0 
2409166666.6666665077 0.168346270918846102615518134371 -0.023233748972415920602818673046 -0.003144175745546818213221884619 -0.000358047836925834417343139648 0 0 0 0 
2409333333.3333334923 0.168584734201431302169638115629 -0.024089025333523750305175781250 -0.003265829058364034132716513525 -0.000276973878499120473861694336 0 0 0 0 
2409500000.0000000000 0.168586641550064086914062500000 -0.025010854005813598632812500000 -0.003482635598629713058471679688 -0.000077197808423079550266265869 0 0 0 0 
2409666666.6666665077 0.168521836400031987945880018742 -0.026019250974059108388880545704 -0.003202643012627958817722939600 -0.000087059961515478789806365967 0 0 0 0 
2409833333.3333334923 0.168540045619010897537393134371 -0.026721343398094180715540701954 -0.003416678402572869820835732568 0.000124406535178422900751391000 0 0 0 0 
2410000000.0000000000 0.168789058923721313476562500000 -0.027636175975203510629674141796 -0.003473665332421659989597939600 0.000313436932628974318504333496 0 0 0 0 
2410166666.6666665077 0.168931037187576293945312500000 -0.028495974838733669626256173046 -0.003476865589618682861328125000 0.000445877696620300412178039551 0 0 0 0 
2410333333.3333334923 0.168776333332061795333700615629 -0.029373386874794960021972656250 -0.003459469880908728079554892432 0.000480898830574005787998753680 0 0 0 0 
2410500000.0000000000 0.168815329670906094650106865629 -0.030304763466119769704798514454 -0.003352116560563445091247558594 0.000567620329093188047409057617 0 0 0 0 
2410666666.6666665077 0.168698728084564208984375000000 -0.031463235616683959960937500000 -0.003366240300238132910487509619 0.000848354655317962169647216797 0 0 0 0 
2410833333.3333334923 0.168556168675422696212606865629 -0.032208815217018127441406250000 -0.003451601602137089209315634619 0.000820486340671777725219726562 0 0 0 0 
2411000000.0000000000 0.168450817465782193282919365629 -0.032994568347930908203125000000 -0.003434492042288184165954589844 0.001118100481107831001281738281 0 0 0 0 
2411166666.6666665077 0.168285384774208096603231865629 -0.034132294356822967529296875000 -0.003325519151985644860508584131 0.001115537364967166943791054834 0 0 0 0 
2411333333.3333334923 0.168091520667076110839843750000 -0.034936126321554177021067033593 -0.003453373443335295157191611182 0.001214584335684776089311909253 0 0 0 0 
2411500000.0000000000 0.167678415775299100021200615629 -0.035887368023395538330078125000 -0.003246816573664546012878417969 0.001461327541619539044023823315 0 0 0 0 
2411666666.6666665077 0.167707383632659912109375000000 -0.036646213382482528686523437500 -0.003309902502223848862888955225 0.001442297245375812053680419922 0 0 0 0 
2411833333.3333334923 0.167411625385284396072549384371 -0.037448216229677200317382812500 -0.003161920001730322837829589844 0.001428737887181342081782675635 0 0 0 0 
2412000000.0000000000 0.167373731732368496993856865629 -0.038537673652172088623046875000 -0.003223466454073787169215536963 0.001634113024920224926592182690 0 0 0 0 
2412166666.6666665077 0.166895940899848910232705634371 -0.039320480078458792949636091407 -0.003036672249436378912684775244 0.001595708192326128916499472510 0 0 0 0 
2412333333.3333334923 0.166702091693878201583700615629 -0.040467888116836547851562500000 -0.003109610639512538909912109375 0.001726361224427819035173725659 0 0 0 0 
2412500000.0000000000 0.166289076209068298339843750000 -0.041251402348279953002929687500 -0.003104034811258316040039062500 0.001807076623663306019426655347 0 0 0 0 
2412666666.6666665077 0.166001766920089693924111884371 -0.042564582079648971557617187500 -0.003247733693569899039027548682 0.001860439660958945968030620044 0 0 0 0 
2412833333.3333334923 0.165805727243423489669638115629 -0.043688837438821792602539062500 -0.003134297672659159140345908057 0.002031031996011734008789062500 0 0 0 0 
2413000000.0000000000 0.165441155433654812911825615629 -0.044534984976053237915039062500 -0.003077422501519321961643838037 0.002287197625264524979832314600 0 0 0 0 
2413166666.6666665077 0.164798408746719388107138115629 -0.045508410781621932983398437500 -0.003062659176066517829895019531 0.002215680200606584982631064307 0 0 0 0 
2413333333.3333334923 0.164361119270324707031250000000 -0.046673968434333801269531250000 -0.002876733429729938940760947119 0.002513687126338481903076171875 0 0 0 0 
2413500000.0000000000 0.163846120238304110428018134371 -0.047644164413213729858398437500 -0.002965165302157402038574218750 0.002568178810179233984706259619 0 0 0 0 
2413666666.6666665077 0.163527414202690096756143134371 -0.048618063330650329589843750000 -0.002856816863641142845153808594 0.002819129265844821929931640625 0 0 0 0 
2413833333.3333334923 0.163015112280845586578692518742 -0.049604699015617370605468750000 -0.002699993317946792082545615088 0.002879209117963910102844238281 0 0 0 0 
2414000000.0000000000 0.162550553679466303069744981258 -0.050690706819295883178710937500 -0.002601360436528921127319335938 0.002914179349318147139308310400 0 0 0 0 
2414166666.6666665077 0.162306487560272189041299384371 -0.051629953086376190185546875000 -0.002437222516164184050319052588 0.003064683405682445006129599463 0 0 0 0 
2414333333.3333334923 0.161869242787361200530682481258 -0.052515406161546707153320312500 -0.002573468023911118941066122900 0.003075559157878160910365439307 0 0 0 0 
2414500000.0000000000 0.161733269691467312911825615629 -0.053541336208581917499582658593 -0.002162254415452479882481240381 0.003383500734344124794006347656 0 0 0 0 
2414666666.6666665077 0.161402851343154907226562500000 -0.054522752761840820312500000000 -0.002041706116870046095607138525 0.003443993395194410844090127100 0 0 0 0 
2414833333.3333334923 0.161160141229629488845986884371 -0.055575065314769751811940778907 -0.001903503318317234949824667822 0.003352956613525747819187783350 0 0 0 0 
2415000000.0000000000 0.160837188363075311858807481258 -0.056453287601470947265625000000 -0.001849940628744662024854350513 0.003501408966258167786839150537 0 0 0 0 
2415166666.6666665077 0.160727083683013888260049384371 -0.057603862136602401733398437500 -0.001524723251350224018096923828 0.003482508240267633958103798975 0 0 0 0 
2415333333.3333334923 0.160593509674072293380575615629 -0.058806795626878738403320312500 -0.001480377512052655003191303784 0.003747402690351008935215615381 0 0 0 0 
2415500000.0000000000 0.160488650202751187423544365629 -0.059764634817838668823242187500 -0.001196968834847212054608989185 0.003696669125929474830627441406 0 0 0 0 
2415666666.6666665077 0.160346612334251403808593750000 -0.060875773429870612407643903907 -0.001139494823291897990583110278 0.003536241129040718078613281250 0 0 0 0 
2415833333.3333334923 0.160207986831665011306924384371 -0.062102500349283218383789062500 -0.001121998997405170960667275537 0.003652018727734684944152832031 0 0 0 0 
2416000000.0000000000 0.159880384802818298339843750000 -0.063309207558631896972656250000 -0.000850534706842154264450073242 0.003627351019531487984898232568 0 0 0 0 
2416166666.6666665077 0.160004198551178006271200615629 -0.064488448202610015869140625000 -0.000914070988073945153891408655 0.003610400715842843055725097656 0 0 0 0 
2416333333.3333334923 0.159574925899505587478799384371 -0.065616548061370849609375000000 -0.000468553480459377223819178448 0.003547707805410027937648154150 0 0 0 0 
2416500000.0000000000 0.159344837069511413574218750000 -0.066834814846515655517578125000 -0.000479852693388238603442591534 0.003535819705575705008265829932 0 0 0 0 
2416666666.6666665077 0.159042835235595703125000000000 -0.067947119474411010742187500000 -0.000381291174562647884518223895 0.003286484861746429963352822412 0 0 0 0 
2416833333.3333334923 0.158839449286460904220419365629 -0.069256320595741271972656250000 -0.000276236678473651409149169922 0.003405396128073335127589560400 0 0 0 0 
2417000000.0000000000 0.158304989337921087066973768742 -0.070347666740417480468750000000 -0.000151088766870088902398786002 0.003535602474585175947902060400 0 0 0 0 
2417166666.6666665077 0.158132880926132202148437500000 -0.071185626089572906494140625000 -0.000019492003048071641137803725 0.003436353756114840941188193213 0 0 0 0 
2417333333.3333334923 0.157764300704002408126669365629 -0.072186142206192016601562500000 0.000105031213024631101958690504 0.003322894917801022963282919775 0 0 0 0 
2417500000.0000000000 0.157298162579536410232705634371 -0.073273003101348876953125000000 0.000311036739731207489967346191 0.003336529247462749914882040869 0 0 0 0 
2417666666.6666665077 0.157176956534385708907919365629 -0.073984839022159576416015625000 0.000204071562620811191484174185 0.003127828938886522813084267725 0 0 0 0 
2417833333.3333334923 0.156911507248878506759481865629 -0.074945375323295593261718750000 0.000400211516534909605979919434 0.003082065610215067863464355469 0 0 0 0 
2418000000.0000000000 0.156531810760498102386151231258 -0.075988501310348510742187500000 0.000482042261864989995956420898 0.003024873556569219069239951025 0 0 0 0 
2418166666.6666665077 0.156145557761192294021768134371 -0.076582573354244232177734375000 0.000536440231371670961380004883 0.002937634941190481185913085938 0 0 0 0 
2418333333.3333334923 0.156094551086425809005575615629 -0.077411659061908721923828125000 0.000749407510738819837570190430 0.002779941307380795912501669775 0 0 0 0 
2418500000.0000000000 0.155673950910568209549111884371 -0.078204050660133361816406250000 0.000676122261211276054382324219 0.002640563296154140992405556787 0 0 0 0 
2418666666.6666665077 0.155504390597343389313067518742 -0.079060047864913940429687500000 0.000688936153892427682876586914 0.002478428883478045897242880713 0 0 0 0 
2418833333.3333334923 0.155181959271430996993856865629 -0.079603984951972961425781250000 0.000537566607818007469177246094 0.002359263831749558015110634912 0 0 0 0 
2419000000.0000000000 0.154640302062034606933593750000 -0.080363087356090545654296875000 0.000462721014628186821937561035 0.002315758494660257859470986475 0 0 0 0 
2419166666.6666665077 0.154334977269172696212606865629 -0.081076435744762420654296875000 0.000459037924883887225955408917 0.002247837139293551011326455225 0 0 0 0 
2419333333.3333334923 0.153768286108970586578692518742 -0.081560194492340087890625000000 0.000315433309879154021113795148 0.002384928287938237190246582031 0 0 0 0 
2419500000.0000000000 0.153552860021591186523437500000 -0.082310460507869720458984375000 0.000237467786064371493741712027 0.002338578226044774055480957031 0 0 0 0 
2419666666.6666665077 0.153224721550941495040731865629 -0.083104223012924194335937500000 0.000082377518992871046066284180 0.002482689917087554931640625000 0 0 0 0 
2419833333.3333334923 0.152653798460960388183593750000 -0.083480983972549438476562500000 0.000083837119746021926403045654 0.002483906457200645966770791162 0 0 0 0 
