# Hz S RI R 
2400000000.0000000000 0.167764618992805508712606865629 0.041289117187261581420898437500 -0.000438943592598661780357360840 -0.003571207169443368911743164062 0 0 0 0 
2400166666.6666665077 0.168312400579452486892861884371 0.040495015680789947509765625000 -0.000639063771814107894897460938 -0.003502886975184082984924316406 0 0 0 0 
2400333333.3333334923 0.168711200356483487228231865629 0.039445206522941589355468750000 -0.000701859185937792062759399414 -0.003379255998879671096801757812 0 0 0 0 
2400500000.0000000000 0.169311895966529901702557481258 0.038482651114463813091237653907 -0.000746251200325787067413330078 -0.003455399302765727043151855469 0 0 0 0 
2400666666.6666665077 0.169759914278984097579794365629 0.037702865898609161376953125000 -0.000951058987993746995925903320 -0.003348081372678279876708984375 0 0 0 0 
2400833333.3333334923 0.170135438442230196853799384371 0.036828108131885528564453125000 -0.001243323553353548049926757812 -0.003271537832915782928466796875 0 0 0 0 
2401000000.0000000000 0.170302152633666992187500000000 0.035901594907045357440988908593 -0.001201497856527566909790039062 -0.003393254708498715920689248193 0 0 0 0 
2401166666.6666665077 0.170595884323120089431924384371 0.034989994019269943237304687500 -0.001373661682009696960449218750 -0.003429174190387129783630371094 0 0 0 0 
2401333333.3333334923 0.170631557703018188476562500000 0.033985447138547897338867187500 -0.001588509301654994921443320166 -0.003160464810207486152648925781 0 0 0 0 
2401500000.0000000000 0.170891001820564297775106865629 0.033095516264438629150390625000 -0.001680346205830574035644531250 -0.003248360939323902130126953125 0 0 0 0 
2401666666.6666665077 0.171065479516983004470986884371 0.032130084931850433349609375000 -0.001669237972237169959424663013 -0.003172458149492741064784384619 0 0 0 0 
2401833333.3333334923 0.171117544174194308181924384371 0.031225521117448810232142264454 -0.002005467656999825997593545068 -0.003050038358196616172790527344 0 0 0 0 
2402000000.0000000000 0.170961037278175409515057481258 0.030482662841677669179896170704 -0.001923979492858052036882710034 -0.002971645444631576971766806494 0 0 0 0 
2402166666.6666665077 0.171147495508193997482138115629 0.029507664963603019714355468750 -0.001986508257687091827392578125 -0.002853455720469356016871786963 0 0 0 0 
2402333333.3333334923 0.170969903469085693359375000000 0.028546869754791259765625000000 -0.002187458099797368049621582031 -0.002655680058524012999293661963 0 0 0 0 
2402500000.0000000000 0.171363502740860013107138115629 0.027618559077382091176966483204 -0.002318702870979905128479003906 -0.002545938361436129050013876807 0 0 0 0 
2402666666.6666665077 0.171276792883873013595419365629 0.026581641286611560476282889454 -0.002326252870261669158935546875 -0.002525522839277983145472861182 0 0 0 0 
2402833333.3333334923 0.171311959624290494064169365629 0.025538798421621319162388985546 -0.002362145110964775085449218750 -0.002388162305578589005711220850 0 0 0 0 
2403000000.0000000000 0.171086058020591708084268134371 0.024428956210613250732421875000 -0.002365004038438200950622558594 -0.002123086946085094971897744287 0 0 0 0 
2403166666.6666665077 0.171317934989929199218750000000 0.023220457136631008493443673046 -0.002235230058431624932530068506 -0.002186396159231663183925009619 0 0 0 0 
2403333333.3333334923 0.171107515692710904220419365629 0.022064644843339920043945312500 -0.002389737172052264213562011719 -0.002099820412695407867431640625 0 0 0 0 
2403500000.0000000000 0.170821994543075589279013115629 0.020926626399159431457519531250 -0.002182958647608757019042968750 -0.002117376541718841032740927588 0 0 0 0 
2403666666.6666665077 0.170935913920402499099893134371 0.019701063632965091360071951954 -0.002334164688363670869114541162 -0.001964258495718241171595908057 0 0 0 0 
2403833333.3333334923 0.170809581875801086425781250000 0.018422786146402359008789062500 -0.002279110718518495993373251807 -0.001937419176101685003993368994 0 0 0 0 
2404000000.0000000000 0.170876190066337613204794365629 0.017256075516343120229700858204 -0.002299657789990305900573730469 -0.001665389514528214931488037109 0 0 0 0 
2404166666.6666665077 0.170728802680969210525674384371 0.015858752653002738952636718750 -0.002212654333561658859252929688 -0.001947979559190571091295551831 0 0 0 0 
2404333333.3333334923 0.170800194144248990157919365629 0.014590920880436900747278983204 -0.002179217757657169862034463037 -0.001776946475729346058489155347 0 0 0 0 
2404500000.0000000000 0.170348152518272399902343750000 0.013135365210473539179791835352 -0.002432383596897124810459756006 -0.001872042426839471080182719653 0 0 0 0 
2404666666.6666665077 0.170452684164047213455361884371 0.011649430729448800522773943555 -0.002353361109271645979640341650 -0.001731404801830648942234658350 0 0 0 0 
2404833333.3333334923 0.170468747615814208984375000000 0.010355962440371509897252266796 -0.002382480539381504058837890625 -0.001771227805875241973279643481 0 0 0 0 
2405000000.0000000000 0.170395612716674804687500000000 0.008982327766716480255126953125 -0.002495473483577371077296591650 -0.001723320572637021975276327979 0 0 0 0 
2405166666.6666665077 0.170313209295272799392861884371 0.007432886864989995956420898438 -0.002637364435940980911254882812 -0.001609147875569761016248393481 0 0 0 0 
2405333333.3333334923 0.170326054096221896072549384371 0.005719873122870922088623046875 -0.002820592606440186934230185400 -0.001581523683853447003605507959 0 0 0 0 
2405500000.0000000000 0.170366495847701998611611884371 0.004357897210866212844848632812 -0.002775439992547034783604287256 -0.001485973247326910929438925635 0 0 0 0 
2405666666.6666665077 0.170437440276145907303018134371 0.002849885728210210800170898438 -0.002973953261971474127528525244 -0.001476756529882550022722553784 0 0 0 0 
2405833333.3333334923 0.170184567570686312576455634371 0.001308667706325649998308491284 -0.002908024471253157095668173682 -0.001246949541382492022273398291 0 0 0 0 
2406000000.0000000000 0.170244410634040804763955634371 -0.000427490245783701484829503192 -0.002839090069755911827087402344 -0.001264865859411657073377299731 0 0 0 0 
2406166666.6666665077 0.169965103268623407561932481258 -0.001803849474526941993116069263 -0.002871120814234017892124795068 -0.001093851053155959086177206885 0 0 0 0 
2406333333.3333334923 0.169958576560020502288494981258 -0.003417997388169168992283486475 -0.002922831568866968154907226562 -0.000970300869084894657135009766 0 0 0 0 
2406500000.0000000000 0.169974371790885897537393134371 -0.004993590526282787322998046875 -0.002934656571596860885620117188 -0.000823438283987343311309814453 0 0 0 0 
2406666666.6666665077 0.169674143195152310470419365629 -0.006539172027260065078735351562 -0.002875894075259565873387002100 -0.000620834820438176393508911133 0 0 0 0 
2406833333.3333334923 0.169641673564910888671875000000 -0.007989889942109584808349609375 -0.002888775197789072990417480469 -0.000615885190200060606002807617 0 0 0 0 
2407000000.0000000000 0.169437006115913391113281250000 -0.009390872903168201446533203125 -0.002760215196758509115931845557 -0.000600869127083569765090942383 0 0 0 0 
2407166666.6666665077 0.169327601790428189376669365629 -0.010800592601299289358118826954 -0.002690372988581656975987099756 -0.000613246404100209474563598633 0 0 0 0 
2407333333.3333334923 0.169066980481147793868856865629 -0.012309757061302660161028477148 -0.002802798757329583168029785156 -0.000522553687915205955505371094 0 0 0 0 
2407500000.0000000000 0.168885499238967895507812500000 -0.013434240594506260263463204296 -0.002724037040024995803833007812 -0.000702229677699506282806396484 0 0 0 0 
2407666666.6666665077 0.168776914477348299881143134371 -0.014540740288794040679931640625 -0.002658112905919551849365234375 -0.000636798737104982137680053711 0 0 0 0 
2407833333.3333334923 0.168457314372062710861044365629 -0.015748146921396258962611014454 -0.002841501263901590867283486475 -0.000453553016996011083752232684 0 0 0 0 
2408000000.0000000000 0.168365716934204101562500000000 -0.016968237236142158508300781250 -0.002665927866473793983459472656 -0.000541790795978158712387084961 0 0 0 0 
2408166666.6666665077 0.168211489915847806075888115629 -0.017827617004513740539550781250 -0.002725662663578987121582031250 -0.000459727569250389879376011981 0 0 0 0 
2408333333.3333334923 0.168298557400703402420205634371 -0.018775206059217449533482735546 -0.002856199629604816003086709131 -0.000571966113056987524032592773 0 0 0 0 
2408500000.0000000000 0.168222650885581997970419365629 -0.019738480448722839355468750000 -0.002824596362188458009007119287 -0.000524448172654956579208374023 0 0 0 0 
2408666666.6666665077 0.168166682124137906173544365629 -0.020654527470469481731374372657 -0.002992340829223393960240029443 -0.000540978333447128534317016602 0 0 0 0 
2408833333.3333334923 0.168240100145339993575888115629 -0.021458648145198818552037423046 -0.002967692911624908013584756006 -0.000382624042686075026362818585 0 0 0 0 
2409000000.0000000000 0.168388187885284396072549384371 -0.022354045882821079599400704296 -0.003249280154705048041102743994 -0.000328974856529384905665797101 0 0 0 0 
2409166666.6666665077 0.168318599462509210784588731258 -0.023234818130731579172154610546 -0.003244593972340226173400878906 -0.000330934155499562621116638184 0 0 0 0 
2409333333.3333334923 0.168519943952560397049111884371 -0.024160536006093028676966483204 -0.003224322805181146101710654150 -0.000117679534014314399518151555 0 0 0 0 
2409500000.0000000000 0.168713361024856595138388115629 -0.025188047438859939575195312500 -0.003389959922060370011570595850 -0.000120756216347217600472034593 0 0 0 0 
2409666666.6666665077 0.168678477406501797775106865629 -0.025914277881383899343470389454 -0.003514431184157729148864746094 -0.000140433214255608591154375620 0 0 0 0 
2409833333.3333334923 0.168574050068855313400106865629 -0.026713892817497249948521798046 -0.003497818484902381896972656250 0.000078569471952505409717559814 0 0 0 0 
2410000000.0000000000 0.168839454650878906250000000000 -0.027472883462905880319615548046 -0.003499555867165327072143554688 0.000237653992371633703082484113 0 0 0 0 
2410166666.6666665077 0.168850734829902704436932481258 -0.028609739616513248788853829296 -0.003717036917805672125575400244 0.000233033657423220601960858755 0 0 0 0 
2410333333.3333334923 0.168825298547744806487713731258 -0.029538748785853389394739920704 -0.003468283219262958006617880713 0.000552522484213113784790039062 0 0 0 0 
2410500000.0000000000 0.168878391385078402420205634371 -0.030434526503086090087890625000 -0.003410795936360954804661416162 0.000682361249346286058425903320 0 0 0 0 
2410666666.6666665077 0.168765351176261901855468750000 -0.031382437795400619506835937500 -0.003527957247570157051086425781 0.000724974961485713720321655273 0 0 0 0 
2410833333.3333334923 0.168609723448753412444744981258 -0.032143365591764450073242187500 -0.003543019760400056838989257812 0.000935218355152755975723266602 0 0 0 0 
2411000000.0000000000 0.168542355298995999435263115629 -0.033187892287969589233398437500 -0.003499599173665047125575400244 0.000986554427072405815124511719 0 0 0 0 
2411166666.6666665077 0.168237432837486294845419365629 -0.034054242074489586566965471093 -0.003421713132411241965052939307 0.001045731361955404064775776440 0 0 0 0 
2411333333.3333334923 0.168015792965889004806356865629 -0.034761667251586907123606096093 -0.003370346501469612121582031250 0.001345508731901646094081259619 0 0 0 0 
2411500000.0000000000 0.167768046259880093673544365629 -0.035887196660041809082031250000 -0.003321740776300429864170693506 0.001380918431095778942108154297 0 0 0 0 
2411666666.6666665077 0.167788922786712701995526231258 -0.036688733845949172973632812500 -0.003282654331997036933898925781 0.001426959875971079089521098560 0 0 0 0 
2411833333.3333334923 0.167516216635704012771768134371 -0.037475783377885818481445312500 -0.003315146081149578094482421875 0.001495629665441811084747314453 0 0 0 0 
2412000000.0000000000 0.167184680700302096267861884371 -0.038574840873479843139648437500 -0.003195826429873704910278320312 0.001548578962683678107020712744 0 0 0 0 
2412166666.6666665077 0.166794911026954706390057481258 -0.039613910019397742534597028907 -0.003256756812334061102626181494 0.001679634209722280936000204932 0 0 0 0 
2412333333.3333334923 0.166806235909462002853231865629 -0.040441084653139107440988908593 -0.003189785871654748916625976562 0.001794917858205735900281596606 0 0 0 0 
2412500000.0000000000 0.166180029511451693435830634371 -0.041488490998744971538503278907 -0.003270837711170316176173544775 0.001829940010793507099151611328 0 0 0 0 
2412666666.6666665077 0.165993988513946505447549384371 -0.042454287409782409667968750000 -0.003196292789652944044825888525 0.001928273006342351002934121240 0 0 0 0 
2412833333.3333334923 0.165609821677208002288494981258 -0.043475545942783362651784528907 -0.003267242806032299995422363281 0.002079947153106331825256347656 0 0 0 0 
2413000000.0000000000 0.165281936526298495193643134371 -0.044556904584169387817382812500 -0.003113547107204794883728027344 0.002067154506221414046046591650 0 0 0 0 
2413166666.6666665077 0.164753377437591608245526231258 -0.045551069080829620361328125000 -0.003014201298356056213378906250 0.002340045059099793000462197412 0 0 0 0 
2413333333.3333334923 0.164389505982398986816406250000 -0.046631250530481338500976562500 -0.003204573178663849830627441406 0.002550803357735275788548134912 0 0 0 0 
2413500000.0000000000 0.163927912712097195724325615629 -0.047702956944704062725026716407 -0.002845709444954990906956338037 0.002555069513618946075439453125 0 0 0 0 
2413666666.6666665077 0.163484379649162292480468750000 -0.048845663666725158691406250000 -0.002793610328808426856994628906 0.002838936867192388014552451025 0 0 0 0 
2413833333.3333334923 0.163070052862167386154013115629 -0.049672912806272506713867187500 -0.002747827442362904982325888525 0.002899416489526629014256142725 0 0 0 0 
2414000000.0000000000 0.162627384066581698318643134371 -0.050748508423566818237304687500 -0.002641305327415465874912881006 0.003004300175234674973728798975 0 0 0 0 
2414166666.6666665077 0.162354648113250704666299384371 -0.051664557307958602905273437500 -0.002383799757808446884155273438 0.003220082726329565048217773438 0 0 0 0 
2414333333.3333334923 0.161904260516166687011718750000 -0.052599053829908370971679687500 -0.002288632793352007865905761719 0.003289468586444855170008993994 0 0 0 0 
2414500000.0000000000 0.161785572767257690429687500000 -0.053554240614175803447682966407 -0.002172150416299701170680380713 0.003382556838914752006530761719 0 0 0 0 
2414666666.6666665077 0.161322578787803705413494981258 -0.054535727947950363159179687500 -0.001962172100320457978489541162 0.003483801381662487983703613281 0 0 0 0 
2414833333.3333334923 0.160950571298599187652911268742 -0.055618476122617721557617187500 -0.002054020762443542914149618994 0.003402298549190164046046591650 0 0 0 0 
2415000000.0000000000 0.160892874002456692794638115629 -0.056526511907577521587331403907 -0.001826331601478158993961953271 0.003655696753412485122680664062 0 0 0 0 
2415166666.6666665077 0.160638585686683710296307481258 -0.057684835046529769897460937500 -0.001562502118758857033373188550 0.003584360936656593842747353662 0 0 0 0 
2415333333.3333334923 0.160592883825302096267861884371 -0.058783136308193206787109375000 -0.001486968132667243914363242041 0.003574077738448977904078818213 0 0 0 0 
2415500000.0000000000 0.160378739237785311599893134371 -0.059811614453792572021484375000 -0.001301987678743899085401225513 0.003578156000003219084498740088 0 0 0 0 
2415666666.6666665077 0.160158693790435791015625000000 -0.060964342206716537475585937500 -0.001266123843379318930982280200 0.003507036482915281815769814600 0 0 0 0 
2415833333.3333334923 0.160194948315620394607705634371 -0.062101148068904876708984375000 -0.001106611452996731021283793872 0.003623087191954255104064941406 0 0 0 0 
2416000000.0000000000 0.159928053617477389236611884371 -0.063378714025020599365234375000 -0.000988785410299897193908691406 0.003582537174224853949305868994 0 0 0 0 
2416166666.6666665077 0.159895747900009210784588731258 -0.064426861703395843505859375000 -0.000698854390066117048263549805 0.003592667169868946075439453125 0 0 0 0 
2416333333.3333334923 0.159601673483848599532919365629 -0.065731868147850036621093750000 -0.000625240267254412174224853516 0.003587070619687438011169433594 0 0 0 0 
2416500000.0000000000 0.159380763769149808029013115629 -0.066914789378643035888671875000 -0.000584193971008062362670898438 0.003471303498372436003444052588 0 0 0 0 
2416666666.6666665077 0.159044221043586703201455634371 -0.067909605801105499267578125000 -0.000435600086348131299018859863 0.003681402420625091032740927588 0 0 0 0 
2416833333.3333334923 0.158837586641311701018963731258 -0.069179438054561614990234375000 -0.000222323666093870997428894043 0.003496404737234116034266806494 0 0 0 0 
2417000000.0000000000 0.158301070332527188400106865629 -0.070412553846836090087890625000 -0.000112422691017854999430240770 0.003504812018945813179016113281 0 0 0 0 
2417166666.6666665077 0.158078387379646301269531250000 -0.071226611733436584472656250000 -0.000074657764344010502099990845 0.003308230545371770858764648438 0 0 0 0 
2417333333.3333334923 0.157714366912841796875000000000 -0.072247736155986785888671875000 0.000069804242230020463466644287 0.003503435757011175155639648438 0 0 0 0 
2417500000.0000000000 0.157285556197166387359942518742 -0.073352441191673278808593750000 0.000054321528295986347574780123 0.003257852047681808905360556494 0 0 0 0 
2417666666.6666665077 0.157212346792221097091513115629 -0.074079051613807678222656250000 0.000339827995048835873603820801 0.003344021271914244131800986182 0 0 0 0 
2417833333.3333334923 0.156920418143272399902343750000 -0.074927039444446563720703125000 0.000529551354702562093734741211 0.003188685514032841162440634619 0 0 0 0 
2418000000.0000000000 0.156400188803672790527343750000 -0.075918920338153839111328125000 0.000503471877891570329666137695 0.002981789642944931983947753906 0 0 0 0 
2418166666.6666665077 0.156128495931625393966513115629 -0.076641172170639038085937500000 0.000696958857588469982147216797 0.002981493715196847915649414062 0 0 0 0 
2418333333.3333334923 0.156176149845123291015625000000 -0.077562265098094940185546875000 0.000712692330125719308853149414 0.002719200449064373970031738281 0 0 0 0 
2418500000.0000000000 0.155532777309417696853799384371 -0.078251481056213378906250000000 0.000476830697152763605117797852 0.002656383207067846818211220850 0 0 0 0 
2418666666.6666665077 0.155390053987503107268963731258 -0.079137451946735382080078125000 0.000583524641115218400955200195 0.002475137356668711142299033057 0 0 0 0 
2418833333.3333334923 0.154878526926040704925213731258 -0.079801045358180999755859375000 0.000650616537313908338546752930 0.002534265629947185950038290869 0 0 0 0 
2419000000.0000000000 0.154365703463554410079794365629 -0.080426469445228576660156250000 0.000340050726663321310847681866 0.002458291128277779059169150244 0 0 0 0 
2419166666.6666665077 0.154117271304130609710369981258 -0.081113368272781372070312500000 0.000310905801597982699244898663 0.002268787240609527067897177588 0 0 0 0 
2419333333.3333334923 0.153708592057228088378906250000 -0.081579551100730895996093750000 0.000256689178058877587318420410 0.002264751121401786804199218750 0 0 0 0 
2419500000.0000000000 0.153420060873031588455361884371 -0.082329340279102325439453125000 0.000094823386461939662694931030 0.002415367402136325836181640625 0 0 0 0 
2419666666.6666665077 0.153141081333160400390625000000 -0.082899846136569976806640625000 0.000133757625008001896456041879 0.002517824992537498907801962744 0 0 0 0 
2419833333.3333334923 0.152700990438461303710937500000 -0.083465777337551116943359375000 0.000103833583125378895871578078 0.002543523907661437988281250000 0 0 0 0 
