# Hz S RI R 50
2400000000.0000000000 0.167904540896415710449218750000 0.040946196764707572246511091407 -0.002466517966240644888636923682 -0.000127167382743209600448608398 0 0 0 0 
2400166666.6666665077 0.168614894151687594314736884371 0.040311984717845916748046875000 -0.002337908837944269180297851562 -0.000233135229791514602586469107 0 0 0 0 
2400333333.3333334923 0.169031500816345187088174384371 0.039204888045787811279296875000 -0.002522618975490332083461142432 -0.000384079699870199019282740460 0 0 0 0 
2400500000.0000000000 0.169478908181190490722656250000 0.038429513573646552349050153907 -0.002511429600417613983154296875 -0.000364120671292766874462681903 0 0 0 0 
2400666666.6666665077 0.169799879193305996993856865629 0.037395015358924872661550153907 -0.002599488478153944015502929688 -0.000387097912607714479595738544 0 0 0 0 
2400833333.3333334923 0.170239686965942410568075615629 0.036566980183124542236328125000 -0.002748366678133606910705566406 -0.000561581284273415803909301758 0 0 0 0 
2401000000.0000000000 0.170492857694625910003338731258 0.035842921584844589233398437500 -0.002964373445138334794285439600 -0.000545082497410476207733154297 0 0 0 0 
2401166666.6666665077 0.170848116278648404220419365629 0.034648556262254721904714216407 -0.002767995698377490043640136719 -0.000508962315507233142852783203 0 0 0 0 
2401333333.3333334923 0.170985862612724304199218750000 0.033861570060253143310546875000 -0.002967536915093659920933388818 -0.000345458654919639175564366473 0 0 0 0 
2401500000.0000000000 0.171211794018745394607705634371 0.033038951456546783447265625000 -0.003118808846920729117152548682 -0.000425384059781208580166417255 0 0 0 0 
2401666666.6666665077 0.171372994780540494064169365629 0.032308969646692282939870466407 -0.003156709950417280197143554688 -0.000193952044355683001592913217 0 0 0 0 
2401833333.3333334923 0.171385109424591092208700615629 0.031407427042722702026367187500 -0.003214416792616248130798339844 -0.000220689209527336088105878287 0 0 0 0 
2402000000.0000000000 0.171278685331344604492187500000 0.030358113348484039306640625000 -0.003212603274732828140258789062 0.000063709805544931441545486450 0 0 0 0 
2402166666.6666665077 0.171332806348800686935263115629 0.029575450345873829233189766796 -0.003503173822537064985987997900 0.000167758465977385613039293832 0 0 0 0 
2402333333.3333334923 0.171406328678131103515625000000 0.028570765629410740243931954296 -0.003528244327753781838657998193 0.000244682771153747981220799579 0 0 0 0 
2402500000.0000000000 0.171546503901481600662393134371 0.027670886367559429513951485546 -0.003540226025506854057312011719 0.000411775516113266403048914777 0 0 0 0 
2402666666.6666665077 0.171381697058677701095419365629 0.026544395834207541728932966407 -0.003686526790261269049403525244 0.000372931855963543111651820050 0 0 0 0 
2402833333.3333334923 0.171332523226738003829794365629 0.025580516085028648376464843750 -0.003683450166136025948765420068 0.000662977341562509536743164062 0 0 0 0 
2403000000.0000000000 0.171179994940757806975994981258 0.024379601702094081533411795704 -0.003669965080916881994960165869 0.000864992092829197753607595178 0 0 0 0 
2403166666.6666665077 0.171294718980789212325888115629 0.023512052372097969055175781250 -0.003870381973683834075927734375 0.001048124162480235099792480469 0 0 0 0 
2403333333.3333334923 0.171282410621643094161825615629 0.022244667634367939340611641796 -0.003871609456837176842930459131 0.001103893038816750049591064453 0 0 0 0 
2403500000.0000000000 0.170849069952964810470419365629 0.021146638318896290170689766796 -0.003797012381255627112147665869 0.001301840762607753059984516675 0 0 0 0 
2403666666.6666665077 0.170908629894256591796875000000 0.019975300878286361694335937500 -0.003724728245288134054896689307 0.001466813380829989910125732422 0 0 0 0 
2403833333.3333334923 0.170834884047508211990518134371 0.018707266077399250375767891796 -0.003464688546955585913417197119 0.001802944811061025099513388525 0 0 0 0 
2404000000.0000000000 0.170629084110260009765625000000 0.017551353201270099985142891796 -0.003480962244793773131129599463 0.001940017915330827019335102612 0 0 0 0 
2404166666.6666665077 0.170621126890182495117187500000 0.016028156504034999502161795704 -0.003550848690792918205261230469 0.002091334201395512060878134619 0 0 0 0 
2404333333.3333334923 0.170498698949813787262286268742 0.014921068213880060368548008398 -0.003548272652551531791687011719 0.002305703470483421845677041162 0 0 0 0 
2404500000.0000000000 0.170359447598457308670205634371 0.013518084771931169682512852148 -0.003281885292381048202514648438 0.002357261721044778823852539062 0 0 0 0 
2404666666.6666665077 0.170387402176856994628906250000 0.011932758614420890808105468750 -0.003225171938538550896885537256 0.002481973730027676062342978369 0 0 0 0 
2404833333.3333334923 0.170287817716598510742187500000 0.010588318109512330836285975977 -0.003163049463182688193080283057 0.002639815676957368850708007812 0 0 0 0 
2405000000.0000000000 0.170356467366218594650106865629 0.009139003232121467590332031250 -0.003056526416912674903869628906 0.002904752269387245178222656250 0 0 0 0 
2405166666.6666665077 0.170263379812240600585937500000 0.007570157758891583356375409863 -0.002864623675122857093811035156 0.002944158157333732084987021338 0 0 0 0 
2405333333.3333334923 0.170351058244705200195312500000 0.005938094574958086013793945312 -0.002551299054175614876988076318 0.003119508503004908995387411963 0 0 0 0 
2405500000.0000000000 0.170360103249549893478231865629 0.004531867802143096923828125000 -0.002511948812752962112426757812 0.003105826210230588912963867188 0 0 0 0 
2405666666.6666665077 0.170213863253593389313067518742 0.002881059190258384184596396338 -0.002309103962033987045288085938 0.003128700889647006988525390625 0 0 0 0 
2405833333.3333334923 0.170096069574356106857138115629 0.001353862811811267895939492334 -0.001911860192194581031799316406 0.003246979322284460067749023438 0 0 0 0 
2406000000.0000000000 0.170108914375305203536825615629 -0.000442898046458140015602111816 -0.002142709679901599884033203125 0.003199995262548327012303017725 0 0 0 0 
2406166666.6666665077 0.169829159975051907638388115629 -0.001797132426872849898097372900 -0.002068851841613649888279580225 0.003241420025005937056300497900 0 0 0 0 
2406333333.3333334923 0.170034393668174688141192518742 -0.003347226884216070175170898438 -0.001775293028913438103319477612 0.003230889094993472099304199219 0 0 0 0 
2406500000.0000000000 0.169737413525581387618856865629 -0.005084272939711809158325195312 -0.001634364598430692932726215894 0.003288299543783069090602255713 0 0 0 0 
2406666666.6666665077 0.169478505849838312347088731258 -0.006580119486898183822631835938 -0.001752833602949976921081542969 0.003236814169213176207301474463 0 0 0 0 
2406833333.3333334923 0.169438466429710388183593750000 -0.008027301169931888580322265625 -0.001553228357806802012799907153 0.003436183324083685874938964844 0 0 0 0 
2407000000.0000000000 0.169309630990028409103231865629 -0.009510063566267490386962890625 -0.001517899916507303931592631763 0.003378920722752809958217001807 0 0 0 0 
2407166666.6666665077 0.169226288795471191406250000000 -0.010741389356553559739082537305 -0.001423451467417180971858359229 0.003484226064756513075587607275 0 0 0 0 
2407333333.3333334923 0.168971791863441495040731865629 -0.012286807410418990743616873829 -0.001300143310800194957135844653 0.003507487475872039794921875000 0 0 0 0 
2407500000.0000000000 0.168842300772666903396768134371 -0.013394070789217950648297694727 -0.001173050142824650027631450122 0.003734053811058402061462402344 0 0 0 0 
2407666666.6666665077 0.168746069073677090743856865629 -0.014755618758499620610247227148 -0.001011585234664380984065390479 0.003718165215104817910435341943 0 0 0 0 
2407833333.3333334923 0.168357416987419100662393134371 -0.015887450426816940307617187500 -0.000732012558728456497192382812 0.003774364711716771125793457031 0 0 0 0 
2408000000.0000000000 0.168419018387794494628906250000 -0.017010631039738658559778983204 -0.000564865069463849067687988281 0.004000382497906684875488281250 0 0 0 0 
2408166666.6666665077 0.168319180607795687576455634371 -0.018027760088443759572962576954 -0.000283799861790612285763341083 0.003910704981535673141479492188 0 0 0 0 
2408333333.3333334923 0.168472543358802795410156250000 -0.018941767513751980173131173046 -0.000192893217899836599826812744 0.003859136719256639914271689307 0 0 0 0 
2408500000.0000000000 0.168398618698120089431924384371 -0.019869159907102588308314139454 0.000056584081903565681796481474 0.003907430451363325119018554688 0 0 0 0 
2408666666.6666665077 0.168308690190315302093182481258 -0.020799219608306891704518903907 0.000155684829223901006296434946 0.003761022584512830214259482275 0 0 0 0 
2408833333.3333334923 0.168264657258987399002236884371 -0.021731173619627949106236641796 0.000273580255452543497085571289 0.003617444308474659919738769531 0 0 0 0 
2409000000.0000000000 0.168424531817436190506143134371 -0.022468751296401020395299141796 0.000552937563043087720870971680 0.003566250437870622114894247900 0 0 0 0 
2409166666.6666665077 0.168630376458168002029580634371 -0.023436086252331730234166329296 0.000657442898955196142196655273 0.003470036899670958952662802588 0 0 0 0 
2409333333.3333334923 0.168871194124221801757812500000 -0.024367121979594230651855468750 0.000811095698736608028411865234 0.003343463409692049026489257812 0 0 0 0 
2409500000.0000000000 0.168847799301147488693075615629 -0.025500562041997909545898437500 0.000983568257652223110198974609 0.003311735810711979866027832031 0 0 0 0 
2409666666.6666665077 0.168906509876251192947549384371 -0.026179216802120208740234375000 0.001045907498337328000309609521 0.003123938106000422997715615381 0 0 0 0 
2409833333.3333334923 0.169003829360008211990518134371 -0.027008228003978729248046875000 0.001153826364316046021105122144 0.002967496402561665014979697119 0 0 0 0 
2410000000.0000000000 0.169249907135963412185830634371 -0.027930481359362598764439766796 0.001219695317558944008470844800 0.002877828897908329963684082031 0 0 0 0 
2410166666.6666665077 0.169213831424713107010049384371 -0.028773814439773559570312500000 0.001385363866575062058092426831 0.002723041921854019165039062500 0 0 0 0 
2410333333.3333334923 0.169157847762107904632244981258 -0.029695648699998859060267264454 0.001423007808625698089599609375 0.002521410351619123978855752100 0 0 0 0 
2410500000.0000000000 0.169167265295982388595419365629 -0.030591696500778201711634451954 0.001365176984108984904048300635 0.002367869485169649124145507812 0 0 0 0 
2410666666.6666665077 0.168961718678474398513955634371 -0.031606495380401611328125000000 0.001505846506915986971614218604 0.002253451850265264944789267432 0 0 0 0 
2410833333.3333334923 0.169022589921951293945312500000 -0.032414942979812622070312500000 0.001423467649146914915797568213 0.002031997544690967039821005713 0 0 0 0 
2411000000.0000000000 0.168709203600883511642294365629 -0.033280756324529647827148437500 0.001210185931995511054992675781 0.001926881726831197955487895435 0 0 0 0 
2411166666.6666665077 0.168479651212692288497763115629 -0.034239113330841057514231096093 0.001164429122582077980041503906 0.002011355478316545920131064307 0 0 0 0 
2411333333.3333334923 0.168413862586021395584268134371 -0.035096898674964911724050153907 0.001265198225155472972272563403 0.001883268007077276923535991138 0 0 0 0 
2411500000.0000000000 0.168038532137870788574218750000 -0.036172579973936080932617187500 0.001140626147389411926269531250 0.001691609271802007935167622144 0 0 0 0 
2411666666.6666665077 0.168128922581672696212606865629 -0.036846928298473358154296875000 0.001042362418957055048701620947 0.001630403916351496956468891675 0 0 0 0 
2411833333.3333334923 0.167772665619850186446981865629 -0.037632185965776436542551408593 0.000852274359203875064849853516 0.001564174424856900951982807690 0 0 0 0 
2412000000.0000000000 0.167482376098632812500000000000 -0.038616176694631576538085937500 0.000815062492620199918746948242 0.001604232355020940086962055737 0 0 0 0 
2412166666.6666665077 0.167219445109367398361044365629 -0.039652138948440551757812500000 0.000602529267780482769012451172 0.001701919827610254070879292065 0 0 0 0 
2412333333.3333334923 0.167140632867813110351562500000 -0.040420431643724441528320312500 0.000604642380494624376296997070 0.001627539168111979961395263672 0 0 0 0 
2412500000.0000000000 0.166536003351211603362713731258 -0.041415706276893622661550153907 0.000655471812933683395385742188 0.001726612332276999950408935547 0 0 0 0 
2412666666.6666665077 0.166263028979301508147869981258 -0.042571805417537689208984375000 0.000428735045716166496276855469 0.001882941927760839895961142432 0 0 0 0 
2412833333.3333334923 0.165972962975501986404580634371 -0.043544828891754150390625000000 0.000544727547094225883483886719 0.002186207799240947203395224463 0 0 0 0 
2413000000.0000000000 0.165521055459976196289062500000 -0.044525377452373511577565778907 0.000428694358561187982559204102 0.002132021356374024911167763818 0 0 0 0 
2413166666.6666665077 0.165072128176689203460369981258 -0.045469474047422409057617187500 0.000572745047975331544876098633 0.002151192631572484970092773438 0 0 0 0 
2413333333.3333334923 0.164702400565147399902343750000 -0.046502258628606803203542341407 0.000497628410812467336654663086 0.002390069421380757851841591943 0 0 0 0 
2413500000.0000000000 0.164182797074317904373330634371 -0.047712936997413642192800153907 0.000618908263277262449264526367 0.002401357516646385192871093750 0 0 0 0 
2413666666.6666665077 0.163757890462875393966513115629 -0.048616174608469009399414062500 0.000609267328400164842605590820 0.002594656078144907951354980469 0 0 0 0 
2413833333.3333334923 0.163145110011100796798544365629 -0.049473345279693596576731096093 0.000866551883518695831298828125 0.002684833249077200889587402344 0 0 0 0 
2414000000.0000000000 0.162582233548164395431356865629 -0.050646621733903891826589216407 0.000953031587414443492889404297 0.002689910819754004912135458838 0 0 0 0 
2414166666.6666665077 0.162368208169937106033486884371 -0.051479507237672812725026716407 0.001099987071938812949536967700 0.002687131520360707803013466943 0 0 0 0 
2414333333.3333334923 0.161895483732223510742187500000 -0.052547391504049301147460937500 0.001213624374940990967991494287 0.002798707922920585112330771338 0 0 0 0 
2414500000.0000000000 0.161741837859153803069744981258 -0.053472012281417846679687500000 0.001192176830954849936841655200 0.002870126394554973082301474463 0 0 0 0 
2414666666.6666665077 0.161510705947876004318075615629 -0.054372951388359069824218750000 0.001375979161821305968640971606 0.002779997186735271973850869287 0 0 0 0 
2414833333.3333334923 0.161019250750541687011718750000 -0.055683918297290802001953125000 0.001523739192634820938110351562 0.002686353167518972916844033350 0 0 0 0 
2415000000.0000000000 0.160842925310134887695312500000 -0.056548167020082466815988908593 0.001527523854747415022609091650 0.002696999348700046972987509619 0 0 0 0 
2415166666.6666665077 0.160712480545044000823651231258 -0.057654350996017462993581403907 0.001684227609075606086133647388 0.002776324516162275834324502100 0 0 0 0 
2415333333.3333334923 0.160532027482986505706463731258 -0.058732207864522927021067033593 0.001649037818424404101130820166 0.002695075469091535048243857275 0 0 0 0 
2415500000.0000000000 0.160426840186119107345419365629 -0.059825804084539413452148437500 0.002146474784240127043483115088 0.002901700790971517996547079932 0 0 0 0 
2415666666.6666665077 0.160204648971557589431924384371 -0.060933005064725882793386091407 0.002067963359877467155456542969 0.002708629239350556893589638818 0 0 0 0 
2415833333.3333334923 0.160125061869621304611044365629 -0.062216766178607940673828125000 0.002309228992089629173278808594 0.002716408809646964073181152344 0 0 0 0 
2416000000.0000000000 0.159733116626739501953125000000 -0.063341505825519561767578125000 0.002345298416912556128260947119 0.002811685902997850938084267725 0 0 0 0 
2416166666.6666665077 0.159782782196998596191406250000 -0.064585447311401367187500000000 0.002678928431123495101928710938 0.002619293518364429907557822119 0 0 0 0 
2416333333.3333334923 0.159518629312515286544638115629 -0.065762020647525787353515625000 0.002769228303804994063136435400 0.002482925774529575867893838037 0 0 0 0 
2416500000.0000000000 0.159175679087638910491619981258 -0.067038305103778839111328125000 0.003036543028429151015040732275 0.002517371438443661169764853369 0 0 0 0 
2416666666.6666665077 0.158857271075248690506143134371 -0.068104475736618041992187500000 0.003031962318345903916599892725 0.002326539950445293946507119287 0 0 0 0 
2416833333.3333334923 0.158696874976158086578692518742 -0.069470606744289398193359375000 0.003206096356734633012058877100 0.002333809155970811843872070312 0 0 0 0 
2417000000.0000000000 0.158112168312072809417401231258 -0.070497326552867889404296875000 0.003315032925456761880161904443 0.002250957535579801039454794775 0 0 0 0 
2417166666.6666665077 0.157896578311920193771200615629 -0.071430504322052001953125000000 0.003595733083784579797032021631 0.002073803916573524908778525244 0 0 0 0 
2417333333.3333334923 0.157595038414001492599325615629 -0.072374336421489715576171875000 0.003549421438947319984436035156 0.001880412804894149086595844800 0 0 0 0 
2417500000.0000000000 0.157193124294281005859375000000 -0.073539145290851593017578125000 0.003674677340313791795017861475 0.001657540560699998898747109521 0 0 0 0 
2417666666.6666665077 0.157012268900871304611044365629 -0.074347466230392456054687500000 0.004017888102680444717407226562 0.001583330798894166946411132812 0 0 0 0 
2417833333.3333334923 0.156755417585372897049111884371 -0.075233019888401031494140625000 0.003802814520895481109619140625 0.001293454435653984980342245947 0 0 0 0 
2418000000.0000000000 0.156402185559272793868856865629 -0.076093107461929321289062500000 0.004105077125132083892822265625 0.001157274120487272956250834888 0 0 0 0 
2418166666.6666665077 0.156109124422073392013388115629 -0.076798617839813232421875000000 0.004186251666396856307983398438 0.000978462398052215576171875000 0 0 0 0 
2418333333.3333334923 0.155923649668693486969317518742 -0.077636465430259704589843750000 0.004056985490024089813232421875 0.000663891667500138282775878906 0 0 0 0 
2418500000.0000000000 0.155743539333343505859375000000 -0.078498728573322296142578125000 0.004072388168424367904663085938 0.000536123116035014390945434570 0 0 0 0 
2418666666.6666665077 0.155470639467239407638388115629 -0.079299427568912506103515625000 0.004177052527666091918945312500 0.000429633073508739525645655499 0 0 0 0 
2418833333.3333334923 0.155043914914131192306356865629 -0.079972974956035614013671875000 0.004042156971991062164306640625 0.000175785142346285310670575552 0 0 0 0 
2419000000.0000000000 0.154554307460784912109375000000 -0.080823689699172973632812500000 0.003972405567765235900878906250 0.000110233457235153805143894334 0 0 0 0 
2419166666.6666665077 0.154339283704757690429687500000 -0.081514462828636169433593750000 0.003893989603966474966761923682 -0.000046012028178665786981582642 0 0 0 0 
2419333333.3333334923 0.154006600379943903167401231258 -0.081892155110836029052734375000 0.003788419067859650091883993994 -0.000472287356387823820114135742 0 0 0 0 
2419500000.0000000000 0.153685510158538790603799384371 -0.082793548703193664550781250000 0.003900974988937377929687500000 -0.000505630392581224441528320312 0 0 0 0 
2419666666.6666665077 0.153237953782081604003906250000 -0.083352215588092803955078125000 0.003637886373326181931736611475 -0.000514190876856446266174316406 0 0 0 0 
2419833333.3333334923 0.153033897280693109710369981258 -0.083971597254276275634765625000 0.003711409401148558096644736182 -0.000595472403801977634429931641 0 0 0 0 
