# Version 1.00
#
freq[Hz];re:Trc1_S11;im:Trc1_S11;re:Trc2_S21;im:Trc2_S21;
2.400000000000000E+009;1.695787161588669E-001;4.587694630026817E-002;2.076302887871862E-003;-1.661614747717977E-003;
2.400166666666667E+009;1.705763936042786E-001;4.507013782858849E-002;2.070805523544550E-003;-1.761132967658341E-003;
2.400333333333334E+009;1.715312600135803E-001;4.379928857088089E-002;2.245909068733454E-003;-1.994063844904304E-003;
2.400500000000000E+009;1.725688874721527E-001;4.284785315394402E-002;2.332279458642006E-003;-2.070413203909993E-003;
2.400666666666667E+009;1.735145151615143E-001;4.184528440237045E-002;2.428948180750012E-003;-2.115903655067086E-003;
2.400833333333334E+009;1.744232177734375E-001;4.117359220981598E-002;2.462770789861679E-003;-2.506738062947989E-003;
2.401000000000000E+009;1.751336306333542E-001;4.031869396567345E-002;2.524988958612084E-003;-2.707201987504959E-003;
2.401166666666667E+009;1.759928315877914E-001;3.970037400722504E-002;2.386129228398204E-003;-2.750859130173922E-003;
2.401333333333334E+009;1.763552576303482E-001;3.887860849499703E-002;2.357993740588427E-003;-3.093168372288346E-003;
2.401500000000000E+009;1.775115132331848E-001;3.837284818291664E-002;2.358046593144536E-003;-3.288381965830922E-003;
2.401666666666667E+009;1.780245900154114E-001;3.776945918798447E-002;2.253351500257850E-003;-3.427798626944423E-003;
2.401833333333334E+009;1.784005016088486E-001;3.715106099843979E-002;2.185517922043800E-003;-3.768340218812227E-003;
2.402000000000000E+009;1.787837296724320E-001;3.664115443825722E-002;2.058054320514202E-003;-4.026392940431833E-003;
2.402166666666667E+009;1.792406141757965E-001;3.581602498888969E-002;1.690397737547755E-003;-4.140789620578289E-003;
2.402333333333334E+009;1.796555817127228E-001;3.550321236252785E-002;1.645529293455184E-003;-4.446694161742926E-003;
2.402500000000000E+009;1.800388842821121E-001;3.495460003614426E-002;1.323750359006226E-003;-4.603872075676918E-003;
2.402666666666667E+009;1.802024245262146E-001;3.434635326266289E-002;1.033640815876424E-003;-4.695271141827107E-003;
2.402833333333334E+009;1.801394820213318E-001;3.365293145179749E-002;9.516072459518910E-004;-4.874204285442829E-003;
2.403000000000000E+009;1.803425252437592E-001;3.292576968669891E-002;5.393579485826194E-004;-4.993399605154991E-003;
2.403166666666667E+009;1.803182065486908E-001;3.211032226681709E-002;2.974178350996226E-004;-5.101915914565325E-003;
2.403333333333334E+009;1.802337914705277E-001;3.128468617796898E-002;-3.762987034860998E-005;-5.166996736079454E-003;
2.403500000000000E+009;1.797859668731690E-001;3.028696775436401E-002;-2.968199842143804E-004;-5.169987678527832E-003;
2.403666666666667E+009;1.794625818729401E-001;2.925821952521801E-002;-7.466879324056208E-004;-5.250948946923018E-003;
2.403833333333334E+009;1.792317628860474E-001;2.828668057918549E-002;-1.058270689100027E-003;-5.132635124027729E-003;
2.404000000000000E+009;1.788682639598846E-001;2.703466266393662E-002;-1.346857054159045E-003;-4.997430834919214E-003;
2.404166666666667E+009;1.782009899616242E-001;2.595283649861813E-002;-1.426498172804713E-003;-4.739855416119099E-003;
2.404333333333334E+009;1.776429414749146E-001;2.487160451710224E-002;-1.670078025199473E-003;-4.763200413435698E-003;
2.404500000000000E+009;1.771895289421082E-001;2.351128682494164E-002;-2.003471599891782E-003;-4.595481324940920E-003;
2.404666666666667E+009;1.767576932907105E-001;2.215322107076645E-002;-2.025696681812406E-003;-4.292693920433521E-003;
2.404833333333334E+009;1.762873083353043E-001;2.067671343684197E-002;-2.380463760346174E-003;-4.466119688004255E-003;
2.405000000000000E+009;1.756874173879623E-001;1.918899267911911E-002;-2.387365559116006E-003;-4.077516496181488E-003;
2.405166666666667E+009;1.751978546380997E-001;1.758987642824650E-002;-2.646379638463259E-003;-3.826986998319626E-003;
2.405333333333334E+009;1.748666316270828E-001;1.591478846967220E-002;-2.709494438022375E-003;-3.762588836252689E-003;
2.405500000000000E+009;1.741341054439545E-001;1.429338846355677E-002;-2.700732322409749E-003;-3.566723782569170E-003;
2.405666666666667E+009;1.738130450248718E-001;1.252760365605354E-002;-2.873021876439452E-003;-3.539097262546420E-003;
2.405833333333334E+009;1.733344197273254E-001;1.082500629127026E-002;-2.777363872155547E-003;-3.402270609512925E-003;
2.406000000000000E+009;1.731305420398712E-001;8.547711186110973E-003;-2.909421455115080E-003;-3.197061596438289E-003;
2.406166666666667E+009;1.727113127708435E-001;6.928424350917339E-003;-2.995589748024941E-003;-2.930696588009596E-003;
2.406333333333334E+009;1.727043837308884E-001;5.016390699893236E-003;-3.036698792129755E-003;-2.976754214614630E-003;
2.406500000000000E+009;1.724669337272644E-001;2.902108943089843E-003;-3.193984506651759E-003;-2.953320508822799E-003;
2.406666666666667E+009;1.722279936075211E-001;9.905881015583873E-004;-3.120573237538338E-003;-2.977373776957393E-003;
2.406833333333334E+009;1.723288446664810E-001;-1.318457652814686E-003;-3.366714809089899E-003;-2.811323851346970E-003;
2.407000000000000E+009;1.723020672798157E-001;-3.436466678977013E-003;-3.341085743159056E-003;-2.815828192979097E-003;
2.407166666666667E+009;1.724704504013062E-001;-5.473591852933168E-003;-3.451270982623100E-003;-2.607034984976053E-003;
2.407333333333334E+009;1.725522130727768E-001;-7.695862092077732E-003;-3.709876909852028E-003;-2.605562563985586E-003;
2.407500000000000E+009;1.728413105010986E-001;-9.632240980863571E-003;-3.708263859152794E-003;-2.468340331688523E-003;
2.407666666666667E+009;1.731033325195313E-001;-1.179245300590992E-002;-3.953134175390005E-003;-2.389640081673861E-003;
2.407833333333334E+009;1.732808649539948E-001;-1.399195380508900E-002;-3.982597030699253E-003;-2.168910345062614E-003;
2.408000000000000E+009;1.738610863685608E-001;-1.623886078596115E-002;-3.988760989159346E-003;-1.990924589335918E-003;
2.408166666666667E+009;1.741692274808884E-001;-1.797358132898808E-002;-4.240424372255802E-003;-2.006266498938203E-003;
2.408333333333334E+009;1.746265441179276E-001;-2.007300592958927E-002;-4.459619056433439E-003;-1.691414392553270E-003;
2.408500000000000E+009;1.750138700008392E-001;-2.207534573972225E-002;-4.397553857415915E-003;-1.484267180785537E-003;
2.408666666666667E+009;1.754004657268524E-001;-2.398726530373097E-002;-4.583314992487431E-003;-1.123503199778497E-003;
2.408833333333334E+009;1.758002936840057E-001;-2.565470337867737E-002;-4.382400773465633E-003;-1.024852273985744E-003;
2.409000000000000E+009;1.760833114385605E-001;-2.743520028889179E-002;-4.368964582681656E-003;-7.754741236567497E-004;
2.409166666666667E+009;1.766422837972641E-001;-2.883064933121204E-002;-4.441262688487768E-003;-5.445782444439828E-004;
2.409333333333334E+009;1.773280650377274E-001;-3.043679147958756E-002;-4.382390994578600E-003;-4.133023903705180E-004;
2.409500000000000E+009;1.777472794055939E-001;-3.174277395009995E-002;-4.247380420565605E-003;-1.741213054629043E-004;
2.409666666666667E+009;1.779107153415680E-001;-3.282456845045090E-002;-4.223981872200966E-003;-7.363063923548907E-005;
2.409833333333334E+009;1.785353422164917E-001;-3.386667743325234E-002;-4.165198188275099E-003;1.903102020150982E-005;
2.410000000000000E+009;1.791165322065353E-001;-3.481542691588402E-002;-4.102530423551798E-003;3.158064500894398E-004;
2.410166666666667E+009;1.795046627521515E-001;-3.557002916932106E-002;-3.987316042184830E-003;3.983963397331536E-004;
2.410333333333334E+009;1.801364719867706E-001;-3.644216060638428E-002;-4.037553444504738E-003;4.381028993520886E-004;
2.410500000000000E+009;1.805137097835541E-001;-3.721659630537033E-002;-4.029326140880585E-003;5.784248351119459E-004;
2.410666666666667E+009;1.807746589183807E-001;-3.796192258596420E-002;-3.865333506837487E-003;7.131722522899509E-004;
2.410833333333334E+009;1.813285201787949E-001;-3.842770680785179E-002;-3.834100905805826E-003;6.952969124540687E-004;
2.411000000000000E+009;1.816286444664002E-001;-3.886377438902855E-002;-3.807493951171637E-003;1.014736248180270E-003;
2.411166666666667E+009;1.818371862173080E-001;-3.949724882841110E-002;-3.640944138169289E-003;8.972883806563914E-004;
2.411333333333334E+009;1.820009201765060E-001;-3.982697054743767E-002;-3.685449715703726E-003;9.880188154056668E-004;
2.411500000000000E+009;1.821162998676300E-001;-4.032558202743530E-002;-3.549671499058604E-003;1.212051836773753E-003;
2.411666666666667E+009;1.822268366813660E-001;-4.072194173932076E-002;-3.676113439723849E-003;1.242388505488634E-003;
2.411833333333334E+009;1.822030395269394E-001;-4.105867445468903E-002;-3.635071218013763E-003;1.395648694597185E-003;
2.412000000000000E+009;1.818898320198059E-001;-4.158215597271919E-002;-3.531750990077853E-003;1.408179407007992E-003;
2.412166666666667E+009;1.816533952951431E-001;-4.163872823119164E-002;-3.590985666960478E-003;1.405899995006621E-003;
2.412333333333334E+009;1.815086752176285E-001;-4.199815541505814E-002;-3.470163792371750E-003;1.512766117230058E-003;
2.412500000000000E+009;1.809470802545548E-001;-4.209755733609200E-002;-3.296540817245841E-003;1.546729705296457E-003;
2.412666666666667E+009;1.804333776235580E-001;-4.279702901840210E-002;-3.175480291247368E-003;1.716606784611940E-003;
2.412833333333334E+009;1.796435862779617E-001;-4.297503456473351E-002;-3.230798291042447E-003;1.764051849022508E-003;
2.413000000000000E+009;1.788769513368607E-001;-4.333489015698433E-002;-3.380646696314216E-003;2.026352332904935E-003;
2.413166666666667E+009;1.780790090560913E-001;-4.357648640871048E-002;-3.143477719277144E-003;1.951734186150134E-003;
2.413333333333334E+009;1.772816479206085E-001;-4.419969394803047E-002;-3.167828312143683E-003;2.036513295024633E-003;
2.413500000000000E+009;1.763300001621246E-001;-4.471470043063164E-002;-3.241962520405650E-003;1.958681037649512E-003;
2.413666666666667E+009;1.750855296850205E-001;-4.516260698437691E-002;-3.065299242734909E-003;2.046122215688229E-003;
2.413833333333334E+009;1.740833371877670E-001;-4.580311477184296E-002;-3.076991997659206E-003;2.252981998026371E-003;
2.414000000000000E+009;1.729057729244232E-001;-4.631711915135384E-002;-3.050845814868808E-003;2.317287726327777E-003;
2.414166666666667E+009;1.717820316553116E-001;-4.698711633682251E-002;-2.921269740909338E-003;2.341597806662321E-003;
2.414333333333334E+009;1.706048399209976E-001;-4.775046929717064E-002;-2.859926084056497E-003;2.361689927056432E-003;
2.414500000000000E+009;1.694727540016174E-001;-4.864467307925224E-002;-2.947262255474925E-003;2.387776272371411E-003;
2.414666666666667E+009;1.682008802890778E-001;-4.969905689358711E-002;-2.816087566316128E-003;2.698451513424516E-003;
2.414833333333334E+009;1.668512374162674E-001;-5.079093202948570E-002;-2.844230271875858E-003;2.567605348303914E-003;
2.415000000000000E+009;1.656970977783203E-001;-5.175577476620674E-002;-2.829624572768807E-003;2.731412649154663E-003;
2.415166666666667E+009;1.644170135259628E-001;-5.310245230793953E-002;-2.683203900232911E-003;2.838636981323361E-003;
2.415333333333334E+009;1.633213758468628E-001;-5.449802801012993E-002;-2.673507202416658E-003;3.005271311849356E-003;
2.415500000000000E+009;1.620368212461472E-001;-5.584566295146942E-002;-2.671778667718172E-003;2.829371253028512E-003;
2.415666666666667E+009;1.608830094337463E-001;-5.734954029321671E-002;-2.631114097312093E-003;3.214891068637371E-003;
2.415833333333334E+009;1.598738729953766E-001;-5.900597944855690E-002;-2.640536753460765E-003;3.298796946182847E-003;
2.416000000000000E+009;1.585601866245270E-001;-6.076638028025627E-002;-2.424191916361451E-003;3.430724609643221E-003;
2.416166666666667E+009;1.578615456819534E-001;-6.253843754529953E-002;-2.439327770844102E-003;3.679534420371056E-003;
2.416333333333334E+009;1.567371785640717E-001;-6.434541195631027E-002;-2.199752954766154E-003;3.685444593429565E-003;
2.416500000000000E+009;1.558243036270142E-001;-6.626364588737488E-002;-2.363275503739715E-003;3.962625749409199E-003;
2.416666666666667E+009;1.548850089311600E-001;-6.799657642841339E-002;-2.001703251153231E-003;4.054399672895670E-003;
2.416833333333334E+009;1.541671603918076E-001;-7.010914385318756E-002;-2.030248288065195E-003;4.294477868825197E-003;
2.417000000000000E+009;1.532111018896103E-001;-7.214670628309250E-002;-1.863531419076026E-003;4.227740690112114E-003;
2.417166666666667E+009;1.525264978408814E-001;-7.392293214797974E-002;-1.623038551770151E-003;4.498098045587540E-003;
2.417333333333334E+009;1.520083546638489E-001;-7.588593661785126E-002;-1.394193968735635E-003;4.551933147013187E-003;
2.417500000000000E+009;1.514715403318405E-001;-7.796365767717362E-002;-1.383719267323613E-003;4.739934112876654E-003;
2.417666666666667E+009;1.510752886533737E-001;-7.982233911752701E-002;-1.192904310300946E-003;4.796190187335014E-003;
2.417833333333334E+009;1.505888104438782E-001;-8.167906850576401E-002;-9.025198523886502E-004;4.957291297614574E-003;
2.418000000000000E+009;1.501274257898331E-001;-8.352693170309067E-002;-5.758603219874203E-004;4.986535757780075E-003;
2.418166666666667E+009;1.499647051095963E-001;-8.512108027935028E-002;-4.226700111757964E-004;5.012975074350834E-003;
2.418333333333334E+009;1.499966830015183E-001;-8.702628314495087E-002;-2.138530398951843E-004;5.096126813441515E-003;
2.418500000000000E+009;1.497835814952850E-001;-8.853884041309357E-002;7.237622048705816E-005;5.256815347820520E-003;
2.418666666666667E+009;1.498230248689652E-001;-9.031876921653748E-002;4.435149021446705E-004;5.097066983580589E-003;
2.418833333333334E+009;1.496739089488983E-001;-9.165735542774200E-002;6.483197212219238E-004;5.060520954430103E-003;
2.419000000000000E+009;1.496648490428925E-001;-9.286922961473465E-002;8.337626350112259E-004;5.013914778828621E-003;
2.419166666666667E+009;1.497398465871811E-001;-9.428495913743973E-002;1.135558355599642E-003;4.958424251526594E-003;
2.419333333333334E+009;1.498157680034638E-001;-9.526751935482025E-002;1.245505176484585E-003;4.958920180797577E-003;
2.419500000000000E+009;1.501186639070511E-001;-9.653857350349426E-002;1.518311095423996E-003;4.884036257863045E-003;
2.419666666666667E+009;1.503759920597076E-001;-9.733477979898453E-002;1.718607847578824E-003;4.556114319711924E-003;
2.419833333333334E+009;1.505645215511322E-001;-9.804301708936691E-002;2.001919085159898E-003;4.589905031025410E-003;
2.420000000000000E+009;1.508598774671555E-001;-9.877013415098190E-002;2.362544182687998E-003;4.604799672961235E-003;
2.420166666666667E+009;1.510447561740875E-001;-9.930440783500671E-002;2.372319111600518E-003;4.447609186172485E-003;
2.420333333333334E+009;1.515891700983048E-001;-9.980115294456482E-002;2.479398390278220E-003;4.223348107188940E-003;
2.420500000000000E+009;1.517461985349655E-001;-1.000185236334801E-001;2.723573008552194E-003;4.199386108666658E-003;
2.420666666666667E+009;1.521669924259186E-001;-1.002378240227699E-001;2.897269092500210E-003;3.900946583598852E-003;
2.420833333333334E+009;1.524384021759033E-001;-1.005476489663124E-001;3.089536214247346E-003;3.831500653177500E-003;
2.421000000000000E+009;1.525632590055466E-001;-1.006454899907112E-001;3.015025053173304E-003;3.846710547804833E-003;
2.421166666666667E+009;1.527659595012665E-001;-1.005914583802223E-001;3.366808407008648E-003;3.501670900732279E-003;
2.421333333333334E+009;1.531468480825424E-001;-1.005958840250969E-001;3.477604361250997E-003;3.383537754416466E-003;
2.421500000000000E+009;1.530091613531113E-001;-1.004830300807953E-001;3.556466894224286E-003;3.256326308473945E-003;
2.421666666666667E+009;1.532538384199143E-001;-1.003496423363686E-001;3.605348523706198E-003;2.999793272465468E-003;
2.421833333333334E+009;1.531880944967270E-001;-1.001200154423714E-001;3.762718755751848E-003;2.938152290880680E-003;
2.422000000000000E+009;1.529959589242935E-001;-9.975818544626236E-002;3.836225951090455E-003;2.714467700570822E-003;
2.422166666666667E+009;1.526443362236023E-001;-9.964415431022644E-002;3.893065499141812E-003;2.471672138199210E-003;
2.422333333333334E+009;1.524701714515686E-001;-9.920984506607056E-002;3.990849014371634E-003;2.224764553830028E-003;
2.422500000000000E+009;1.517468541860580E-001;-9.877443313598633E-002;4.082708153873682E-003;2.095338189974427E-003;
2.422666666666667E+009;1.510270237922669E-001;-9.868807345628738E-002;4.109125584363937E-003;1.945768017321825E-003;
2.422833333333334E+009;1.504912078380585E-001;-9.834938496351242E-002;4.135814029723406E-003;1.728656585328281E-003;
2.423000000000000E+009;1.496581733226776E-001;-9.786385297775269E-002;4.139552358537912E-003;1.504311687313020E-003;
2.423166666666667E+009;1.486458331346512E-001;-9.760520607233048E-002;4.102285020053387E-003;1.242804573848844E-003;
2.423333333333334E+009;1.478821039199829E-001;-9.685732424259186E-002;4.028964787721634E-003;9.636526810936630E-004;
2.423500000000000E+009;1.465499699115753E-001;-9.678536653518677E-002;4.099771380424500E-003;1.006831182166934E-003;
2.423666666666667E+009;1.450813114643097E-001;-9.647712856531143E-002;3.846377134323120E-003;8.152814698405564E-004;
2.423833333333334E+009;1.441160887479782E-001;-9.609270095825195E-002;3.932543564587832E-003;6.948841037228704E-004;
2.424000000000000E+009;1.427793055772781E-001;-9.579492360353470E-002;3.901208052411676E-003;5.668287049047649E-004;
2.424166666666667E+009;1.412054300308228E-001;-9.566888958215714E-002;3.774399869143963E-003;5.332531873136759E-004;
2.424333333333334E+009;1.398462057113648E-001;-9.540311247110367E-002;3.792818170040846E-003;4.565020208247006E-004;
2.424500000000000E+009;1.384741961956024E-001;-9.562192857265472E-002;3.894431516528130E-003;3.089815727435052E-004;
2.424666666666667E+009;1.371816843748093E-001;-9.551044553518295E-002;3.782343352213502E-003;2.394344919594005E-004;
2.424833333333334E+009;1.355741620063782E-001;-9.558571130037308E-002;3.708883188664913E-003;-6.862384907435626E-005;
2.425000000000000E+009;1.339480727910996E-001;-9.608197957277298E-002;3.829428227618337E-003;2.118151314789429E-004;
2.425166666666667E+009;1.324067264795303E-001;-9.646835178136826E-002;3.645552787929773E-003;1.204696163767949E-004;
2.425333333333334E+009;1.310158520936966E-001;-9.691290557384491E-002;3.698047949001193E-003;-8.020137465791777E-005;
2.425500000000000E+009;1.294530630111694E-001;-9.768342971801758E-002;3.684605704620481E-003;-2.701877092476934E-004;
2.425666666666667E+009;1.279281824827194E-001;-9.830631315708160E-002;3.713562153279781E-003;-3.673583560157567E-004;
2.425833333333334E+009;1.263965666294098E-001;-9.927906841039658E-002;3.856560681015253E-003;-4.669203772209585E-004;
2.426000000000000E+009;1.250281035900116E-001;-1.002918407320976E-001;3.556954674422741E-003;-5.769411218352616E-004;
2.426166666666667E+009;1.238270774483681E-001;-1.016560122370720E-001;3.573064692318440E-003;-8.694792632013559E-004;
2.426333333333334E+009;1.224522963166237E-001;-1.026726812124252E-001;3.623040160164237E-003;-8.854037150740624E-004;
2.426500000000000E+009;1.210915222764015E-001;-1.040129289031029E-001;3.570718690752983E-003;-1.033965963870287E-003;
2.426666666666667E+009;1.201378256082535E-001;-1.052558273077011E-001;3.330057719722390E-003;-1.224377192556858E-003;
2.426833333333334E+009;1.189474016427994E-001;-1.068559065461159E-001;3.292808309197426E-003;-1.289957901462913E-003;
2.427000000000000E+009;1.178333759307861E-001;-1.084328293800354E-001;3.185632638633251E-003;-1.360885333269835E-003;
2.427166666666667E+009;1.168404966592789E-001;-1.099972352385521E-001;2.991403220221400E-003;-1.429938478395343E-003;
2.427333333333334E+009;1.158055290579796E-001;-1.116876527667046E-001;2.905237022787333E-003;-1.596849877387285E-003;
2.427500000000000E+009;1.151446029543877E-001;-1.134130656719208E-001;2.819843823090196E-003;-1.704273629002273E-003;
2.427666666666667E+009;1.144806817173958E-001;-1.152198910713196E-001;2.783823059871793E-003;-1.670807716436684E-003;
