# Hz S RI R 50
2400000000.0000000000 0.160679832100868197342080634371 0.057070262730121612548828125000 0.003830604720860720114467001807 0.002418851014226675033569335938 0 0 0 0 
2400166666.6666665077 0.160710677504539489746093750000 0.055528666824102401733398437500 0.003970439545810222625732421875 0.002329771872609854178187704932 0 0 0 0 
2400333333.3333334923 0.160805657505989102462606865629 0.053621020168066031719167341407 0.004088880028575658798217773438 0.002423241501674056053161621094 0 0 0 0 
2400500000.0000000000 0.160896882414817810058593750000 0.051783345639705657958984375000 0.004165767226368188858032226562 0.002332948381081223921534872900 0 0 0 0 
2400666666.6666665077 0.160910040140152005294638115629 0.049925144761800772930104841407 0.004194046370685101422781659863 0.002274396829307078881504677881 0 0 0 0 
2400833333.3333334923 0.161279857158660888671875000000 0.048235509544610977172851562500 0.004492505919188261032104492188 0.002181165385991334915161132812 0 0 0 0 
2401000000.0000000000 0.161425709724426297286825615629 0.046035349369049072265625000000 0.004574341699481009569649980762 0.002129386644810438156127929688 0 0 0 0 
2401166666.6666665077 0.161747455596923800369424384371 0.044315703213214867328684221093 0.004599831998348236083984375000 0.002112054033204913139343261719 0 0 0 0 
2401333333.3333334923 0.161973223090171786209268134371 0.042358085513114929199218750000 0.004826116375625134381766034863 0.001980957109481095834019326318 0 0 0 0 
2401500000.0000000000 0.162512287497520502288494981258 0.040571469813585281372070312500 0.004834644030779600143432617188 0.001765572931617497964146279443 0 0 0 0 
2401666666.6666665077 0.162632718682289095779580634371 0.038815025240182876586914062500 0.005066600162535905838012695312 0.001689680153504014015197753906 0 0 0 0 
2401833333.3333334923 0.163207858800888089279013115629 0.037028010934591293334960937500 0.005131055600941181182861328125 0.001441922620870172977447509766 0 0 0 0 
2402000000.0000000000 0.163502484560012789627236884371 0.035081431269645690917968750000 0.005208283662796021375174237988 0.001380467321723700003383017432 0 0 0 0 
2402166666.6666665077 0.164004892110824612716513115629 0.033170763403177261352539062500 0.005317977163940668106079101562 0.001098956912755965969683003003 0 0 0 0 
2402333333.3333334923 0.164391919970512390136718750000 0.031575419008731842041015625000 0.005348817445337772369384765625 0.001014170586131512901903461987 0 0 0 0 
2402500000.0000000000 0.165217295289039611816406250000 0.030082985758781429636021798046 0.005295492243021726608276367188 0.000787267170380800962448120117 0 0 0 0 
2402666666.6666665077 0.165708184242248507400674384371 0.028468400239944461477259451954 0.005565172992646694183349609375 0.000427904829848557710647583008 0 0 0 0 
2402833333.3333334923 0.166377514600753811935263115629 0.026925813406705859792689139454 0.005637107416987419128417968750 0.000442272430518642122119349347 0 0 0 0 
2403000000.0000000000 0.166988700628280611892861884371 0.025578645989298820495605468750 0.005750821437686681747436523438 0.000205393196665681898593902588 0 0 0 0 
2403166666.6666665077 0.167909935116767911056356865629 0.024147422984242439270019531250 0.005477308295667172345633222363 -0.000030841045372653752565383911 0 0 0 0 
2403333333.3333334923 0.168513640761375399490518134371 0.022804830223321921611745466407 0.005652913358062505722045898438 -0.000226729229325428605079650879 0 0 0 0 
2403500000.0000000000 0.169095665216445895095986884371 0.021488821133971210824986641796 0.005575343500822783383841230176 -0.000451648142188787514537257062 0 0 0 0 
2403666666.6666665077 0.169991359114646911621093750000 0.020186973735690120351771170704 0.005626830738037824630737304688 -0.000705892161931842565536499023 0 0 0 0 
2403833333.3333334923 0.170776605606079101562500000000 0.019100060686469081533411795704 0.005518294405192136764526367188 -0.000919621728826314210891723633 0 0 0 0 
2404000000.0000000000 0.171273082494735690017861884371 0.017982108518481261516530622657 0.005564816296100617322439862988 -0.001346206874586642005323100513 0 0 0 0 
2404166666.6666665077 0.172212690114975003341513115629 0.017093328759074211120605468750 0.005374679341912269592285156250 -0.001365868723951279900194477612 0 0 0 0 
2404333333.3333334923 0.172926694154739407638388115629 0.016061194241046908987025076954 0.005376398563385009765625000000 -0.001532996073365211920497275244 0 0 0 0 
2404500000.0000000000 0.173512592911720303634481865629 0.015158203430473799269706525195 0.005218821112066507339477539062 -0.001877499511465430042864155347 0 0 0 0 
2404666666.6666665077 0.174031451344490106780682481258 0.014330542646348479879359061329 0.005188251379877328872680664062 -0.002085871296003460884094238281 0 0 0 0 
2404833333.3333334923 0.174757733941078213790731865629 0.013801809400320049631138985546 0.004998076241463422775268554688 -0.002238731831312179999110556494 0 0 0 0 
2405000000.0000000000 0.175320059061050387283486884371 0.012931857258081439626673514454 0.004902442917227745056152343750 -0.002356910379603505134582519531 0 0 0 0 
2405166666.6666665077 0.175881922245025607010049384371 0.012497784569859509903877459180 0.004754025023430585861206054688 -0.002479415386915206909179687500 0 0 0 0 
2405333333.3333334923 0.176599442958831787109375000000 0.011707456782460209238072579296 0.004592858720570802688598632812 -0.002501511247828602790832519531 0 0 0 0 
2405500000.0000000000 0.176959604024887112716513115629 0.011347296647727489471435546875 0.004525063093751668930053710938 -0.002615500940009952025172568213 0 0 0 0 
2405666666.6666665077 0.177315637469291687011718750000 0.010745163075625899923304373829 0.004440540913492441177368164062 -0.002756329718977212905883789062 0 0 0 0 
2405833333.3333334923 0.177534952759742709060830634371 0.010424613952636720484723475977 0.004154935013502836227416992188 -0.002854879712685943083522177588 0 0 0 0 
2406000000.0000000000 0.177913084626197787185830634371 0.009968183003365993499755859375 0.004059484694153069582467363574 -0.002936476375907659964320517432 0 0 0 0 
2406166666.6666665077 0.178175553679466303069744981258 0.009559476748108863830566406250 0.003894821507856249809265136719 -0.002957362448796629905700683594 0 0 0 0 
2406333333.3333334923 0.178408607840537997146768134371 0.009191789664328098297119140625 0.004026233684271574020385742188 -0.002927578054368495941162109375 0 0 0 0 
2406500000.0000000000 0.178517699241638211349325615629 0.008781247772276401519775390625 0.003706156043335794968845986475 -0.002881454769521952109095908057 0 0 0 0 
2406666666.6666665077 0.178373545408248901367187500000 0.008411644026637077331542968750 0.003531275317072867913487099756 -0.003221913939341903166529990088 0 0 0 0 
2406833333.3333334923 0.178513646125793512542401231258 0.007906761951744556427001953125 0.003423206042498350143432617188 -0.003144972957670689062831259619 0 0 0 0 
2407000000.0000000000 0.178375616669654901702557481258 0.007529797963798046112060546875 0.003550029592588543891906738281 -0.003258616430684924125671386719 0 0 0 0 
2407166666.6666665077 0.178482949733734103103799384371 0.007057955488562583923339843750 0.003370755119249225096461630713 -0.003051056293770670890808105469 0 0 0 0 
2407333333.3333334923 0.178188338875770596603231865629 0.006583187729120255383963300488 0.002875435398891568183898925781 -0.003540901467204093933105468750 0 0 0 0 
2407500000.0000000000 0.177866831421852111816406250000 0.006139125674962996569161699512 0.003163411980494856834411621094 -0.003385987831279634995701455225 0 0 0 0 
2407666666.6666665077 0.177636250853538513183593750000 0.005434476770460605621337890625 0.003133670892566442923304892432 -0.003104321425780653953552246094 0 0 0 0 
2407833333.3333334923 0.177056401968002291580361884371 0.004657843150198459625244140625 0.003263904014602303938624716650 -0.003400881309062242941615439307 0 0 0 0 
2408000000.0000000000 0.176908597350120488922442518742 0.004016130696982145309448242188 0.002447694307193160057067871094 -0.003834808478131889863255166162 0 0 0 0 
2408166666.6666665077 0.176333993673324612716513115629 0.003317468333989381790161132812 0.002950934460386633872985839844 -0.003426851006224751906154013525 0 0 0 0 
2408333333.3333334923 0.176121979951858492752236884371 0.002362057333812118010279990088 0.002836097730323671860935830225 -0.003603323362767695946934365381 0 0 0 0 
2408500000.0000000000 0.175383672118187006194744981258 0.001376814325340091965318989331 0.002821174450218677954432822119 -0.003823286388069390816929482568 0 0 0 0 
2408666666.6666665077 0.174831360578536987304687500000 0.000353760464349761605262756348 0.002572052879258989854099892725 -0.003506590379402041001560830225 0 0 0 0 
2408833333.3333334923 0.174262806773185702224893134371 -0.000587251794058829545974731445 0.002419916447252035140991210938 -0.003852886147797108130214072119 0 0 0 0 
2409000000.0000000000 0.173706248402595492263955634371 -0.001836983836255968050715781104 0.002358624711632729010341025244 -0.003381011309102178053614951025 0 0 0 0 
2409166666.6666665077 0.173078015446662902832031250000 -0.003035411704331635995152138818 0.002149825915694237189051962744 -0.003585590049624443054199218750 0 0 0 0 
2409333333.3333334923 0.172592729330062893966513115629 -0.004232579842209815979003906250 0.002173645654693245887756347656 -0.003666841192170978026149130713 0 0 0 0 
2409500000.0000000000 0.172052875161170987228231865629 -0.005782931111752986907958984375 0.001968431053683162169215536963 -0.003529113251715898947474814307 0 0 0 0 
2409666666.6666665077 0.171432971954345703125000000000 -0.007139897905290126800537109375 0.002037461381405591964721679688 -0.003790295217186212973353720557 0 0 0 0 
2409833333.3333334923 0.170801222324371310135049384371 -0.008602157235145568847656250000 0.001998509978875517845153808594 -0.003562661120668054060695029150 0 0 0 0 
2410000000.0000000000 0.170270547270774813553018134371 -0.010086664929986000061035156250 0.002099869772791862921473837744 -0.003592977300286293029785156250 0 0 0 0 
2410166666.6666665077 0.170025333762168912032919365629 -0.011733478866517540323277657421 0.002114251023158431053161621094 -0.003693521721288561820983886719 0 0 0 0 
2410333333.3333334923 0.169449776411056490799111884371 -0.013460702262818809854527657421 0.002101800404489039941074990381 -0.003809113288298248811009072412 0 0 0 0 
2410500000.0000000000 0.168905615806579589843750000000 -0.015190138481557369232177734375 0.002016274724155664010288857568 -0.003734407713636755943298339844 0 0 0 0 
2410666666.6666665077 0.168646529316902188400106865629 -0.017086360603570941579798514454 0.001921119983308017037035297925 -0.003813730087131261825561523438 0 0 0 0 
2410833333.3333334923 0.168444842100143404861611884371 -0.018679806962609291076660156250 0.001920837676152586936950683594 -0.003727053524926304817199707031 0 0 0 0 
2411000000.0000000000 0.168084427714347811599893134371 -0.020604118704795840871790701954 0.001993121346458793120143271338 -0.004098630975931882858276367188 0 0 0 0 
2411166666.6666665077 0.168004512786865206619424384371 -0.022651493549346920358678048046 0.001946368836797774054883647388 -0.004105166997760534286499023438 0 0 0 0 
2411333333.3333334923 0.167655348777770996093750000000 -0.024170104414224631572682966407 0.001941990107297896905186318506 -0.004109203815460205078125000000 0 0 0 0 
2411500000.0000000000 0.167775169014930697342080634371 -0.026530211791396141052246093750 0.001946700620464981035945273291 -0.004350453615188598632812500000 0 0 0 0 
2411666666.6666665077 0.167844936251640292068643134371 -0.028269860893487930297851562500 0.001777844969183206991908408057 -0.004388289991766214370727539062 0 0 0 0 
2411833333.3333334923 0.167859882116317804534588731258 -0.029985230416059490549107735546 0.001798635115846991972682333838 -0.004464110359549522399902343750 0 0 0 0 
2412000000.0000000000 0.167914673686027499099893134371 -0.031780183315277099609375000000 0.001593718887306750037549663013 -0.004674771800637245178222656250 0 0 0 0 
2412166666.6666665077 0.168122962117195101638955634371 -0.033848565071821212768554687500 0.001384406583383678956272744287 -0.004684309475123882293701171875 0 0 0 0 
2412333333.3333334923 0.168464571237564086914062500000 -0.035473089665174477314035783593 0.001454935525543987967847514575 -0.004749234300106763839721679688 0 0 0 0 
2412500000.0000000000 0.168713599443435696700888115629 -0.037421774119138717651367187500 0.001207396853715180917027138818 -0.005077030975371599197387695312 0 0 0 0 
2412666666.6666665077 0.169042587280273409744424384371 -0.039158001542091369628906250000 0.001067064935341476960423134912 -0.005127560347318649291992187500 0 0 0 0 
2412833333.3333334923 0.169540375471115112304687500000 -0.040830094367265701293945312500 0.000820148328784853219985961914 -0.005269259680062532424926757812 0 0 0 0 
2413000000.0000000000 0.169728145003318786621093750000 -0.042495857924222953105886091407 0.000768928206525743007659912109 -0.005489126779139041900634765625 0 0 0 0 
2413166666.6666665077 0.170337930321693392654580634371 -0.044130548834800720214843750000 0.000834963866509497165679931641 -0.005492032505571842193603515625 0 0 0 0 
2413333333.3333334923 0.170550480484962491134481865629 -0.045778617262840270996093750000 0.000376013631466776078373509540 -0.005560815799981355667114257812 0 0 0 0 
2413500000.0000000000 0.171380773186683710296307481258 -0.047251101583242423320729841407 0.000122134850244037806987762451 -0.005634231027215719223022460938 0 0 0 0 
2413666666.6666665077 0.171722590923309298416299384371 -0.048813778907060623168945312500 -0.000008640371561341453343629837 -0.005653188563883304595947265625 0 0 0 0 
2413833333.3333334923 0.172223940491676302810830634371 -0.049986526370048522949218750000 -0.000202857758267782601431170053 -0.005682276561856269836425781250 0 0 0 0 
2414000000.0000000000 0.172611683607101412674111884371 -0.051416181027889251708984375000 -0.000385663937777280807495117188 -0.005722103640437126159667968750 0 0 0 0 
2414166666.6666665077 0.173376038670539911468182481258 -0.052546285092830657958984375000 -0.000662394217215478420257568359 -0.005795279517769814404959394238 0 0 0 0 
2414333333.3333334923 0.173565015196800204178018134371 -0.053689010441303253173828125000 -0.000817038060631603002548217773 -0.005732569843530654907226562500 0 0 0 0 
2414500000.0000000000 0.174325332045555086990518134371 -0.054584585130214691162109375000 -0.001154543366283177895786904443 -0.005790150724351406097412109375 0 0 0 0 
2414666666.6666665077 0.174730032682418795486611884371 -0.055622447282075881958007812500 -0.001330903964117168946507119287 -0.005557260010391473770141601562 0 0 0 0 
2414833333.3333334923 0.175112470984458895584268134371 -0.056541997939348220825195312500 -0.001611583400517702102661132812 -0.005621269345283508300781250000 0 0 0 0 
2415000000.0000000000 0.175582438707351712325888115629 -0.057213280349969856952707658593 -0.001676543382927774949314736475 -0.005646947771310806274414062500 0 0 0 0 
2415166666.6666665077 0.175775930285453796386718750000 -0.057895135134458541870117187500 -0.001881310250610112927080463940 -0.005575528368353843688964843750 0 0 0 0 
2415333333.3333334923 0.176275402307510403732138115629 -0.058670114725828170776367187500 -0.002191197127103805975673056494 -0.005439683329313994321341230176 0 0 0 0 
2415500000.0000000000 0.176529690623283386230468750000 -0.059045311063528060913085937500 -0.002275944454595447020289755713 -0.005302645731717348098754882812 0 0 0 0 
2415666666.6666665077 0.176606237888336209396200615629 -0.059525001794099807739257812500 -0.002457038965076208114624023438 -0.005370439030230045318603515625 0 0 0 0 
2415833333.3333334923 0.176789641380310086349325615629 -0.060042075812816619873046875000 -0.002678506774827837944030761719 -0.005305723287165164947509765625 0 0 0 0 
2416000000.0000000000 0.176619991660118103027343750000 -0.060418564826250083232839216407 -0.002893767319619656042811728369 -0.005138474982231855392456054688 0 0 0 0 
2416166666.6666665077 0.176853984594345092773437500000 -0.060765083879232406616210937500 -0.003053825115785003142115927588 -0.005052036605775356292724609375 0 0 0 0 
2416333333.3333334923 0.176682054996490506271200615629 -0.061035893857479102397878278907 -0.003207940375432372093200683594 -0.004835723899304866790771484375 0 0 0 0 
2416500000.0000000000 0.176429346203803988357705634371 -0.061296351253986358642578125000 -0.003419273765757679939270019531 -0.004736707080155611038208007812 0 0 0 0 
2416666666.6666665077 0.176098451018333407303018134371 -0.061459310352802276611328125000 -0.003498460864648222923278808594 -0.004748345352709293365478515625 0 0 0 0 
2416833333.3333334923 0.175911530852317810058593750000 -0.061880439519882202148437500000 -0.003761757398024200959446572412 -0.004640022758394479751586914062 0 0 0 0 
2417000000.0000000000 0.175302743911743191818075615629 -0.062117207795381552959401716407 -0.003829856170341372923610068213 -0.004409304820001125335693359375 0 0 0 0 
2417166666.6666665077 0.174717903137207003494424384371 -0.062126606702804572368581403907 -0.003885079175233840942382812500 -0.004073214251548051834106445312 0 0 0 0 
2417333333.3333334923 0.174201816320419311523437500000 -0.062287647277116782451589216407 -0.003991768229752779006958007812 -0.004189040511846542358398437500 0 0 0 0 
2417500000.0000000000 0.173489034175872802734375000000 -0.062703803181648254394531250000 -0.004100477322936058044433593750 -0.003934280015528202056884765625 0 0 0 0 
2417666666.6666665077 0.172759577631950406173544365629 -0.062775366008281707763671875000 -0.004227962344884871569161699512 -0.003914520610123872756958007812 0 0 0 0 
2417833333.3333334923 0.171972855925559997558593750000 -0.063122667372226715087890625000 -0.004376181401312351226806640625 -0.003747966839000583128688193213 0 0 0 0 
2418000000.0000000000 0.170996606349945096114950615629 -0.063494369387626647949218750000 -0.004394395742565392580514238574 -0.003739127190783619880676269531 0 0 0 0 
2418166666.6666665077 0.170019567012786892989950615629 -0.063620045781135559082031250000 -0.004591771867126226425170898438 -0.003408777993172407150268554688 0 0 0 0 
2418333333.3333334923 0.169234350323677090743856865629 -0.064108341932296752929687500000 -0.004713781643658876419067382812 -0.003388917073607445196864462744 0 0 0 0 
2418500000.0000000000 0.168117269873619107345419365629 -0.064597584307193756103515625000 -0.004714117851108312606811523438 -0.003119973465800284905674599756 0 0 0 0 
2418666666.6666665077 0.167048320174217196365518134371 -0.065187528729438781738281250000 -0.004867325071245431900024414062 -0.003052599728107451958897256006 0 0 0 0 
2418833333.3333334923 0.165722936391830388824786268742 -0.065678402781486511230468750000 -0.004881295375525951385498046875 -0.002963573671877384185791015625 0 0 0 0 
2419000000.0000000000 0.164449676871299688141192518742 -0.066241927444934844970703125000 -0.004933979362249374389648437500 -0.002673096954822539849522256006 0 0 0 0 
2419166666.6666665077 0.163384005427360506912393134371 -0.067029416561126708984375000000 -0.005018407944589853286743164062 -0.002532415557652711868286132812 0 0 0 0 
2419333333.3333334923 0.162102341651916503906250000000 -0.067630447447299957275390625000 -0.005187195725739002227783203125 -0.002530597615987062887904501807 0 0 0 0 
2419500000.0000000000 0.160852760076522799392861884371 -0.068647712469100952148437500000 -0.005304866936057806015014648438 -0.002356902929022908210754394531 0 0 0 0 
2419666666.6666665077 0.159806013107299804687500000000 -0.069719813764095306396484375000 -0.005175019148737192153930664062 -0.002080879174172877831699990381 0 0 0 0 
2419833333.3333334923 0.158574581146240206619424384371 -0.070395126938819885253906250000 -0.005341964773833751678466796875 -0.002027154667302966117858886719 0 0 0 0 
