# Hz S RI R 50
2400000000.0000000000 0.160571068525314303299111884371 0.056940488517284393310546875000 0.003983981907367706298828125000 0.002454975619912147955653525244 0 0 0 0 
2400166666.6666665077 0.160755991935730008224325615629 0.055488929152488708496093750000 0.004065166227519512176513671875 0.002292906632646917863133095850 0 0 0 0 
2400333333.3333334923 0.160684302449226407150106865629 0.053746458142995827411692033593 0.004038226790726184844970703125 0.002298114588484168052673339844 0 0 0 0 
2400500000.0000000000 0.160924702882766695877236884371 0.051748797297477722167968750000 0.004282046575099229812622070312 0.002318322192877531051635742188 0 0 0 0 
2400666666.6666665077 0.160916537046432495117187500000 0.049976669251918792724609375000 0.004346070811152458190917968750 0.002298583276569842858555459131 0 0 0 0 
2400833333.3333334923 0.161248266696929903885049384371 0.048101305961608886718750000000 0.004433708731085062026977539062 0.002342749619856476783752441406 0 0 0 0 
2401000000.0000000000 0.161351561546325711349325615629 0.046291958540678017353098283593 0.004504795186221599578857421875 0.002161310520023107962367392432 0 0 0 0 
2401166666.6666665077 0.161670893430709811111611884371 0.044533837586641311645507812500 0.004627400077879428863525390625 0.002030791249126195907592773438 0 0 0 0 
2401333333.3333334923 0.161794066429138211349325615629 0.042576942592859268188476562500 0.004864387214183807373046875000 0.001875575166195631027221679688 0 0 0 0 
2401500000.0000000000 0.162214353680610712249432481258 0.040610622614622123027761091407 0.004902207292616367340087890625 0.001673760707490145943285297925 0 0 0 0 
2401666666.6666665077 0.162685453891754205901776231258 0.038831278681755072856862653907 0.005030419677495956420898437500 0.001615824759937823035596538013 0 0 0 0 
2401833333.3333334923 0.163082793354988098144531250000 0.036974165588617331767995466407 0.005150206387042999267578125000 0.001566978986375034072278666919 0 0 0 0 
2402000000.0000000000 0.163393646478653009612713731258 0.035147119313478469848632812500 0.005301489960402250289916992188 0.001215576543472707054735493237 0 0 0 0 
2402166666.6666665077 0.163892224431037902832031250000 0.033297162503004067157785783593 0.005488847848027945432181073926 0.001218916848301887945887900244 0 0 0 0 
2402333333.3333334923 0.164383009076118496993856865629 0.031585216522216796875000000000 0.005442236084491015347952558301 0.000968846376053988933563232422 0 0 0 0 
2402500000.0000000000 0.165107429027557400802450615629 0.030039334669709209096888358204 0.005572241265326738357543945312 0.000717217044439166784286499023 0 0 0 0 
2402666666.6666665077 0.165784731507301302810830634371 0.028522731736302379262903983204 0.005536611657589673995971679688 0.000570342235732823610305786133 0 0 0 0 
2402833333.3333334923 0.166352868080139187911825615629 0.027016103267669681203821951954 0.005501660984009504318237304688 0.000296682119369506781727391376 0 0 0 0 
2403000000.0000000000 0.167108505964279202560263115629 0.025448130443692210805872733204 0.005637108348309993743896484375 0.000160408075316809090688982553 0 0 0 0 
2403166666.6666665077 0.167863890528678894042968750000 0.024194564670324329030970389454 0.005548545625060796737670898438 -0.000061819271650165319442749023 0 0 0 0 
2403333333.3333334923 0.168385580182075500488281250000 0.022820554673671718942662423046 0.005581593140959739685058593750 -0.000213624080060981186941423959 0 0 0 0 
2403500000.0000000000 0.169033423066139193435830634371 0.021585635840892788278599923046 0.005615654867142438888549804688 -0.000489654659759253263473510742 0 0 0 0 
2403666666.6666665077 0.169892936944961603362713731258 0.020226230844855308532714843750 0.005638428032398223876953125000 -0.000571899698115885257720947266 0 0 0 0 
2403833333.3333334923 0.170733392238616887848223768742 0.019168037921190258371373360546 0.005583652295172215375418378613 -0.001058129128068685965297079932 0 0 0 0 
2404000000.0000000000 0.171274363994598388671875000000 0.018132032826542850839635079296 0.005442469380795955657958984375 -0.001123734633438288948656391675 0 0 0 0 
2404166666.6666665077 0.172070160508155794998330634371 0.016932105645537379873255545704 0.005466750822961330413818359375 -0.001431605662219225926640175928 0 0 0 0 
2404333333.3333334923 0.172887623310089111328125000000 0.016136955469846728933314139454 0.005413317121565341949462890625 -0.001621103612706064961077045972 0 0 0 0 
2404500000.0000000000 0.173306569457054110428018134371 0.015032566152513030660609061329 0.005299163516610860824584960938 -0.001778773497790097973467182690 0 0 0 0 
2404666666.6666665077 0.174084082245826693435830634371 0.014406490139663219451904296875 0.005013898946344851580148027637 -0.001965706702321767807006835938 0 0 0 0 
2404833333.3333334923 0.174611032009124811370526231258 0.013736596331000329798688319727 0.004893939010798931121826171875 -0.002234586980193852944615029443 0 0 0 0 
2405000000.0000000000 0.175456479191780090332031250000 0.012954385019838809967041015625 0.004789848811924458417410566113 -0.002411230234429239793064736475 0 0 0 0 
2405166666.6666665077 0.175917491316795404632244981258 0.012497755698859689885149570898 0.004761158023029565811157226562 -0.002427219878882170157191611182 0 0 0 0 
2405333333.3333334923 0.176481768488883999923544365629 0.011633412912487980234166329296 0.004529799334704875946044921875 -0.002506178803741931915283203125 0 0 0 0 
2405500000.0000000000 0.176912546157836886306924384371 0.011328329332172870635986328125 0.004372939933091402053833007812 -0.002813776955008507208583212744 0 0 0 0 
2405666666.6666665077 0.177262559533119201660156250000 0.010740229859948159998883632227 0.004449749831110239028930664062 -0.002957280725240706963780068506 0 0 0 0 
2405833333.3333334923 0.177495613694191006759481865629 0.010447687469422820699671561329 0.004238861147314310073852539062 -0.002758287824690341949462890625 0 0 0 0 
2406000000.0000000000 0.177925497293472290039062500000 0.009791239164769649505615234375 0.003989857155829668045043945312 -0.002862588968127965927124023438 0 0 0 0 
2406166666.6666665077 0.177935391664505004882812500000 0.009682570584118366241455078125 0.003778922138735651969909667969 -0.003176534315571188926696777344 0 0 0 0 
2406333333.3333334923 0.178354963660240201095419365629 0.009239524602890014648437500000 0.003870110958814620971679687500 -0.003029619110748171806335449219 0 0 0 0 
2406500000.0000000000 0.178597435355186490157919365629 0.008742802776396274566650390625 0.003716912120580672784092568506 -0.003157655475661158995387411963 0 0 0 0 
2406666666.6666665077 0.178222060203552301604901231258 0.008501050993800163269042968750 0.003538044402375816865208291162 -0.003196296282112597985508584131 0 0 0 0 
2406833333.3333334923 0.178410574793815612792968750000 0.007992541417479515075683593750 0.003605775767937303023097372900 -0.003208810929208993911743164062 0 0 0 0 
2407000000.0000000000 0.178459882736206110198651231258 0.007532992865890265378470136426 0.003328316146507858796360634912 -0.003200676757842301888706826318 0 0 0 0 
2407166666.6666665077 0.178333252668380709549111884371 0.007243448868393898010253906250 0.003409333759918808937072753906 -0.003310533938929439024684286963 0 0 0 0 
2407333333.3333334923 0.178086802363395690917968750000 0.006478714756667613983154296875 0.003140392014756799177882529150 -0.003191166324540973143336630713 0 0 0 0 
2407500000.0000000000 0.177836045622825594803018134371 0.006086203735321760177612304688 0.003128710668534040884730673682 -0.003220380283892155127284384619 0 0 0 0 
2407666666.6666665077 0.177557647228240994552450615629 0.005567376967519521713256835938 0.002994430484250187873840332031 -0.003370491089299321174621582031 0 0 0 0 
2407833333.3333334923 0.177075102925300598144531250000 0.004688543267548084259033203125 0.002992908237501978874206542969 -0.003367542987689375877380371094 0 0 0 0 
2408000000.0000000000 0.176764279603958102127236884371 0.003867289517074822945835732568 0.002942522522062062783482216943 -0.003403937211260199980494833838 0 0 0 0 
2408166666.6666665077 0.176231458783149691482705634371 0.003379994072020053863525390625 0.002672849223017692999598837744 -0.003648885525763034820556640625 0 0 0 0 
2408333333.3333334923 0.176046222448348999023437500000 0.002351831877604126930236816406 0.002575494814664125008824013818 -0.003496225224807858900782919775 0 0 0 0 
2408500000.0000000000 0.175381883978843688964843750000 0.001496082288213073990465473706 0.002528927754610776901245117188 -0.003484057728201150894165039062 0 0 0 0 
2408666666.6666665077 0.174888998270034790039062500000 0.000420372816734015887409764423 0.002606180729344487190246582031 -0.003655228298157453970668173682 0 0 0 0 
2408833333.3333334923 0.174141332507133511642294365629 -0.000534652732312679290771484375 0.002423698781058191819431923975 -0.003594280686229466958286904443 0 0 0 0 
2409000000.0000000000 0.173689961433410589020098768742 -0.001791025511920451901079487378 0.002359944395720959143397665869 -0.003638263093307613892796181787 0 0 0 0 
2409166666.6666665077 0.173094555735588101486044365629 -0.002950718859210609956028603662 0.002199811628088355064392089844 -0.003532059956341981887817382812 0 0 0 0 
2409333333.3333334923 0.172553092241287203689736884371 -0.004331035073846578598022460938 0.002230057027190924124476767432 -0.003523240564391016960144042969 0 0 0 0 
2409500000.0000000000 0.171993866562843294998330634371 -0.005746322683990001678466796875 0.002270660595968366102931357275 -0.003810624126344919204711914062 0 0 0 0 
2409666666.6666665077 0.171427503228187588790731865629 -0.007202613167464733123779296875 0.002246677875518798828125000000 -0.003666708013042808012721396338 0 0 0 0 
2409833333.3333334923 0.170700058341026306152343750000 -0.008631622418761253356933593750 0.002027610782533884048461914062 -0.003594297915697098212001181494 0 0 0 0 
2410000000.0000000000 0.170280173420906094650106865629 -0.010079731233417989558209804102 0.002210243372246623039245605469 -0.003550030058249831199645996094 0 0 0 0 
2410166666.6666665077 0.169897869229316711425781250000 -0.011763553135097030294398123829 0.001916031586006283976911235278 -0.003621405921876430945155478369 0 0 0 0 
2410333333.3333334923 0.169363453984260586837606865629 -0.013516460545361040287981602148 0.001949772937223315022112202222 -0.003667704062536358833312988281 0 0 0 0 
2410500000.0000000000 0.168991580605506896972656250000 -0.015170232392847539729108241602 0.001989259617403150038478232275 -0.003810289083048700852635048975 0 0 0 0 
2410666666.6666665077 0.168613463640213012695312500000 -0.017101867124438289297083670704 0.001984830945730208916905068506 -0.003900445764884353117701865088 0 0 0 0 
2410833333.3333334923 0.168316870927810696700888115629 -0.018856391310691830026646798046 0.001969781471416354179382324219 -0.003685965435579419136047363281 0 0 0 0 
2411000000.0000000000 0.168002337217330904861611884371 -0.020551454275846481323242187500 0.001869020168669522025464702075 -0.003925779834389686584472656250 0 0 0 0 
2411166666.6666665077 0.167937129735946710784588731258 -0.022407168522477149963378906250 0.001916408771649003028869628906 -0.003931833431124687194824218750 0 0 0 0 
2411333333.3333334923 0.167638719081878689864950615629 -0.024245375767350200307825858204 0.001849292777478694915771484375 -0.004115225281566382321829511426 0 0 0 0 
2411500000.0000000000 0.167590364813804598709268134371 -0.026141559705138209951380545704 0.001648067962378263907191611182 -0.004264882765710353851318359375 0 0 0 0 
2411666666.6666665077 0.167858600616455105880575615629 -0.028108639642596248281458670704 0.001771067036315798976300883716 -0.004453473724424839019775390625 0 0 0 0 
2411833333.3333334923 0.167674943804740905761718750000 -0.029895458370447158813476562500 0.001660920213907957077026367188 -0.004499418660998344421386718750 0 0 0 0 
2412000000.0000000000 0.167898193001747103592080634371 -0.031867913901805877685546875000 0.001608964055776596069335937500 -0.004717623814940452575683593750 0 0 0 0 
2412166666.6666665077 0.168030127882957486251669365629 -0.033811893314123146747629533593 0.001382056274451314969303750146 -0.004549125209450721740722656250 0 0 0 0 
2412333333.3333334923 0.168627709150314303299111884371 -0.035462565720081329345703125000 0.001298773568123579025268554688 -0.004820864181965590390677167676 0 0 0 0 
2412500000.0000000000 0.168640136718750000000000000000 -0.037234179675579071044921875000 0.001338108326308429024339985425 -0.004959789104759693145751953125 0 0 0 0 
2412666666.6666665077 0.169094130396843012054119981258 -0.039259392768144607543945312500 0.001155933714471756978275918115 -0.005020522512495517730712890625 0 0 0 0 
2412833333.3333334923 0.169332712888717706878338731258 -0.040901802480220801616628278907 0.000933744420763105154037475586 -0.005321974400430917739868164062 0 0 0 0 
2413000000.0000000000 0.169852346181869506835937500000 -0.042506445199251181865651716407 0.000897791469469666481018066406 -0.005223787855356931686401367188 0 0 0 0 
2413166666.6666665077 0.170205220580101013183593750000 -0.044079087674617767333984375000 0.000588816008530557155609130859 -0.005306380800902844342703534863 0 0 0 0 
2413333333.3333334923 0.170496523380279513260049384371 -0.045709695667028427124023437500 0.000442416639998555183410644531 -0.005472242366522550582885742188 0 0 0 0 
2413500000.0000000000 0.171193093061447088043536268742 -0.047191895544528961181640625000 0.000285849208012223189503270282 -0.005531502887606620788574218750 0 0 0 0 
2413666666.6666665077 0.171586304903030395507812500000 -0.048690985888242721557617187500 0.000050661139539442963223864896 -0.005617427639663220319266034863 0 0 0 0 
2413833333.3333334923 0.172208607196807889083700615629 -0.050070397555828087543527971093 -0.000189847312867641503184717999 -0.005672975443303585052490234375 0 0 0 0 
2414000000.0000000000 0.172671586275100708007812500000 -0.051275443285703659057617187500 -0.000337577192112803513377589093 -0.005806079600006341934204101562 0 0 0 0 
2414166666.6666665077 0.173342093825340298751669365629 -0.052430558949708938598632812500 -0.000572837423533201217651367188 -0.005691060330718755722045898438 0 0 0 0 
2414333333.3333334923 0.173725187778472900390625000000 -0.053524289280176162719726562500 -0.000870152434799820184707641602 -0.005779434926807880401611328125 0 0 0 0 
2414500000.0000000000 0.174324899911880493164062500000 -0.054610610008239753032643903907 -0.000996122136712074279785156250 -0.005735252518206834793090820312 0 0 0 0 
2414666666.6666665077 0.174791336059570312500000000000 -0.055530656129121780395507812500 -0.001104705501347780010820698315 -0.005807498935610055923461914062 0 0 0 0 
2414833333.3333334923 0.175021871924400301834268134371 -0.056469999253749847412109375000 -0.001426812727004290060756064307 -0.005609718617051839828491210938 0 0 0 0 
2415000000.0000000000 0.175514891743660000900106865629 -0.057157739996910102153737653907 -0.001601239200681447982788085938 -0.005481748841702938079833984375 0 0 0 0 
2415166666.6666665077 0.175774782896041897872763115629 -0.057958342134952552104909528907 -0.001976622268557548956630087744 -0.005617071874439716339111328125 0 0 0 0 
2415333333.3333334923 0.176257506012916592696981865629 -0.058561112731695182109792341407 -0.002023794921115041212794638525 -0.005302460398524999618530273438 0 0 0 0 
2415500000.0000000000 0.176462247967720003982705634371 -0.059104233980178833007812500000 -0.002246457152068614959716796875 -0.005297563038766384124755859375 0 0 0 0 
2415666666.6666665077 0.176612600684166010100994981258 -0.059529643505811691284179687500 -0.002404484199360013008117675781 -0.005187096074223518371582031250 0 0 0 0 
2415833333.3333334923 0.176737725734710693359375000000 -0.059933677315711982036550153907 -0.002614510245621203942539834131 -0.005140312016010284423828125000 0 0 0 0 
2416000000.0000000000 0.176675304770469693282919365629 -0.060348559170961380004882812500 -0.002735646907240151925327920068 -0.005096703302115201950073242188 0 0 0 0 
2416166666.6666665077 0.176795035600662203689736884371 -0.060709506273269653320312500000 -0.003057645633816719055175781250 -0.004863955546170473098754882812 0 0 0 0 
2416333333.3333334923 0.176705420017242403885049384371 -0.060915123671293258666992187500 -0.003334866138175129890441894531 -0.004806197714060544967651367188 0 0 0 0 
2416500000.0000000000 0.176544532179832486251669365629 -0.061244104057550430297851562500 -0.003371577942743897004368447412 -0.004739873111248016357421875000 0 0 0 0 
2416666666.6666665077 0.176186621189117403885049384371 -0.061509694904088967060129533593 -0.003590912325307726860046386719 -0.004712198860943317413330078125 0 0 0 0 
2416833333.3333334923 0.175800591707229586502236884371 -0.061856132000684738159179687500 -0.003501206869259477095362997900 -0.004464087076485157012939453125 0 0 0 0 
2417000000.0000000000 0.175285756587982205489950615629 -0.062023479491472237323801408593 -0.003815896809101105170008993994 -0.004327186383306980133056640625 0 0 0 0 
2417166666.6666665077 0.174798473715782193282919365629 -0.062142353504896157001535783593 -0.004023657646030187606811523438 -0.004116046242415904998779296875 0 0 0 0 
2417333333.3333334923 0.174245432019233703613281250000 -0.062215141952037811279296875000 -0.004056321457028388977050781250 -0.004085606429725885391235351562 0 0 0 0 
2417500000.0000000000 0.173469811677932711502236884371 -0.062743254005908966064453125000 -0.004099655430763959884643554688 -0.003930195700377225875854492188 0 0 0 0 
2417666666.6666665077 0.172870323061943109710369981258 -0.062873184680938720703125000000 -0.004254271741956472396850585938 -0.003873020177707076072692871094 0 0 0 0 
2417833333.3333334923 0.172064304351806612869424384371 -0.063125714659690856933593750000 -0.004552186466753482818603515625 -0.003715868573635817007777548682 0 0 0 0 
2418000000.0000000000 0.171004518866539001464843750000 -0.063549339771270751953125000000 -0.004565666895359755429739667676 -0.003611966734752058982849121094 0 0 0 0 
2418166666.6666665077 0.170074477791786193847656250000 -0.063708208501338958740234375000 -0.004650782328099012374877929688 -0.003405885072425007820129394531 0 0 0 0 
2418333333.3333334923 0.169252276420593289474325615629 -0.064302913844585418701171875000 -0.004775971174240112304687500000 -0.003281245939433575110194540869 0 0 0 0 
2418500000.0000000000 0.167996272444725008865518134371 -0.064565293490886688232421875000 -0.004649677313864231109619140625 -0.003030572552233933968784951318 0 0 0 0 
2418666666.6666665077 0.167086184024810791015625000000 -0.065112635493278503417968750000 -0.004837067797780036926269531250 -0.003053236519917846159694052588 0 0 0 0 
2418833333.3333334923 0.165898188948631286621093750000 -0.065862588584423065185546875000 -0.004895464051514863967895507812 -0.003040411509573460058925009619 0 0 0 0 
2419000000.0000000000 0.164576068520545987228231865629 -0.066326342523097991943359375000 -0.004950603935867547988891601562 -0.002859320491552352905273437500 0 0 0 0 
2419166666.6666665077 0.163376018404960604568643134371 -0.066988967359066009521484375000 -0.005036043468862771987915039062 -0.002619615523144603209254599463 0 0 0 0 
2419333333.3333334923 0.161902531981468200683593750000 -0.067595064640045166015625000000 -0.005127790383994579315185546875 -0.002473715925589203834533691406 0 0 0 0 
2419500000.0000000000 0.160813570022583007812500000000 -0.068650692701339721679687500000 -0.005242368672043085098266601562 -0.002339841797947884039637900244 0 0 0 0 
2419666666.6666665077 0.159695059061050387283486884371 -0.069617941975593566894531250000 -0.005362793803215026855468750000 -0.002210563980042933984043740381 0 0 0 0 
2419833333.3333334923 0.158448532223701504806356865629 -0.070436798036098480224609375000 -0.005345545243471860885620117188 -0.002077506156638265089747763525 0 0 0 0 
