# Hz S RI R 
2400000000.0000000000 0.160699173808097811599893134371 0.057019274681806557392160783593 0.003880915232002735137939453125 0.002483092714101076126098632812 0 0 0 0 
2400166666.6666665077 0.160781532526016207595986884371 0.055435236543416976928710937500 0.003931350074708461761474609375 0.002436206676065921783447265625 0 0 0 0 
2400333333.3333334923 0.160806864500045804122763115629 0.053618468344211578369140625000 0.004110781010240316390991210938 0.002435612725093961195704794775 0 0 0 0 
2400500000.0000000000 0.161092624068260192871093750000 0.051837675273418433452565778907 0.004263913724571465578561113574 0.002284332877025008201599121094 0 0 0 0 
2400666666.6666665077 0.161000043153762789627236884371 0.050108380615711212158203125000 0.004352067131549119949340820312 0.002253309590741991996765136719 0 0 0 0 
2400833333.3333334923 0.161457553505897494217080634371 0.048285402357578277587890625000 0.004457914270460605621337890625 0.002244753763079642815830849756 0 0 0 0 
2401000000.0000000000 0.161479353904724093338174384371 0.046293783932924270629882812500 0.004618865903466939926147460938 0.002185737015679479079005576025 0 0 0 0 
2401166666.6666665077 0.161780700087547302246093750000 0.044433463364839546894113908593 0.004639779217541217803955078125 0.001954670296981931166407919775 0 0 0 0 
2401333333.3333334923 0.162024885416030911544638115629 0.042559128254652023315429687500 0.004867186304181814193725585938 0.001751636504195630984065390479 0 0 0 0 
2401500000.0000000000 0.162423700094222994705361884371 0.040632124990224838256835937500 0.004845377057790756225585937500 0.001765280147083104090449667822 0 0 0 0 
2401666666.6666665077 0.162738129496574401855468750000 0.038987997919321060180664062500 0.005080967675894498825073242188 0.001558959833346307060839008862 0 0 0 0 
2401833333.3333334923 0.163008764386177090743856865629 0.037007179111242287372629533593 0.005266070365905761718750000000 0.001398394233547151088714599609 0 0 0 0 
2402000000.0000000000 0.163633063435554504394531250000 0.035295311361551291728932966407 0.005244155414402484893798828125 0.001392308389768003983738564600 0 0 0 0 
2402166666.6666665077 0.164051994681358309646768134371 0.033345885574817657470703125000 0.005194750148802995681762695312 0.001218363526277244091033935547 0 0 0 0 
2402333333.3333334923 0.164509057998657198806924384371 0.031732637435197830200195312500 0.005413364153355360031127929688 0.000977305229753255844116210938 0 0 0 0 
2402500000.0000000000 0.165429472923278808593750000000 0.030180986970663070678710937500 0.005274457857012748718261718750 0.000913154741283506155014038086 0 0 0 0 
2402666666.6666665077 0.165939331054687500000000000000 0.028592241927981380117396170704 0.005504006519913673400878906250 0.000419894058723002726405543195 0 0 0 0 
2402833333.3333334923 0.166507408022880609710369981258 0.026899388059973720205286795704 0.005405911710113286972045898438 0.000460201816167682409286499023 0 0 0 0 
2403000000.0000000000 0.167185500264167813400106865629 0.025534991174936301494557966407 0.005537739954888820648193359375 0.000116081857413519200965604239 0 0 0 0 
2403166666.6666665077 0.167837977409362792968750000000 0.024315452203154560434361641796 0.005473806988447904586791992188 -0.000039152077079052112322261198 0 0 0 0 
2403333333.3333334923 0.168684706091880798339843750000 0.022936388850212100637415701954 0.005665668286383152008056640625 -0.000214885876630432903766632080 0 0 0 0 
2403500000.0000000000 0.169513016939163208007812500000 0.021671257913112640380859375000 0.005687877070158720016479492188 -0.000474170403322205001681727277 0 0 0 0 
2403666666.6666665077 0.170203328132629394531250000000 0.020206971094012260437011718750 0.005559830460697413358206464551 -0.000729251943994313478469848633 0 0 0 0 
2403833333.3333334923 0.170880630612373407561932481258 0.019270749762654311443288435157 0.005620725452899932861328125000 -0.000905730412341654300689697266 0 0 0 0 
2404000000.0000000000 0.171594500541687011718750000000 0.018139896914362910879114920704 0.005651787389069795608520507812 -0.001221398939378560023066855322 0 0 0 0 
2404166666.6666665077 0.172271102666854886154013115629 0.017019642516970630991002266796 0.005419216584414243698120117188 -0.001417187275364995002746582031 0 0 0 0 
2404333333.3333334923 0.172959417104721097091513115629 0.016187908127903938293457031250 0.005361911375075578689575195312 -0.001608283026143908934352255713 0 0 0 0 
2404500000.0000000000 0.173463508486747686188067518742 0.015254336409270759927769844921 0.005351998843252658843994140625 -0.001739654573611914894701313550 0 0 0 0 
2404666666.6666665077 0.174275085330009488204794365629 0.014345698989927770441998866602 0.005144702736288309097290039062 -0.002014845376834272904637002100 0 0 0 0 
2404833333.3333334923 0.174968317151069613357705634371 0.013665294274687770498255545704 0.004938616883009672164916992188 -0.002113563008606433868408203125 0 0 0 0 
2405000000.0000000000 0.175491362810134887695312500000 0.012974807061254979914655116602 0.004836310632526875409598066113 -0.002371615031734108924865722656 0 0 0 0 
2405166666.6666665077 0.176079586148261996170205634371 0.012379171326756480825403983204 0.004755037836730480194091796875 -0.002514325547963380813598632812 0 0 0 0 
2405333333.3333334923 0.176585808396339388748330634371 0.011591877788305280858049961523 0.004647370893508195877075195312 -0.002622898900881410078761435400 0 0 0 0 
2405500000.0000000000 0.177048459649085998535156250000 0.011277540586888790130615234375 0.004452153109014034271240234375 -0.002575284335762261910679482568 0 0 0 0 
2405666666.6666665077 0.177440389990806607345419365629 0.010740028694272039586077305273 0.004242171533405780792236328125 -0.002815071027725934982299804688 0 0 0 0 
2405833333.3333334923 0.177690863609313992599325615629 0.010416679084301000077217302930 0.004158352036029100418090820312 -0.002980760764330625967738486182 0 0 0 0 
2406000000.0000000000 0.178083404898643493652343750000 0.009845938533544540405273437500 0.003975977655500173568725585938 -0.002899449784308671951293945312 0 0 0 0 
2406166666.6666665077 0.178161859512329101562500000000 0.009636046364903450012207031250 0.003907109610736370086669921875 -0.002972980495542287826538085938 0 0 0 0 
2406333333.3333334923 0.178492382168769808670205634371 0.009051243774592876434326171875 0.003726388327777386145350790869 -0.002972067333757876916172646631 0 0 0 0 
2406500000.0000000000 0.178544148802757290939169365629 0.008833613246679306030273437500 0.003666580654680728912353515625 -0.002963487990200519995448447119 0 0 0 0 
2406666666.6666665077 0.178401917219161987304687500000 0.008599775843322277069091796875 0.003544845851138234138488769531 -0.003325061872601509094238281250 0 0 0 0 
2406833333.3333334923 0.178617492318153409103231865629 0.007993833161890506744384765625 0.003375919768586754798889160156 -0.003182643558830022811889648438 0 0 0 0 
2407000000.0000000000 0.178570315241813687423544365629 0.007501001935452222824096679688 0.003294713329523801803588867188 -0.003349108388647437095642089844 0 0 0 0 
2407166666.6666665077 0.178558513522148104568643134371 0.007180323358625173568725585938 0.003182428423315287070033408057 -0.003289247164502739906311035156 0 0 0 0 
2407333333.3333334923 0.178113356232643099685830634371 0.006514225155115128430838300488 0.003230887698009610176086425781 -0.003366374410688877105712890625 0 0 0 0 
2407500000.0000000000 0.178019851446151705642861884371 0.006006268784403800964355468750 0.003020906820893288092372275244 -0.003428567666560411886927939307 0 0 0 0 
2407666666.6666665077 0.177646249532699612716513115629 0.005436405539512634277343750000 0.003144036512821913199183798682 -0.003342443145811558203456259619 0 0 0 0 
2407833333.3333334923 0.177202120423317011077557481258 0.004652605857700110349173261426 0.002835379913449286980869912256 -0.003355822991579771041870117188 0 0 0 0 
2408000000.0000000000 0.176902428269386291503906250000 0.003985947463661432266235351562 0.002786030992865562005283974756 -0.003439546795561910109279013525 0 0 0 0 
2408166666.6666665077 0.176393598318100003341513115629 0.003267933847382665114161826025 0.002668866189196705818176269531 -0.003502735169604421095607138525 0 0 0 0 
2408333333.3333334923 0.176153123378753689864950615629 0.002406097715720533890965127100 0.002535090781748294830322265625 -0.003521332982927560806274414062 0 0 0 0 
2408500000.0000000000 0.175405263900756808181924384371 0.001378746586851776079890585791 0.002681249985471367835998535156 -0.003564836690202354951145791162 0 0 0 0 
2408666666.6666665077 0.174923330545425387283486884371 0.000327858637319877689510899677 0.002601475687697529792785644531 -0.003672947641462088064906454932 0 0 0 0 
2408833333.3333334923 0.174389868974685696700888115629 -0.000688903033733367919921875000 0.002329315757378935813903808594 -0.003610409796237945990321493994 0 0 0 0 
2409000000.0000000000 0.173733085393905611892861884371 -0.001824254053644835948944091797 0.002279287204146385192871093750 -0.003652245504781603813171386719 0 0 0 0 
2409166666.6666665077 0.173206120729446411132812500000 -0.002995646325871347947361611475 0.002295379061251879172084189307 -0.003597686067223548889160156250 0 0 0 0 
2409333333.3333334923 0.172705397009849603850994981258 -0.004249931778758764266967773438 0.002314017154276371002197265625 -0.003682318842038511796238564600 0 0 0 0 
2409500000.0000000000 0.171935036778450012207031250000 -0.005840811412781476974487304688 0.002109879394993185997009277344 -0.003721088171005249023437500000 0 0 0 0 
2409666666.6666665077 0.171409085392951993087606865629 -0.007234293036162853240966796875 0.002155914669856429100036621094 -0.003770063165575265884399414062 0 0 0 0 
2409833333.3333334923 0.170839026570320101638955634371 -0.008658972568809986114501953125 0.002100164769217371940612792969 -0.003702162532135843796970986475 0 0 0 0 
2410000000.0000000000 0.170287340879440307617187500000 -0.010329016484320160257359688671 0.001965555129572749137878417969 -0.003634237451478838920593261719 0 0 0 0 
2410166666.6666665077 0.169866412878036499023437500000 -0.011899480596184730529785156250 0.002070239046588540077209472656 -0.003742620348930358886718750000 0 0 0 0 
2410333333.3333334923 0.169417917728424100021200615629 -0.013499421998858450108538242773 0.001916432520374655940412211841 -0.003744791029021143913269042969 0 0 0 0 
2410500000.0000000000 0.169074207544326809982138115629 -0.015215021558105950791328631055 0.001938989851623774008509970557 -0.003711270634084939956665039062 0 0 0 0 
2410666666.6666665077 0.168616086244583102127236884371 -0.016949167475104328500767891796 0.001880727824755012989044189453 -0.003857597010210156007053994287 0 0 0 0 
2410833333.3333334923 0.168316856026649502853231865629 -0.018798267468810081481933593750 0.001921757473610341982600546729 -0.003892609849572182135341025244 0 0 0 0 
2411000000.0000000000 0.168280571699142511565838731258 -0.020558049902319911611536795704 0.001838997239246965105172182398 -0.004007442854344844818115234375 0 0 0 0 
2411166666.6666665077 0.167910143733024597167968750000 -0.022578932344913479196568673046 0.001833171001635492064832377856 -0.004022068809717893600463867188 0 0 0 0 
2411333333.3333334923 0.167861297726631192306356865629 -0.024344434961676601064661795704 0.001690025557763874964473105322 -0.004108889959752559661865234375 0 0 0 0 
2411500000.0000000000 0.167694941163063104827557481258 -0.026432832702994350088099295704 0.001776503631845117048976279150 -0.004139359109103679656982421875 0 0 0 0 
2411666666.6666665077 0.167841970920562688629473768742 -0.028301289305090900766392891796 0.001689617172814906077144003760 -0.004411970265209674835205078125 0 0 0 0 
2411833333.3333334923 0.167801097035407992263955634371 -0.029941339045763019216517264454 0.001588709419593214988708496094 -0.004491955507546663284301757812 0 0 0 0 
2412000000.0000000000 0.168104335665702792068643134371 -0.031980037689208977436106096093 0.001398957101628184101702045972 -0.004477903712540864944458007812 0 0 0 0 
2412166666.6666665077 0.168117940425872802734375000000 -0.033872112631797790527343750000 0.001392579521052538914921425928 -0.004674159921705722808837890625 0 0 0 0 
2412333333.3333334923 0.168667271733283996582031250000 -0.035575721412897109985351562500 0.001270320964977144978166889722 -0.004797063767910003662109375000 0 0 0 0 
2412500000.0000000000 0.168623685836791992187500000000 -0.037443455308675772930104841407 0.001168935792520642063738178784 -0.004917155951261520385742187500 0 0 0 0 
2412666666.6666665077 0.169088020920753506759481865629 -0.039284422993659973144531250000 0.001183968153782188892364501953 -0.005016420967876911163330078125 0 0 0 0 
2412833333.3333334923 0.169490858912468012054119981258 -0.040872700512409210205078125000 0.000998876639641821384429931641 -0.005255944561213254928588867188 0 0 0 0 
2413000000.0000000000 0.169934764504432705978231865629 -0.042611055076122276996652971093 0.000799014174845069646835327148 -0.005266624502837657928466796875 0 0 0 0 
2413166666.6666665077 0.170127287507057189941406250000 -0.044381890445947647094726562500 0.000575084239244461059570312500 -0.005355882924050092697143554688 0 0 0 0 
2413333333.3333334923 0.170789718627929687500000000000 -0.045881059020757682109792341407 0.000329899135977029800415039062 -0.005439818836748600006103515625 0 0 0 0 
2413500000.0000000000 0.171198755502700805664062500000 -0.047271288931369781494140625000 0.000310358853312209302752894269 -0.005486196372658014297485351562 0 0 0 0 
2413666666.6666665077 0.171716660261154202560263115629 -0.048732727766036987304687500000 -0.000007227351943583926185965538 -0.005509280133992434415335370801 0 0 0 0 
2413833333.3333334923 0.172368556261062594314736884371 -0.050071209669113159179687500000 -0.000106156410765834193356098314 -0.005516044329851865768432617188 0 0 0 0 
2414000000.0000000000 0.172645941376686096191406250000 -0.051441375166177749633789062500 -0.000464734010165557319491785870 -0.005538968835026025772094726562 0 0 0 0 
2414166666.6666665077 0.173267647624015808105468750000 -0.052655316889286041259765625000 -0.000561780121643096208572387695 -0.005661717150360345840454101562 0 0 0 0 
2414333333.3333334923 0.173798397183418301681356865629 -0.053840838372707366943359375000 -0.000887726142536848783493041992 -0.005605090409517288208007812500 0 0 0 0 
2414500000.0000000000 0.174415424466133089920205634371 -0.054645612835884087299387346093 -0.001090935198590158982517861475 -0.005823208484798669815063476562 0 0 0 0 
2414666666.6666665077 0.174820885062217712402343750000 -0.055557638406753540039062500000 -0.001196713419631123976466513525 -0.005624296143651008605957031250 0 0 0 0 
2414833333.3333334923 0.175142303109169006347656250000 -0.056675247848033911968190778907 -0.001549286185763776085497211987 -0.005659743677824735641479492188 0 0 0 0 
2415000000.0000000000 0.175442427396774291992187500000 -0.057265859097242362285573591407 -0.001677221618592739105224609375 -0.005518586374819278717041015625 0 0 0 0 
2415166666.6666665077 0.175849020481109591385049384371 -0.057951472699642181396484375000 -0.001929043093696237044093466650 -0.005450920201838017377371503613 0 0 0 0 
2415333333.3333334923 0.176088601350784301757812500000 -0.058706860989332199096679687500 -0.002187666017562150955200195312 -0.005479020066559314727783203125 0 0 0 0 
2415500000.0000000000 0.176457911729812594314736884371 -0.059154368937015533447265625000 -0.002411231864243745803833007812 -0.005380001850426197052001953125 0 0 0 0 
2415666666.6666665077 0.176475390791893005371093750000 -0.059613648802042007446289062500 -0.002633048221468925909755087744 -0.005144781898707151412963867188 0 0 0 0 
2415833333.3333334923 0.176758974790573092361611884371 -0.060176901519298553466796875000 -0.002705994760617613792419433594 -0.005282028112560510635375976562 0 0 0 0 
2416000000.0000000000 0.176546648144722012618856865629 -0.060492888092994689941406250000 -0.002923977561295032934901572119 -0.005150808021426200866699218750 0 0 0 0 
2416166666.6666665077 0.176748365163803100585937500000 -0.060843493789434432983398437500 -0.003115145023912190957310341943 -0.005096198990941047668457031250 0 0 0 0 
2416333333.3333334923 0.176692709326744107345419365629 -0.061039563268423080444335937500 -0.003238482400774956183192587744 -0.004825709387660027417654706738 0 0 0 0 
2416500000.0000000000 0.176367759704589788238848768742 -0.061360493302345282817800153907 -0.003408608259633183912989951025 -0.004743874538689851760864257812 0 0 0 0 
2416666666.6666665077 0.176101818680763189117755018742 -0.061514325439929962158203125000 -0.003531491151079535917994833838 -0.004615679383277893066406250000 0 0 0 0 
2416833333.3333334923 0.175826653838157709319744981258 -0.061993066221475601196289062500 -0.003607390448451042175292968750 -0.004485247191041707992553710938 0 0 0 0 
2417000000.0000000000 0.175125867128372192382812500000 -0.062068916857242577289621721093 -0.003897400107234715981724404443 -0.004383073188364505767822265625 0 0 0 0 
2417166666.6666665077 0.174664005637168912032919365629 -0.062269788235425949096679687500 -0.003954097162932158383841230176 -0.004375571850687265396118164062 0 0 0 0 
2417333333.3333334923 0.174168244004249600509481865629 -0.062307719141244888305664062500 -0.004027119837701320648193359375 -0.004216292407363653182983398438 0 0 0 0 
2417500000.0000000000 0.173468753695488003829794365629 -0.062747061252593994140625000000 -0.004182607401162385940551757812 -0.003842851845547556877136230469 0 0 0 0 
2417666666.6666665077 0.172774061560630798339843750000 -0.062879651784896850585937500000 -0.004369216505438089370727539062 -0.003816092386841773986816406250 0 0 0 0 
2417833333.3333334923 0.171853199601173400878906250000 -0.063148036599159240722656250000 -0.004363169893622398376464843750 -0.003768099937587976889369345557 0 0 0 0 
2418000000.0000000000 0.171033546328544588943643134371 -0.063489563763141632080078125000 -0.004594352561980485916137695312 -0.003537674900144339041468954932 0 0 0 0 
2418166666.6666665077 0.169942408800125094314736884371 -0.063755035400390625000000000000 -0.004530472215265035629272460938 -0.003483723616227508024928427588 0 0 0 0 
2418333333.3333334923 0.169314235448837308029013115629 -0.064144045114517211914062500000 -0.004654174670577049255371093750 -0.003439369145780802206752158057 0 0 0 0 
2418500000.0000000000 0.167949438095092801193075615629 -0.064515791833400726318359375000 -0.004618155770003795623779296875 -0.003227149136364459991455078125 0 0 0 0 
2418666666.6666665077 0.166962087154388399978799384371 -0.065170399844646453857421875000 -0.004808745346963405609130859375 -0.002975892741233109994175576318 0 0 0 0 
2418833333.3333334923 0.165670946240425109863281250000 -0.065808445215225219726562500000 -0.004871921613812446594238281250 -0.002890813164412974877598427881 0 0 0 0 
2419000000.0000000000 0.164385780692100497146768134371 -0.066211231052875518798828125000 -0.005046592094004154205322265625 -0.002807808108627796173095703125 0 0 0 0 
2419166666.6666665077 0.163336053490638705154580634371 -0.067014560103416442871093750000 -0.005101423710584641370291425488 -0.002608797047287226156947470557 0 0 0 0 
2419333333.3333334923 0.161986917257308987716513115629 -0.067485935986042022705078125000 -0.005278875119984149932861328125 -0.002425901126116514205932617188 0 0 0 0 
2419500000.0000000000 0.160911634564399691482705634371 -0.068598128855228424072265625000 -0.005345299374312162399291992188 -0.002324613509699701829197548975 0 0 0 0 
2419666666.6666665077 0.159776255488395690917968750000 -0.069682903587818145751953125000 -0.005454624537378549575805664062 -0.002098747761920094923732138525 0 0 0 0 
2419833333.3333334923 0.158433407545089693924111884371 -0.070461519062519073486328125000 -0.005366751458495855331420898438 -0.002213187748566269874572753906 0 0 0 0 
