# Version 1.00
#
freq[Hz];re:Trc1_S11;im:Trc1_S11;re:Trc2_S21;im:Trc2_S21;
2.400000000000000E+009;1.694401949644089E-001;4.587648063898087E-002;-1.715362421236932E-003;-6.696956697851419E-003;
2.400166666666667E+009;1.703947037458420E-001;4.491789266467094E-002;-1.913500018417835E-003;-6.736642215400934E-003;
2.400333333333334E+009;1.713115870952606E-001;4.356871545314789E-002;-2.105205552652478E-003;-6.508079357445240E-003;
2.400500000000000E+009;1.723071485757828E-001;4.278531298041344E-002;-2.089953748509288E-003;-6.443365011364222E-003;
2.400666666666667E+009;1.731346398591995E-001;4.180268198251724E-002;-2.496518427506089E-003;-6.440328434109688E-003;
2.400833333333334E+009;1.740832477807999E-001;4.123274236917496E-002;-2.678115619346499E-003;-6.206598132848740E-003;
2.401000000000000E+009;1.748627573251724E-001;4.039863869547844E-002;-2.893085591495037E-003;-6.267043761909008E-003;
2.401166666666667E+009;1.758156865835190E-001;3.951962292194367E-002;-3.121793735772371E-003;-6.102973595261574E-003;
2.401333333333334E+009;1.764516383409500E-001;3.899713605642319E-002;-3.356062574312091E-003;-5.958670750260353E-003;
2.401500000000000E+009;1.771929264068604E-001;3.839187696576119E-002;-3.543470753356814E-003;-5.799723323434591E-003;
2.401666666666667E+009;1.776598542928696E-001;3.787346184253693E-002;-3.826949978247285E-003;-5.940923467278481E-003;
2.401833333333334E+009;1.780520826578140E-001;3.720869868993759E-002;-4.164785612374544E-003;-5.763948429375887E-003;
2.402000000000000E+009;1.787475496530533E-001;3.672178462147713E-002;-4.372137598693371E-003;-5.576624535024166E-003;
2.402166666666667E+009;1.791694909334183E-001;3.604109585285187E-002;-4.478379152715206E-003;-5.347770173102617E-003;
2.402333333333334E+009;1.793398112058640E-001;3.553983196616173E-002;-4.888521041721106E-003;-5.205693654716015E-003;
2.402500000000000E+009;1.798567622900009E-001;3.496205061674118E-002;-5.091022700071335E-003;-5.023102276027203E-003;
2.402666666666667E+009;1.799156069755554E-001;3.431877866387367E-002;-5.223275162279606E-003;-4.789575468748808E-003;
2.402833333333334E+009;1.799521893262863E-001;3.368714079260826E-002;-5.547542124986649E-003;-4.449960775673389E-003;
2.403000000000000E+009;1.802218407392502E-001;3.292129933834076E-002;-5.688328761607409E-003;-4.388395231217146E-003;
2.403166666666667E+009;1.802103370428085E-001;3.213880956172943E-002;-5.901925731450319E-003;-3.903766628354788E-003;
2.403333333333334E+009;1.798062175512314E-001;3.136109188199043E-002;-6.020945031195879E-003;-3.781705861911178E-003;
2.403500000000000E+009;1.794012635946274E-001;3.048804029822350E-002;-6.215324625372887E-003;-3.311932086944580E-003;
2.403666666666667E+009;1.794227659702301E-001;2.939339354634285E-002;-6.210234481841326E-003;-2.792190993204713E-003;
2.403833333333334E+009;1.791957914829254E-001;2.861918695271015E-002;-6.369669456034899E-003;-2.561782719567418E-003;
2.404000000000000E+009;1.786179542541504E-001;2.754960767924786E-002;-6.367928348481655E-003;-2.396858762949705E-003;
2.404166666666667E+009;1.782509237527847E-001;2.623522467911243E-002;-6.375687662512064E-003;-2.021993976086378E-003;
2.404333333333334E+009;1.776696592569351E-001;2.512777596712112E-002;-6.347176618874073E-003;-1.776632503606379E-003;
2.404500000000000E+009;1.771328598260880E-001;2.372124232351780E-002;-6.340573076158762E-003;-1.436359481886029E-003;
2.404666666666667E+009;1.767812818288803E-001;2.235565893352032E-002;-6.283228751271963E-003;-1.099869492463768E-003;
2.404833333333334E+009;1.761104762554169E-001;2.091025002300739E-002;-6.370837800204754E-003;-8.534891530871391E-004;
2.405000000000000E+009;1.756338030099869E-001;1.941602490842342E-002;-6.260995753109455E-003;-5.959759000688791E-004;
2.405166666666667E+009;1.751216948032379E-001;1.787064783275127E-002;-6.260434631258249E-003;-4.002411151304841E-004;
2.405333333333334E+009;1.746095567941666E-001;1.616693474352360E-002;-5.934269633144140E-003;-2.586112532299012E-004;
2.405500000000000E+009;1.743300855159760E-001;1.454301830381155E-002;-5.919768940657377E-003;-3.664778705569916E-005;
2.405666666666667E+009;1.738422662019730E-001;1.273760572075844E-002;-5.881613120436668E-003;1.566043647471815E-004;
2.405833333333334E+009;1.732481122016907E-001;1.087988633662462E-002;-5.823206156492233E-003;4.465293313842267E-004;
2.406000000000000E+009;1.731469184160233E-001;8.873880840837956E-003;-5.728338379412890E-003;4.826571093872190E-004;
2.406166666666667E+009;1.727853566408157E-001;7.021064404398203E-003;-5.696334410458803E-003;7.572257891297340E-004;
2.406333333333334E+009;1.725997924804688E-001;5.037308204919100E-003;-5.560848861932755E-003;8.955323137342930E-004;
2.406500000000000E+009;1.724245697259903E-001;2.939120633527637E-003;-5.398100242018700E-003;9.264089749194682E-004;
2.406666666666667E+009;1.722448021173477E-001;1.001962111331523E-003;-5.449049174785614E-003;1.051448052749038E-003;
2.406833333333334E+009;1.723162829875946E-001;-1.216404954902828E-003;-5.296313669532538E-003;1.208343543112278E-003;
2.407000000000000E+009;1.723861098289490E-001;-3.257873235270381E-003;-5.205419845879078E-003;1.547885127365589E-003;
2.407166666666667E+009;1.726287603378296E-001;-5.363453179597855E-003;-5.189190153032541E-003;1.517630298621953E-003;
2.407333333333334E+009;1.725737899541855E-001;-7.611618842929602E-003;-5.105787888169289E-003;1.766322297044098E-003;
2.407500000000000E+009;1.729618906974793E-001;-9.642372839152813E-003;-5.117248743772507E-003;1.880375435575843E-003;
2.407666666666667E+009;1.730862408876419E-001;-1.174602843821049E-002;-5.057949572801590E-003;2.063593594357371E-003;
2.407833333333334E+009;1.734023392200470E-001;-1.396417804062367E-002;-4.706582985818386E-003;2.151733264327049E-003;
2.408000000000000E+009;1.739034354686737E-001;-1.605595648288727E-002;-4.686865024268627E-003;2.356506185606122E-003;
2.408166666666667E+009;1.742005199193955E-001;-1.806513220071793E-002;-4.653329961001873E-003;2.642100444063544E-003;
2.408333333333334E+009;1.747135072946549E-001;-1.993829011917114E-002;-4.559094551950693E-003;2.869283314794302E-003;
2.408500000000000E+009;1.751496493816376E-001;-2.201187424361706E-002;-4.456744063645601E-003;3.082474227994680E-003;
2.408666666666667E+009;1.756398528814316E-001;-2.382165566086769E-002;-4.277671221643686E-003;3.174021141603589E-003;
2.408833333333334E+009;1.759319305419922E-001;-2.563691884279251E-002;-4.274313803762198E-003;3.415369428694248E-003;
2.409000000000000E+009;1.762907058000565E-001;-2.724781073629856E-002;-4.063728265464306E-003;3.512122202664614E-003;
2.409166666666667E+009;1.767230182886124E-001;-2.880111336708069E-002;-3.574355505406857E-003;3.719729604199529E-003;
2.409333333333334E+009;1.773252040147781E-001;-3.014699369668961E-002;-3.479371313005686E-003;3.768538357689977E-003;
2.409500000000000E+009;1.777253597974777E-001;-3.170458599925041E-002;-3.372101811692119E-003;3.832868533208966E-003;
2.409666666666667E+009;1.781774908304215E-001;-3.278705105185509E-002;-3.224312793463469E-003;3.807557048276067E-003;
2.409833333333334E+009;1.786845028400421E-001;-3.371799364686012E-002;-2.962889615446329E-003;4.055561963468790E-003;
2.410000000000000E+009;1.793616563081741E-001;-3.474010154604912E-002;-2.720295451581478E-003;3.976956941187382E-003;
2.410166666666667E+009;1.796429902315140E-001;-3.563460707664490E-002;-2.649096539244056E-003;4.070321097970009E-003;
2.410333333333334E+009;1.800973713397980E-001;-3.651681169867516E-002;-2.401925157755613E-003;4.219885449856520E-003;
2.410500000000000E+009;1.806159615516663E-001;-3.725407272577286E-002;-2.253405982628465E-003;4.286191426217556E-003;
2.410666666666667E+009;1.810956448316574E-001;-3.789601847529411E-002;-1.988227013498545E-003;4.103597253561020E-003;
2.410833333333334E+009;1.814873218536377E-001;-3.843265026807785E-002;-1.754769473336637E-003;4.222834017127752E-003;
2.411000000000000E+009;1.816869527101517E-001;-3.897455707192421E-002;-1.755038974806666E-003;4.187823273241520E-003;
2.411166666666667E+009;1.818634271621704E-001;-3.956584632396698E-002;-1.545259845443070E-003;4.198661539703608E-003;
2.411333333333334E+009;1.822440922260284E-001;-3.984794765710831E-002;-1.381522859446704E-003;4.299284424632788E-003;
2.411500000000000E+009;1.823732703924179E-001;-4.045340418815613E-002;-1.070319209247828E-003;4.284252412617207E-003;
2.411666666666667E+009;1.821196228265762E-001;-4.082841053605080E-002;-9.798286482691765E-004;4.171608015894890E-003;
2.411833333333334E+009;1.822171658277512E-001;-4.104803502559662E-002;-6.845517200417817E-004;4.212627187371254E-003;
2.412000000000000E+009;1.821953356266022E-001;-4.140904918313026E-002;-5.568260676227510E-004;4.084655083715916E-003;
2.412166666666667E+009;1.817671954631805E-001;-4.179114475846291E-002;-5.615853588096798E-004;3.989670425653458E-003;
2.412333333333334E+009;1.815247982740402E-001;-4.212982580065727E-002;-2.318535844096914E-004;4.081887658685446E-003;
2.412500000000000E+009;1.809196621179581E-001;-4.240524396300316E-002;-2.342675870750099E-004;3.991744015365839E-003;
2.412666666666667E+009;1.804419606924057E-001;-4.286071658134460E-002;-4.348863149061799E-005;3.937460947781801E-003;
2.412833333333334E+009;1.795773059129715E-001;-4.316417500376701E-002;1.040384013322182E-004;3.689683275297284E-003;
2.413000000000000E+009;1.789904534816742E-001;-4.329715296626091E-002;9.831802162807435E-005;3.679719520732760E-003;
2.413166666666667E+009;1.781061738729477E-001;-4.369826987385750E-002;2.927817113231868E-004;3.636689158156514E-003;
2.413333333333334E+009;1.769852340221405E-001;-4.422749951481819E-002;4.970382433384657E-004;3.382944501936436E-003;
2.413500000000000E+009;1.761432439088821E-001;-4.466650262475014E-002;4.349779337644577E-004;3.258440177887678E-003;
2.413666666666667E+009;1.751866489648819E-001;-4.508837312459946E-002;4.067304544150829E-004;3.242363920435309E-003;
2.413833333333334E+009;1.739191114902496E-001;-4.563885182142258E-002;7.334000547416508E-004;3.204235341399908E-003;
2.414000000000000E+009;1.728381067514420E-001;-4.649718850851059E-002;5.892489571124315E-004;2.741351025179029E-003;
2.414166666666667E+009;1.716030687093735E-001;-4.704894870519638E-002;5.503835272975266E-004;2.830919111147523E-003;
2.414333333333334E+009;1.705458909273148E-001;-4.793062433600426E-002;6.291782483458519E-004;2.896222053095698E-003;
2.414500000000000E+009;1.693471521139145E-001;-4.870417714118958E-002;6.107828812673688E-004;2.765137003734708E-003;
2.414666666666667E+009;1.680349111557007E-001;-4.967536404728890E-002;5.235630087554455E-004;2.805287484079599E-003;
2.414833333333334E+009;1.668890565633774E-001;-5.054253712296486E-002;7.437353488057852E-004;2.816104795783758E-003;
2.415000000000000E+009;1.655869334936142E-001;-5.192365869879723E-002;8.361461223103106E-004;2.593324054032564E-003;
2.415166666666667E+009;1.643516272306442E-001;-5.308916792273521E-002;7.535749464295805E-004;2.532550133764744E-003;
2.415333333333334E+009;1.632822751998901E-001;-5.451647192239761E-002;6.659480277448893E-004;2.516170497983694E-003;
2.415500000000000E+009;1.621610522270203E-001;-5.593463033437729E-002;8.733079303056002E-004;2.557863714173436E-003;
2.415666666666667E+009;1.608720868825913E-001;-5.735004693269730E-002;7.226676098071039E-004;2.510985825210810E-003;
2.415833333333334E+009;1.598390936851502E-001;-5.911109596490860E-002;8.209500811062753E-004;2.517774002626538E-003;
2.416000000000000E+009;1.587595194578171E-001;-6.075618788599968E-002;7.063984521664679E-004;2.550663426518440E-003;
2.416166666666667E+009;1.579981148242950E-001;-6.249049305915833E-002;7.588868611492217E-004;2.511978149414063E-003;
2.416333333333334E+009;1.568169742822647E-001;-6.427804380655289E-002;1.066942815668881E-003;2.475660061463714E-003;
2.416500000000000E+009;1.557387560606003E-001;-6.621046364307404E-002;9.968940867111087E-004;2.401273231953383E-003;
2.416666666666667E+009;1.548144668340683E-001;-6.800113618373871E-002;9.791934862732887E-004;2.149141160771251E-003;
2.416833333333334E+009;1.542698889970779E-001;-7.019881159067154E-002;9.984519565477967E-004;2.251973608508706E-003;
2.417000000000000E+009;1.531235724687576E-001;-7.212590426206589E-002;9.991289116442204E-004;2.238658489659429E-003;
2.417166666666667E+009;1.526347696781158E-001;-7.396053522825241E-002;1.035853638313711E-003;2.066193148493767E-003;
2.417333333333334E+009;1.518921107053757E-001;-7.603511214256287E-002;1.050479360856116E-003;2.147256629541516E-003;
2.417500000000000E+009;1.514319479465485E-001;-7.806748896837235E-002;1.051492756232619E-003;2.109886612743139E-003;
2.417666666666667E+009;1.510559767484665E-001;-7.978135347366333E-002;9.596844320185483E-004;2.058853395283222E-003;
2.417833333333334E+009;1.506529897451401E-001;-8.174487948417664E-002;9.633883018977940E-004;2.093642717227340E-003;
2.418000000000000E+009;1.501330882310867E-001;-8.372498303651810E-002;8.922416600398719E-004;2.091818489134312E-003;
2.418166666666667E+009;1.499281227588654E-001;-8.540172129869461E-002;9.886359330266714E-004;2.104499144479632E-003;
2.418333333333334E+009;1.499838680028915E-001;-8.706892281770706E-002;9.050372755154967E-004;2.020598854869604E-003;
2.418500000000000E+009;1.495248675346375E-001;-8.874537050724030E-002;9.965046774595976E-004;2.030129078775644E-003;
2.418666666666667E+009;1.496436893939972E-001;-9.027564525604248E-002;9.564448264427483E-004;2.071327762678266E-003;
2.418833333333334E+009;1.495281159877777E-001;-9.169461578130722E-002;9.122519404627383E-004;2.206915291026235E-003;
2.419000000000000E+009;1.494318395853043E-001;-9.301774203777313E-002;9.796253871172667E-004;2.195561304688454E-003;
2.419166666666667E+009;1.497214138507843E-001;-9.442283958196640E-002;1.022959477268159E-003;2.233041217550635E-003;
2.419333333333334E+009;1.496798098087311E-001;-9.533129632472992E-002;1.057226792909205E-003;2.372683258727193E-003;
2.419500000000000E+009;1.500082015991211E-001;-9.654094278812408E-002;9.294921765103936E-004;2.347858622670174E-003;
2.419666666666667E+009;1.503803431987763E-001;-9.731984883546829E-002;1.166802481748164E-003;2.331393305212259E-003;
2.419833333333334E+009;1.504923403263092E-001;-9.803263843059540E-002;1.180417137220502E-003;2.410578541457653E-003;
2.420000000000000E+009;1.509531289339066E-001;-9.875805675983429E-002;1.229792251251638E-003;2.485616132616997E-003;
2.420166666666667E+009;1.511501073837280E-001;-9.935382008552551E-002;1.382346963509917E-003;2.476111054420471E-003;
2.420333333333334E+009;1.513647288084030E-001;-9.982013702392578E-002;1.386533724144101E-003;2.566936891525984E-003;
2.420500000000000E+009;1.518440991640091E-001;-9.999909996986389E-002;1.658516586758196E-003;2.613409655168653E-003;
2.420666666666667E+009;1.519723385572434E-001;-1.001901552081108E-001;1.666420022957027E-003;2.662102458998561E-003;
2.420833333333334E+009;1.524013280868530E-001;-1.004034429788590E-001;1.836624462157488E-003;2.641157014295459E-003;
2.421000000000000E+009;1.526802033185959E-001;-1.005789265036583E-001;1.885238336399198E-003;2.651323331519961E-003;
2.421166666666667E+009;1.528741717338562E-001;-1.004142984747887E-001;2.175661269575357E-003;2.650893526151776E-003;
2.421333333333334E+009;1.530230045318604E-001;-1.006145179271698E-001;2.263719914481044E-003;2.625192515552044E-003;
2.421500000000000E+009;1.530735194683075E-001;-1.003089323639870E-001;2.471116371452808E-003;2.516980050131679E-003;
2.421666666666667E+009;1.531312763690949E-001;-1.001931652426720E-001;2.529995981603861E-003;2.679585944861174E-003;
2.421833333333334E+009;1.532067656517029E-001;-9.999351203441620E-002;2.875898964703083E-003;2.630092902109027E-003;
2.422000000000000E+009;1.528216302394867E-001;-9.989412873983383E-002;2.913805190473795E-003;2.481098053976893E-003;
2.422166666666667E+009;1.526793539524078E-001;-9.978649020195007E-002;3.230434842407703E-003;2.319225575774908E-003;
2.422333333333334E+009;1.524743288755417E-001;-9.921422600746155E-002;3.350739600136876E-003;2.245570998638868E-003;
2.422500000000000E+009;1.516109406948090E-001;-9.874298423528671E-002;3.361430717632175E-003;2.085350221022964E-003;
2.422666666666667E+009;1.511500775814056E-001;-9.862720221281052E-002;3.494987497106195E-003;1.916876528412104E-003;
2.422833333333334E+009;1.503172069787979E-001;-9.818524122238159E-002;3.660603892058134E-003;1.672027399763465E-003;
2.423000000000000E+009;1.495929807424545E-001;-9.771509468555450E-002;3.794185584411025E-003;1.594372908584774E-003;
2.423166666666667E+009;1.486200988292694E-001;-9.744756668806076E-002;3.789280541241169E-003;1.512787886895239E-003;
2.423333333333334E+009;1.477181017398834E-001;-9.694527089595795E-002;3.813800401985645E-003;1.417862717062235E-003;
2.423500000000000E+009;1.465243548154831E-001;-9.673953056335449E-002;3.836826886981726E-003;1.081736292690039E-003;
2.423666666666667E+009;1.453593969345093E-001;-9.651562571525574E-002;3.908590413630009E-003;9.521003812551498E-004;
2.423833333333334E+009;1.441357284784317E-001;-9.621005505323410E-002;3.963422030210495E-003;7.668249309062958E-004;
2.424000000000000E+009;1.427449285984039E-001;-9.569668769836426E-002;3.888120409101248E-003;7.900979835540056E-004;
2.424166666666667E+009;1.413667947053909E-001;-9.556937217712402E-002;3.786780172958970E-003;6.925720954313874E-004;
2.424333333333334E+009;1.398750543594360E-001;-9.542667865753174E-002;3.957867622375488E-003;4.584542184602469E-004;
2.424500000000000E+009;1.385095417499542E-001;-9.559417515993118E-002;4.016601946204901E-003;4.262870643287897E-004;
2.424666666666667E+009;1.371446549892426E-001;-9.543991088867188E-002;3.971378784626722E-003;2.418015501461923E-004;
2.424833333333334E+009;1.354179233312607E-001;-9.571284055709839E-002;4.073152784258127E-003;2.653354604262859E-004;
2.425000000000000E+009;1.340608149766922E-001;-9.601561725139618E-002;3.932060208171606E-003;1.665596646489576E-004;
2.425166666666667E+009;1.322652250528336E-001;-9.655525535345078E-002;4.097932949662209E-003;-1.350874517811462E-004;
2.425333333333334E+009;1.309171766042709E-001;-9.690148383378983E-002;4.087031818926334E-003;-2.396707859588787E-004;
2.425500000000000E+009;1.295130401849747E-001;-9.759495407342911E-002;4.129093140363693E-003;-4.154421912971884E-004;
2.425666666666667E+009;1.276925802230835E-001;-9.840439260005951E-002;4.056353587657213E-003;-5.307364044710994E-004;
2.425833333333334E+009;1.263861805200577E-001;-9.925778210163117E-002;4.241559188812971E-003;-7.612599292770028E-004;
2.426000000000000E+009;1.249562874436379E-001;-1.002374440431595E-001;4.056826699525118E-003;-7.947040721774101E-004;
2.426166666666667E+009;1.237189248204231E-001;-1.014138907194138E-001;3.968971781432629E-003;-1.078678644262254E-003;
2.426333333333334E+009;1.222713887691498E-001;-1.026843264698982E-001;3.969443496316671E-003;-1.197809935547411E-003;
2.426500000000000E+009;1.211973428726196E-001;-1.038444936275482E-001;3.993584308773279E-003;-1.303837401792407E-003;
2.426666666666667E+009;1.200539767742157E-001;-1.051326841115952E-001;3.889529732987285E-003;-1.308842562139034E-003;
2.426833333333334E+009;1.188545674085617E-001;-1.067552417516708E-001;3.827206557616592E-003;-1.367905759252608E-003;
2.427000000000000E+009;1.177224814891815E-001;-1.083537042140961E-001;3.783493302762508E-003;-1.616366440430284E-003;
2.427166666666667E+009;1.168145388364792E-001;-1.098675802350044E-001;3.658898873254657E-003;-1.702256617136300E-003;
2.427333333333334E+009;1.158472001552582E-001;-1.116369962692261E-001;3.540755715221167E-003;-1.801603473722935E-003;
2.427500000000000E+009;1.151798069477081E-001;-1.132853329181671E-001;3.775894409045577E-003;-1.914758933708072E-003;
2.427666666666667E+009;1.143243834376335E-001;-1.150701567530632E-001;3.557023592293263E-003;-2.181340474635363E-003;
2.427833333333334E+009;1.137600243091583E-001;-1.168159916996956E-001;3.495722077786923E-003;-2.197517547756434E-003;
