# Version 1.00
#
freq[Hz];re:Trc1_S11;im:Trc1_S11;re:Trc2_S21;im:Trc2_S21;
2.400000000000000E+009;1.557094454765320E-001;1.061267554759979E-001;-7.366054342128336E-004;-1.102547626942396E-003;
2.400166666666667E+009;1.557577997446060E-001;1.032993793487549E-001;-3.216515760868788E-004;-1.872141961939633E-003;
2.400333333333334E+009;1.551294028759003E-001;1.012467220425606E-001;-1.101036439649761E-003;-8.635750273242593E-004;
2.400500000000000E+009;1.554364413022995E-001;9.821555018424988E-002;-1.277718925848603E-003;-1.693163299933076E-003;
2.400666666666667E+009;1.548074334859848E-001;9.587890654802322E-002;-2.016864484176040E-003;-8.127863402478397E-004;
2.400833333333334E+009;1.546954512596130E-001;9.325567632913590E-002;-2.127833664417267E-003;3.384650335647166E-004;
2.401000000000000E+009;1.553088873624802E-001;9.036034345626831E-002;-1.611616346053779E-003;-9.842135477811098E-004;
2.401166666666667E+009;1.553664654493332E-001;8.749166131019592E-002;-1.640848233364523E-003;-8.769877022132278E-004;
2.401333333333334E+009;1.555518060922623E-001;8.476500958204269E-002;-1.854261965490878E-003;-8.730815607123077E-004;
2.401500000000000E+009;1.561004072427750E-001;8.180806040763855E-002;-1.777425175532699E-003;-6.107254303060472E-004;
2.401666666666667E+009;1.562166213989258E-001;7.887650281190872E-002;-2.092640614137054E-003;-7.132686441764236E-004;
2.401833333333334E+009;1.569163799285889E-001;7.625761628150940E-002;-2.032373799011111E-003;-2.939511614385992E-004;
2.402000000000000E+009;1.576086133718491E-001;7.331450283527374E-002;-2.323484979569912E-003;-3.220681101083756E-004;
2.402166666666667E+009;1.584822684526444E-001;7.083573192358017E-002;-2.425455953925848E-003;-1.737846178002656E-004;
2.402333333333334E+009;1.593804806470871E-001;6.808196753263474E-002;-2.559240674600005E-003;-6.741107790730894E-005;
2.402500000000000E+009;1.606939435005188E-001;6.558074802160263E-002;-3.132173093035817E-003;8.827509736875072E-005;
2.402666666666667E+009;1.617998629808426E-001;6.324799358844757E-002;-3.531471593305469E-003;7.881935744080693E-005;
2.402833333333334E+009;1.628135442733765E-001;6.082566082477570E-002;-2.355592092499137E-003;5.819010548293591E-004;
2.403000000000000E+009;1.643305569887161E-001;5.841170251369476E-002;-2.786591881886125E-003;6.869637290947139E-004;
2.403166666666667E+009;1.660127639770508E-001;5.605795606970787E-002;-2.890579402446747E-003;1.539405202493072E-003;
2.403333333333334E+009;1.673529297113419E-001;5.415427312254906E-002;-2.951287431642413E-003;8.935571531765163E-004;
2.403500000000000E+009;1.690226197242737E-001;5.201689526438713E-002;-2.316603669896722E-003;1.367423450574279E-003;
2.403666666666667E+009;1.708476990461350E-001;5.029131472110748E-002;-2.343030646443367E-003;1.438756124116480E-003;
2.403833333333334E+009;1.725306212902069E-001;4.847887158393860E-002;-2.351191127672792E-003;1.094377133995295E-003;
2.404000000000000E+009;1.738443225622177E-001;4.670763388276100E-002;-1.586930011399090E-003;2.048127353191376E-003;
2.404166666666667E+009;1.756318062543869E-001;4.505031928420067E-002;-1.621612114831805E-003;2.049593022093177E-003;
2.404333333333334E+009;1.772309988737106E-001;4.366765543818474E-002;-1.362012582831085E-003;2.017848193645477E-003;
2.404500000000000E+009;1.789317131042481E-001;4.217498004436493E-002;-1.216523698531091E-003;2.141264500096440E-003;
2.404666666666667E+009;1.804834306240082E-001;4.118006676435471E-002;-1.093437778763473E-003;2.234558109194040E-003;
2.404833333333334E+009;1.821009665727615E-001;4.012808576226234E-002;-8.997495751827955E-004;2.238380489870906E-003;
2.405000000000000E+009;1.835642606019974E-001;3.956472501158714E-002;-7.056642789393663E-004;2.136836061254144E-003;
2.405166666666667E+009;1.850271224975586E-001;3.883468732237816E-002;-7.521260995417833E-004;2.037576166912913E-003;
2.405333333333334E+009;1.864457130432129E-001;3.835107386112213E-002;-5.946272285655141E-004;2.205586293712258E-003;
2.405500000000000E+009;1.878357827663422E-001;3.782726079225540E-002;-4.063705273438245E-004;2.082849619910121E-003;
2.405666666666667E+009;1.890330612659454E-001;3.764813020825386E-002;-4.177768714725971E-004;1.979490742087364E-003;
2.405833333333334E+009;1.902635246515274E-001;3.719667717814446E-002;-3.044661425519735E-004;2.002669265493751E-003;
2.406000000000000E+009;1.912690401077271E-001;3.706961125135422E-002;-2.212525723734871E-004;1.945816096849740E-003;
2.406166666666667E+009;1.923239827156067E-001;3.696240484714508E-002;-7.234826625790447E-005;2.120305318385363E-003;
2.406333333333334E+009;1.931679844856262E-001;3.714859113097191E-002;-1.296194532187656E-004;2.084659179672599E-003;
2.406500000000000E+009;1.938383132219315E-001;3.712444379925728E-002;5.910055551794358E-005;2.147250808775425E-003;
2.406666666666667E+009;1.945215463638306E-001;3.723784163594246E-002;1.523957034805790E-004;2.126355655491352E-003;
2.406833333333334E+009;1.950220316648483E-001;3.732556477189064E-002;3.134699654765427E-004;2.076793927699328E-003;
2.407000000000000E+009;1.953020542860031E-001;3.757285326719284E-002;4.172977933194488E-004;1.938622095622122E-003;
2.407166666666667E+009;1.957387477159500E-001;3.745834156870842E-002;6.891127559356391E-004;2.023479901254177E-003;
2.407333333333334E+009;1.956575214862824E-001;3.767190873622894E-002;7.611845503561199E-004;1.885940087959170E-003;
2.407500000000000E+009;1.955785602331162E-001;3.777084127068520E-002;7.855551084503532E-004;1.789655419997871E-003;
2.407666666666667E+009;1.956286132335663E-001;3.770214319229126E-002;7.267694454640150E-004;1.671332749538124E-003;
2.407833333333334E+009;1.950499564409256E-001;3.759141638875008E-002;1.041266252286732E-003;1.343583688139916E-003;
2.408000000000000E+009;1.950606107711792E-001;3.751564025878906E-002;1.088916906155646E-003;1.366650103591383E-003;
2.408166666666667E+009;1.942988336086273E-001;3.720222786068916E-002;1.115833641961217E-003;1.196604105643928E-003;
2.408333333333334E+009;1.939668655395508E-001;3.673443198204041E-002;1.134095946326852E-003;1.237172400578857E-003;
2.408500000000000E+009;1.932488083839417E-001;3.636284917593002E-002;1.031686784699559E-003;1.135449740104377E-003;
2.408666666666667E+009;1.926219612360001E-001;3.591833636164665E-002;1.101680682040751E-003;8.939064573496580E-004;
2.408833333333334E+009;1.918251365423203E-001;3.519441932439804E-002;1.005999976769090E-003;8.031184552237392E-004;
2.409000000000000E+009;1.909376531839371E-001;3.428805619478226E-002;1.125052454881370E-003;7.295420509763062E-004;
2.409166666666667E+009;1.900915652513504E-001;3.335187211632729E-002;1.063460134901106E-003;6.335913785733283E-004;
2.409333333333334E+009;1.890261620283127E-001;3.235323354601860E-002;1.094476319849491E-003;5.519759724847972E-004;
2.409500000000000E+009;1.879310309886932E-001;3.116889484226704E-002;8.222400792874396E-004;5.456771468743682E-004;
2.409666666666667E+009;1.870519369840622E-001;2.968117035925388E-002;8.746571256779134E-004;4.476928152143955E-004;
2.409833333333334E+009;1.859165281057358E-001;2.822983823716641E-002;9.144013165496290E-004;5.395336193032563E-004;
2.410000000000000E+009;1.850034594535828E-001;2.644846774637699E-002;8.421908132731915E-004;5.164872272871435E-004;
2.410166666666667E+009;1.838183999061585E-001;2.464863099157810E-002;6.891838274896145E-004;4.770066298078746E-004;
2.410333333333334E+009;1.830432265996933E-001;2.293234877288342E-002;7.049749838188291E-004;4.682699800468981E-004;
2.410500000000000E+009;1.819781363010407E-001;2.103717438876629E-002;7.472016732208431E-004;5.460483953356743E-004;
2.410666666666667E+009;1.810348182916641E-001;1.881210878491402E-002;6.057274295017123E-004;6.020331638865173E-004;
2.410833333333334E+009;1.802611202001572E-001;1.667816936969757E-002;7.705297321081162E-004;3.816118114627898E-004;
2.411000000000000E+009;1.795217394828796E-001;1.436998695135117E-002;7.506306283175945E-004;3.911289968527854E-004;
2.411166666666667E+009;1.788926124572754E-001;1.222763396799564E-002;7.229279726743698E-004;4.827715456485748E-004;
2.411333333333334E+009;1.783634424209595E-001;9.564817883074284E-003;7.886699750088155E-004;3.946612123399973E-004;
2.411500000000000E+009;1.777694076299667E-001;7.316211238503456E-003;7.466485840268433E-004;2.744989469647408E-004;
2.411666666666667E+009;1.778671890497208E-001;5.006490740925074E-003;7.186353323049843E-004;2.145950857084245E-004;
2.411833333333334E+009;1.773393601179123E-001;2.777959220111370E-003;7.005659863352776E-004;1.457536272937432E-004;
2.412000000000000E+009;1.775888800621033E-001;-1.258949487237260E-004;6.491865497082472E-004;1.894035667646676E-004;
2.412166666666667E+009;1.778777837753296E-001;-2.041610889136791E-003;5.958660622127354E-004;4.651490962714888E-005;
2.412333333333334E+009;1.779045015573502E-001;-4.789756145328283E-003;4.359583253972232E-004;7.551962335128337E-005;
2.412500000000000E+009;1.783303320407867E-001;-7.102499715983868E-003;4.822868795599788E-004;5.788735143141821E-005;
2.412666666666667E+009;1.787353157997131E-001;-9.605088271200657E-003;3.697526699397713E-004;1.898533082567155E-004;
2.412833333333334E+009;1.796688884496689E-001;-1.195066329091787E-002;3.914998087566346E-004;1.376757427351549E-004;
2.413000000000000E+009;1.803683042526245E-001;-1.437492389231920E-002;1.036838730215095E-004;5.337716720532626E-005;
2.413166666666667E+009;1.812238693237305E-001;-1.661677099764347E-002;2.144956088159233E-004;1.431871933164075E-004;
2.413333333333334E+009;1.823394745588303E-001;-1.885686069726944E-002;2.051570190815255E-004;7.958914648042992E-005;
2.413500000000000E+009;1.829731464385986E-001;-2.119686454534531E-002;2.118802367476746E-004;2.191866078646854E-004;
2.413666666666667E+009;1.843543648719788E-001;-2.329718880355358E-002;1.238685508724302E-004;3.624273522291333E-004;
2.413833333333334E+009;1.855266839265823E-001;-2.521389350295067E-002;9.002650767797604E-005;3.329599276185036E-004;
2.414000000000000E+009;1.865387707948685E-001;-2.723888680338860E-002;2.468023740220815E-004;4.432129499036819E-004;
2.414166666666667E+009;1.879586577415466E-001;-2.900158800184727E-002;3.048932703677565E-004;5.914642824791372E-004;
2.414333333333334E+009;1.890437901020050E-001;-3.098527900874615E-002;4.852907441090792E-004;6.470062653534114E-004;
2.414500000000000E+009;1.903786063194275E-001;-3.250199928879738E-002;4.477683396544308E-004;5.279633332975209E-004;
2.414666666666667E+009;1.915402412414551E-001;-3.385571017861366E-002;4.441806522663683E-004;4.988209111616015E-004;
2.414833333333334E+009;1.927049010992050E-001;-3.526666760444641E-002;5.109197227284312E-004;5.375166074372828E-004;
2.415000000000000E+009;1.938675791025162E-001;-3.658305481076241E-002;5.188002833165228E-004;6.007729098200798E-004;
2.415166666666667E+009;1.952774226665497E-001;-3.759403526782990E-002;5.121160065755248E-004;5.810675211250782E-004;
2.415333333333334E+009;1.963238716125488E-001;-3.858842328190804E-002;5.009556771256030E-004;4.923948436044157E-004;
2.415500000000000E+009;1.975369602441788E-001;-3.920843452215195E-002;5.346793332137168E-004;5.559070268645883E-004;
2.415666666666667E+009;1.985270828008652E-001;-4.005610570311546E-002;5.526988534256816E-004;3.027798957191408E-004;
2.415833333333334E+009;1.993512660264969E-001;-4.066727682948113E-002;5.646368954330683E-004;6.072833202779293E-004;
2.416000000000000E+009;2.002120465040207E-001;-4.121271148324013E-002;5.612479872070253E-004;7.202702108770609E-004;
2.416166666666667E+009;2.009218782186508E-001;-4.179918393492699E-002;6.133069400675595E-004;7.071411819197238E-004;
2.416333333333334E+009;2.015089839696884E-001;-4.202180728316307E-002;6.735622300766408E-004;6.894537946209312E-004;
2.416500000000000E+009;2.019708454608917E-001;-4.221482574939728E-002;7.007881067693234E-004;6.387789035215974E-004;
2.416666666666667E+009;2.022843062877655E-001;-4.254684224724770E-002;7.026357925496995E-004;6.808509933762252E-004;
2.416833333333334E+009;2.025072872638702E-001;-4.242994636297226E-002;9.770916076377034E-004;7.969596190378070E-004;
2.417000000000000E+009;2.025605142116547E-001;-4.263171181082726E-002;1.125229871831834E-003;7.162758847698569E-004;
2.417166666666667E+009;2.022891640663147E-001;-4.242696985602379E-002;1.125804148614407E-003;7.356493151746690E-004;
2.417333333333334E+009;2.021453976631165E-001;-4.234818369150162E-002;1.191055169329047E-003;7.129311561584473E-004;
2.417500000000000E+009;2.018562555313110E-001;-4.212675616145134E-002;1.299898838624358E-003;6.097114528529346E-004;
2.417666666666667E+009;2.013545334339142E-001;-4.195449873805046E-002;1.550870714709163E-003;5.061316187493503E-004;
2.417833333333334E+009;2.009349763393402E-001;-4.171145707368851E-002;1.565878861583769E-003;4.249641497153789E-004;
2.418000000000000E+009;2.003443241119385E-001;-4.139557480812073E-002;1.620093826204538E-003;3.096419677603990E-004;
2.418166666666667E+009;1.995592713356018E-001;-4.141442477703095E-002;1.637652865611017E-003;1.487999834353104E-004;
2.418333333333334E+009;1.986185610294342E-001;-4.120870679616928E-002;1.535927527584136E-003;1.336248969892040E-004;
2.418500000000000E+009;1.975608468055725E-001;-4.121382161974907E-002;1.586000784300268E-003;-1.393816346535459E-004;
2.418666666666667E+009;1.966952681541443E-001;-4.110519215464592E-002;1.668898388743401E-003;-1.263872854906367E-005;
2.418833333333334E+009;1.955111920833588E-001;-4.133382812142372E-002;1.749359653331339E-003;-2.816709165927023E-004;
2.419000000000000E+009;1.942137479782105E-001;-4.164144769310951E-002;1.711558084934950E-003;-3.109315584879369E-004;
2.419166666666667E+009;1.928972303867340E-001;-4.185960069298744E-002;1.614663051441312E-003;-4.363198531791568E-004;
2.419333333333334E+009;1.916958987712860E-001;-4.229949414730072E-002;1.569637563079596E-003;-3.855194954667240E-004;
2.419500000000000E+009;1.902200430631638E-001;-4.290927574038506E-002;1.560753094963729E-003;-5.591819062829018E-004;
2.419666666666667E+009;1.885036379098892E-001;-4.363048076629639E-002;1.485035638324916E-003;-5.781521322205663E-004;
2.419833333333334E+009;1.869319081306458E-001;-4.419898614287376E-002;1.256410265341401E-003;-6.787598249502480E-004;
2.420000000000000E+009;1.853906065225601E-001;-4.520874097943306E-002;1.315270434133709E-003;-7.232176139950752E-004;
2.420166666666667E+009;1.837070137262344E-001;-4.614028707146645E-002;1.343851676210761E-003;-7.474243757314980E-004;
2.420333333333334E+009;1.821548491716385E-001;-4.734233394265175E-002;1.160429324954748E-003;-6.802923744544387E-004;
2.420500000000000E+009;1.803480535745621E-001;-4.861724004149437E-002;1.176387420855463E-003;-8.456150535494089E-004;
2.420666666666667E+009;1.788787990808487E-001;-4.991732910275459E-002;1.269311876967549E-003;-9.440835565328598E-004;
2.420833333333334E+009;1.772128939628601E-001;-5.151711776852608E-002;1.333547523245215E-003;-8.471679757349193E-004;
2.421000000000000E+009;1.756363660097122E-001;-5.288058519363403E-002;1.359177869744599E-003;-9.486461640335619E-004;
2.421166666666667E+009;1.744797229766846E-001;-5.476051568984985E-002;1.444161054678261E-003;-1.016459660604596E-003;
2.421333333333334E+009;1.725384443998337E-001;-5.638804286718369E-002;1.261203666217625E-003;-1.200092723593116E-003;
2.421500000000000E+009;1.713031828403473E-001;-5.822576582431793E-002;1.253844937309623E-003;-1.258465927094221E-003;
2.421666666666667E+009;1.701241284608841E-001;-6.013010442256928E-002;1.600687624886632E-003;-1.282321405597031E-003;
2.421833333333334E+009;1.689815074205399E-001;-6.208422034978867E-002;1.221794402226806E-003;-1.482008490711451E-003;
2.422000000000000E+009;1.678972542285919E-001;-6.404882669448853E-002;1.269257161766291E-003;-1.732854754664004E-003;
2.422166666666667E+009;1.671658754348755E-001;-6.618925929069519E-002;1.158236293122172E-003;-1.850383472628892E-003;
2.422333333333334E+009;1.660106480121613E-001;-6.816903501749039E-002;1.029674196615815E-003;-1.996563049033284E-003;
2.422500000000000E+009;1.652563512325287E-001;-7.007436454296112E-002;9.059390868060291E-004;-2.037665108218789E-003;
2.422666666666667E+009;1.646928936243057E-001;-7.230445742607117E-002;6.857569096609950E-004;-2.023176057264209E-003;
2.422833333333334E+009;1.644265502691269E-001;-7.437470555305481E-002;6.350882467813790E-004;-2.169502200558782E-003;
2.423000000000000E+009;1.637927740812302E-001;-7.640219479799271E-002;4.372724797576666E-004;-2.254971303045750E-003;
2.423166666666667E+009;1.635230630636215E-001;-7.828094810247421E-002;3.574411384761334E-004;-2.348381327465177E-003;
2.423333333333334E+009;1.632570326328278E-001;-8.045320212841034E-002;-1.619368849787861E-004;-2.335997764021158E-003;
2.423500000000000E+009;1.632555425167084E-001;-8.231618255376816E-002;-1.450852869311348E-004;-2.352469367906451E-003;
2.423666666666667E+009;1.633200347423554E-001;-8.425302803516388E-002;-4.897848702967167E-004;-2.385026309639216E-003;
2.423833333333334E+009;1.632163822650909E-001;-8.599715679883957E-002;-5.422102403827012E-004;-2.042456530034542E-003;
2.424000000000000E+009;1.633554697036743E-001;-8.786208182573319E-002;-8.271919796243310E-004;-2.216207096353173E-003;
2.424166666666667E+009;1.635240912437439E-001;-8.953789621591568E-002;-8.200562442652881E-004;-1.997394487261772E-003;
2.424333333333334E+009;1.637222021818161E-001;-9.118594974279404E-002;-1.005953876301646E-003;-1.928982674144208E-003;
2.424500000000000E+009;1.640573889017105E-001;-9.284312278032303E-002;-1.211394788697362E-003;-1.902258605696261E-003;
2.424666666666667E+009;1.641807705163956E-001;-9.427537024021149E-002;-1.026398618705571E-003;-1.828807522542775E-003;
2.424833333333334E+009;1.649605482816696E-001;-9.551849216222763E-002;-1.311669591814280E-003;-1.548723783344030E-003;
2.425000000000000E+009;1.651701927185059E-001;-9.683140367269516E-002;-1.272809691727161E-003;-1.418178318999708E-003;
2.425166666666667E+009;1.655802726745606E-001;-9.794706851243973E-002;-1.410031225532293E-003;-1.283820485696197E-003;
2.425333333333334E+009;1.659483760595322E-001;-9.875728189945221E-002;-1.422503963112831E-003;-1.212252420373261E-003;
2.425500000000000E+009;1.663654744625092E-001;-9.985152631998062E-002;-1.557986484840512E-003;-1.149556133896112E-003;
2.425666666666667E+009;1.666585355997086E-001;-1.004452332854271E-001;-1.645679702050984E-003;-1.040201634168625E-003;
2.425833333333334E+009;1.670453250408173E-001;-1.013990640640259E-001;-1.709637814201415E-003;-9.198287734761834E-004;
2.426000000000000E+009;1.674805730581284E-001;-1.017471700906754E-001;-1.768625690601766E-003;-7.451074197888374E-004;
2.426166666666667E+009;1.679478287696838E-001;-1.022740900516510E-001;-1.831500791013241E-003;-6.824189331382513E-004;
2.426333333333334E+009;1.679812073707581E-001;-1.028519421815872E-001;-1.789100118912756E-003;-5.420488305389881E-004;
2.426500000000000E+009;1.683072298765183E-001;-1.029850468039513E-001;-1.721417182125151E-003;-4.914721357636154E-004;
2.426666666666667E+009;1.685218960046768E-001;-1.033343747258186E-001;-1.724852249026299E-003;-3.212773008272052E-004;
2.426833333333334E+009;1.688304096460342E-001;-1.037015020847321E-001;-1.628583064302802E-003;-1.863203651737422E-004;
2.427000000000000E+009;1.686995178461075E-001;-1.038484126329422E-001;-1.724856672808528E-003;-9.234737808583304E-005;
2.427166666666667E+009;1.687616109848023E-001;-1.038762927055359E-001;-1.545860315673053E-003;9.592861897544935E-005;
2.427333333333334E+009;1.686037778854370E-001;-1.040681302547455E-001;-1.608005026355386E-003;2.131214423570782E-004;
2.427500000000000E+009;1.684304177761078E-001;-1.042090132832527E-001;-1.518777571618557E-003;3.945750650018454E-004;
2.427666666666667E+009;1.679920405149460E-001;-1.042721867561340E-001;-1.436008606106043E-003;3.939813759643585E-004;
2.427833333333334E+009;1.676726341247559E-001;-1.045206263661385E-001;-1.440002233721316E-003;4.031482094433159E-004;
