# Hz S RI R 
2400000000.0000000000 0.173357158899307306487713731258 0.049512613564729690551757812500 0.004331800621002913388724042676 -0.002844629343599081039428710938 0 0 0 0 
2400166666.6666665077 0.173829957842826787750567518742 0.049050059169530868530273437500 0.004168948158621788024902343750 -0.003124138573184608979466103662 0 0 0 0 
2400333333.3333334923 0.174183666706085205078125000000 0.048153597861528396606445312500 0.004060167353600263595581054688 -0.003312584944069385962245322119 0 0 0 0 
2400500000.0000000000 0.174688696861267089843750000000 0.047551479190587997436523437500 0.003832829184830189184901572119 -0.003491765120998024940490722656 0 0 0 0 
2400666666.6666665077 0.175089076161384610275106865629 0.046684578061103820800781250000 0.003844663035124539895298623193 -0.003770175855606793923618935693 0 0 0 0 
2400833333.3333334923 0.175277560949325589279013115629 0.046341393142938606952707658593 0.003381217597052454948425292969 -0.003783307969570159912109375000 0 0 0 0 
2401000000.0000000000 0.175376445055007906814736884371 0.045551922172307968139648437500 0.003397735534235835075378417969 -0.004107612650841475400442792676 0 0 0 0 
2401166666.6666665077 0.175679713487625094314736884371 0.044758111238479607318918596093 0.003177513834089041189906454932 -0.004046355839818716049194335938 0 0 0 0 
2401333333.3333334923 0.175497591495513888260049384371 0.044051215052604682231862653907 0.002972922986373304887058877100 -0.004096610937267541885375976562 0 0 0 0 
2401500000.0000000000 0.175888389348983792404013115629 0.043477468192577362060546875000 0.002711741952225565910339355469 -0.004376615397632122039794921875 0 0 0 0 
2401666666.6666665077 0.175503522157669095138388115629 0.042745530605316162109375000000 0.002563418122008442878723144531 -0.004308853764086961746215820312 0 0 0 0 
2401833333.3333334923 0.175544857978820800781250000000 0.041989970952272422100026716407 0.002371965209022163911106728662 -0.004481806885451078414916992188 0 0 0 0 
2402000000.0000000000 0.175298586487770108321981865629 0.041027992963790886615793596093 0.002074202755466103987452841650 -0.004519716370850802335257245801 0 0 0 0 
2402166666.6666665077 0.175201386213302612304687500000 0.039943385869264602661132812500 0.001958889188244938850402832031 -0.004396575503051280975341796875 0 0 0 0 
2402333333.3333334923 0.175106197595596313476562500000 0.039055325090885162353515625000 0.001733663375489413955091166919 -0.004520887974649667739868164062 0 0 0 0 
2402500000.0000000000 0.174929380416870089431924384371 0.038105282932519912719726562500 0.001476755831390619061113667065 -0.004531700164079666137695312500 0 0 0 0 
2402666666.6666665077 0.174707904458045987228231865629 0.036955785006284706806223283593 0.001142183551564813093898154150 -0.004483338911086320877075195312 0 0 0 0 
2402833333.3333334923 0.174385577440261813064736884371 0.035815700888633728027343750000 0.001033875392749906019923544775 -0.004388063214719296369070722363 0 0 0 0 
2403000000.0000000000 0.174148365855217007736044365629 0.034419529139995581890065778907 0.000898690195754170417785644531 -0.004339136183261871337890625000 0 0 0 0 
2403166666.6666665077 0.173843324184417696853799384371 0.033259350806474692607839216407 0.000539949047379195690155029297 -0.004212753847241401672363281250 0 0 0 0 
2403333333.3333334923 0.173640862107276888748330634371 0.031964521855115890502929687500 0.000395271956222131902545374738 -0.004107636399567127227783203125 0 0 0 0 
2403500000.0000000000 0.173077836632728604415731865629 0.030165771022438999521275704296 0.000229676865274086594581604004 -0.004164006561040878295898437500 0 0 0 0 
2403666666.6666665077 0.172520980238914489746093750000 0.028581798076629638671875000000 0.000223101291339844492360791617 -0.003910980653017759323120117188 0 0 0 0 
2403833333.3333334923 0.172399654984474209884481865629 0.026819502934813499450683593750 0.000122531506349332603529253549 -0.003873242298141121864318847656 0 0 0 0 
2404000000.0000000000 0.172009244561195401290731865629 0.025109913200139999389648437500 0.000085711639258079230785369873 -0.003747442504391074180603027344 0 0 0 0 
2404166666.6666665077 0.171480596065521212478799384371 0.023210378363728519784947579296 -0.000173289736267179304927271710 -0.003520181169733405113220214844 0 0 0 0 
2404333333.3333334923 0.171173110604286193847656250000 0.021317183971405029296875000000 -0.000316459656460210680961608887 -0.003420531982555985884425497900 0 0 0 0 
2404500000.0000000000 0.170828595757484408279580634371 0.019276179373264309274693673046 -0.000348894245689734816551208496 -0.003396406071260571913478232275 0 0 0 0 
2404666666.6666665077 0.170512527227401705642861884371 0.017527049407362941396693045704 -0.000355605268850922584533691406 -0.003130926983430982069728232275 0 0 0 0 
2404833333.3333334923 0.170441895723342895507812500000 0.015540100634098049509068673046 -0.000238767199334688511773786002 -0.003121261484920978979823447119 0 0 0 0 
2405000000.0000000000 0.170145422220230102539062500000 0.013475597836077209817906563671 -0.000279508210951462388038635254 -0.003067444544285535812377929688 0 0 0 0 
2405166666.6666665077 0.170192733407020596603231865629 0.011475296691060069692591483204 -0.000383362028514966422885340558 -0.002998667536303400993347167969 0 0 0 0 
2405333333.3333334923 0.169896930456161499023437500000 0.009349671192467212677001953125 -0.000289960938971489722102564679 -0.003005167003720999197718954932 0 0 0 0 
2405500000.0000000000 0.170065477490425109863281250000 0.007648569997400045394897460938 -0.000383076578145846724510192871 -0.002653883537277578873875283350 0 0 0 0 
2405666666.6666665077 0.170172125101089505294638115629 0.005426726769655942916870117188 -0.000247080839471891522407531738 -0.002703133504837750954868935693 0 0 0 0 
2405833333.3333334923 0.170379832386970492263955634371 0.003589680418372153802158974756 -0.000189880011021159589290618896 -0.002712039276957511901855468750 0 0 0 0 
2406000000.0000000000 0.170669287443161010742187500000 0.001272712368518114089965820312 -0.000219238063436932888910016470 -0.002683640690520406203029013525 0 0 0 0 
2406166666.6666665077 0.170721620321273803710937500000 -0.000543641101103276014328002930 -0.000195770218851976096630096436 -0.002684720093384385108947753906 0 0 0 0 
2406333333.3333334923 0.171350583434104891678018134371 -0.002630903152748941941502236475 -0.000096247662440873682498931885 -0.002775395521894096894505166162 0 0 0 0 
2406500000.0000000000 0.171774491667747497558593750000 -0.004643553402274847030639648438 -0.000127182996948249610975542612 -0.002740905387327075004577636719 0 0 0 0 
2406666666.6666665077 0.171983256936073303222656250000 -0.006392031442373991012573242188 -0.000056630939070601023059298856 -0.002624670509248971939086914062 0 0 0 0 
2406833333.3333334923 0.172569021582603510100994981258 -0.008339485153555870056152343750 0.000051440347306197509169578552 -0.002574014710262417793273925781 0 0 0 0 
2407000000.0000000000 0.173139140009880093673544365629 -0.010367351584136489522913748829 -0.000107262800156604498624801636 -0.002785813529044390158412314307 0 0 0 0 
2407166666.6666665077 0.174078091979026794433593750000 -0.011904728598892690485944179102 0.000022202719264896589925492934 -0.002932647475972772078273154150 0 0 0 0 
2407333333.3333334923 0.174592465162277193924111884371 -0.013830231502652170008649257227 -0.000071987262344919145107269287 -0.002963716164231299920323037256 0 0 0 0 
2407500000.0000000000 0.175326272845268305022869981258 -0.015487816184759140014648437500 -0.000169233913766220211982727051 -0.002978947712108492851257324219 0 0 0 0 
2407666666.6666665077 0.176134422421455411056356865629 -0.017094515264034271240234375000 -0.000170839208294637501239776611 -0.002959656994789838790893554688 0 0 0 0 
2407833333.3333334923 0.176795080304145812988281250000 -0.018609832972288131713867187500 -0.000063205421611201018095016479 -0.003001776756718755202052451025 0 0 0 0 
2408000000.0000000000 0.177537053823471097091513115629 -0.020325306802988048898717110546 -0.000329375063301995396614074707 -0.003071916289627552032470703125 0 0 0 0 
2408166666.6666665077 0.178177043795585604568643134371 -0.021661601960659030569056326954 -0.000369644258171320015757960187 -0.003191814059391618208644247900 0 0 0 0 
2408333333.3333334923 0.179354995489120511154013115629 -0.023048164322972301137903983204 -0.000498633540701121091842651367 -0.003297475865110754966735839844 0 0 0 0 
2408500000.0000000000 0.179795324802398709396200615629 -0.024428162723779678344726562500 -0.000522518646903336048126220703 -0.003179572988301516012904501807 0 0 0 0 
2408666666.6666665077 0.180441886186599703689736884371 -0.025713399052619930612584298046 -0.000535086903255432844161987305 -0.003427450079470872879028320312 0 0 0 0 
2408833333.3333334923 0.180993050336837796310263115629 -0.026875551789999011648157889454 -0.000672988244332373142242431641 -0.003480696352198719978332519531 0 0 0 0 
2409000000.0000000000 0.181633830070495605468750000000 -0.027895521372556689870814139454 -0.000629689428023993968963623047 -0.003499967046082019805908203125 0 0 0 0 
2409166666.6666665077 0.182037070393562289138955634371 -0.028879448771476749074915701954 -0.001024826196953654072405170972 -0.003564309561625123023986816406 0 0 0 0 
2409333333.3333334923 0.182519137859344510177450615629 -0.029770748689770698547363281250 -0.001052224193699657917022705078 -0.003457807702943683104274130713 0 0 0 0 
2409500000.0000000000 0.182890266180038507659588731258 -0.030555954203009608877161795704 -0.001178886741399765014648437500 -0.003591595450416206879856728662 0 0 0 0 
2409666666.6666665077 0.183150380849838312347088731258 -0.031182918697595599782923514454 -0.001412204699590801975847553784 -0.003616818226873875097987509619 0 0 0 0 
2409833333.3333334923 0.183359786868095397949218750000 -0.031745046377182006835937500000 -0.001426777685992419936536479419 -0.003567094914615153832676552881 0 0 0 0 
2410000000.0000000000 0.183663949370384188553018134371 -0.032265767455101013183593750000 -0.001611533574759959957720112378 -0.003421395784243940873387002100 0 0 0 0 
2410166666.6666665077 0.183837085962295504470986884371 -0.032627753913402557373046875000 -0.001771722338162363009211874854 -0.003647310892120004133937216650 0 0 0 0 
2410333333.3333334923 0.183872997760772705078125000000 -0.033146254718303680419921875000 -0.002017913153395057158229208838 -0.003462150925770401954650878906 0 0 0 0 
2410500000.0000000000 0.184065863490104703048544365629 -0.033590748906135559082031250000 -0.002119577256962656974792480469 -0.003536606673151255087611533057 0 0 0 0 
2410666666.6666665077 0.183829471468925503829794365629 -0.034040149301290512084960937500 -0.002268508309498428864720009912 -0.003443940775468945936915732275 0 0 0 0 
2410833333.3333334923 0.183712333440780611892861884371 -0.034181907773017883300781250000 -0.002542108297348022894618368994 -0.003344112075865269140956259619 0 0 0 0 
2411000000.0000000000 0.183465495705604608733807481258 -0.034340370446443557739257812500 -0.002749846549704670906066894531 -0.003227510023862123923060751807 0 0 0 0 
2411166666.6666665077 0.183121204376220703125000000000 -0.034933343529701232910156250000 -0.002768037607893348173854208838 -0.003022246062755585150477743994 0 0 0 0 
2411333333.3333334923 0.182641640305519104003906250000 -0.035132352262735366821289062500 -0.002997177420184015794041298975 -0.002976529300212860107421875000 0 0 0 0 
2411500000.0000000000 0.182072177529334994217080634371 -0.035437617450952529907226562500 -0.002943015657365322113037109375 -0.002699525561183691024780273438 0 0 0 0 
2411666666.6666665077 0.181588709354400607010049384371 -0.036027923226356513286550153907 -0.003326764795929193930384970557 -0.002567782299593091011047363281 0 0 0 0 
2411833333.3333334923 0.180890545248985290527343750000 -0.036275744438171386718750000000 -0.003216596785932778878452920068 -0.002367354929447174072265625000 0 0 0 0 
2412000000.0000000000 0.180302053689956692794638115629 -0.036847434937953948974609375000 -0.003344248048961163000819540869 -0.002175086410716176033020019531 0 0 0 0 
2412166666.6666665077 0.179269239306449890136718750000 -0.037269331514835357666015625000 -0.003447939176112412972691201318 -0.001912379637360573031781840747 0 0 0 0 
2412333333.3333334923 0.178406864404678289215411268742 -0.037714883685111999511718750000 -0.003498913953080772919895791162 -0.001631896710023283958435058594 0 0 0 0 
2412500000.0000000000 0.177269324660301208496093750000 -0.038288451731204986572265625000 -0.003410689299926162199733115088 -0.001633087405934930064557719653 0 0 0 0 
2412666666.6666665077 0.176276564598083496093750000000 -0.039283387362957000732421875000 -0.003299389500170946121215820312 -0.001333693391643464998957968604 0 0 0 0 
2412833333.3333334923 0.174978852272033691406250000000 -0.039792209863662719726562500000 -0.003301297780126332803013466943 -0.001317381393164396069170307690 0 0 0 0 
2413000000.0000000000 0.174034491181373596191406250000 -0.040555376559495932842214216407 -0.003297689603641628785374306787 -0.001138745457865298011182475513 0 0 0 0 
2413166666.6666665077 0.172480851411819513518963731258 -0.041374284774065017700195312500 -0.003328443039208651022670126807 -0.001141056185588241057154990088 0 0 0 0 
2413333333.3333334923 0.171214833855628995040731865629 -0.042346570640802383422851562500 -0.003071120707318187193629599463 -0.000772797560784965753555297852 0 0 0 0 
2413500000.0000000000 0.170002922415733309646768134371 -0.043330613523721701885182966407 -0.003026862628757954077479697119 -0.000823850452434271574020385742 0 0 0 0 
2413666666.6666665077 0.168844923377037103850994981258 -0.044459346681833267211914062500 -0.002941452898085116906407021631 -0.000719339819625020027160644531 0 0 0 0 
2413833333.3333334923 0.167442694306373596191406250000 -0.045618113130331039428710937500 -0.002736637368798255920410156250 -0.000686616345774382352828979492 0 0 0 0 
2414000000.0000000000 0.166019216179847689529580634371 -0.046888321638107299804687500000 -0.002557549625635147094726562500 -0.000603794294875115156173706055 0 0 0 0 
2414166666.6666665077 0.164906501770019503494424384371 -0.048176668584346771240234375000 -0.002581987297162414030787802588 -0.000429428939241915887028294696 0 0 0 0 
2414333333.3333334923 0.163714200258255004882812500000 -0.049352411180734627460520158593 -0.002312568714842199845554970850 -0.000706687569618225097656250000 0 0 0 0 
2414500000.0000000000 0.162611350417137201507244981258 -0.050879634916782379150390625000 -0.002280235989019275145289755713 -0.000617099576629698276519775391 0 0 0 0 
2414666666.6666665077 0.161408200860023498535156250000 -0.052304964512586586689035783593 -0.002034876728430389924290322412 -0.000813168997410684823989868164 0 0 0 0 
2414833333.3333334923 0.160156100988388089279013115629 -0.054153271019458770751953125000 -0.001949442317709326960920024341 -0.000693594163749366998672485352 0 0 0 0 
2415000000.0000000000 0.159266248345375088790731865629 -0.055700641125440597534179687500 -0.002103008562698959870579384912 -0.000625377346295863389968872070 0 0 0 0 
2415166666.6666665077 0.158197730779647799392861884371 -0.057399682700634002685546875000 -0.001792213763110340075251913916 -0.000942260958254337310791015625 0 0 0 0 
2415333333.3333334923 0.157430723309516906738281250000 -0.059318121522665016864817033593 -0.002101686783134936852696084131 -0.001022134907543658993364643628 0 0 0 0 
2415500000.0000000000 0.156664103269576998611611884371 -0.060811154544353492046315778907 -0.002121519530192017988917685400 -0.001112476806156337044359516675 0 0 0 0 
2415666666.6666665077 0.155844599008560208419638115629 -0.062830060720443725585937500000 -0.002122339559718966917750693213 -0.001228787354193628051160502856 0 0 0 0 
2415833333.3333334923 0.155287042260170010665731865629 -0.064768724143505096435546875000 -0.002121477853506803946254111182 -0.001135053928010165908216166919 0 0 0 0 
2416000000.0000000000 0.154634654521942110916299384371 -0.066646121442317962646484375000 -0.002192391315475105805637978662 -0.001356771565042435906053852612 0 0 0 0 
2416166666.6666665077 0.154303923249244689941406250000 -0.068550765514373779296875000000 -0.002445281250402330918553017725 -0.001320196897722780921338725513 0 0 0 0 
2416333333.3333334923 0.153755858540535000900106865629 -0.070454791188240051269531250000 -0.002401495119556785063502646338 -0.001530354842543601989746093750 0 0 0 0 
2416500000.0000000000 0.153328895568847711761151231258 -0.072572968900203704833984375000 -0.002572817960754036903381347656 -0.001354241161607206084607768481 0 0 0 0 
2416666666.6666665077 0.152997002005577087402343750000 -0.074361301958560943603515625000 -0.002560424152761698202845908057 -0.001295519177801907062530517578 0 0 0 0 
2416833333.3333334923 0.152904257178306607345419365629 -0.076411902904510498046875000000 -0.002730646869167685942408896338 -0.001401714514940977096557617188 0 0 0 0 
2417000000.0000000000 0.152477085590362604339276231258 -0.078277774155139923095703125000 -0.002916500438004732131958007812 -0.001319495495408772988560341943 0 0 0 0 
2417166666.6666665077 0.152271926403045709808026231258 -0.080014981329441070556640625000 -0.002971268491819500923156738281 -0.001202421030029654936549521338 0 0 0 0 
2417333333.3333334923 0.152398183941841097732705634371 -0.081786207854747772216796875000 -0.003064218442887067794799804688 -0.001183553249575197913526225513 0 0 0 0 
2417500000.0000000000 0.152256548404693603515625000000 -0.083563834428787231445312500000 -0.003160163993015884919407509912 -0.001041453448124229907989501953 0 0 0 0 
2417666666.6666665077 0.152445688843727111816406250000 -0.085132971405982971191406250000 -0.003248444292694330215454101562 -0.000900472805369645357131958008 0 0 0 0 
2417833333.3333334923 0.152341708540916387359942518742 -0.086664259433746337890625000000 -0.003384089097380638122558593750 -0.001043938449583948092219687354 0 0 0 0 
2418000000.0000000000 0.152506306767463711837606865629 -0.088360093533992767333984375000 -0.003345531644299625916721963037 -0.000955454015638679265975952148 0 0 0 0 
2418166666.6666665077 0.152635768055915804763955634371 -0.089445367455482482910156250000 -0.003480920102447270913365029443 -0.000856119382660835981369018555 0 0 0 0 
2418333333.3333334923 0.152930974960327203948651231258 -0.090879172086715698242187500000 -0.003469231771305203004124306787 -0.000791735888924449682235717773 0 0 0 0 
2418500000.0000000000 0.152970045804977389236611884371 -0.091969579458236694335937500000 -0.003566846717149018807652138818 -0.000838646374177187681198120117 0 0 0 0 
2418666666.6666665077 0.153449386358261108398437500000 -0.093140348792076110839843750000 -0.003481979714706540107727050781 -0.000649445166345685720443725586 0 0 0 0 
2418833333.3333334923 0.153358131647110013107138115629 -0.094134502112865447998046875000 -0.003683215007185935974121093750 -0.000750933133531361818313598633 0 0 0 0 
2419000000.0000000000 0.153462097048759488204794365629 -0.094935409724712371826171875000 -0.003769041271880269050598144531 -0.000654563249554485082626342773 0 0 0 0 
2419166666.6666665077 0.153643846511840792556924384371 -0.095661357045173645019531250000 -0.003926910925656557083129882812 -0.000530653982423245906829833984 0 0 0 0 
2419333333.3333334923 0.153766989707946805099325615629 -0.096033111214637756347656250000 -0.003926205914467573165893554688 -0.000520626257639378309249877930 0 0 0 0 
2419500000.0000000000 0.153938397765159606933593750000 -0.096756815910339355468750000000 -0.004095594398677349090576171875 -0.000499239249620586633682250977 0 0 0 0 
2419666666.6666665077 0.154182568192481994628906250000 -0.097174122929573059082031250000 -0.004276609979569911956787109375 -0.000330405076965689713328760968 0 0 0 0 
2419833333.3333334923 0.154187813401222201248330634371 -0.097245439887046813964843750000 -0.004332550335675477981567382812 -0.000216733795241452807753962384 0 0 0 0 
