# Hz S RI R 
2400000000.0000000000 0.157015904784202603439169365629 0.060787502676248550415039062500 -0.001972136320546268983128213037 -0.002252847421914339065551757812 0 0 0 0 
2400166666.6666665077 0.157093793153762789627236884371 0.059192441403865807270090471093 -0.002116836374625564055201865088 -0.002008999232202767892124795068 0 0 0 0 
2400333333.3333334923 0.157242119312286404708700615629 0.057150278240442282939870466407 -0.002117364201694726943969726562 -0.001918462803587317900416708838 0 0 0 0 
2400500000.0000000000 0.157187476754188509842080634371 0.055222306400537490844726562500 -0.002152366330847144126892089844 -0.001971343299373983903172158350 0 0 0 0 
2400666666.6666665077 0.157382205128669711013955634371 0.053135816007852547382395158593 -0.002299066400155425071716308594 -0.001932014594785868904711079175 0 0 0 0 
2400833333.3333334923 0.157717376947403009612713731258 0.051080036908388137817382812500 -0.002576034981757401986363076318 -0.001951318583451212103005434351 0 0 0 0 
2401000000.0000000000 0.158116951584816006759481865629 0.049095883965492248535156250000 -0.002528421115130186080932617188 -0.001839851029217242977739643628 0 0 0 0 
2401166666.6666665077 0.158456861972808810135049384371 0.047066044062376022338867187500 -0.002827803371474146842956542969 -0.001493376912549138069152832031 0 0 0 0 
2401333333.3333334923 0.158682212233543395996093750000 0.044986721128225326538085937500 -0.002820818684995173974278115381 -0.001523397513665259101270366138 0 0 0 0 
2401500000.0000000000 0.159331232309341402908486884371 0.042903956025838851928710937500 -0.002707535866647959189174033057 -0.001537850475870073058484721606 0 0 0 0 
2401666666.6666665077 0.159837618470192011077557481258 0.040796533226966857910156250000 -0.002990562235936522917506552588 -0.001264203339815139987348246997 0 0 0 0 
2401833333.3333334923 0.160350427031517001053018134371 0.039112567901611328125000000000 -0.003040610812604426903965615381 -0.001335259061306715011596679688 0 0 0 0 
2402000000.0000000000 0.160838425159454401214276231258 0.037128813564777367328684221093 -0.003122191410511732101440429688 -0.001223516883328557014465332031 0 0 0 0 
2402166666.6666665077 0.161413237452506991287393134371 0.035070367157459259033203125000 -0.003127385629341005845310830225 -0.001103716669604182026506733472 0 0 0 0 
2402333333.3333334923 0.162081062793731689453125000000 0.033368777483701712871511091407 -0.003104080213233828978297568213 -0.001057507935911417007446289062 0 0 0 0 
2402500000.0000000000 0.163080707192420987228231865629 0.031742025166749947284738908593 -0.003342365380376576943638466943 -0.000936838856432586908340454102 0 0 0 0 
2402666666.6666665077 0.163901656866073608398437500000 0.029999723657965660095214843750 -0.003246502252295612855198525537 -0.001019798568449915105935121851 0 0 0 0 
2402833333.3333334923 0.164627864956855801681356865629 0.028452750295400619506835937500 -0.003295853035524487929103232275 -0.000844816386234015226364135742 0 0 0 0 
2403000000.0000000000 0.165496110916137695312500000000 0.027095843106508258474329764454 -0.003506502602249383926391601562 -0.000709734100382775068283081055 0 0 0 0 
2403166666.6666665077 0.166646659374237088302450615629 0.025574222207069400442103201954 -0.003417218569666146798374795068 -0.000525264069437980651855468750 0 0 0 0 
2403333333.3333334923 0.167383581399917602539062500000 0.024352967739105231548268903907 -0.003547684522345662117004394531 -0.000373350776499137282371520996 0 0 0 0 
2403500000.0000000000 0.168187230825424194335937500000 0.022934028878808021545410156250 -0.003720920532941817803623818506 -0.000339664082275703603595179425 0 0 0 0 
2403666666.6666665077 0.169154614210128811935263115629 0.021729318425059318542480468750 -0.003884344128891826109645224463 -0.000233194776228629106849116193 0 0 0 0 
2403833333.3333334923 0.170252159237861605545205634371 0.020650200545787811279296875000 -0.003705347655341029167175292969 0.000085242980276234447956085205 0 0 0 0 
2404000000.0000000000 0.171241506934166010100994981258 0.019610645249485969543457031250 -0.003753619967028499083278036963 0.000133325316710397601127624512 0 0 0 0 
2404166666.6666665077 0.172148272395133999923544365629 0.018662733957171440124511718750 -0.004044697619974613189697265625 0.000393251830246299505233764648 0 0 0 0 
2404333333.3333334923 0.173048153519630404373330634371 0.017770243808627128601074218750 -0.003912354819476605329031659863 0.000358852004865184426307678223 0 0 0 0 
2404500000.0000000000 0.173614904284477206131143134371 0.016925690695643428457239920704 -0.004005290567874907579903887012 0.000507312070112675428390502930 0 0 0 0 
2404666666.6666665077 0.174712046980857904632244981258 0.016301164403557780874232108204 -0.003939358517527580261230468750 0.000930841022636741399765014648 0 0 0 0 
2404833333.3333334923 0.175490006804466303069744981258 0.015600967220962049311627772852 -0.003974981140345335006713867188 0.001155361067503690936444926685 0 0 0 0 
2405000000.0000000000 0.176086336374282809158486884371 0.014915503561496739823311052930 -0.004100403748452663421630859375 0.001197204808704555034637451172 0 0 0 0 
2405166666.6666665077 0.176947832107544000823651231258 0.014561782591044899332066719921 -0.003992187790572643280029296875 0.001214649295434355952619243091 0 0 0 0 
2405333333.3333334923 0.177546858787536593338174384371 0.013886251486837860452672188671 -0.004058676306158304214477539062 0.001440848689526319937465048682 0 0 0 0 
2405500000.0000000000 0.178203389048576410491619981258 0.013566647656261919194231602148 -0.004046557936817407608032226562 0.001711743301711976961848593604 0 0 0 0 
2405666666.6666665077 0.178443163633346613128338731258 0.013142473995685580862025076954 -0.003872469766065477891209267725 0.002020174637436867193934775244 0 0 0 0 
2405833333.3333334923 0.178898751735687311370526231258 0.012944225221872329711914062500 -0.003841662080958486037013388525 0.002264799317345023155212402344 0 0 0 0 
2406000000.0000000000 0.179413035511970492263955634371 0.012495080009102819615374180273 -0.003645834978669881820678710938 0.002439197385683656172511435400 0 0 0 0 
2406166666.6666665077 0.179382637143135098556356865629 0.012221231125295160466204258398 -0.003654006868600844903233193506 0.002533005317673087120056152344 0 0 0 0 
2406333333.3333334923 0.179828122258186312576455634371 0.011908219195902349299420741602 -0.003505269763991237120387411963 0.002629955532029271125793457031 0 0 0 0 
2406500000.0000000000 0.179818734526634188553018134371 0.011645714752376079559326171875 -0.003352873492985963821411132812 0.002938377670943737030029296875 0 0 0 0 
2406666666.6666665077 0.179746717214584406097088731258 0.011385942809283729898472969921 -0.003292463021352887153625488281 0.002964349230751394791844033350 0 0 0 0 
2406833333.3333334923 0.179824084043502807617187500000 0.010909171774983409536341483204 -0.003044090000912547111511230469 0.003326013684272766113281250000 0 0 0 0 
2407000000.0000000000 0.179777652025222806075888115629 0.010574416257441040384312813671 -0.002834182931110262870788574219 0.003354938933625816865208291162 0 0 0 0 
2407166666.6666665077 0.179676204919815091232138115629 0.010303515940904620779017264454 -0.002804953139275311990025185693 0.003575979964807630018946982275 0 0 0 0 
2407333333.3333334923 0.179350808262825012207031250000 0.009624207392334938049316406250 -0.002647299552336335182189941406 0.003684435039758681817295693506 0 0 0 0 
2407500000.0000000000 0.179035291075706509689169365629 0.009207850322127342224121093750 -0.002527682110667229132411337744 0.003793069161474705176112509619 0 0 0 0 
2407666666.6666665077 0.178757697343826293945312500000 0.008764793165028095245361328125 -0.002216829918324946923496865381 0.003789193229749799208400107275 0 0 0 0 
2407833333.3333334923 0.178132086992263793945312500000 0.007960026152431964874267578125 -0.002089038025587797164916992188 0.003841061145067214965820312500 0 0 0 0 
2408000000.0000000000 0.177613064646720886230468750000 0.007137217093259096145629882812 -0.001960024936124681992771767725 0.003930950071662664413452148438 0 0 0 0 
2408166666.6666665077 0.177095249295234707931356865629 0.006582409143447875976562500000 -0.001750943833030760071398090894 0.004063469823449850082397460938 0 0 0 0 
2408333333.3333334923 0.176763981580734308440838731258 0.005716203711926937103271484375 -0.001662469469010829925537109375 0.003996823448687791824340820312 0 0 0 0 
2408500000.0000000000 0.175957128405571011642294365629 0.004691822454333305358886718750 -0.001344370539300143935559916919 0.003989014308899641036987304688 0 0 0 0 
2408666666.6666665077 0.175425708293914794921875000000 0.003540176432579756216761923682 -0.001270799082703887982609414209 0.004089255351573228836059570312 0 0 0 0 
2408833333.3333334923 0.174639493227005004882812500000 0.002635603072121738953831338037 -0.000862722808960825204849243164 0.004160042852163314819335937500 0 0 0 0 
2409000000.0000000000 0.173984229564666803558026231258 0.001370090409182012081146240234 -0.000840844062622636556625366211 0.004175591748207808408255292676 0 0 0 0 
2409166666.6666665077 0.173399627208709689041299384371 0.000149222003528848290443420410 -0.000678052543662488460540771484 0.004115433432161808013916015625 0 0 0 0 
2409333333.3333334923 0.172783106565475491622763115629 -0.001383155235089362101313925635 -0.000540076114702969789505004883 0.004200234543532133102416992188 0 0 0 0 
2409500000.0000000000 0.172134727239608792404013115629 -0.002902280772104858918430947412 -0.000472527870442718321650904523 0.004247971810400485992431640625 0 0 0 0 
2409666666.6666665077 0.171411022543907193282919365629 -0.004313996061682701110839843750 -0.000114701360871549695730209351 0.004032795783132314682006835938 0 0 0 0 
2409833333.3333334923 0.170775458216667203048544365629 -0.005797645077109336853027343750 -0.000005367413450585445389151573 0.004104418214410542574410722949 0 0 0 0 
2410000000.0000000000 0.170299232006072998046875000000 -0.007366954348981381330008222363 0.000046251090680016211491038663 0.004149049054831266403198242188 0 0 0 0 
2410166666.6666665077 0.169689536094665499588174384371 -0.009202844463288784027099609375 0.000339818827342242002487182617 0.004123033490031957626342773438 0 0 0 0 
2410333333.3333334923 0.169267699122428894042968750000 -0.010714240372180940455426600977 0.000612557225394994020462036133 0.004058113321661949157714843750 0 0 0 0 
2410500000.0000000000 0.168862059712410000900106865629 -0.012602183036506179464319998829 0.000547350908163934946060180664 0.003975044004619122418875409863 0 0 0 0 
2410666666.6666665077 0.168384969234466608245526231258 -0.014601044356822969264020350977 0.000743762182537466287612915039 0.003918200731277465820312500000 0 0 0 0 
2410833333.3333334923 0.168173134326934786697549384371 -0.016376724466681480407714843750 0.000838784268125891685485839844 0.003880288684740663008448935400 0 0 0 0 
2411000000.0000000000 0.167911872267723111251669365629 -0.018203729763627048837681954296 0.000996436690911650657653808594 0.003769937902688980102539062500 0 0 0 0 
2411166666.6666665077 0.167805090546607998946981865629 -0.020222766324877738952636718750 0.001172079937532543919206928784 0.003687253920361400084254599463 0 0 0 0 
2411333333.3333334923 0.167638346552848788162393134371 -0.022094594314694411540944685157 0.001427151612006128051160502856 0.003649525810033082962036132812 0 0 0 0 
2411500000.0000000000 0.167501673102378900725994981258 -0.024301951751112941396693045704 0.001511780661530792930005717700 0.003603659570217133002040243994 0 0 0 0 
2411666666.6666665077 0.167773783206939697265625000000 -0.026028081774711608886718750000 0.001653466140851378007176064600 0.003528904169797896905186318506 0 0 0 0 
2411833333.3333334923 0.167985469102859497070312500000 -0.027944957837462428701380545704 0.001799908233806490898132324219 0.003516617231070994897129677881 0 0 0 0 
2412000000.0000000000 0.168295115232467706878338731258 -0.029846262186765670776367187500 0.001802020007744431929347372900 0.003284446895122528076171875000 0 0 0 0 
2412166666.6666665077 0.168249920010566711425781250000 -0.031704422086477279663085937500 0.002002889756113290786743164062 0.003323136596009134812595986475 0 0 0 0 
2412333333.3333334923 0.168877512216567993164062500000 -0.033505178987979888916015625000 0.001955491956323384804966591943 0.003091736230999230904820107568 0 0 0 0 
2412500000.0000000000 0.169069081544876098632812500000 -0.035340949892997741699218750000 0.002115539740771054787876748193 0.002959980163723229928257607568 0 0 0 0 
2412666666.6666665077 0.169558569788932800292968750000 -0.037328746169805526733398437500 0.002218499779701232910156250000 0.002778480993583797974827431787 0 0 0 0 
2412833333.3333334923 0.170069187879562405685263115629 -0.039036434143781661987304687500 0.002324722940102220015284872900 0.002727299463003873825073242188 0 0 0 0 
2413000000.0000000000 0.170695245265960693359375000000 -0.040473271161317832256276716407 0.002342897932976483865025185693 0.002546354662626982168910361182 0 0 0 0 
2413166666.6666665077 0.171075016260147094726562500000 -0.042210537940263748168945312500 0.002452929737046360969543457031 0.002423914149403572082519531250 0 0 0 0 
2413333333.3333334923 0.171629518270492609222088731258 -0.043806336820125579833984375000 0.002536996267735958099365234375 0.002209155587479472160339355469 0 0 0 0 
2413500000.0000000000 0.172338798642158508300781250000 -0.045342739671468741680104841407 0.002458759350702166990992880713 0.002105743624269961877110146631 0 0 0 0 
2413666666.6666665077 0.172853335738182095626669365629 -0.046725142747163772583007812500 0.002596483333036303953883505713 0.002129978267475963072535849463 0 0 0 0 
2413833333.3333334923 0.173446103930473299881143134371 -0.048096030950546271587331403907 0.002478274051100016073939658057 0.002025738591328262849095009912 0 0 0 0 
2414000000.0000000000 0.173881992697715787032919365629 -0.049449533224105841899831403907 0.002626151777803897857666015625 0.001693056314252316951751708984 0 0 0 0 
2414166666.6666665077 0.174736246466636713225994981258 -0.050519429147243499755859375000 0.002659905236214398904087685693 0.001634088694117963097215961987 0 0 0 0 
2414333333.3333334923 0.175128608942031888107138115629 -0.051591984927654273296315778907 0.002707355655729771094081259619 0.001547425054013729095458984375 0 0 0 0 
2414500000.0000000000 0.175877779722213800628338731258 -0.052619770169258117675781250000 0.002699840115383266968968056787 0.001415265374816953919054340894 0 0 0 0 
2414666666.6666665077 0.176265344023704501053018134371 -0.053353559225797653198242187500 0.002611186355352402167079306494 0.001249615917913615920423198169 0 0 0 0 
2414833333.3333334923 0.176695480942726107498330634371 -0.054316196590662002563476562500 0.002664772793650627136230468750 0.001145707326941191933275532300 0 0 0 0 
2415000000.0000000000 0.177170529961585998535156250000 -0.055034149438142783428151716407 0.002706716768443584008457802881 0.001169420313090085983276367188 0 0 0 0 
2415166666.6666665077 0.177421852946281405349893134371 -0.055704209953546517108957658593 0.002728270832449198202845908057 0.000916640565264970064163208008 0 0 0 0 
2415333333.3333334923 0.177748888731002807617187500000 -0.056387335062026977539062500000 0.002534915693104267120361328125 0.000880959560163319110870361328 0 0 0 0 
2415500000.0000000000 0.178034052252769497970419365629 -0.056936070322990417480468750000 0.002480190014466642899754189600 0.000840814085677266120910644531 0 0 0 0 
2415666666.6666665077 0.178277879953384399414062500000 -0.057376921176910400390625000000 0.002768614795058966116664267432 0.000691195600666105747222900391 0 0 0 0 
2415833333.3333334923 0.178392529487609891036825615629 -0.057684227824211120605468750000 0.002647443674504756927490234375 0.000695234572049230337142944336 0 0 0 0 
2416000000.0000000000 0.178121104836463900467080634371 -0.058053169399499893188476562500 0.002577699255198239846470498193 0.000490903737954795360565185547 0 0 0 0 
2416166666.6666665077 0.178312331438064602950888115629 -0.058346278965473181987722028907 0.002663531573489307923557900537 0.000525229028426110744476318359 0 0 0 0 
2416333333.3333334923 0.178073599934577886383380018742 -0.058568749576807022094726562500 0.002345590619370340867283486475 0.000381584512069821411937159406 0 0 0 0 
2416500000.0000000000 0.177885740995407104492187500000 -0.059077773243188858032226562500 0.002385683124884963035583496094 0.000205656499019823995515546255 0 0 0 0 
2416666666.6666665077 0.177435785531997708419638115629 -0.059105847030878067016601562500 0.002483372343704103989842080225 0.000169479651958681588799077167 0 0 0 0 
2416833333.3333334923 0.177207887172699002364950615629 -0.059485044330358512187917341407 0.002273373072966932816746377100 0.000194242471479810801431378775 0 0 0 0 
2417000000.0000000000 0.176431149244308499435263115629 -0.059625521302223212505300153907 0.002361144404858351187465048682 -0.000045256867451826110482215881 0 0 0 0 
2417166666.6666665077 0.175945296883583096603231865629 -0.059843868017196662212331403907 0.002375642536208033995387411963 0.000006064793979021487757563591 0 0 0 0 
2417333333.3333334923 0.175247028470039395431356865629 -0.060040168464183807373046875000 0.002261597430333495140075683594 0.000025278435714426450431346893 0 0 0 0 
2417500000.0000000000 0.174466326832771301269531250000 -0.060384735465049736713449846093 0.002199013717472552819492959131 -0.000014812513654760550707578659 0 0 0 0 
2417666666.6666665077 0.173772603273391695877236884371 -0.060524441301822662353515625000 0.002258246531710029082057333838 -0.000144941615872085094451904297 0 0 0 0 
2417833333.3333334923 0.172885447740554809570312500000 -0.060908682644367218017578125000 0.002213916508480906920192099463 -0.000303465494653209989697056903 0 0 0 0 
2418000000.0000000000 0.171726554632186889648437500000 -0.061389658600091927265207658593 0.002296189777553081946132040869 -0.000313073745928704684406834735 0 0 0 0 
2418166666.6666665077 0.170650318264961187164630018742 -0.061648692935705191875417341407 0.002041990403085947036743164062 -0.000271925586275756413310450421 0 0 0 0 
2418333333.3333334923 0.169885307550430297851562500000 -0.062102202326059341430664062500 0.001979246735572814941406250000 -0.000329952017636969685554504395 0 0 0 0 
2418500000.0000000000 0.168551802635192898849325615629 -0.062707193195819854736328125000 0.001958893612027167840244912256 -0.000535412516910582780838012695 0 0 0 0 
2418666666.6666665077 0.167573213577270507812500000000 -0.063272863626480102539062500000 0.001837957883253694014308310400 -0.000457932066638022715419215070 0 0 0 0 
2418833333.3333334923 0.166253909468650790115518134371 -0.064043335616588592529296875000 0.001887343009002506949781108325 -0.000508041004650294780731201172 0 0 0 0 
2419000000.0000000000 0.164975017309188787262286268742 -0.064686410129070281982421875000 0.001804620609618722958805703271 -0.000568044255487620830535888672 0 0 0 0 
2419166666.6666665077 0.163721844553947504241619981258 -0.065516732633113861083984375000 0.001772972056642174937604594653 -0.000468412210466340184211730957 0 0 0 0 
2419333333.3333334923 0.162427857518196105957031250000 -0.066188074648380279541015625000 0.001484796288423239967943501050 -0.000579869898501783609390258789 0 0 0 0 
2419500000.0000000000 0.161399826407432611663494981258 -0.067228451371192932128906250000 0.001590618514455854892730712891 -0.000601717561949044466018676758 0 0 0 0 
2419666666.6666665077 0.160255849361419705489950615629 -0.068435326218605041503906250000 0.001601343392394483089447021484 -0.000605592154897749423980712891 0 0 0 0 
2419833333.3333334923 0.158975496888160705566406250000 -0.069396913051605224609375000000 0.001616680994629859924316406250 -0.000748115417081862688064575195 0 0 0 0 
