# Hz S RI R 
2400000000.0000000000 0.158279150724411010742187500000 0.062429089099168777465820312500 -0.001942792907357216098188090747 -0.000626312103122472763061523438 0 0 0 0 
2400166666.6666665077 0.158177435398101806640625000000 0.060871101915836327289621721093 -0.001783719169907272078870463794 -0.000558585394173860549926757812 0 0 0 0 
2400333333.3333334923 0.157953664660453796386718750000 0.059077005833387381816823591407 -0.001957647269591689109802246094 -0.000264663249254226684570312500 0 0 0 0 
2400500000.0000000000 0.158128395676612909515057481258 0.057070091366767883300781250000 -0.001951697980985044999363564600 -0.000284771434962749481201171875 0 0 0 0 
2400666666.6666665077 0.158238723874092102050781250000 0.055053323507308959960937500000 -0.001876797527074814059613871997 -0.000104359998658765093840737614 0 0 0 0 
2400833333.3333334923 0.158169969916343688964843750000 0.053162772208452231670339216407 -0.001867415849119425036786723560 -0.000190464343177154687329968863 0 0 0 0 
2401000000.0000000000 0.158245757222175598144531250000 0.051212426275014877319335937500 -0.001926436554640531973597861182 -0.000108142085082363296620784621 0 0 0 0 
2401166666.6666665077 0.158431291580200195312500000000 0.048920303583145141601562500000 -0.001783062820322812037227011572 -0.000202251656446605893686571664 0 0 0 0 
2401333333.3333334923 0.158552005887031610686932481258 0.046831507235765457153320312500 -0.001942681847140192985534667969 0.000211749924346804591730394907 0 0 0 0 
2401500000.0000000000 0.158999517560005187988281250000 0.044911187142133712768554687500 -0.001770026166923343918443989331 0.000163901422638446092605590820 0 0 0 0 
2401666666.6666665077 0.159326314926147488693075615629 0.043000612407922751689870466407 -0.001841653720475733063341450269 0.000163516931934282210752210074 0 0 0 0 
2401833333.3333334923 0.159772709012031610686932481258 0.040942959487438201904296875000 -0.001661991700530051968218159253 0.000157194983330555287286481314 0 0 0 0 
2402000000.0000000000 0.159971192479133605957031250000 0.038913365453481667255442033593 -0.001602868433110415935516357422 0.000212786108022555708885192871 0 0 0 0 
2402166666.6666665077 0.160673141479492187500000000000 0.036802113056182861328125000000 -0.001639678492210804982426308740 0.000281226210063323378562927246 0 0 0 0 
2402333333.3333334923 0.161165669560432406326455634371 0.035028219223022460937500000000 -0.001327587524428964094874716650 0.000571635027881711721420288086 0 0 0 0 
2402500000.0000000000 0.162117511034011813064736884371 0.033166620880365371704101562500 -0.001227558939717710018157958984 0.000443769386038184220164698468 0 0 0 0 
2402666666.6666665077 0.162528902292251586914062500000 0.031374458223581307148020158593 -0.001510380650870501995086669922 0.000612518808338791131973266602 0 0 0 0 
2402833333.3333334923 0.163375392556190490722656250000 0.029879631474614139902135079296 -0.001420566230081022002576518481 0.000462199997855350375175476074 0 0 0 0 
2403000000.0000000000 0.164193034172058105468750000000 0.028045173734426498413085937500 -0.001342609291896224021911621094 0.000682604324538260698318481445 0 0 0 0 
2403166666.6666665077 0.165074557065963800628338731258 0.026437895372509959829310233204 -0.001245752559043467044830322266 0.000642063561826944351196289062 0 0 0 0 
2403333333.3333334923 0.165989354252815302093182481258 0.025031518191099170339564139454 -0.001046428922563791058183979565 0.000394541741115972399711608887 0 0 0 0 
2403500000.0000000000 0.166785225272178705413494981258 0.023613791912794109689732735546 -0.000731023610569536685943603516 0.000410249049309641122817993164 0 0 0 0 
2403666666.6666665077 0.167774751782417297363281250000 0.022349398583173748361607735546 -0.000776739267166703939437866211 0.000711448956280946731567382812 0 0 0 0 
2403833333.3333334923 0.168745994567871093750000000000 0.020923104137182239187220389454 -0.000696038128808140754699707031 0.000395128474337980205386561261 0 0 0 0 
2404000000.0000000000 0.169787421822547912597656250000 0.019785422831773761404017264454 -0.001018014852888881943346333081 0.001113074133172631046892475659 0 0 0 0 
2404166666.6666665077 0.170582905411720303634481865629 0.018592672422528270376185233204 -0.000352477392880245988995152606 0.000464934331830591017573756085 0 0 0 0 
2404333333.3333334923 0.171629160642623901367187500000 0.017820734530687328683873360546 -0.000582770502660423517227172852 0.000893625430762767791748046875 0 0 0 0 
2404500000.0000000000 0.172328293323516901214276231258 0.016768988221883770334263985546 -0.000729570689145475625991821289 0.000909596157725900411605834961 0 0 0 0 
2404666666.6666665077 0.173378854990005493164062500000 0.015823889523744579660435860546 -0.000529734650626778602600097656 0.000710503431037068367004394531 0 0 0 0 
2404833333.3333334923 0.174284368753433199783486884371 0.015123281627893449610700038477 -0.000191890518181026009008130484 0.000345558335538953488499241962 0 0 0 0 
2405000000.0000000000 0.174919068813324002364950615629 0.014312160201370719564417655079 -0.000664622464682906866073608398 0.000567929644603282213211059570 0 0 0 0 
2405166666.6666665077 0.175813928246498107910156250000 0.013841936364769940812080584180 -0.000622282386757433414459228516 0.000305781053612008690834045410 0 0 0 0 
2405333333.3333334923 0.176773726940155001541299384371 0.012951769866049289703369140625 -0.000366204098099842721789759503 0.000359803816536441499560755597 0 0 0 0 
2405500000.0000000000 0.177411600947380093673544365629 0.012768302112817760812779610546 -0.000551987730432301759719848633 0.000338371173711493611335754395 0 0 0 0 
2405666666.6666665077 0.178066149353980990310830634371 0.012165008112788200378417968750 0.000063983163272496312856674194 0.000394600821891799623340052472 0 0 0 0 
2405833333.3333334923 0.178359106183052090743856865629 0.011856819503009319305419921875 -0.000543287256732583045959472656 0.000370658701285719925731104718 0 0 0 0 
2406000000.0000000000 0.179069206118583706954794365629 0.011420008726418020075787929102 -0.000204072464839555296018877573 0.000247959775151684880256652832 0 0 0 0 
2406166666.6666665077 0.179307788610458401779013115629 0.011165342293679710733433907421 -0.000032429987186333171348979337 0.000473456806503236293792724609 0 0 0 0 
2406333333.3333334923 0.179906710982322692871093750000 0.010876487940549850463867187500 -0.000352686445694416815608424054 0.000190992723219096687719067984 0 0 0 0 
2406500000.0000000000 0.180108115077018710037393134371 0.010488184168934820347796055273 -0.000323696411214768886566162109 0.000191940489457920193672180176 0 0 0 0 
2406666666.6666665077 0.180248826742172213455361884371 0.010177870281040670222272304102 -0.000226339863729663193225860596 0.000221415015403181287363329477 0 0 0 0 
2406833333.3333334923 0.180647581815719604492187500000 0.009863057173788547515869140625 -0.000388647837098687887191772461 0.000130692700622603297233581543 0 0 0 0 
2407000000.0000000000 0.180560529232025201995526231258 0.009456031024456024169921875000 -0.000244744063820689916610717773 0.000213208026252687004491528922 0 0 0 0 
2407166666.6666665077 0.180700972676277188400106865629 0.009233365766704082489013671875 -0.000386490777600556612014770508 -0.000072166338213719427585601807 0 0 0 0 
2407333333.3333334923 0.180405482649803189376669365629 0.008623437955975532531738281250 -0.000272866425802931189537048340 0.000010246756573906170035702552 0 0 0 0 
2407500000.0000000000 0.180279359221458407303018134371 0.008406998589634895324707031250 -0.000319136306643486022949218750 0.000067667009716387838125228882 0 0 0 0 
2407666666.6666665077 0.180023774504661587814169365629 0.007896721363067626953125000000 -0.000528243777807801961898803711 0.000183568641659803688526153564 0 0 0 0 
2407833333.3333334923 0.179658293724060086349325615629 0.007158981636166572570800781250 -0.000411467655794695019721984863 0.000049637281335890293121337891 0 0 0 0 
2408000000.0000000000 0.179308325052261408050213731258 0.006603026762604712572579668262 -0.000479308713693171685368138446 -0.000006347317594190826639533043 0 0 0 0 
2408166666.6666665077 0.178938478231430109222088731258 0.006087680347263813018798828125 -0.000390647473977878689765930176 0.000075742857006844133138656616 0 0 0 0 
2408333333.3333334923 0.178521081805229187011718750000 0.005313950125128030776977539062 -0.000544540234841406453787648889 0.000200382157345302402973175049 0 0 0 0 
2408500000.0000000000 0.177904903888702392578125000000 0.004435964860022068023681640625 -0.000328674097545445019572657452 0.000007602366622450063005089760 0 0 0 0 
2408666666.6666665077 0.177315384149551391601562500000 0.003631216939538716836216591943 -0.000415724527556449174880981445 0.000141834010719321695253095084 0 0 0 0 
2408833333.3333334923 0.176676705479621887207031250000 0.002453563967719674110412597656 -0.000420104450313374400138854980 0.000234291874221526113435468130 0 0 0 0 
2409000000.0000000000 0.176062047481536892989950615629 0.001596571295522152943852089990 -0.000477554014651104807853698730 0.000157016489538364112377166748 0 0 0 0 
2409166666.6666665077 0.175380215048790005782919365629 0.000349451875081285780102330341 -0.000457188580185174887806492938 -0.000009621541721571702510118484 0 0 0 0 
2409333333.3333334923 0.174670562148094205001669365629 -0.000998162431642413139343261719 -0.000455866480479016900062561035 0.000127616629470139687687474384 0 0 0 0 
2409500000.0000000000 0.173945367336273193359375000000 -0.002328070113435388045070029150 -0.000470476050395518487125950946 0.000096534102340228855609893799 0 0 0 0 
2409666666.6666665077 0.173275142908096313476562500000 -0.003607159014791249795200966943 -0.000398870091885328292846679688 -0.000004427790827321587130427361 0 0 0 0 
2409833333.3333334923 0.172485649585723904708700615629 -0.005022789351642131805419921875 -0.000316601595841348225444239484 -0.000100972705695312497302731924 0 0 0 0 
2410000000.0000000000 0.172099515795707702636718750000 -0.006527941673994064331054687500 -0.000456261303042993003695887433 0.000081389123806729912757873535 0 0 0 0 
2410166666.6666665077 0.171538531780242892166299384371 -0.008178141899406909942626953125 -0.000405359198339283520549219952 -0.000053710915381088852882385254 0 0 0 0 
2410333333.3333334923 0.170752644538879394531250000000 -0.009635126218199729919433593750 -0.000542416586540639400482177734 -0.000059775033150799572467803955 0 0 0 0 
2410500000.0000000000 0.170376881957054110428018134371 -0.011454839259386059152623360546 -0.000264329632045701200335902081 -0.000003246697360737016001020231 0 0 0 0 
2410666666.6666665077 0.169749259948730496505575615629 -0.013288762420415880030621913477 -0.000313492899294942617416381836 -0.000211650040000677108764648438 0 0 0 0 
2410833333.3333334923 0.169369816780090304275674384371 -0.014928977005183700216273123829 -0.000386296043870970606803894043 0.000024342243705177679657936096 0 0 0 0 
2411000000.0000000000 0.168919771909713800628338731258 -0.016896892338991168630579764454 -0.000494409061502665281295776367 -0.000099819255410693585872650146 0 0 0 0 
2411166666.6666665077 0.168634116649627713302450615629 -0.018763510510325428354283516796 -0.000359513825969770604937952863 -0.000151183616253547397538861685 0 0 0 0 
2411333333.3333334923 0.168326199054717989822549384371 -0.020566008985042568552037423046 -0.000411147571867331916659754620 -0.000316696212394163012504577637 0 0 0 0 
2411500000.0000000000 0.168093442916870089431924384371 -0.022747116163372989999791329296 -0.000633798248600214719772338867 -0.000311208656057715415954589844 0 0 0 0 
2411666666.6666665077 0.168163329362869290450888115629 -0.024645783007144931447962576954 -0.000515037099830806255340576172 -0.000179918875801376998424530029 0 0 0 0 
2411833333.3333334923 0.168093100190162686446981865629 -0.026480620726943019521693045704 -0.000698621559422463178634643555 -0.000075322386692278087139129639 0 0 0 0 
2412000000.0000000000 0.167964890599250793457031250000 -0.028496578335762020456334298046 -0.000630401656962931156158447266 -0.000173063192050904008463182993 0 0 0 0 
2412166666.6666665077 0.168238788843154907226562500000 -0.030312528833746910095214843750 -0.000675656541716307401657104492 -0.000267562834778800606727600098 0 0 0 0 
2412333333.3333334923 0.168532952666282709319744981258 -0.032312028110027313232421875000 -0.000827040581498295068740844727 -0.000365901010809466188580113544 0 0 0 0 
2412500000.0000000000 0.168630734086036709884481865629 -0.034150838851928710937500000000 -0.001045229495503007931950234521 -0.000253904203418642282485961914 0 0 0 0 
2412666666.6666665077 0.169083595275878906250000000000 -0.036141060292720801616628278907 -0.000882675987668335437774658203 -0.000228180346312001401751917706 0 0 0 0 
2412833333.3333334923 0.169373705983161898513955634371 -0.037894424051046371459960937500 -0.000969715300016105175018310547 -0.000408832536777481382519322528 0 0 0 0 
2413000000.0000000000 0.169809713959693908691406250000 -0.039836835116148001934011091407 -0.001055159489624202034593891675 -0.000178774353116750690058031625 0 0 0 0 
2413166666.6666665077 0.170068606734275790115518134371 -0.041511382907629013061523437500 -0.001225837506353854916216206128 -0.000213721723412163609832209454 0 0 0 0 
2413333333.3333334923 0.170723780989646911621093750000 -0.043179567903280258178710937500 -0.001083387178368866009953164209 -0.000060918340750504291873385770 0 0 0 0 
2413500000.0000000000 0.171232849359512301345986884371 -0.044821988791227340698242187500 -0.001121787587180733897565532153 -0.000040076738514471799135208130 0 0 0 0 
2413666666.6666665077 0.171726778149604797363281250000 -0.046272736042737960815429687500 -0.001304155564866960048675537109 -0.000097900236141867935657501221 0 0 0 0 
2413833333.3333334923 0.172328785061836187164630018742 -0.047702744603157043457031250000 -0.001263041049242020087001181494 0.000184477874427102506160736084 0 0 0 0 
2414000000.0000000000 0.172700420022010803222656250000 -0.049218863248825073242187500000 -0.001234902418218553066253662109 0.000120936150779016302384515080 0 0 0 0 
2414166666.6666665077 0.173452556133270291427450615629 -0.050408735871315002441406250000 -0.001285177771933377005933452075 0.000098727119620889425277709961 0 0 0 0 
2414333333.3333334923 0.173944801092147799392861884371 -0.051771156489849090576171875000 -0.001241113292053342082379985278 0.000417559553170576691627502441 0 0 0 0 
2414500000.0000000000 0.174675866961479187011718750000 -0.052840422838926322246511091407 -0.001212053350172936916351318359 0.000249903416261076872974949969 0 0 0 0 
2414666666.6666665077 0.175150275230407687088174384371 -0.053801316767930977558176408593 -0.001312259468249977068660117041 0.000419235322624445015757960187 0 0 0 0 
2414833333.3333334923 0.175554290413856506347656250000 -0.054819267243146903301198591407 -0.001343672862276434898376464844 0.000468693877337500507205408917 0 0 0 0 
2415000000.0000000000 0.175976678729057312011718750000 -0.055709023028612136840820312500 -0.001288554281927644989610981519 0.000454819091828540021747034894 0 0 0 0 
2415166666.6666665077 0.176481768488883999923544365629 -0.056572664529085159301757812500 -0.001331705367192625999450683594 0.000633878691587597131729125977 0 0 0 0 
2415333333.3333334923 0.176960781216621398925781250000 -0.057195175439119338989257812500 -0.001290625194087624983546591650 0.000589480390772223472595214844 0 0 0 0 
2415500000.0000000000 0.177235737442970303634481865629 -0.057734888046979897235910783593 -0.001257720752619206905364990234 0.000679460179526358842849731445 0 0 0 0 
2415666666.6666665077 0.177498400211334200760049384371 -0.058297250419855117797851562500 -0.001271877204999328093287802588 0.000801036483608186244964599609 0 0 0 0 
2415833333.3333334923 0.177706331014633206466513115629 -0.058781202882528311992604841407 -0.001279387390241027095197368091 0.000750040693674236536026000977 0 0 0 0 
2416000000.0000000000 0.177703127264976501464843750000 -0.059231922030448906635324846093 -0.001372645027004181905033730615 0.000856321130413562059402465820 0 0 0 0 
2416166666.6666665077 0.178085327148437500000000000000 -0.059532988816499710083007812500 -0.001391112571582197926164936597 0.000813657883554697036743164062 0 0 0 0 
2416333333.3333334923 0.177826628088951110839843750000 -0.059862021356821060180664062500 -0.001408571028150618076324462891 0.000890943454578518867492675781 0 0 0 0 
2416500000.0000000000 0.177845254540443392654580634371 -0.060305714607238769531250000000 -0.001258237520232797102687216650 0.001050014747306704954860068213 0 0 0 0 
2416666666.6666665077 0.177524626255035400390625000000 -0.060478895902633666992187500000 -0.001162465894594788985011435400 0.001110451645217835903167724609 0 0 0 0 
2416833333.3333334923 0.177407935261726407150106865629 -0.060768708586692810058593750000 -0.001122419489547610066057514722 0.001059461152181029102922749097 0 0 0 0 
2417000000.0000000000 0.176846936345100402832031250000 -0.060929469764232642436940778907 -0.001082098460756242058397602612 0.001153500750660896084429096753 0 0 0 0 
2417166666.6666665077 0.176395818591117886642294365629 -0.061077535152435302734375000000 -0.001069855410605669021606445312 0.001356209977529942989349365234 0 0 0 0 
2417333333.3333334923 0.175965771079063387771768134371 -0.061288591474294662475585937500 -0.000931547489017248153686523438 0.001230337540619075081468891675 0 0 0 0 
2417500000.0000000000 0.175278559327125604827557481258 -0.061673294752836227416992187500 -0.001082343631424010016797709888 0.001265812083147465965868305737 0 0 0 0 
2417666666.6666665077 0.174673825502395602127236884371 -0.061827149242162697528879533593 -0.000982215045951306819915771484 0.001419527688995003917096782153 0 0 0 0 
2417833333.3333334923 0.173718363046646090408486884371 -0.062008664011955261230468750000 -0.000921969767659902572631835938 0.001453509321436285972595214844 0 0 0 0 
2418000000.0000000000 0.172947376966476412674111884371 -0.062329873442649841308593750000 -0.000968092412222176790237426758 0.001484386040829122066497802734 0 0 0 0 
2418166666.6666665077 0.171988233923912103850994981258 -0.062565013766288757324218750000 -0.000834000122267752885818481445 0.001547261606901884078979492188 0 0 0 0 
2418333333.3333334923 0.171255007386207608321981865629 -0.063062421977519989013671875000 -0.000963741098530590534210205078 0.001572423847392200989964150537 0 0 0 0 
2418500000.0000000000 0.170033589005470303634481865629 -0.063399642705917358398437500000 -0.000891317555215209722518920898 0.001610607607290148951886821216 0 0 0 0 
2418666666.6666665077 0.169060006737709100921307481258 -0.063897132873535156250000000000 -0.000695490976795554161071777344 0.001705345232039690017700195312 0 0 0 0 
2418833333.3333334923 0.167767137289047213455361884371 -0.064579591155052185058593750000 -0.000570526521187275648117065430 0.001763814478181302981135702979 0 0 0 0 
2419000000.0000000000 0.166513383388519287109375000000 -0.065008498728275299072265625000 -0.000758537498768419027328491211 0.001701828441582619927049946362 0 0 0 0 
2419166666.6666665077 0.165441140532493591308593750000 -0.065704412758350372314453125000 -0.000570488162338733673095703125 0.001854800269939004941227578271 0 0 0 0 
2419333333.3333334923 0.164013475179672213455361884371 -0.066296480596065521240234375000 -0.000654039205983281135559082031 0.001735090976580977006199502100 0 0 0 0 
2419500000.0000000000 0.162994220852851895431356865629 -0.067276202142238616943359375000 -0.000467055506305769085884094238 0.001749971648678183989283896338 0 0 0 0 
2419666666.6666665077 0.161896169185638399978799384371 -0.068181134760379791259765625000 -0.000431028252933174425929468976 0.001847423030994832949397421729 0 0 0 0 
2419833333.3333334923 0.160565808415412902832031250000 -0.069022707641124725341796875000 -0.000496568100061267614364624023 0.001757082878611982085584330981 0 0 0 0 
