# Version 1.00
#
freq[Hz];re:Trc1_S11;im:Trc1_S11;re:Trc2_S21;im:Trc2_S21;
2.400000000000000E+009;1.552105545997620E-001;1.065653562545776E-001;-8.511669933795929E-003;-5.533949006348848E-004;
2.400166666666667E+009;1.549867540597916E-001;1.041714996099472E-001;-8.807622827589512E-003;-1.226801687153056E-004;
2.400333333333334E+009;1.551554650068283E-001;1.019563823938370E-001;-8.703980594873428E-003;2.802470989990979E-004;
2.400500000000000E+009;1.550072580575943E-001;9.908013045787811E-002;-8.834502659738064E-003;7.685426389798522E-004;
2.400666666666667E+009;1.550876498222351E-001;9.675091505050659E-002;-8.769901469349861E-003;1.224035630002618E-003;
2.400833333333334E+009;1.550181508064270E-001;9.381636977195740E-002;-8.814933709800243E-003;1.755212084390223E-003;
2.401000000000000E+009;1.553649753332138E-001;9.103065729141235E-002;-8.766242302954197E-003;2.023511100560427E-003;
2.401166666666667E+009;1.553032100200653E-001;8.819886296987534E-002;-8.650346659123898E-003;2.599567407742143E-003;
2.401333333333334E+009;1.559974402189255E-001;8.535335958003998E-002;-8.420082740485668E-003;3.167183371260762E-003;
2.401500000000000E+009;1.562161892652512E-001;8.241147547960281E-002;-8.180829696357250E-003;3.605070989578962E-003;
2.401666666666667E+009;1.566304862499237E-001;7.962118834257126E-002;-7.899707183241844E-003;4.010657314211130E-003;
2.401833333333334E+009;1.569954305887222E-001;7.681313157081604E-002;-7.577688898891211E-003;4.188002552837133E-003;
2.402000000000000E+009;1.579419225454330E-001;7.377828657627106E-002;-7.305254694074392E-003;4.552786704152823E-003;
2.402166666666667E+009;1.588162332773209E-001;7.125594466924667E-002;-6.880573462694883E-003;4.797860048711300E-003;
2.402333333333334E+009;1.596247851848602E-001;6.857770681381226E-002;-6.779552903026342E-003;4.965908359736204E-003;
2.402500000000000E+009;1.608740091323853E-001;6.580717861652374E-002;-6.408296525478363E-003;5.089094862341881E-003;
2.402666666666667E+009;1.619484573602676E-001;6.345753371715546E-002;-5.999348126351833E-003;5.229732487350702E-003;
2.402833333333334E+009;1.633644104003906E-001;6.108581647276878E-002;-5.844721104949713E-003;5.285245832055807E-003;
2.403000000000000E+009;1.645298302173615E-001;5.879567563533783E-002;-5.446208640933037E-003;5.390802398324013E-003;
2.403166666666667E+009;1.664037704467773E-001;5.644442141056061E-002;-5.418160930275917E-003;5.623806267976761E-003;
2.403333333333334E+009;1.678173840045929E-001;5.431565642356873E-002;-5.038524977862835E-003;5.617467220872641E-003;
2.403500000000000E+009;1.693989485502243E-001;5.228196829557419E-002;-4.835164174437523E-003;5.683931987732649E-003;
2.403666666666667E+009;1.711714863777161E-001;5.023006349802017E-002;-4.443142563104630E-003;6.069521885365248E-003;
2.403833333333334E+009;1.727609783411026E-001;4.832296073436737E-002;-4.416614770889282E-003;6.138672120869160E-003;
2.404000000000000E+009;1.743333041667938E-001;4.667164385318756E-002;-4.312703851610422E-003;6.214280147105455E-003;
2.404166666666667E+009;1.761736720800400E-001;4.522196203470230E-002;-3.947438206523657E-003;6.168871186673641E-003;
2.404333333333334E+009;1.778263896703720E-001;4.373884573578835E-002;-3.509072586894035E-003;6.563012488186359E-003;
2.404500000000000E+009;1.793558448553085E-001;4.224379360675812E-002;-3.334809793159366E-003;6.549536250531673E-003;
2.404666666666667E+009;1.810149848461151E-001;4.121056199073792E-002;-2.988910768181086E-003;6.502524949610233E-003;
2.404833333333334E+009;1.827175319194794E-001;4.019113630056381E-002;-2.786039374768734E-003;6.519207730889320E-003;
2.405000000000000E+009;1.839474290609360E-001;3.954240307211876E-002;-2.582577522844076E-003;6.581377703696489E-003;
2.405166666666667E+009;1.854666471481323E-001;3.879927843809128E-002;-2.212002407759428E-003;6.570938508957624E-003;
2.405333333333334E+009;1.868055015802383E-001;3.824976086616516E-002;-1.952619873918593E-003;6.613446399569511E-003;
2.405500000000000E+009;1.884785890579224E-001;3.774953261017799E-002;-1.834320602938533E-003;6.621158216148615E-003;
2.405666666666667E+009;1.893840730190277E-001;3.731857612729073E-002;-1.556325936689973E-003;6.491778418421745E-003;
2.405833333333334E+009;1.907534748315811E-001;3.720941394567490E-002;-1.246911124326289E-003;6.470068357884884E-003;
2.406000000000000E+009;1.916877627372742E-001;3.704511746764183E-002;-1.110144308768213E-003;6.356348749250174E-003;
2.406166666666667E+009;1.927683204412460E-001;3.690785169601440E-002;-7.391814724542201E-004;6.434896960854530E-003;
2.406333333333334E+009;1.937057524919510E-001;3.688427060842514E-002;-5.431526224128902E-004;6.181159988045692E-003;
2.406500000000000E+009;1.943088769912720E-001;3.702998161315918E-002;-3.451337688602507E-004;6.090483162552118E-003;
2.406666666666667E+009;1.948919594287872E-001;3.710147365927696E-002;-2.002583787543699E-004;6.113529670983553E-003;
2.406833333333334E+009;1.954280287027359E-001;3.705630451440811E-002;-8.129695197567344E-005;5.822777748107910E-003;
2.407000000000000E+009;1.956628710031509E-001;3.732579573988915E-002;5.687799784936942E-005;5.872637964785099E-003;
2.407166666666667E+009;1.960646510124207E-001;3.716346994042397E-002;3.171041316818446E-004;5.733710713684559E-003;
2.407333333333334E+009;1.959248185157776E-001;3.729498758912087E-002;4.076451878063381E-004;5.451175384223461E-003;
2.407500000000000E+009;1.959155350923538E-001;3.745912760496140E-002;5.219601443968713E-004;5.457356572151184E-003;
2.407666666666667E+009;1.958713382482529E-001;3.745964542031288E-002;6.535139400511980E-004;5.162002518773079E-003;
2.407833333333334E+009;1.953450590372086E-001;3.727216273546219E-002;6.110087269917131E-004;5.130348261445761E-003;
2.408000000000000E+009;1.952586621046066E-001;3.723698854446411E-002;8.278753375634551E-004;5.004319362342358E-003;
2.408166666666667E+009;1.946537643671036E-001;3.696358203887940E-002;9.404899901710451E-004;4.824388306587935E-003;
2.408333333333334E+009;1.941653937101364E-001;3.648842871189117E-002;6.907421047799289E-004;4.784471355378628E-003;
2.408500000000000E+009;1.933776140213013E-001;3.622154146432877E-002;7.698084227740765E-004;4.681082442402840E-003;
2.408666666666667E+009;1.928943097591400E-001;3.582216054201126E-002;6.718212389387190E-004;4.615206271409988E-003;
2.408833333333334E+009;1.920862197875977E-001;3.502402454614639E-002;8.036504150368273E-004;4.504373762756586E-003;
2.409000000000000E+009;1.911625713109970E-001;3.423601388931274E-002;6.952393450774252E-004;4.292009398341179E-003;
2.409166666666667E+009;1.902753561735153E-001;3.330487385392189E-002;6.704971892759204E-004;4.372610244899988E-003;
2.409333333333334E+009;1.892959028482437E-001;3.231399506330490E-002;5.593261448666453E-004;4.463061690330505E-003;
2.409500000000000E+009;1.881489008665085E-001;3.099617920815945E-002;4.814086423721165E-004;4.363364540040493E-003;
2.409666666666667E+009;1.872334778308868E-001;2.960888296365738E-002;3.668268036562949E-004;4.507127683609724E-003;
2.409833333333334E+009;1.861551254987717E-001;2.810342051088810E-002;4.686538886744529E-004;4.404652863740921E-003;
2.410000000000000E+009;1.852868646383286E-001;2.641347795724869E-002;3.593516012188047E-004;4.823072813451290E-003;
2.410166666666667E+009;1.841869950294495E-001;2.470164373517036E-002;5.526482127606869E-004;4.843517672270536E-003;
2.410333333333334E+009;1.832609027624130E-001;2.286294847726822E-002;4.736483679153025E-004;5.049725528806448E-003;
2.410500000000000E+009;1.823242455720902E-001;2.088314481079578E-002;6.008521886542440E-004;5.007825326174498E-003;
2.410666666666667E+009;1.814768761396408E-001;1.857786625623703E-002;8.201655582524836E-004;5.145401693880558E-003;
2.410833333333334E+009;1.807070970535278E-001;1.664428412914276E-002;9.894572431221604E-004;5.311183165758848E-003;
2.411000000000000E+009;1.799565106630325E-001;1.431827433407307E-002;1.186313573271036E-003;5.213020369410515E-003;
2.411166666666667E+009;1.792859733104706E-001;1.186942216008902E-002;1.386929536238313E-003;5.456771235913038E-003;
2.411333333333334E+009;1.789708584547043E-001;9.413235820829868E-003;1.501913066022098E-003;5.400945432484150E-003;
2.411500000000000E+009;1.781923621892929E-001;7.060595788061619E-003;1.719341031275690E-003;5.450345110148192E-003;
2.411666666666667E+009;1.781804412603378E-001;4.792011808604002E-003;1.889024511910975E-003;5.395774729549885E-003;
2.411833333333334E+009;1.778617799282074E-001;2.291237702593207E-003;2.133398316800594E-003;5.297247786074877E-003;
2.412000000000000E+009;1.777694970369339E-001;-3.847173065878451E-004;2.356945071369410E-003;5.286155268549919E-003;
2.412166666666667E+009;1.780080795288086E-001;-2.408216008916497E-003;2.488629193976522E-003;5.206624977290630E-003;
2.412333333333334E+009;1.780451089143753E-001;-5.086403805762529E-003;2.692876150831580E-003;5.026369355618954E-003;
2.412500000000000E+009;1.785851716995239E-001;-7.512695156037808E-003;2.768302103504539E-003;4.952802322804928E-003;
2.412666666666667E+009;1.790366321802139E-001;-1.002318039536476E-002;2.848078962415457E-003;4.966272506862879E-003;
2.412833333333334E+009;1.797623932361603E-001;-1.249067857861519E-002;2.966881496831775E-003;4.765504971146584E-003;
2.413000000000000E+009;1.806533634662628E-001;-1.472490653395653E-002;3.162639914080501E-003;4.765548743307591E-003;
2.413166666666667E+009;1.812915056943893E-001;-1.704944670200348E-002;3.255969146266580E-003;4.650261718779802E-003;
2.413333333333334E+009;1.824221014976502E-001;-1.925602555274963E-002;3.147486131638289E-003;4.586715716868639E-003;
2.413500000000000E+009;1.832565218210220E-001;-2.158597111701965E-002;3.307153005152941E-003;4.408174660056830E-003;
2.413666666666667E+009;1.846138536930084E-001;-2.377492561936379E-002;3.320770105347037E-003;4.467906430363655E-003;
2.413833333333334E+009;1.856718510389328E-001;-2.573215775191784E-002;3.588669700548053E-003;4.472629632800818E-003;
2.414000000000000E+009;1.868745982646942E-001;-2.775572799146175E-002;3.628392238169909E-003;4.436354618519545E-003;
2.414166666666667E+009;1.880861073732376E-001;-2.946726232767105E-002;3.775378456339240E-003;4.545478150248528E-003;
2.414333333333334E+009;1.892601847648621E-001;-3.160311281681061E-002;3.912761807441711E-003;4.606264643371105E-003;
2.414500000000000E+009;1.904534548521042E-001;-3.291890770196915E-002;4.233384504914284E-003;4.596642684191465E-003;
2.414666666666667E+009;1.917278915643692E-001;-3.448546677827835E-002;4.399287048727274E-003;4.811814520508051E-003;
2.414833333333334E+009;1.927738785743713E-001;-3.583762794733048E-002;4.701400641351938E-003;4.637403879314661E-003;
2.415000000000000E+009;1.938674598932266E-001;-3.710364177823067E-002;4.940993618220091E-003;4.513648804277182E-003;
2.415166666666667E+009;1.951325833797455E-001;-3.820997104048729E-002;5.202758125960827E-003;4.454303532838821E-003;
2.415333333333334E+009;1.962859630584717E-001;-3.903466835618019E-002;5.483902525156736E-003;4.247488453984261E-003;
2.415500000000000E+009;1.974373608827591E-001;-3.981155157089233E-002;5.762819200754166E-003;4.090727306902409E-003;
2.415666666666667E+009;1.984749138355255E-001;-4.051139205694199E-002;6.129168439656496E-003;3.936825785785914E-003;
2.415833333333334E+009;1.992830038070679E-001;-4.121977090835571E-002;6.289195269346237E-003;3.542567370459437E-003;
2.416000000000000E+009;2.000263482332230E-001;-4.164817184209824E-002;6.700597703456879E-003;3.376771230250597E-003;
2.416166666666667E+009;2.007988840341568E-001;-4.233730584383011E-002;6.879592314362526E-003;3.174863290041685E-003;
2.416333333333334E+009;2.013270109891892E-001;-4.247165098786354E-002;7.177299819886684E-003;2.818509237840772E-003;
2.416500000000000E+009;2.018692046403885E-001;-4.269840195775032E-002;7.049971725791693E-003;2.349420683458448E-003;
2.416666666666667E+009;2.022614628076553E-001;-4.297713935375214E-002;7.220990955829620E-003;2.145772567018867E-003;
2.416833333333334E+009;2.023153901100159E-001;-4.289507493376732E-002;7.486103568226099E-003;1.870492938905954E-003;
2.417000000000000E+009;2.024493217468262E-001;-4.305357113480568E-002;7.525279186666012E-003;1.380501897074282E-003;
2.417166666666667E+009;2.022064924240112E-001;-4.295767843723297E-002;7.663009222596884E-003;1.124841161072254E-003;
2.417333333333334E+009;2.020028531551361E-001;-4.277484118938446E-002;7.487190887331963E-003;8.543730364181101E-004;
2.417500000000000E+009;2.016365826129913E-001;-4.268033057451248E-002;7.530660368502140E-003;5.592886009253562E-004;
2.417666666666667E+009;2.011946290731430E-001;-4.240818321704865E-002;7.481628097593784E-003;1.317827263846993E-004;
2.417833333333334E+009;2.007767111063004E-001;-4.217639192938805E-002;7.406783755868673E-003;-4.826429722015746E-005;
2.418000000000000E+009;2.002164125442505E-001;-4.192711040377617E-002;7.444866932928562E-003;-3.568912507034838E-004;
2.418166666666667E+009;1.992450952529907E-001;-4.180647060275078E-002;7.370414212346077E-003;-6.938141887076199E-004;
2.418333333333334E+009;1.984199583530426E-001;-4.161327704787254E-002;7.357728201895952E-003;-8.689074893482029E-004;
2.418500000000000E+009;1.975018233060837E-001;-4.168438166379929E-002;7.257535587996244E-003;-1.218312536366284E-003;
2.418666666666667E+009;1.964590698480606E-001;-4.153604805469513E-002;7.236614823341370E-003;-1.480899401940405E-003;
2.418833333333334E+009;1.952474266290665E-001;-4.168687388300896E-002;7.144858594983816E-003;-1.823596423491836E-003;
2.419000000000000E+009;1.938623338937759E-001;-4.189271107316017E-002;7.096318528056145E-003;-1.991294324398041E-003;
2.419166666666667E+009;1.927081495523453E-001;-4.218709468841553E-002;6.967786233872175E-003;-2.229276346042752E-003;
2.419333333333334E+009;1.912902593612671E-001;-4.276150092482567E-002;6.845261901617050E-003;-2.564958529546857E-003;
2.419500000000000E+009;1.896555125713348E-001;-4.310354590415955E-002;6.772445514798164E-003;-2.839075168594718E-003;
2.419666666666667E+009;1.883047968149185E-001;-4.385724291205406E-002;6.552325095981360E-003;-2.926046028733254E-003;
2.419833333333334E+009;1.866085529327393E-001;-4.435031116008759E-002;6.595113314688206E-003;-3.188938600942493E-003;
2.420000000000000E+009;1.851514577865601E-001;-4.525158181786537E-002;6.388764828443527E-003;-3.576639574021101E-003;
2.420166666666667E+009;1.833935678005219E-001;-4.634281620383263E-002;6.127901840955019E-003;-3.682479262351990E-003;
2.420333333333334E+009;1.818927079439163E-001;-4.752663150429726E-002;5.977207794785500E-003;-4.000818356871605E-003;
2.420500000000000E+009;1.801315248012543E-001;-4.890443384647369E-002;5.857904441654682E-003;-4.153577610850334E-003;
2.420666666666667E+009;1.786603182554245E-001;-5.008698999881744E-002;5.615241359919310E-003;-4.368317313492298E-003;
2.420833333333334E+009;1.769496947526932E-001;-5.161153897643089E-002;5.290672183036804E-003;-4.648214206099510E-003;
2.421000000000000E+009;1.756169497966766E-001;-5.309299379587174E-002;4.999530967324972E-003;-4.893320612609386E-003;
2.421166666666667E+009;1.741061359643936E-001;-5.504268407821655E-002;4.868638701736927E-003;-5.119842477142811E-003;
2.421333333333334E+009;1.724893301725388E-001;-5.658134818077087E-002;4.364090505987406E-003;-5.057132802903652E-003;
2.421500000000000E+009;1.711931675672531E-001;-5.837995931506157E-002;4.108112305402756E-003;-5.205035209655762E-003;
2.421666666666667E+009;1.698247045278549E-001;-6.035655364394188E-002;3.782911924645305E-003;-5.276938900351524E-003;
2.421833333333334E+009;1.688313484191895E-001;-6.209064647555351E-002;3.582740202546120E-003;-5.156522616744041E-003;
2.422000000000000E+009;1.675937920808792E-001;-6.413505226373673E-002;3.184099914506078E-003;-5.294321104884148E-003;
2.422166666666667E+009;1.667251586914063E-001;-6.630101799964905E-002;3.036798909306526E-003;-5.334192886948586E-003;
2.422333333333334E+009;1.657561510801315E-001;-6.823229789733887E-002;2.632364630699158E-003;-5.211525596678257E-003;
2.422500000000000E+009;1.648693978786469E-001;-7.035438716411591E-002;2.512085484340787E-003;-5.052586551755667E-003;
2.422666666666667E+009;1.645262986421585E-001;-7.235970348119736E-002;2.246117452159524E-003;-5.105316173285246E-003;
2.422833333333334E+009;1.638321429491043E-001;-7.453192025423050E-002;2.073203446343541E-003;-5.080504342913628E-003;
2.423000000000000E+009;1.635194420814514E-001;-7.648229598999023E-002;1.682081492617726E-003;-5.046446342021227E-003;
2.423166666666667E+009;1.629701554775238E-001;-7.864615321159363E-002;1.660545705817640E-003;-4.979140125215054E-003;
2.423333333333334E+009;1.627762168645859E-001;-8.052377402782440E-002;1.480361912399530E-003;-4.780389834195375E-003;
2.423500000000000E+009;1.626147776842117E-001;-8.239469677209854E-002;1.394681748934090E-003;-4.804749507457018E-003;
2.423666666666667E+009;1.627594828605652E-001;-8.430253714323044E-002;1.389016862958670E-003;-4.757273942232132E-003;
2.423833333333334E+009;1.626182645559311E-001;-8.612043410539627E-002;9.482572786509991E-004;-4.689869470894337E-003;
2.424000000000000E+009;1.629579365253449E-001;-8.802420645952225E-002;8.839526562951505E-004;-4.571147263050079E-003;
2.424166666666667E+009;1.630123257637024E-001;-8.950134366750717E-002;9.063173783943057E-004;-4.580589011311531E-003;
2.424333333333334E+009;1.631038188934326E-001;-9.112438559532166E-002;6.671524024568498E-004;-4.408127162605524E-003;
2.424500000000000E+009;1.635200381278992E-001;-9.268615394830704E-002;7.400221074931324E-004;-4.356944467872381E-003;
2.424666666666667E+009;1.638241410255432E-001;-9.419988840818405E-002;4.280199063941836E-004;-4.163383040577173E-003;
2.424833333333334E+009;1.644811630249023E-001;-9.542608261108398E-002;4.171032924205065E-004;-4.019557498395443E-003;
2.425000000000000E+009;1.648431271314621E-001;-9.668628126382828E-002;4.500646609812975E-004;-4.012254532426596E-003;
2.425166666666667E+009;1.651012152433395E-001;-9.768290817737579E-002;4.450773994904012E-004;-3.820659825578332E-003;
2.425333333333334E+009;1.654936671257019E-001;-9.859810024499893E-002;4.430058761499822E-004;-3.781301900744438E-003;
2.425500000000000E+009;1.660008579492569E-001;-9.964056313037872E-002;4.347985959611833E-004;-3.592637833207846E-003;
2.425666666666667E+009;1.663706451654434E-001;-1.002508550882340E-001;3.607581020332873E-004;-3.576554823666811E-003;
2.425833333333334E+009;1.667604446411133E-001;-1.011266857385635E-001;4.311083757784218E-004;-3.508919849991798E-003;
2.426000000000000E+009;1.672325432300568E-001;-1.015325412154198E-001;5.426241550594568E-004;-3.468454116955400E-003;
2.426166666666667E+009;1.676070392131805E-001;-1.020240336656570E-001;5.316301248967648E-004;-3.688619704917073E-003;
2.426333333333334E+009;1.676664501428604E-001;-1.025303751230240E-001;4.633538483176380E-004;-3.681362606585026E-003;
2.426500000000000E+009;1.681142300367355E-001;-1.027735918760300E-001;6.287950673140585E-004;-3.785911947488785E-003;
2.426666666666667E+009;1.683599799871445E-001;-1.031212434172630E-001;4.455994057934731E-004;-3.790474962443113E-003;
2.426833333333334E+009;1.686040163040161E-001;-1.034083142876625E-001;4.910354036837816E-004;-3.830084577202797E-003;
2.427000000000000E+009;1.685811877250671E-001;-1.035256683826447E-001;4.216241941321641E-004;-3.941023722290993E-003;
2.427166666666667E+009;1.686862111091614E-001;-1.036021411418915E-001;4.642215790227056E-004;-3.879740834236145E-003;
2.427333333333334E+009;1.685682833194733E-001;-1.038159504532814E-001;3.875090333167464E-004;-3.972970414906740E-003;
2.427500000000000E+009;1.682312935590744E-001;-1.040628030896187E-001;2.552268560975790E-004;-4.174981266260147E-003;
2.427666666666667E+009;1.679538339376450E-001;-1.039579585194588E-001;1.723230379866436E-004;-3.997073043137789E-003;
2.427833333333334E+009;1.675552874803543E-001;-1.041881516575813E-001;1.746906491462141E-004;-4.024751950055361E-003;
