# Version 1.00
#
freq[Hz];re:Trc1_S11;im:Trc1_S11;re:Trc2_S21;im:Trc2_S21;
2.400000000000000E+009;1.553646475076675E-001;1.065985634922981E-001;-8.433031849563122E-003;-3.887102357111871E-004;
2.400166666666667E+009;1.550174206495285E-001;1.042492389678955E-001;-8.763928897678852E-003;-4.552660902845673E-005;
2.400333333333334E+009;1.550533622503281E-001;1.019306033849716E-001;-8.794988505542278E-003;3.711593162734062E-004;
2.400500000000000E+009;1.548308730125427E-001;9.924059361219406E-002;-8.843065239489079E-003;7.073315791785717E-004;
2.400666666666667E+009;1.551237851381302E-001;9.672057628631592E-002;-8.894963189959526E-003;1.347372774034739E-003;
2.400833333333334E+009;1.551431119441986E-001;9.363841265439987E-002;-8.794417604804039E-003;1.871547545306385E-003;
2.401000000000000E+009;1.552479863166809E-001;9.092423319816589E-002;-8.706712163984776E-003;2.289436990395188E-003;
2.401166666666667E+009;1.553804874420166E-001;8.822952210903168E-002;-8.588134311139584E-003;2.516145817935467E-003;
2.401333333333334E+009;1.558237373828888E-001;8.540996164083481E-002;-8.409289643168449E-003;3.191081574186683E-003;
2.401500000000000E+009;1.562827974557877E-001;8.235381543636322E-002;-8.300073444843292E-003;3.608083585277200E-003;
2.401666666666667E+009;1.567255109548569E-001;7.941859215497971E-002;-7.817455567419529E-003;3.974126186221838E-003;
2.401833333333334E+009;1.571740806102753E-001;7.680658996105194E-002;-7.592269685119391E-003;4.150560591369867E-003;
2.402000000000000E+009;1.579261273145676E-001;7.394055277109146E-002;-7.296801544725895E-003;4.592971410602331E-003;
2.402166666666667E+009;1.588306427001953E-001;7.121983170509338E-002;-6.969979964196682E-003;4.680696874856949E-003;
2.402333333333334E+009;1.597427278757095E-001;6.857889890670776E-002;-6.558511871844530E-003;5.027991719543934E-003;
2.402500000000000E+009;1.609584689140320E-001;6.593387573957443E-002;-6.258292589336634E-003;5.103662610054016E-003;
2.402666666666667E+009;1.618312895298004E-001;6.358966976404190E-002;-6.131839472800493E-003;5.230696871876717E-003;
2.402833333333334E+009;1.632503718137741E-001;6.105403229594231E-002;-5.677532870322466E-003;5.450822878628969E-003;
2.403000000000000E+009;1.645037531852722E-001;5.866206437349320E-002;-5.610602442175150E-003;5.466144066303968E-003;
2.403166666666667E+009;1.662848740816116E-001;5.657625943422318E-002;-5.353341344743967E-003;5.727834999561310E-003;
2.403333333333334E+009;1.675785183906555E-001;5.431581661105156E-002;-4.945120308548212E-003;5.689179059118033E-003;
2.403500000000000E+009;1.693216711282730E-001;5.220539867877960E-002;-4.717824980616570E-003;5.763938650488854E-003;
2.403666666666667E+009;1.711710542440414E-001;5.036189779639244E-002;-4.589594434946775E-003;5.909659434109926E-003;
2.403833333333334E+009;1.728104650974274E-001;4.849537461996079E-002;-4.479170311242342E-003;6.073871627449989E-003;
2.404000000000000E+009;1.743199080228806E-001;4.673893377184868E-002;-4.170494154095650E-003;6.166528444737196E-003;
2.404166666666667E+009;1.760339438915253E-001;4.525054991245270E-002;-3.911096137017012E-003;6.181376054883003E-003;
2.404333333333334E+009;1.776811480522156E-001;4.362685605883598E-002;-3.532475791871548E-003;6.343488115817308E-003;
2.404500000000000E+009;1.793652027845383E-001;4.223590716719627E-002;-3.390251426026225E-003;6.413964089006186E-003;
2.404666666666667E+009;1.810519099235535E-001;4.112882912158966E-002;-3.208240494132042E-003;6.355488672852516E-003;
2.404833333333334E+009;1.826535016298294E-001;4.000741615891457E-002;-2.657601376995444E-003;6.646416150033474E-003;
2.405000000000000E+009;1.840249747037888E-001;3.939518705010414E-002;-2.679919358342886E-003;6.578751839697361E-003;
2.405166666666667E+009;1.854919791221619E-001;3.867774829268456E-002;-2.333068056032062E-003;6.567642092704773E-003;
2.405333333333334E+009;1.868770271539688E-001;3.825120255351067E-002;-1.931851147674024E-003;6.681005004793406E-003;
2.405500000000000E+009;1.883231699466705E-001;3.775347024202347E-002;-1.721576554700732E-003;6.540426053106785E-003;
2.405666666666667E+009;1.895348131656647E-001;3.736011683940888E-002;-1.430669333785772E-003;6.431627552956343E-003;
2.405833333333334E+009;1.907625347375870E-001;3.719622641801834E-002;-1.203491003252566E-003;6.495276931673288E-003;
2.406000000000000E+009;1.918719559907913E-001;3.708626329898834E-002;-9.692310122773051E-004;6.264131981879473E-003;
2.406166666666667E+009;1.926880925893784E-001;3.682243451476097E-002;-8.100942941382527E-004;6.277541629970074E-003;
2.406333333333334E+009;1.935252398252487E-001;3.667674213647842E-002;-4.716370895039290E-004;6.223580334335566E-003;
2.406500000000000E+009;1.943271309137344E-001;3.686663880944252E-002;-4.476307076402009E-004;6.037035956978798E-003;
2.406666666666667E+009;1.948981285095215E-001;3.687630966305733E-002;-2.929040929302573E-004;5.975999869406223E-003;
2.406833333333334E+009;1.954766958951950E-001;3.686787188053131E-002;-2.046294539468363E-004;5.776511970907450E-003;
2.407000000000000E+009;1.957045346498489E-001;3.720558807253838E-002;2.175011759391055E-004;5.814676638692617E-003;
2.407166666666667E+009;1.960968226194382E-001;3.706412389874458E-002;2.555324754212052E-004;5.547780543565750E-003;
2.407333333333334E+009;1.959675699472427E-001;3.722472861409187E-002;2.628854999784380E-004;5.486288107931614E-003;
2.407500000000000E+009;1.958641409873962E-001;3.734186664223671E-002;4.911583964712918E-004;5.310765467584133E-003;
2.407666666666667E+009;1.958192139863968E-001;3.729503229260445E-002;5.255721625871956E-004;5.242002196609974E-003;
2.407833333333334E+009;1.953988671302795E-001;3.723957389593124E-002;7.785481284372509E-004;5.104891490191221E-003;
2.408000000000000E+009;1.952932924032211E-001;3.719706088304520E-002;6.218320340849459E-004;5.088913720101118E-003;
2.408166666666667E+009;1.946632117033005E-001;3.703241422772408E-002;7.063558441586793E-004;4.883376881480217E-003;
2.408333333333334E+009;1.942045688629150E-001;3.646457567811012E-002;7.628917228430510E-004;4.825008567422628E-003;
2.408500000000000E+009;1.935124099254608E-001;3.631525114178658E-002;8.002123213373125E-004;4.679861012846232E-003;
2.408666666666667E+009;1.928259730339050E-001;3.572567924857140E-002;8.825039840303361E-004;4.490794148296118E-003;
2.408833333333334E+009;1.922295391559601E-001;3.506129980087280E-002;6.179691990837455E-004;4.532735329121351E-003;
2.409000000000000E+009;1.911651790142059E-001;3.410414978861809E-002;7.478767656721175E-004;4.353755619376898E-003;
2.409166666666667E+009;1.902417689561844E-001;3.328010439872742E-002;6.542861228808761E-004;4.334381781518459E-003;
2.409333333333334E+009;1.893706619739533E-001;3.217507898807526E-002;4.841965856030583E-004;4.316441714763641E-003;
2.409500000000000E+009;1.881424933671951E-001;3.089626692235470E-002;6.354152574203908E-004;4.370213486254215E-003;
2.409666666666667E+009;1.870815753936768E-001;2.958489395678043E-002;6.090938113629818E-004;4.367550369352102E-003;
2.409833333333334E+009;1.862770915031433E-001;2.801586128771305E-002;4.744206962641329E-004;4.467098508030176E-003;
2.410000000000000E+009;1.852043122053146E-001;2.641393058001995E-002;4.833944840356708E-004;4.596082959324122E-003;
2.410166666666667E+009;1.841111481189728E-001;2.474338747560978E-002;5.628408980555832E-004;4.650161135941744E-003;
2.410333333333334E+009;1.832043379545212E-001;2.299115993082523E-002;5.689022364094853E-004;4.785640630871058E-003;
2.410500000000000E+009;1.821576058864594E-001;2.102562971413136E-002;6.453874520957470E-004;4.922474268823862E-003;
2.410666666666667E+009;1.812674999237061E-001;1.873886957764626E-002;7.805956411175430E-004;5.109008401632309E-003;
2.410833333333334E+009;1.806630343198776E-001;1.662224903702736E-002;9.172379504889250E-004;5.221887957304716E-003;
2.411000000000000E+009;1.799102276563644E-001;1.417144946753979E-002;9.627558174543083E-004;5.362215451896191E-003;
2.411166666666667E+009;1.792473196983337E-001;1.208726502954960E-002;1.237712102010846E-003;5.369426216930151E-003;
2.411333333333334E+009;1.787717193365097E-001;9.381216950714588E-003;1.437727361917496E-003;5.483092740178108E-003;
2.411500000000000E+009;1.783359497785568E-001;7.073323708027601E-003;1.609552768059075E-003;5.320992786437273E-003;
2.411666666666667E+009;1.781509220600128E-001;4.714655689895153E-003;1.994330203160644E-003;5.288561806082726E-003;
2.411833333333334E+009;1.777827143669128E-001;2.337798476219177E-003;2.071217866614461E-003;5.189426243305206E-003;
2.412000000000000E+009;1.778448522090912E-001;-1.901276118587703E-004;2.255555242300034E-003;5.220875144004822E-003;
2.412166666666667E+009;1.779728531837463E-001;-2.591522643342614E-003;2.464726334437728E-003;5.105626303702593E-003;
2.412333333333334E+009;1.781107187271118E-001;-5.100492388010025E-003;2.562301699072123E-003;4.995324648916721E-003;
2.412500000000000E+009;1.784428358078003E-001;-7.524086628109217E-003;2.811517333611846E-003;4.885779693722725E-003;
2.412666666666667E+009;1.789943128824234E-001;-1.015540212392807E-002;2.968472195789218E-003;4.718868061900139E-003;
2.412833333333334E+009;1.798645704984665E-001;-1.232972461730242E-002;3.069494385272265E-003;4.740475676953793E-003;
2.413000000000000E+009;1.805086582899094E-001;-1.466210186481476E-002;3.065510187298060E-003;4.680715966969729E-003;
2.413166666666667E+009;1.813771724700928E-001;-1.708735153079033E-002;3.075113054364920E-003;4.682437516748905E-003;
2.413333333333334E+009;1.823469251394272E-001;-1.923415064811707E-002;3.216253360733390E-003;4.515528213232756E-003;
2.413500000000000E+009;1.832107454538345E-001;-2.156775072216988E-002;3.209542017430067E-003;4.548419732600451E-003;
2.413666666666667E+009;1.846269369125366E-001;-2.379023656249046E-002;3.452322911471129E-003;4.645584151148796E-003;
2.413833333333334E+009;1.855883002281189E-001;-2.562685683369637E-002;3.361539216712117E-003;4.498012829571962E-003;
2.414000000000000E+009;1.868404000997543E-001;-2.773217111825943E-002;3.477766644209623E-003;4.616186022758484E-003;
2.414166666666667E+009;1.879995912313461E-001;-2.952164039015770E-002;3.668024437502027E-003;4.592929966747761E-003;
2.414333333333334E+009;1.891884058713913E-001;-3.158893436193466E-002;3.846410894766450E-003;4.608176182955504E-003;
2.414500000000000E+009;1.903973966836929E-001;-3.288627415895462E-002;4.181960597634316E-003;4.705359227955341E-003;
2.414666666666667E+009;1.915227025747299E-001;-3.454614430665970E-002;4.358267411589623E-003;4.644779954105616E-003;
2.414833333333334E+009;1.927495747804642E-001;-3.572861850261688E-002;4.635992459952831E-003;4.567859228700399E-003;
2.415000000000000E+009;1.937777549028397E-001;-3.702317178249359E-002;4.919468890875578E-003;4.488917998969555E-003;
2.415166666666667E+009;1.951118260622025E-001;-3.822640329599381E-002;5.077187903225422E-003;4.412559792399406E-003;
2.415333333333334E+009;1.963774561882019E-001;-3.908873721957207E-002;5.424254108220339E-003;4.338333383202553E-003;
2.415500000000000E+009;1.973620355129242E-001;-3.983613476157188E-002;5.678367801010609E-003;4.277246072888374E-003;
2.415666666666667E+009;1.984385699033737E-001;-4.058602452278137E-002;6.114928983151913E-003;4.006711766123772E-003;
2.415833333333334E+009;1.992471069097519E-001;-4.120134189724922E-002;6.404514890164137E-003;3.675558837130666E-003;
2.416000000000000E+009;2.000080496072769E-001;-4.163790494203568E-002;6.613790057599545E-003;3.409535391256213E-003;
2.416166666666667E+009;2.007301151752472E-001;-4.219235852360725E-002;6.878095213323832E-003;3.123598406091332E-003;
2.416333333333334E+009;2.013847976922989E-001;-4.248903691768646E-002;6.972840521484613E-003;2.895201323553920E-003;
2.416500000000000E+009;2.017625421285629E-001;-4.274716600775719E-002;7.142011541873217E-003;2.497618552297354E-003;
2.416666666666667E+009;2.021193951368332E-001;-4.297041147947311E-002;7.334589958190918E-003;2.200556453317404E-003;
2.416833333333334E+009;2.023110091686249E-001;-4.304925724864006E-002;7.331732194870710E-003;1.928673475049436E-003;
2.417000000000000E+009;2.023735940456390E-001;-4.305128008127213E-002;7.447786163538694E-003;1.398786902427673E-003;
2.417166666666667E+009;2.021839022636414E-001;-4.286992549896240E-002;7.449533790349960E-003;1.214567455463111E-003;
2.417333333333334E+009;2.020215094089508E-001;-4.274827241897583E-002;7.502505090087652E-003;7.383967167697847E-004;
2.417500000000000E+009;2.015537023544312E-001;-4.267533868551254E-002;7.541749626398087E-003;4.310644580982626E-004;
2.417666666666667E+009;2.011169344186783E-001;-4.246421903371811E-002;7.456314284354448E-003;2.412072353763506E-004;
2.417833333333334E+009;2.007068544626236E-001;-4.214832931756973E-002;7.693245541304350E-003;-1.820279285311699E-004;
2.418000000000000E+009;2.001036852598190E-001;-4.184284433722496E-002;7.464273832738400E-003;-3.830484347417951E-004;
2.418166666666667E+009;1.991766542196274E-001;-4.172692820429802E-002;7.456858176738024E-003;-5.760706262663007E-004;
2.418333333333334E+009;1.984052956104279E-001;-4.162881150841713E-002;7.452069781720638E-003;-9.499453008174896E-004;
2.418500000000000E+009;1.974410712718964E-001;-4.170180857181549E-002;7.350087165832520E-003;-1.383294933475554E-003;
2.418666666666667E+009;1.964067518711090E-001;-4.146245494484901E-002;7.181267254054546E-003;-1.409856718964875E-003;
2.418833333333334E+009;1.951559931039810E-001;-4.168190807104111E-002;7.110851351171732E-003;-1.781400758773089E-003;
2.419000000000000E+009;1.939318180084229E-001;-4.178741201758385E-002;7.088273297995329E-003;-2.128190593793988E-003;
2.419166666666667E+009;1.926362514495850E-001;-4.209442809224129E-002;6.965595297515392E-003;-2.202717820182443E-003;
2.419333333333334E+009;1.912373155355454E-001;-4.250862076878548E-002;6.859390530735254E-003;-2.586057176813483E-003;
2.419500000000000E+009;1.897143125534058E-001;-4.306189343333244E-002;6.799587048590183E-003;-2.889908850193024E-003;
2.419666666666667E+009;1.882460415363312E-001;-4.379569739103317E-002;6.629503797739744E-003;-3.043635282665491E-003;
2.419833333333334E+009;1.866880953311920E-001;-4.448029026389122E-002;6.551026832312346E-003;-3.415592713281512E-003;
2.420000000000000E+009;1.851447373628616E-001;-4.531774297356606E-002;6.244963500648737E-003;-3.575595095753670E-003;
2.420166666666667E+009;1.834862530231476E-001;-4.631562158465385E-002;6.084768101572990E-003;-3.721105866134167E-003;
2.420333333333334E+009;1.819863617420197E-001;-4.756641015410423E-002;5.970704834908247E-003;-3.992945887148380E-003;
2.420500000000000E+009;1.801545470952988E-001;-4.890200495719910E-002;5.722463130950928E-003;-4.230885766446590E-003;
2.420666666666667E+009;1.785839647054672E-001;-5.009874701499939E-002;5.452922545373440E-003;-4.430131055414677E-003;
2.420833333333334E+009;1.770452558994293E-001;-5.164539441466332E-002;5.151353310793638E-003;-4.730012267827988E-003;
2.421000000000000E+009;1.755764633417130E-001;-5.316837131977081E-002;5.059368908405304E-003;-4.837712738662958E-003;
2.421166666666667E+009;1.742039918899536E-001;-5.496181920170784E-002;4.657850135117769E-003;-5.024335347115994E-003;
2.421333333333334E+009;1.724511981010437E-001;-5.657825618982315E-002;4.300772212445736E-003;-5.187200848013163E-003;
2.421500000000000E+009;1.710751205682755E-001;-5.838042497634888E-002;4.077414050698280E-003;-5.242215003818274E-003;
2.421666666666667E+009;1.699712872505188E-001;-6.030265241861343E-002;3.779671620577574E-003;-5.386070348322392E-003;
2.421833333333334E+009;1.687030941247940E-001;-6.228597089648247E-002;3.417529631406069E-003;-5.186583846807480E-003;
2.422000000000000E+009;1.676311939954758E-001;-6.416056305170059E-002;3.309781663119793E-003;-5.273969843983650E-003;
2.422166666666667E+009;1.668458729982376E-001;-6.632968783378601E-002;2.976856660097837E-003;-5.263652652502060E-003;
2.422333333333334E+009;1.657462716102600E-001;-6.841749697923660E-002;2.680282806977630E-003;-5.209568422287703E-003;
2.422500000000000E+009;1.649038940668106E-001;-7.026040554046631E-002;2.396892756223679E-003;-4.993727896362543E-003;
2.422666666666667E+009;1.643456369638443E-001;-7.245597988367081E-002;2.263360656797886E-003;-5.106730386614800E-003;
2.422833333333334E+009;1.639778912067413E-001;-7.448045164346695E-002;2.061861800029874E-003;-5.116388667374849E-003;
2.423000000000000E+009;1.632972359657288E-001;-7.660184800624847E-002;1.912265899591148E-003;-4.893430508673191E-003;
2.423166666666667E+009;1.630643606185913E-001;-7.857751846313477E-002;1.717049162834883E-003;-4.966524429619312E-003;
2.423333333333334E+009;1.627301573753357E-001;-8.061848580837250E-002;1.511844573542476E-003;-4.845515824854374E-003;
2.423500000000000E+009;1.626627147197723E-001;-8.248501271009445E-002;1.480505219660699E-003;-4.778158850967884E-003;
2.423666666666667E+009;1.627998799085617E-001;-8.437176793813705E-002;1.211034599691629E-003;-4.659055266529322E-003;
2.423833333333334E+009;1.626774072647095E-001;-8.603432029485703E-002;1.160645624622703E-003;-4.656775388866663E-003;
2.424000000000000E+009;1.628150492906570E-001;-8.784063160419464E-002;1.042952178977430E-003;-4.447951447218657E-003;
2.424166666666667E+009;1.628532409667969E-001;-8.948562294244766E-002;7.288543856702745E-004;-4.484773147851229E-003;
2.424333333333334E+009;1.632605642080307E-001;-9.104291349649429E-002;7.100558723323047E-004;-4.317351616919041E-003;
2.424500000000000E+009;1.636312752962112E-001;-9.277252107858658E-002;7.074081222526729E-004;-4.326413385570049E-003;
2.424666666666667E+009;1.638927012681961E-001;-9.419202059507370E-002;5.434084450826049E-004;-4.175525158643723E-003;
2.424833333333334E+009;1.644398868083954E-001;-9.533789753913879E-002;4.660719132516533E-004;-3.983709961175919E-003;
2.425000000000000E+009;1.648168563842773E-001;-9.662999957799912E-002;5.634021945297718E-004;-3.826830768957734E-003;
2.425166666666667E+009;1.651464104652405E-001;-9.763640165328980E-002;5.203633336350322E-004;-3.713275771588087E-003;
2.425333333333334E+009;1.655555963516235E-001;-9.866754710674286E-002;3.282424586359412E-004;-3.884746925905347E-003;
2.425500000000000E+009;1.660112291574478E-001;-9.963842481374741E-002;5.624275654554367E-004;-3.586626844480634E-003;
2.425666666666667E+009;1.664876341819763E-001;-1.003816723823547E-001;4.290853976272047E-004;-3.661249531432986E-003;
2.425833333333334E+009;1.666652858257294E-001;-1.011372953653336E-001;5.046874284744263E-004;-3.655013395473361E-003;
2.426000000000000E+009;1.671967357397080E-001;-1.015395298600197E-001;4.931307048536837E-004;-3.716585924848914E-003;
2.426166666666667E+009;1.675404012203217E-001;-1.020532622933388E-001;5.053454660810530E-004;-3.620618488639593E-003;
2.426333333333334E+009;1.676874160766602E-001;-1.026685759425163E-001;4.564898554235697E-004;-3.687007352709770E-003;
2.426500000000000E+009;1.681240051984787E-001;-1.028413772583008E-001;4.940628423355520E-004;-3.547421190887690E-003;
2.426666666666667E+009;1.682700365781784E-001;-1.031418517231941E-001;5.033678608015180E-004;-3.830687608569861E-003;
2.426833333333334E+009;1.687091141939163E-001;-1.034124568104744E-001;5.932833300903440E-004;-3.783252555876970E-003;
2.427000000000000E+009;1.685753315687180E-001;-1.035953238606453E-001;3.447025083005428E-004;-3.762187901884317E-003;
2.427166666666667E+009;1.685813963413239E-001;-1.036590561270714E-001;4.625480796676129E-004;-3.978602588176727E-003;
2.427333333333334E+009;1.685940176248550E-001;-1.039223372936249E-001;3.094254061579704E-004;-3.959862515330315E-003;
2.427500000000000E+009;1.683280616998673E-001;-1.039986237883568E-001;2.437187649775296E-004;-3.837266471236944E-003;
2.427666666666667E+009;1.679932028055191E-001;-1.041409000754356E-001;1.986210118047893E-004;-3.940277732908726E-003;
2.427833333333334E+009;1.676333397626877E-001;-1.042282208800316E-001;1.636903907638043E-004;-3.955937922000885E-003;
