# Hz S RI R 50
2400000000.0000000000 0.157815635204315213302450615629 0.111913658678531702239666856258 -0.001232975744642317078234028394 0.000149440515087917501300257550 0 0 0 0 
2400166666.6666665077 0.157242596149444607833700615629 0.109726339578628498405699076557 -0.001146281836554408073425292969 0.000392988702515140175819396973 0 0 0 0 
2400333333.3333334923 0.156895771622657803634481865629 0.107310838997364002556089701557 -0.000904493907000869512557983398 0.000288551236735656911700648175 0 0 0 0 
2400500000.0000000000 0.156616568565368707854901231258 0.104866608977317796180805942186 -0.000689666660036891698837280273 0.000166056925081647905424395151 0 0 0 0 
2400666666.6666665077 0.156225502490997286697549384371 0.102563016116619096229634067186 -0.000459315924672409892082214355 0.000299855048069730401039123535 0 0 0 0 
2400833333.3333334923 0.155789896845817593673544365629 0.099593438208103179931640625000 -0.000298613245831802487373352051 0.000064625026425346732139587402 0 0 0 0 
2401000000.0000000000 0.155475482344627408126669365629 0.096810638904571533203125000000 -0.000281399843515828306048792706 -0.000158657770953141207068842755 0 0 0 0 
2401166666.6666665077 0.155402451753616305252236884371 0.094007976353168487548828125000 -0.000244817405473440885543823242 -0.000486771343275904709666651593 0 0 0 0 
2401333333.3333334923 0.155281454324722290039062500000 0.091073006391525268554687500000 -0.000372139096725732088088989258 -0.000376359676010906696319580078 0 0 0 0 
2401500000.0000000000 0.155496254563331604003906250000 0.088061310350894927978515625000 -0.000347431137925013899803161621 -0.000723417557310312986373901367 0 0 0 0 
2401666666.6666665077 0.155285000801086398025674384371 0.085047416388988494873046875000 -0.000518385320901870727539062500 -0.000863113149534910917282104492 0 0 0 0 
2401833333.3333334923 0.155480012297630310058593750000 0.082202084362506866455078125000 -0.000728035694919526576995849609 -0.000749805243685841560363769531 0 0 0 0 
2402000000.0000000000 0.155927330255508395095986884371 0.079062007367610931396484375000 -0.001079217996448277993443154443 -0.000928463123273104429244995117 0 0 0 0 
2402166666.6666665077 0.156556457281112698654013115629 0.076135091483592987060546875000 -0.001101643545553087971330952222 -0.000992231536656618118286132812 0 0 0 0 
2402333333.3333334923 0.157316699624061612228231865629 0.072912827134132385253906250000 -0.001154605997726321003557514722 -0.000856840808410197496414184570 0 0 0 0 
2402500000.0000000000 0.158113673329353304763955634371 0.070627816021442413330078125000 -0.001629777369089425043818808447 -0.000504856463521718978881835938 0 0 0 0 
2402666666.6666665077 0.159019991755485506912393134371 0.067671485245227813720703125000 -0.001704249065369368033168173682 -0.000773262639995664358139038086 0 0 0 0 
2402833333.3333334923 0.160114541649818392654580634371 0.064953967928886413574218750000 -0.001865209778770803971531533350 -0.000520253845024853944778442383 0 0 0 0 
2403000000.0000000000 0.161305204033851595779580634371 0.062187734991312026977539062500 -0.002049565780907868905308388818 -0.000451765168691053986549377441 0 0 0 0 
2403166666.6666665077 0.163022547960281399825888115629 0.059738609939813606952707658593 -0.002048180671408772902247763525 -0.000275241502095013911097926007 0 0 0 0 
2403333333.3333334923 0.164350375533103887359942518742 0.057198371738195419311523437500 -0.002262060297653079032897949219 0.000065738648117985576391220093 0 0 0 0 
2403500000.0000000000 0.165970861911773709396200615629 0.054806616157293319702148437500 -0.002154040848836303190944052588 0.000364194769645109826892298566 0 0 0 0 
2403666666.6666665077 0.167642936110496493240518134371 0.052464529871940612792968750000 -0.002204324351623653931858681787 0.000418314040871337110370081769 0 0 0 0 
2403833333.3333334923 0.169594049453735407073651231258 0.050299007445573806762695312500 -0.002165060024708509011509560693 0.000663408485706895589828491211 0 0 0 0 
2404000000.0000000000 0.170937716960907010177450615629 0.047984372824430472637136091407 -0.001956040272489190101623535156 0.000827610201667994260787963867 0 0 0 0 
2404166666.6666665077 0.173039957880973788162393134371 0.046283286064863211894948591407 -0.001828553853556514003156352466 0.001139083295129239992854452979 0 0 0 0 
2404333333.3333334923 0.174703478813171386718750000000 0.044389560818672180175781250000 -0.001684237970039248900172568213 0.001207459950819611983058310400 0 0 0 0 
2404500000.0000000000 0.176505014300346402267294365629 0.042521648108959197998046875000 -0.001643276889808475971221923828 0.001232653041370213031768798828 0 0 0 0 
2404666666.6666665077 0.178227886557579012771768134371 0.041164010763168341899831403907 -0.001373801496811210892320942456 0.001317965565249324061750102466 0 0 0 0 
2404833333.3333334923 0.180205240845680209060830634371 0.039960410445928566669504533593 -0.001126792747527360916137695312 0.001376103726215661005732870947 0 0 0 0 
2405000000.0000000000 0.181802034378051813323651231258 0.039128437638282782817800153907 -0.001145653426647186062456440503 0.001303042634390294985530234229 0 0 0 0 
2405166666.6666665077 0.183535382151603698730468750000 0.038021448999643332744557966407 -0.000930223846808075904846191406 0.001404344686307013034820556641 0 0 0 0 
2405333333.3333334923 0.185371339321136502364950615629 0.037447370588779449462890625000 -0.001071060076355933926225971753 0.001290174433961511091945029150 0 0 0 0 
2405500000.0000000000 0.186920136213302612304687500000 0.036664664745330810546875000000 -0.000804044946562498807907104492 0.001197161036543548107147216797 0 0 0 0 
2405666666.6666665077 0.188552394509315490722656250000 0.036198362708091742778737653907 -0.000765395583584904670715332031 0.001154914963990449905395507812 0 0 0 0 
2405833333.3333334923 0.190274611115455599685830634371 0.035800293087959289550781250000 -0.000748378632124513387680053711 0.001311821746639906926396035303 0 0 0 0 
2406000000.0000000000 0.191647261381149291992187500000 0.035671848803758621215820312500 -0.000731165346223860979080200195 0.001209069276228547096252441406 0 0 0 0 
2406166666.6666665077 0.192914947867393493652343750000 0.035353694111108779907226562500 -0.000690259505063295364379882812 0.001156870042905211014988564600 0 0 0 0 
2406333333.3333334923 0.194307461380958612640057481258 0.035503100603818893432617187500 -0.000708792475052177906036376953 0.001161435036920011043548583984 0 0 0 0 
2406500000.0000000000 0.195277571678161593338174384371 0.035557240247726440429687500000 -0.000646970933303236961364746094 0.001138877705670892975450825269 0 0 0 0 
2406666666.6666665077 0.196331351995468111892861884371 0.035659998655319206928293596093 -0.000753088097553700208663940430 0.001147165894508362033246684497 0 0 0 0 
2406833333.3333334923 0.197308629751205388824786268742 0.035959970206022262573242187500 -0.000930739566683769226074218750 0.001235245843417942957637167822 0 0 0 0 
2407000000.0000000000 0.198080867528915405273437500000 0.036252297461032867431640625000 -0.000649236200843006372451782227 0.001304464880377053997637104565 0 0 0 0 
2407166666.6666665077 0.198728665709495488922442518742 0.036358192563056952739675153907 -0.000744641933124512434005737305 0.001305770478211343071581196362 0 0 0 0 
2407333333.3333334923 0.199058681726455688476562500000 0.036749430000782012939453125000 -0.000730898347683250904083251953 0.001463722903281450054766010815 0 0 0 0 
2407500000.0000000000 0.199309006333351107498330634371 0.036969438195228576660156250000 -0.000525865121744573116302490234 0.001437227241694926998735737378 0 0 0 0 
2407666666.6666665077 0.199684783816337613204794365629 0.037311080843210220336914062500 -0.000493913772515952587127685547 0.001553128124214709021924663013 0 0 0 0 
2407833333.3333334923 0.199455082416534396072549384371 0.037469148635864257812500000000 -0.000477093883091583902209681378 0.001427145325578748962999653394 0 0 0 0 
2408000000.0000000000 0.199604257941246004959268134371 0.037846039980649948120117187500 -0.000386918050935491919517517090 0.001766406348906456990482949365 0 0 0 0 
2408166666.6666665077 0.199235945940017700195312500000 0.037749409675598151470143903907 -0.000317309197271242683559971942 0.001823739730753004984614706885 0 0 0 0 
2408333333.3333334923 0.198976352810859707931356865629 0.037725381553173072124440778907 -0.000333178963046521002620142804 0.001886573736555873914005898584 0 0 0 0 
2408500000.0000000000 0.198390781879425104339276231258 0.037711046636104576801340471093 -0.000087650478235445916652679443 0.001838166965171694972394633716 0 0 0 0 
2408666666.6666665077 0.197931870818138094803018134371 0.037543490529060356830637346093 0.000045634053094545379281044006 0.001964156748726963996887207031 0 0 0 0 
2408833333.3333334923 0.197218209505081204513388115629 0.037260718643665306781809221093 0.000003221302677047788165509701 0.001934955012984574057935405200 0 0 0 0 
2409000000.0000000000 0.196222707629203796386718750000 0.036740098148584372783620466407 0.000266588816884905099868774414 0.001886378624476491971256875146 0 0 0 0 
2409166666.6666665077 0.195304796099662808517294365629 0.036180444061756127094309221093 0.000237800210015848306104382925 0.001907884958200156905530620044 0 0 0 0 
2409333333.3333334923 0.194439500570297213455361884371 0.035437520593404769897460937500 0.000340311962645500898361206055 0.001782752922736108086229633862 0 0 0 0 
2409500000.0000000000 0.193051695823669405838174384371 0.034636538475751876831054687500 0.000517206965014338493347167969 0.001738518942147492928745888818 0 0 0 0 
2409666666.6666665077 0.192007645964622497558593750000 0.033513281494379036640207658593 0.000562549743335694074630737305 0.001821558922529221014735556494 0 0 0 0 
2409833333.3333334923 0.190659299492835998535156250000 0.032480057328939437866210937500 0.000837058818433433771133422852 0.001613754080608486912370991284 0 0 0 0 
2410000000.0000000000 0.189632922410964993575888115629 0.030927386134862899780273437500 0.000988373183645308017730712891 0.001672073500230907960178994287 0 0 0 0 
2410166666.6666665077 0.188289865851402310470419365629 0.029579989612102508544921875000 0.001056044129654764912248920972 0.001543235615827142975450825269 0 0 0 0 
2410333333.3333334923 0.187093108892440795898437500000 0.028090693056583411479909528907 0.001211915630847216086146689307 0.001562408171594142913818359375 0 0 0 0 
2410500000.0000000000 0.185892865061760004241619981258 0.026354335248470309865931326954 0.001035973778925836086273193359 0.001421168213710189082502055591 0 0 0 0 
2410666666.6666665077 0.184671297669410705566406250000 0.024110466241836551321009451954 0.001369027886539698080775595557 0.001243277569301425976994179834 0 0 0 0 
2410833333.3333334923 0.183634877204894991775674384371 0.022223843261599540710449218750 0.001490675145760178999659872900 0.001123834284953773021697998047 0 0 0 0 
2411000000.0000000000 0.182475551962852505782919365629 0.020126145333051681518554687500 0.001601856201887130954145121997 0.000897804391570389270782470703 0 0 0 0 
2411166666.6666665077 0.181683391332626287262286268742 0.018030859529972079885462576954 0.001439117826521397070643759619 0.000901216000784188508987426758 0 0 0 0 
2411333333.3333334923 0.180575191974639892578125000000 0.015469617210328580683698085352 0.001623025978915392918827675928 0.000564303772989660501480102539 0 0 0 0 
2411500000.0000000000 0.179924786090850802322549384371 0.013209235854446889704694179102 0.001496369019150733947753906250 0.000528531090822070837020874023 0 0 0 0 
2411666666.6666665077 0.179156094789505004882812500000 0.010742163285613059997558593750 0.001530816312879323959350585938 0.000298040773486718481213170184 0 0 0 0 
2411833333.3333334923 0.178560227155685397049111884371 0.008379423990845680236816406250 0.001421072869561613039729452979 0.000091283349320292472839355469 0 0 0 0 
2412000000.0000000000 0.178289964795112609863281250000 0.005743957590311765670776367188 0.001294811139814556078669882666 0.000017309526811004619708264998 0 0 0 0 
2412166666.6666665077 0.178252011537551907638388115629 0.003441182430833578109741210938 0.001275147078558803038356161963 -0.000129370862850919392987927847 0 0 0 0 
2412333333.3333334923 0.177964761853218106368856865629 0.000622128427494317293167114258 0.001174777396954596042633056641 -0.000157765898620709803983411246 0 0 0 0 
2412500000.0000000000 0.178082823753356905838174384371 -0.002083743689581751823425292969 0.000955420662648975849151611328 -0.000227625117986463010311126709 0 0 0 0 
2412666666.6666665077 0.178423300385475186446981865629 -0.004707884974777699384207441113 0.000874682504218071699142456055 -0.000194030566490255296230316162 0 0 0 0 
2412833333.3333334923 0.178639233112335205078125000000 -0.007489712908864021301269531250 0.000704545993357896804809570312 -0.000362059712642803788185119629 0 0 0 0 
2413000000.0000000000 0.179445415735244806487713731258 -0.010002806782722469675084298046 0.000497421366162598133087158203 -0.000334385724272579008906763898 0 0 0 0 
2413166666.6666665077 0.179988220334053011795205634371 -0.012449584901332860428779802930 0.000364582752808928489685058594 -0.000335386313963681513636988507 0 0 0 0 
2413333333.3333334923 0.180775880813598605056924384371 -0.015175520442426209885566912305 0.000364873849321156685978490009 -0.000263113848632201606601160870 0 0 0 0 
2413500000.0000000000 0.181483581662178011795205634371 -0.017700009047985080373743826954 0.000255910825217142701148986816 -0.000283870729617774486541748047 0 0 0 0 
2413666666.6666665077 0.182633280754089410979901231258 -0.020135853439569469797154610546 0.000080767538747750222682952881 -0.000105650600744411403506678448 0 0 0 0 
2413833333.3333334923 0.183822497725486810882244981258 -0.022537393495440479623814766796 0.000258033222053200006484985352 -0.000045872122427681460976600647 0 0 0 0 
2414000000.0000000000 0.184702649712562588790731865629 -0.024791797623038288461705391796 0.000220549249206669601515093393 -0.000087711239757481962442398071 0 0 0 0 
2414166666.6666665077 0.186183482408523587325888115629 -0.027015119791030880319615548046 0.000390695466194301789433079852 0.000094271570560522377490997314 0 0 0 0 
2414333333.3333334923 0.187207624316215487381143134371 -0.029315892606973651540736014454 0.000182455114554613801554003305 0.000215490668779239112704676495 0 0 0 0 
2414500000.0000000000 0.188537240028381403167401231258 -0.030977118760347369802454764454 0.000432595610618591308593750000 0.000244026974542066509097498761 0 0 0 0 
2414666666.6666665077 0.189765974879264803787393134371 -0.032803542912006378173828125000 0.000398726668208837509155273438 0.000100010023743379901773990770 0 0 0 0 
2414833333.3333334923 0.191040679812431307693643134371 -0.034643787890672676776926408593 0.000337301025865599513053894043 -0.000049281461542705067176411288 0 0 0 0 
2415000000.0000000000 0.192356273531913812835369981258 -0.036107696592807769775390625000 0.000348756177118048126071375714 0.000176268134964630007743835449 0 0 0 0 
2415166666.6666665077 0.193793207406997708419638115629 -0.037624549120664596557617187500 0.000494847947265952825546264648 -0.000031432588002644479274749756 0 0 0 0 
2415333333.3333334923 0.195205435156822204589843750000 -0.038704119622707366943359375000 0.000371358823031187111705225812 -0.000059218400565441697835922241 0 0 0 0 
2415500000.0000000000 0.196518540382385309417401231258 -0.039583452045917510986328125000 0.000402152305468916893005371094 -0.000199979083845391896650037222 0 0 0 0 
2415666666.6666665077 0.197763711214065607268963731258 -0.040734048932790763164479841407 0.000407268526032567024230957031 -0.000149714775034226504251202994 0 0 0 0 
2415833333.3333334923 0.198835015296936007400674384371 -0.041533004492521292949636091407 0.000262818066403269821971339093 -0.000136127433506771895006456918 0 0 0 0 
2416000000.0000000000 0.199998468160629300216513115629 -0.042178940027952187274973283593 0.000191980987438000711515703745 -0.000154885521624237298965454102 0 0 0 0 
2416166666.6666665077 0.200915232300758389571981865629 -0.042861610651016242290456403907 -0.000091421687102410942316055298 -0.000034796856198227033019065857 0 0 0 0 
2416333333.3333334923 0.202008187770843505859375000000 -0.043268185108900070190429687500 0.000065398155129514634609222412 0.000179453767486847910002031870 0 0 0 0 
2416500000.0000000000 0.202911317348480196853799384371 -0.043525733053684241558034528907 -0.000092980561021249741315841675 0.000171165331266820403650560922 0 0 0 0 
2416666666.6666665077 0.203409820795059204101562500000 -0.043918140232563018798828125000 0.000038215843233047053217887878 0.000291744421701878309249877930 0 0 0 0 
2416833333.3333334923 0.204031988978385897537393134371 -0.043950360268354422832448591407 -0.000038704158214386552572250366 0.000266371236648410612910670148 0 0 0 0 
2417000000.0000000000 0.204437866806984003265057481258 -0.044097006320953369140625000000 0.000062711958889849483966827393 0.000523459166288375854492187500 0 0 0 0 
2417166666.6666665077 0.204569548368454007247763115629 -0.043881420046091079711914062500 0.000199413509108126190587720328 0.000635291333310306072235107422 0 0 0 0 
2417333333.3333334923 0.204677730798721313476562500000 -0.043625067919492721557617187500 0.000113731410237960503853936467 0.000628139241598546504974365234 0 0 0 0 
2417500000.0000000000 0.204566121101379394531250000000 -0.043488524854183197021484375000 0.000319587532430887222290039062 0.000890682684257626533508300781 0 0 0 0 
2417666666.6666665077 0.204467818140983609298544365629 -0.043085224926471710205078125000 0.000369130662875249981880187988 0.000674991635605692863464355469 0 0 0 0 
2417833333.3333334923 0.204243183135986300369424384371 -0.042659353464841842651367187500 0.000599540013354271650314331055 0.000843099202029407024383544922 0 0 0 0 
2418000000.0000000000 0.203934669494628906250000000000 -0.042229872196912772441823591407 0.000670664769131690263748168945 0.001043536583893001079559326172 0 0 0 0 
2418166666.6666665077 0.203332960605621310135049384371 -0.041876804083585739135742187500 0.000832698540762066841125488281 0.000911459617782384157180786133 0 0 0 0 
2418333333.3333334923 0.202678725123405512054119981258 -0.041478943079710006713867187500 0.000923784857150167226791381836 0.000728493556380271911621093750 0 0 0 0 
2418500000.0000000000 0.201862663030624389648437500000 -0.041117116808891303325612653907 0.001034477259963751056073832935 0.000689381908159703016281127930 0 0 0 0 
2418666666.6666665077 0.201049357652664212325888115629 -0.040767207741737372661550153907 0.001160364132374525070190429688 0.000703313096892088651657104492 0 0 0 0 
2418833333.3333334923 0.199902310967445401290731865629 -0.040760800242424011230468750000 0.001314211753197013898136757959 0.000581826956477016210556030273 0 0 0 0 
2419000000.0000000000 0.198705971240997286697549384371 -0.040596514940261840820312500000 0.001215658499859273000004433740 0.000297728256555274074703770770 0 0 0 0 
2419166666.6666665077 0.197479441761970492263955634371 -0.040445387363433837890625000000 0.001242270576767622990849160303 0.000283251138171181082725524902 0 0 0 0 
2419333333.3333334923 0.196103602647781399825888115629 -0.040670111775398247455637346093 0.001425159513019024892094277490 0.000201395610929466811105451041 0 0 0 0 
2419500000.0000000000 0.194723352789878900725994981258 -0.040806505829095840454101562500 0.001281884498894215063807822119 0.000060153393860673531889915466 0 0 0 0 
2419666666.6666665077 0.193090051412582397460937500000 -0.041235648095607757568359375000 0.001291826600208878950831747900 -0.000244509865297004580497741699 0 0 0 0 
2419833333.3333334923 0.191285133361816406250000000000 -0.041645672172307968139648437500 0.001312062726356088898302387769 -0.000190588063560426208093920297 0 0 0 0 
2420000000.0000000000 0.189749002456665011306924384371 -0.042060684412717819213867187500 0.001090388977900147004368447412 -0.000258883519563823884159642352 0 0 0 0 
