# Hz S RI R 
2400000000.0000000000 0.173548832535743713378906250000 0.049059830605983727191965471093 0.001544408616609870953800820459 0.005145720671862363815307617188 0 0 0 0 
2400166666.6666665077 0.174172937870025607010049384371 0.048444710671901702880859375000 0.001473535317927598953247070312 0.005050213076174259185791015625 0 0 0 0 
2400333333.3333334923 0.174441546201705904861611884371 0.047655675560235977172851562500 0.001538071199320256926892924731 0.005163224879652261734008789062 0 0 0 0 
2400500000.0000000000 0.174863547086715698242187500000 0.047158211469650268554687500000 0.001650386373512447097181010669 0.005071129649877548217773437500 0 0 0 0 
2400666666.6666665077 0.175107344985008211990518134371 0.046173352748155586933176408593 0.001609688741154968955396342700 0.004932134877890347567086504199 0 0 0 0 
2400833333.3333334923 0.175409868359565707107705634371 0.045668806880712509155273437500 0.001720907748676836924311972510 0.005015203729271888732910156250 0 0 0 0 
2401000000.0000000000 0.175716683268547113616619981258 0.045054264366626739501953125000 0.001783650368452071926714253003 0.005111819598823785781860351562 0 0 0 0 
2401166666.6666665077 0.175738230347633389571981865629 0.044319175183773040771484375000 0.001952473074197768948198628003 0.004924194887280464172363281250 0 0 0 0 
2401333333.3333334923 0.175668582320213290115518134371 0.043543945997953421855886091407 0.002240285510197281837463378906 0.004995293915271759033203125000 0 0 0 0 
2401500000.0000000000 0.175713449716567993164062500000 0.042942974716424942016601562500 0.002452100859954953193664550781 0.004950363654643297195434570312 0 0 0 0 
2401666666.6666665077 0.175828680396079989334268134371 0.042177669703960418701171875000 0.002388826804235578016993857275 0.004990907385945320129394531250 0 0 0 0 
2401833333.3333334923 0.175658822059631403167401231258 0.041276864707469940185546875000 0.002517228247597814039943076025 0.005024710670113564404959394238 0 0 0 0 
2402000000.0000000000 0.175215825438499506194744981258 0.040611531585454940795898437500 0.002695710631087421937229775537 0.004908915609121322631835937500 0 0 0 0 
2402166666.6666665077 0.175235286355018587967080634371 0.039294645190238952636718750000 0.002855400322005153136012411963 0.005056774243712425231933593750 0 0 0 0 
2402333333.3333334923 0.174832165241241510589276231258 0.038513071835041053081472028907 0.003239146899431943893432617188 0.004824952222406864166259765625 0 0 0 0 
2402500000.0000000000 0.174936875700950594803018134371 0.037557516247034072875976562500 0.003437381237745285034179687500 0.004919162020087242126464843750 0 0 0 0 
2402666666.6666665077 0.174543797969818087478799384371 0.036490838974714279174804687500 0.003354957560077310042140341650 0.004774572793394327163696289062 0 0 0 0 
2402833333.3333334923 0.174383357167244013030682481258 0.035367421805858612060546875000 0.003579987445846199989318847656 0.004879982676357030868530273438 0 0 0 0 
2403000000.0000000000 0.173968732357025201995526231258 0.034073766320943832397460937500 0.003696461906656622886657714844 0.004672216251492500305175781250 0 0 0 0 
2403166666.6666665077 0.173592701554298400878906250000 0.032536763697862632060964216407 0.003871240885928273200988769531 0.004606156144291163358206464551 0 0 0 0 
2403333333.3333334923 0.173263341188430786132812500000 0.031453166157007217407226562500 0.004161187447607517242431640625 0.004355853423476219177246093750 0 0 0 0 
2403500000.0000000000 0.172851830720901489257812500000 0.029776399955153468740443045704 0.004228441510349512100219726562 0.004233579616993665695190429688 0 0 0 0 
2403666666.6666665077 0.172500520944595309158486884371 0.028120443224906921386718750000 0.004316833335906267166137695312 0.004288505297154188156127929688 0 0 0 0 
2403833333.3333334923 0.172227695584297207931356865629 0.026466123759746551513671875000 0.004556818865239620208740234375 0.004039913881570100784301757812 0 0 0 0 
2404000000.0000000000 0.171787559986114501953125000000 0.024920590221881869924525076954 0.004735449329018592834472656250 0.003909898456186056137084960938 0 0 0 0 
2404166666.6666665077 0.171335875988006591796875000000 0.022878127172589298593541329296 0.004970700480043888092041015625 0.003545733867213129997253417969 0 0 0 0 
2404333333.3333334923 0.171205297112464904785156250000 0.021193608641624450683593750000 0.004940924234688282012939453125 0.003604093100875616073608398438 0 0 0 0 
2404500000.0000000000 0.170878499746322604080361884371 0.019142229110002521169642264454 0.004943392705172300338745117188 0.003523663850501180128810263525 0 0 0 0 
2404666666.6666665077 0.170492365956306513030682481258 0.017220802605152130126953125000 0.005295361392199993133544921875 0.003227671608328818841221474756 0 0 0 0 
2404833333.3333334923 0.170202985405921908279580634371 0.015148888342082500457763671875 0.005316407885402441024780273438 0.003130157012492417855503701318 0 0 0 0 
2405000000.0000000000 0.170103639364242609222088731258 0.013268425129354000091552734375 0.005372645333409309387207031250 0.002972793998196721076965332031 0 0 0 0 
2405166666.6666665077 0.170085221529007013518963731258 0.011150995269417759286900704296 0.005400648806244134902954101562 0.002642256207764149145839072119 0 0 0 0 
2405333333.3333334923 0.170106232166290310958700615629 0.009127330034971237182617187500 0.005431463476270437240600585938 0.002477430040016769929173134912 0 0 0 0 
2405500000.0000000000 0.169974088668823186676348768742 0.007285921834409236907958984375 0.005412256810814142227172851562 0.002249522600322961807250976562 0 0 0 0 
2405666666.6666665077 0.170203953981399508377236884371 0.005366891156882047653198242188 0.005625909660011529922485351562 0.002287835581228137016296386719 0 0 0 0 
2405833333.3333334923 0.170179173350334195236044365629 0.003223075298592447800877236475 0.005630033090710639953613281250 0.002054104348644613785984658350 0 0 0 0 
2406000000.0000000000 0.170605763792991610428018134371 0.001047075958922504945042275537 0.005767271388322114944458007812 0.002012300537899136976954794775 0 0 0 0 
2406166666.6666665077 0.170799925923347500900106865629 -0.000836770050227642059326171875 0.005738507956266403198242187500 0.001700209802947938008549355615 0 0 0 0 
2406333333.3333334923 0.171287983655929593185263115629 -0.002758774440735578970668173682 0.005899988114833831787109375000 0.001628653844818473079084086841 0 0 0 0 
2406500000.0000000000 0.171699628233909606933593750000 -0.004634165205061435699462890625 0.005849170498549938201904296875 0.001515523646958172104479145581 0 0 0 0 
2406666666.6666665077 0.172059103846549987792968750000 -0.006523767486214637756347656250 0.005936925299465656280517578125 0.001291958265937864997266459888 0 0 0 0 
2406833333.3333334923 0.172753199934959411621093750000 -0.008639331907033920288085937500 0.005998072214424610137939453125 0.001086226664483546993852924878 0 0 0 0 
2407000000.0000000000 0.173417538404464693924111884371 -0.010515226051211360586146170704 0.006042237859219312667846679688 0.000993947847746312618255615234 0 0 0 0 
2407166666.6666665077 0.174191594123840304275674384371 -0.012258923612534999847412109375 0.006115879397839307785034179688 0.000955561175942420959472656250 0 0 0 0 
2407333333.3333334923 0.174556076526641901214276231258 -0.014122739434242250269879725977 0.006104548927396535873413085938 0.000760662893299013376235961914 0 0 0 0 
2407500000.0000000000 0.175445437431335504729901231258 -0.015729485079646110534667968750 0.006221281364560127258300781250 0.000447515252744778990745544434 0 0 0 0 
2407666666.6666665077 0.176245898008346613128338731258 -0.017418574541807181621511091407 0.006272482220083475112915039062 0.000345027743605896776348668231 0 0 0 0 
2407833333.3333334923 0.176895067095756503006143134371 -0.019120454788208011281946951954 0.006293025333434343338012695312 0.000008570589670853223651647568 0 0 0 0 
2408000000.0000000000 0.177504032850265502929687500000 -0.020751722157001498830775076954 0.006273785140365362167358398438 -0.000298218976240605115890502930 0 0 0 0 
2408166666.6666665077 0.178275167942047091385049384371 -0.022176029160618778574010079296 0.006138242315500974655151367188 -0.000495282001793384552001953125 0 0 0 0 
2408333333.3333334923 0.179166451096534701248330634371 -0.023603755980730060232142264454 0.006301977671682834625244140625 -0.000625129148829728364944458008 0 0 0 0 
2408500000.0000000000 0.179630786180496188064736884371 -0.024939648807048801076868826954 0.006106097251176834106445312500 -0.000914947479031980037689208984 0 0 0 0 
2408666666.6666665077 0.180342644453048706054687500000 -0.026279710233211520803431326954 0.006194062530994415283203125000 -0.001090712263248861052869487231 0 0 0 0 
2408833333.3333334923 0.180679306387901306152343750000 -0.027386605739593509328821951954 0.006083700805902481079101562500 -0.001364308176562190055847167969 0 0 0 0 
2409000000.0000000000 0.181256398558616610428018134371 -0.028357572853565219533900076954 0.005848044529557228088378906250 -0.001526649924926460006116557544 0 0 0 0 
2409166666.6666665077 0.181777894496917696853799384371 -0.029260620474815368652343750000 0.005805875640362501144409179688 -0.001664131646975874900817871094 0 0 0 0 
2409333333.3333334923 0.182113349437713595291299384371 -0.030139923095703128469446951954 0.005817882250994443893432617188 -0.001777760102413594939588237231 0 0 0 0 
2409500000.0000000000 0.182373017072677612304687500000 -0.031160278245806690561314766796 0.005574595183134078979492187500 -0.002023843117058277130126953125 0 0 0 0 
2409666666.6666665077 0.182587638497352600097656250000 -0.031519453972578048706054687500 0.005665257107466459274291992188 -0.002153330016881227926967001807 0 0 0 0 
2409833333.3333334923 0.182848960161209106445312500000 -0.031859833747148506855051408593 0.005607850849628449353689862988 -0.002122139325365424156188964844 0 0 0 0 
2410000000.0000000000 0.183182701468467712402343750000 -0.032384425401687622070312500000 0.005570471752434968948364257812 -0.002325592096894979910609579932 0 0 0 0 
2410166666.6666665077 0.183301314711570711990518134371 -0.032794479280710220336914062500 0.005451095290482044219970703125 -0.002535575302317738966700888525 0 0 0 0 
2410333333.3333334923 0.183250233530998202224893134371 -0.033154375851154327392578125000 0.005394631065428256988525390625 -0.002616437850520015196559286963 0 0 0 0 
2410500000.0000000000 0.183399543166160611251669365629 -0.033567320555448532104492187500 0.005489489529281854629516601562 -0.002754191868007183074951171875 0 0 0 0 
2410666666.6666665077 0.183309152722358703613281250000 -0.033931288868188858032226562500 0.005333972163498401641845703125 -0.002893588272854685783386230469 0 0 0 0 
2410833333.3333334923 0.183096468448638888260049384371 -0.034188035875558853149414062500 0.005206239875406026840209960938 -0.003185725770890713171717978369 0 0 0 0 
2411000000.0000000000 0.182852521538734408279580634371 -0.034486081451177597045898437500 0.005129653029143810272216796875 -0.003227857174351810975315713037 0 0 0 0 
2411166666.6666665077 0.182690486311912508865518134371 -0.034899521619081497192382812500 0.004980873316526412963867187500 -0.003432383062317966981175088037 0 0 0 0 
2411333333.3333334923 0.182243093848228510100994981258 -0.034988120198249816894531250000 0.005029614083468914031982421875 -0.003571077948436141014099121094 0 0 0 0 
2411500000.0000000000 0.181581705808639498611611884371 -0.035539362579584121704101562500 0.004944340325891971588134765625 -0.003726110095158218903782509912 0 0 0 0 
2411666666.6666665077 0.181266441941261291503906250000 -0.035859987139701843261718750000 0.004889376461505889892578125000 -0.004037773236632347106933593750 0 0 0 0 
2411833333.3333334923 0.180449038743972806075888115629 -0.036044400185346603393554687500 0.004772044252604246139526367188 -0.004112617112696170806884765625 0 0 0 0 
2412000000.0000000000 0.179802715778350802322549384371 -0.036625504493713378906250000000 0.004616883583366870880126953125 -0.004199993796646595001220703125 0 0 0 0 
2412166666.6666665077 0.178974807262420709808026231258 -0.037137538194656372070312500000 0.004434156231582164764404296875 -0.004420037847012281417846679688 0 0 0 0 
2412333333.3333334923 0.178228914737701388260049384371 -0.037416618317365653301198591407 0.004364656284451484680175781250 -0.004412472248077392578125000000 0 0 0 0 
2412500000.0000000000 0.177195772528648404220419365629 -0.038227688521146767353098283593 0.004278017673641443252563476562 -0.004831796977669000625610351562 0 0 0 0 
2412666666.6666665077 0.176107570528984097579794365629 -0.038722146302461617206613908593 0.004039851017296314239501953125 -0.004774687811732292175292968750 0 0 0 0 
2412833333.3333334923 0.175074234604835510253906250000 -0.039495151489973068237304687500 0.003796230303123592896702431787 -0.004918987397104501724243164062 0 0 0 0 
2413000000.0000000000 0.173870116472244290450888115629 -0.040256924927234649658203125000 0.003741507185623050169703818213 -0.005237286910414695739746093750 0 0 0 0 
2413166666.6666665077 0.172477200627326993087606865629 -0.041103303432464599609375000000 0.003320557763800024986267089844 -0.005296442657709121704101562500 0 0 0 0 
2413333333.3333334923 0.171279877424240112304687500000 -0.041989184916019439697265625000 0.003171081421896814866306923975 -0.005326708778738976392264081738 0 0 0 0 
2413500000.0000000000 0.170090213418006896972656250000 -0.043085508048534393310546875000 0.003096978412941098213195800781 -0.005470375064760447415823652051 0 0 0 0 
2413666666.6666665077 0.168796807527542086502236884371 -0.044090230017900466918945312500 0.002840389730408788161036826025 -0.005545195657759904861450195312 0 0 0 0 
2413833333.3333334923 0.167580544948577908614950615629 -0.045236028730869293212890625000 0.002488314872607589201686240088 -0.005559283308684825897216796875 0 0 0 0 
2414000000.0000000000 0.166253671050071688553018134371 -0.046628605574369430541992187500 0.002520701382309197945835732568 -0.005619927775114774703979492188 0 0 0 0 
2414166666.6666665077 0.165202751755714388748330634371 -0.047831293195486068725585937500 0.002279260428622364997863769531 -0.005620814859867095947265625000 0 0 0 0 
2414333333.3333334923 0.163773804903030395507812500000 -0.049380481243133551860768903907 0.001990388846024870872497558594 -0.005545706953853368759155273438 0 0 0 0 
2414500000.0000000000 0.163021758198738098144531250000 -0.050755538046360022808034528907 0.001971943769603968100306845557 -0.005688066594302654266357421875 0 0 0 0 
2414666666.6666665077 0.161692857742309598068075615629 -0.052218977361917502666432966407 0.001724578207358717918395996094 -0.005602485500276088714599609375 0 0 0 0 
2414833333.3333334923 0.160567551851272610763388115629 -0.053870484232902526855468750000 0.001563765341416001103044819409 -0.005614397116005420684814453125 0 0 0 0 
2415000000.0000000000 0.159462988376617403885049384371 -0.055492941290140151977539062500 0.001249900902621448040008544922 -0.005889140069484710693359375000 0 0 0 0 
2415166666.6666665077 0.158555090427398709396200615629 -0.057353246957063681865651716407 0.001116035971790551922441792065 -0.005672279745340347290039062500 0 0 0 0 
2415333333.3333334923 0.157903537154197692871093750000 -0.059182770550251007080078125000 0.000999689218588173389434814453 -0.005630985368043184280395507812 0 0 0 0 
2415500000.0000000000 0.156989127397537203689736884371 -0.060964833945035927509348283593 0.000892082753125578165054321289 -0.005570285487920045852661132812 0 0 0 0 
2415666666.6666665077 0.156122043728828402420205634371 -0.062862992286682128906250000000 0.000767570803873240947723388672 -0.005568407010287046432495117188 0 0 0 0 
2415833333.3333334923 0.155651956796646090408486884371 -0.064910918474197387695312500000 0.000578377337660640478134155273 -0.005637791939079762372488691113 0 0 0 0 
2416000000.0000000000 0.154881671071052606780682481258 -0.066736616194248199462890625000 0.000459489150671288425296229230 -0.005619649309664964675903320312 0 0 0 0 
2416166666.6666665077 0.154462814331054687500000000000 -0.068766161799430847167968750000 0.000361111160600557923316955566 -0.005516241770237684249877929688 0 0 0 0 
2416333333.3333334923 0.154029712080955505371093750000 -0.070776455104351043701171875000 -0.000009492604476690758019685745 -0.005463670473545789718627929688 0 0 0 0 
2416500000.0000000000 0.153526499867439297775106865629 -0.072910830378532409667968750000 -0.000013313845556695009156159860 -0.005498574580997228622436523438 0 0 0 0 
2416666666.6666665077 0.153210669755935696700888115629 -0.074719920754432678222656250000 -0.000260810542386025190353393555 -0.005488993134349584579467773438 0 0 0 0 
2416833333.3333334923 0.152994647622108487228231865629 -0.076794832944869995117187500000 -0.000192763502127490910604754037 -0.005395331885665655136108398438 0 0 0 0 
2417000000.0000000000 0.152658402919769287109375000000 -0.078578546643257141113281250000 -0.000427710532676428610652369366 -0.005353334825485944747924804688 0 0 0 0 
2417166666.6666665077 0.152494668960571289062500000000 -0.080421127378940582275390625000 -0.000501594447996467351913452148 -0.005555788055062294006347656250 0 0 0 0 
2417333333.3333334923 0.152359768748283386230468750000 -0.082157976925373077392578125000 -0.000769748701713979244232177734 -0.005465215537697076797485351562 0 0 0 0 
2417500000.0000000000 0.152278706431388910491619981258 -0.083954200148582458496093750000 -0.000893320597242563962936401367 -0.005293648224323987960815429688 0 0 0 0 
2417666666.6666665077 0.152326881885528592208700615629 -0.085481479763984680175781250000 -0.001146174967288970947265625000 -0.005333326756954193115234375000 0 0 0 0 
2417833333.3333334923 0.152317628264427212814169365629 -0.087084457278251647949218750000 -0.001249597640708089091657329028 -0.005300248507410287857055664062 0 0 0 0 
2418000000.0000000000 0.152334138751029996017294365629 -0.088616676628589630126953125000 -0.001511208596639334938646626050 -0.005268217064440250396728515625 0 0 0 0 
2418166666.6666665077 0.152384489774704007247763115629 -0.089758902788162231445312500000 -0.001596288522705435969709086841 -0.005149903241544961929321289062 0 0 0 0 
2418333333.3333334923 0.152758643031120300292968750000 -0.091163173317909240722656250000 -0.001875666202977299907087016528 -0.005090509541332721710205078125 0 0 0 0 
2418500000.0000000000 0.152821883559226989746093750000 -0.092251762747764587402343750000 -0.002037082333117723898646689307 -0.004990848712623119354248046875 0 0 0 0 
2418666666.6666665077 0.153075322508812006194744981258 -0.093300469219684600830078125000 -0.002235391177237033843994140625 -0.004799779970198869705200195312 0 0 0 0 
2418833333.3333334923 0.153078109025955200195312500000 -0.094241745769977569580078125000 -0.002252737293019890785217285156 -0.004688966553658246994018554688 0 0 0 0 
2419000000.0000000000 0.153331354260444613357705634371 -0.094979099929332733154296875000 -0.002502973657101393179652548682 -0.004459428135305643081665039062 0 0 0 0 
2419166666.6666665077 0.153454795479774502853231865629 -0.095765948295593261718750000000 -0.002482082461938261985778808594 -0.004381315782666206359863281250 0 0 0 0 
2419333333.3333334923 0.153547272086143493652343750000 -0.095993340015411376953125000000 -0.002707363106310368017909384619 -0.004031524062156677246093750000 0 0 0 0 
2419500000.0000000000 0.153752505779266412933026231258 -0.096729561686515808105468750000 -0.002822383074089885191676474463 -0.003927689511328935623168945312 0 0 0 0 
2419666666.6666665077 0.154025062918662997146768134371 -0.097026042640209197998046875000 -0.002694578841328620910644531250 -0.003823978360742330984828329932 0 0 0 0 
2419833333.3333334923 0.154059156775474603850994981258 -0.097203254699707031250000000000 -0.002770517254248261885402060400 -0.003586556529626249833347939600 0 0 0 0 
