# Hz S RI R 
2400000000.0000000000 0.158788248896598788162393134371 0.063191697001457214355468750000 -0.002979509765282272858860634912 -0.001169504597783088900922465747 0 0 0 0 
2400166666.6666665077 0.158835127949714688400106865629 0.061686728149652481079101562500 -0.002896153600886464118957519531 -0.001021111500449479059932089697 0 0 0 0 
2400333333.3333334923 0.158418983221054104904013115629 0.059684548527002341533620466407 -0.002960229991003870964050292969 -0.001102315145544707991956401294 0 0 0 0 
2400500000.0000000000 0.158513873815536499023437500000 0.057800352573394782329518903907 -0.002913577249273657798767089844 -0.001032290980219841003417968750 0 0 0 0 
2400666666.6666665077 0.158338382840156610686932481258 0.055878322571516036987304687500 -0.002851647557690740065333701025 -0.000979002565145492553710937500 0 0 0 0 
2400833333.3333334923 0.158484414219856289962606865629 0.054088473320007317279856096093 -0.002961459569633007049560546875 -0.001132077886722981929779052734 0 0 0 0 
2401000000.0000000000 0.158447518944740295410156250000 0.051972378045320510864257812500 -0.002971205161884427070617675781 -0.000774839427322149276733398438 0 0 0 0 
2401166666.6666665077 0.158589139580726595779580634371 0.049923058599233627319335937500 -0.002853037323802710013148642432 -0.000820615270640701055526733398 0 0 0 0 
2401333333.3333334923 0.158739715814590509612713731258 0.047807388007640838623046875000 -0.003066890640184282822849892725 -0.000764448079280555248260498047 0 0 0 0 
2401500000.0000000000 0.159193634986877413650674384371 0.045925464481115341186523437500 -0.003089312231168150901794433594 -0.000898580590728670358657836914 0 0 0 0 
2401666666.6666665077 0.159324571490287808517294365629 0.043964855372905731201171875000 -0.002983675803989171981811523438 -0.000609209528192877769470214844 0 0 0 0 
2401833333.3333334923 0.159615814685821505447549384371 0.041725914925336837768554687500 -0.003127494826912879943847656250 -0.000636167183984071016311645508 0 0 0 0 
2402000000.0000000000 0.160024330019950894454794365629 0.039769213646650307392160783593 -0.003244057763367890877964638818 -0.000740246206987649202346801758 0 0 0 0 
2402166666.6666665077 0.160395637154579190353231865629 0.037670239806175231933593750000 -0.003191748168319464163539267432 -0.000725718156900256872177124023 0 0 0 0 
2402333333.3333334923 0.160957843065261813064736884371 0.035854540765285491943359375000 -0.003311432898044586181640625000 -0.000468617974547669291496276855 0 0 0 0 
2402500000.0000000000 0.161565825343131991287393134371 0.034026291221380226825754533593 -0.003258994780480862097499228369 -0.000595823395997285842895507812 0 0 0 0 
2402666666.6666665077 0.162155017256736810882244981258 0.032276969403028488159179687500 -0.003310145111754537062404013525 -0.000438056653365492820739746094 0 0 0 0 
2402833333.3333334923 0.162876173853874206542968750000 0.030537346377968791616419608204 -0.003380506532266736030578613281 -0.000351786555256694609492701398 0 0 0 0 
2403000000.0000000000 0.163677349686622591873330634371 0.028695199638605121267298514454 -0.003426726208999752998352050781 -0.000356886477675288915634155273 0 0 0 0 
2403166666.6666665077 0.164561986923217801193075615629 0.027145566418766978872278983204 -0.003586816601455212073085165869 -0.000285621645161881988674718036 0 0 0 0 
2403333333.3333334923 0.165540888905525207519531250000 0.025620477274060249328613281250 -0.003538434626534581184387207031 -0.000112936992081813500680108342 0 0 0 0 
2403500000.0000000000 0.166227236390113802810830634371 0.024164371192455288278599923046 -0.003817036282271147207972861182 -0.000172576474142260903685969220 0 0 0 0 
2403666666.6666665077 0.167129933834075899978799384371 0.022731680423021319997767264454 -0.003828278742730617956874228369 -0.000011546972018550150096416473 0 0 0 0 
2403833333.3333334923 0.168157249689102200607138115629 0.021392807364463809621790701954 -0.003936852328479290008544921875 0.000150314619531854987144470215 0 0 0 0 
2404000000.0000000000 0.169104516506195096114950615629 0.020256040617823600769042968750 -0.004042081534862518310546875000 0.000365288520697504281997680664 0 0 0 0 
2404166666.6666665077 0.170118749141693087478799384371 0.019010897725820541381835937500 -0.003949304111301898956298828125 0.000465106772026047110557556152 0 0 0 0 
2404333333.3333334923 0.171199157834053011795205634371 0.017817456275224689138392264454 -0.003950588870793581008911132812 0.000718919152859598398208618164 0 0 0 0 
2404500000.0000000000 0.171889469027519198318643134371 0.016616564244031909597376639454 -0.004115707706660032272338867188 0.000945028266869485378265380859 0 0 0 0 
2404666666.6666665077 0.173031598329544095138388115629 0.015943128615617748605748360546 -0.004080007784068583574776933887 0.000989763299003243446350097656 0 0 0 0 
2404833333.3333334923 0.173912853002548190017861884371 0.014941066503524780273437500000 -0.004125173203647136688232421875 0.001196249271742999987361288916 0 0 0 0 
2405000000.0000000000 0.175057515501976013183593750000 0.014126382768154140817662423046 -0.003950073383748531341552734375 0.001419031526893377087236713940 0 0 0 0 
2405166666.6666665077 0.175672262907028198242187500000 0.013412095606327060354212576954 -0.003998371306806802749633789062 0.001682664384134114005445170825 0 0 0 0 
2405333333.3333334923 0.176566049456596402267294365629 0.012628235854208469390869140625 -0.003855043090879917144775390625 0.001850318047218024947522807544 0 0 0 0 
2405500000.0000000000 0.177415013313293512542401231258 0.012167144566774370020856288477 -0.003903171978890895843505859375 0.001964861061424016952514648438 0 0 0 0 
2405666666.6666665077 0.177992060780525207519531250000 0.011664048768579959869384765625 -0.003757802536711097197291708838 0.002081939950585364861729287256 0 0 0 0 
2405833333.3333334923 0.178653880953788812835369981258 0.011308342218399049586285975977 -0.003632578533142805099487304688 0.002284022513777018027064658057 0 0 0 0 
2406000000.0000000000 0.179161190986633300781250000000 0.010777201503515240060826485546 -0.003553578862920403914210654150 0.002551323268562554879429482568 0 0 0 0 
2406166666.6666665077 0.179592207074165288727130018742 0.010484525933861730748186680273 -0.003448165487498044967651367188 0.002672631526365876197814941406 0 0 0 0 
2406333333.3333334923 0.180200636386871310135049384371 0.010035334154963489877721016796 -0.003230735659599304199218750000 0.002677025739103556113002158057 0 0 0 0 
2406500000.0000000000 0.180474385619163513183593750000 0.009609584696590900421142578125 -0.003091020509600638909580849756 0.002851145109161735014674521338 0 0 0 0 
2406666666.6666665077 0.180557101964950589279013115629 0.009345151484012603759765625000 -0.002961274469271301789524697412 0.002992277266457676887512207031 0 0 0 0 
2406833333.3333334923 0.180965900421142605880575615629 0.008907263167202472686767578125 -0.002825141884386539892909384619 0.002839468419551848931553506006 0 0 0 0 
2407000000.0000000000 0.181166827678680392166299384371 0.008730102330446243286132812500 -0.002722697565332055091857910156 0.003116986015811562971827841650 0 0 0 0 
2407166666.6666665077 0.181282117962837191482705634371 0.008445736020803451538085937500 -0.002664376515895127816441201318 0.003161346772685647010803222656 0 0 0 0 
2407333333.3333334923 0.181165859103202792068643134371 0.007791205309331417083740234375 -0.002513748127967118783238076318 0.003313958412036300139186240088 0 0 0 0 
2407500000.0000000000 0.181055992841720608810263115629 0.007552172988653182983398437500 -0.002277024788782000975367880713 0.003221475752070546150207519531 0 0 0 0 
2407666666.6666665077 0.180799007415771512130575615629 0.007128608878701925277709960938 -0.002294722711667418913600302588 0.003374070161953568892237997900 0 0 0 0 
2407833333.3333334923 0.180613219738006591796875000000 0.006443396676331759366507245801 -0.002007546136155724959132529150 0.003352103987708688215968466650 0 0 0 0 
2408000000.0000000000 0.180299282073974609375000000000 0.005908691324293612566476152637 -0.001912357634864747957942343604 0.003225992666557430787327431787 0 0 0 0 
2408166666.6666665077 0.179781138896942110916299384371 0.005262479651719331741333007812 -0.001765186316333710930467915112 0.003452854230999947027919150244 0 0 0 0 
2408333333.3333334923 0.179503217339515713790731865629 0.004713601898401975631713867188 -0.001555897644720972018000937354 0.003567796200513840155360556494 0 0 0 0 
2408500000.0000000000 0.178897827863693209549111884371 0.003801611252129077911376953125 -0.001460239058360456986668252100 0.003419995773583651022670126807 0 0 0 0 
2408666666.6666665077 0.178488120436668395996093750000 0.002944073174148797988891601562 -0.001451042247936130003688193213 0.003512063529342412948608398438 0 0 0 0 
2408833333.3333334923 0.177746012806892395019531250000 0.002108520362526177926304482568 -0.001376867876388133005854941260 0.003344441764056683020350790869 0 0 0 0 
2409000000.0000000000 0.176903545856475802322549384371 0.001126756891608238003374409253 -0.001197731937281786961796425928 0.003524885280057787895202636719 0 0 0 0 
2409166666.6666665077 0.176552653312683105468750000000 -0.000077017219155095517635345459 -0.001122332294471561908721923828 0.003478254424408078193664550781 0 0 0 0 
2409333333.3333334923 0.175879374146461486816406250000 -0.001255386509001255035400390625 -0.000861750915646553039550781250 0.003724835347384213967564248193 0 0 0 0 
2409500000.0000000000 0.175041064620018005371093750000 -0.002653296105563641028163290869 -0.000773028237745165824890136719 0.003585583996027708053588867188 0 0 0 0 
2409666666.6666665077 0.174415990710258511642294365629 -0.003789032343775033950805664062 -0.000656589807476848363876342773 0.003469152841717005209681845557 0 0 0 0 
2409833333.3333334923 0.173566997051239013671875000000 -0.005162607412785291671752929688 -0.000554402358829975128173828125 0.003620948409661651091334677588 0 0 0 0 
2410000000.0000000000 0.173002481460571289062500000000 -0.006540443748235703382010175488 -0.000552153040189296007156372070 0.003642384661361575126647949219 0 0 0 0 
2410166666.6666665077 0.172441959381103487869424384371 -0.008072809316217899322509765625 -0.000364652805728837901919764386 0.003653448540717362923863076318 0 0 0 0 
2410333333.3333334923 0.171673268079757690429687500000 -0.009775100275874137878417968750 -0.000241928486502729410499018536 0.003526000538840889930725097656 0 0 0 0 
2410500000.0000000000 0.171077683568000793457031250000 -0.011399884708225730550745780079 -0.000228485267143696600764674054 0.003504459979012608961818076025 0 0 0 0 
2410666666.6666665077 0.170532330870628412444744981258 -0.013371280394494530069371407421 -0.000018133652702090330421924591 0.003467495087534188790562295068 0 0 0 0 
2410833333.3333334923 0.170055896043777493575888115629 -0.014773203991353510075579258398 -0.000003235849135307943956230440 0.003415955696254969076869345557 0 0 0 0 
2411000000.0000000000 0.169524326920509310623330634371 -0.016678996384143829345703125000 0.000115162467409390996820987840 0.003292156849056481881382607568 0 0 0 0 
2411166666.6666665077 0.169245824217796297928018134371 -0.018596617504954341543177420704 0.000298270722851157188415527344 0.003507527522742747826817177881 0 0 0 0 
2411333333.3333334923 0.168789505958557101150674384371 -0.020330836996436119079589843750 0.000313159514917060678631383075 0.003539678873494267897364951025 0 0 0 0 
2411500000.0000000000 0.168462067842483492752236884371 -0.022359492257237430917760079296 0.000434789108112454414367675781 0.003508843714371324019191122900 0 0 0 0 
2411666666.6666665077 0.168402209877967806717080634371 -0.024177568033337589609166329296 0.000552332494407892227172851562 0.003444967325776814980747841943 0 0 0 0 
2411833333.3333334923 0.168322354555130004882812500000 -0.026148777455091479909876639454 0.000588630500715225934982299805 0.003446226241067051887512207031 0 0 0 0 
2412000000.0000000000 0.168396025896072387695312500000 -0.028027212247252460824986641796 0.000596110709011554718017578125 0.003494517412036656899693154443 0 0 0 0 
2412166666.6666665077 0.168198078870773287674111884371 -0.030066156759858131408691406250 0.000915784272365272153555715295 0.003481914289295672936680459131 0 0 0 0 
2412333333.3333334923 0.168629720807075500488281250000 -0.031935811042785651470143903907 0.001125539536587893962860107422 0.003446672577410935921909951318 0 0 0 0 
2412500000.0000000000 0.168481335043907193282919365629 -0.033914819359779357910156250000 0.001077845226973294994951557690 0.003351863939315081076381064307 0 0 0 0 
2412666666.6666665077 0.168742537498474093338174384371 -0.035819932818412780761718750000 0.001142978901043534062029194409 0.003137312596663833098170615088 0 0 0 0 
2412833333.3333334923 0.169285491108894403655682481258 -0.037648543715476989746093750000 0.001268253545276821093318320166 0.003331094747409224943873740088 0 0 0 0 
2413000000.0000000000 0.169275164604187011718750000000 -0.039355456829071051860768903907 0.001469728536903857967974018628 0.003447458380833268165588378906 0 0 0 0 
2413166666.6666665077 0.169782862067222595214843750000 -0.041026517748832702636718750000 0.001707265269942582087275839697 0.003336182096973061995265341650 0 0 0 0 
2413333333.3333334923 0.170029103755950899978799384371 -0.042795900255441672588307966407 0.001537835691124201037763286060 0.003180417465046048164367675781 0 0 0 0 
2413500000.0000000000 0.170663401484489413162393134371 -0.044322151690721511840820312500 0.001715122023597360090968466650 0.003239702666178346113917685400 0 0 0 0 
2413666666.6666665077 0.171181172132492093185263115629 -0.046159543097019202495534528907 0.001952041522599756934522319263 0.002916642464697360992431640625 0 0 0 0 
2413833333.3333334923 0.171748235821723910232705634371 -0.047519139945507049560546875000 0.002062236890196799798252724756 0.002900532213971018791198730469 0 0 0 0 
2414000000.0000000000 0.172008320689201410491619981258 -0.049009095877408981323242187500 0.002285148715600370927097939600 0.002796349581331015066859579932 0 0 0 0 
2414166666.6666665077 0.172658756375312805175781250000 -0.050203748047351837158203125000 0.002481121802702546119689941406 0.002706438070163131193873740088 0 0 0 0 
2414333333.3333334923 0.173239871859550503829794365629 -0.051650155335664749145507812500 0.002556414809077978134155273438 0.002572683850303291840794228662 0 0 0 0 
2414500000.0000000000 0.173884734511375399490518134371 -0.052677996456623077392578125000 0.002621191088110208945033408057 0.002421328332275152206420898438 0 0 0 0 
2414666666.6666665077 0.174289837479591397384481865629 -0.053778365254402160644531250000 0.002641087397933005852940224756 0.002433372894302010969874716650 0 0 0 0 
2414833333.3333334923 0.174773141741752596756143134371 -0.054757434874773032451589216407 0.002738333307206631140467978369 0.002229243749752641157862997900 0 0 0 0 
2415000000.0000000000 0.175168350338935907561932481258 -0.055694356560707092285156250000 0.002876034704968332810642861475 0.002132822992280126051661826025 0 0 0 0 
2415166666.6666665077 0.175704121589660589020098768742 -0.056572310626506812358815778907 0.002913571195676922798156738281 0.001861587399616837935206747900 0 0 0 0 
2415333333.3333334923 0.176223844289779690841513115629 -0.057316225022077560424804687500 0.002857925835996865792515420068 0.001608688966371119022369384766 0 0 0 0 
2415500000.0000000000 0.176517441868781987945880018742 -0.057879649102687842632253278907 0.003131681587547063827514648438 0.001527271582745016054866171729 0 0 0 0 
2415666666.6666665077 0.176800861954688998123330634371 -0.058481615036725997924804687500 0.002966925967484713034388876807 0.001346709090285002968431782300 0 0 0 0 
2415833333.3333334923 0.177055105566978510100994981258 -0.059010971337556838989257812500 0.003083365038037300109863281250 0.001153918565250932953478169019 0 0 0 0 
2416000000.0000000000 0.176982685923576410491619981258 -0.059483405202627182006835937500 0.003138306085020304159877158057 0.001071333652362227006199502100 0 0 0 0 
2416166666.6666665077 0.177432864904403686523437500000 -0.059888865798711776733398437500 0.003024641890078783035278320312 0.000680895696859806776046752930 0 0 0 0 
2416333333.3333334923 0.177394270896911593338174384371 -0.060199491679668433452565778907 0.003038490191102027893066406250 0.000677104864735156297683715820 0 0 0 0 
2416500000.0000000000 0.177277237176895113845986884371 -0.060552567243576049804687500000 0.002986538223922253088710165869 0.000469953869469463825225830078 0 0 0 0 
2416666666.6666665077 0.177085012197494506835937500000 -0.060782320797443389892578125000 0.002880178391933441162109375000 0.000309277209453284686237889423 0 0 0 0 
2416833333.3333334923 0.177047327160835293868856865629 -0.061190187931060791015625000000 0.002708113053813577131984091650 0.000330202543409541303485316144 0 0 0 0 
2417000000.0000000000 0.176369756460189791580361884371 -0.061438821256160743022878278907 0.002839176449924706979038857568 -0.000056504795793443918228149414 0 0 0 0 
2417166666.6666665077 0.176122784614562988281250000000 -0.061585906893014907836914062500 0.002699701115489006042480468750 -0.000045466251322068267244885104 0 0 0 0 
2417333333.3333334923 0.175751820206642206390057481258 -0.061725284904241561889648437500 0.002596836769953370094299316406 -0.000053044808737467967648098605 0 0 0 0 
2417500000.0000000000 0.175123482942581204513388115629 -0.062172893434762961650807966407 0.002531170146539806885960244287 -0.000160658659297041594982147217 0 0 0 0 
2417666666.6666665077 0.174569025635719299316406250000 -0.062279526144266128540039062500 0.002404353348538279967067099463 -0.000171338062500581199496668683 0 0 0 0 
2417833333.3333334923 0.173731401562690707107705634371 -0.062479954212903983379323591407 0.002392434747889637947082519531 -0.000259590975474566221237182617 0 0 0 0 
2418000000.0000000000 0.172848924994468688964843750000 -0.062872909009456634521484375000 0.002139752032235265211818076025 -0.000383442151360213810771387921 0 0 0 0 
2418166666.6666665077 0.172007292509079007247763115629 -0.062966011464595794677734375000 0.001993153244256972832920693506 -0.000448392151156440377235412598 0 0 0 0 
2418333333.3333334923 0.171366751194000188629473768742 -0.063514597713947296142578125000 0.002100643469020723862888955225 -0.000554456433746963739395141602 0 0 0 0 
2418500000.0000000000 0.170333430171012906173544365629 -0.063834957778453826904296875000 0.001925093820318580107447958838 -0.000444320437964052016108912335 0 0 0 0 
2418666666.6666665077 0.169376462697982788085937500000 -0.064374066889286041259765625000 0.001806213171221316077588725513 -0.000482798845041543299525660382 0 0 0 0 
2418833333.3333334923 0.168126404285430908203125000000 -0.064802482724189758300781250000 0.001680102315731347040889120947 -0.000684614293277263641357421875 0 0 0 0 
2419000000.0000000000 0.166874080896377591232138115629 -0.065483167767524719238281250000 0.001719953841529787020442343604 -0.000583132554311305284500122070 0 0 0 0 
2419166666.6666665077 0.165754139423370389083700615629 -0.066076993942260742187500000000 0.001513303956016897938371967847 -0.000567796931136399507522583008 0 0 0 0 
2419333333.3333334923 0.164669454097747802734375000000 -0.066648185253143310546875000000 0.001391429570503533103345561450 -0.000497746164910495281219482422 0 0 0 0 
2419500000.0000000000 0.163397297263145502288494981258 -0.067585505545139312744140625000 0.001538662821985780975939106519 -0.000622591294813901185989379883 0 0 0 0 
2419666666.6666665077 0.162395074963569613357705634371 -0.068427875638008117675781250000 0.001474154414609075026271201025 -0.000659268174786120653152465820 0 0 0 0 
2419833333.3333334923 0.161093726754188509842080634371 -0.069214604794979095458984375000 0.001394111663103104071376181494 -0.000521866953931748867034912109 0 0 0 0 
