# Hz S RI R 50
2400000000.0000000000 0.168974950909614590743856865629 0.045960042625665671611745466407 -0.006369060371071100234985351562 0.000345889828167855685383397235 0 0 0 0 
2400166666.6666665077 0.169824734330177307128906250000 0.044851340353488922119140625000 -0.006361111998558044433593750000 0.000709031359292566776275634766 0 0 0 0 
2400333333.3333334923 0.170877709984779413421307481258 0.043497700244188308715820312500 -0.006268601864576339721679687500 0.001008650986477733092067099463 0 0 0 0 
2400500000.0000000000 0.171775624155998202224893134371 0.042747862637042999267578125000 -0.006047427654266357421875000000 0.001435916172340512058855366284 0 0 0 0 
2400666666.6666665077 0.172662392258644104003906250000 0.041715472936630249023437500000 -0.005984824616461992263793945312 0.001573247252963482899906777490 0 0 0 0 
2400833333.3333334923 0.173568308353424100021200615629 0.040841933339834213256835937500 -0.005740480031818152341360761426 0.001994237536564468903782509912 0 0 0 0 
2401000000.0000000000 0.174395814538001986404580634371 0.040017098188400268554687500000 -0.005727638490498065948486328125 0.002218521200120449066162109375 0 0 0 0 
2401166666.6666665077 0.175297990441322298904580634371 0.039279282093048102642018903907 -0.005539060570299625396728515625 0.002495073713362216949462890625 0 0 0 0 
2401333333.3333334923 0.175954371690750094314736884371 0.038663793355226516723632812500 -0.005362885538488627347464277051 0.002898090053349732918980263818 0 0 0 0 
2401500000.0000000000 0.176631629467010498046875000000 0.037988245487213141704518903907 -0.005168224219232797622680664062 0.002978842705488204956054687500 0 0 0 0 
2401666666.6666665077 0.177274286746978787521200615629 0.037496391683816909790039062500 -0.004925834480673074722290039062 0.003186180489137769179103232275 0 0 0 0 
2401833333.3333334923 0.177942782640457208831463731258 0.036729350686073303222656250000 -0.004697064869105815887451171875 0.003456360660493373870849609375 0 0 0 0 
2402000000.0000000000 0.178360134363174410720986884371 0.036265887320041663433034528907 -0.004657805897295475006103515625 0.003655015258118509812595986475 0 0 0 0 
2402166666.6666665077 0.178565472364425686935263115629 0.035480570048093802715261091407 -0.004434748087078332901000976562 0.003915634937584400177001953125 0 0 0 0 
2402333333.3333334923 0.178890466690063504318075615629 0.034853272140026092529296875000 -0.003926875535398721694946289062 0.003822722239419817924499511719 0 0 0 0 
2402500000.0000000000 0.179426565766334505935830634371 0.034437961876392371440847028907 -0.003907094709575176239013671875 0.004074236843734979629516601562 0 0 0 0 
2402666666.6666665077 0.179610505700111389160156250000 0.033750928938388817523996721093 -0.003648051293566823005676269531 0.004320482257753610610961914062 0 0 0 0 
2402833333.3333334923 0.179897859692573602874432481258 0.033086057752370827411692033593 -0.003230592003092170195338583838 0.004527932498604059219360351562 0 0 0 0 
2403000000.0000000000 0.179952993988990811446981865629 0.032475840300321578979492187500 -0.002973961643874644799473427881 0.004459634423255920410156250000 0 0 0 0 
2403166666.6666665077 0.180013090372085599044638115629 0.031633809208869927143137346093 -0.002678881632164121107814169775 0.004708435852080583572387695312 0 0 0 0 
2403333333.3333334923 0.179741486907005310058593750000 0.030897485092282298696497733204 -0.002145206322893499894383095850 0.004631243180483579635620117188 0 0 0 0 
2403500000.0000000000 0.179541006684303311446981865629 0.029876274988055229187011718750 -0.001853808411397040107129741138 0.004557240288704633712768554688 0 0 0 0 
2403666666.6666665077 0.179421573877334594726562500000 0.028842201456427570688267891796 -0.001638879533857106945635151440 0.004512027371674776077270507812 0 0 0 0 
2403833333.3333334923 0.179225906729698208907919365629 0.027847779914736751211146170704 -0.001185470726341008923174213940 0.004486805293709039688110351562 0 0 0 0 
2404000000.0000000000 0.178806021809577886383380018742 0.026977684348821640014648437500 -0.000906730187125504016876220703 0.004576800391077995300292968750 0 0 0 0 
2404166666.6666665077 0.178391560912132290939169365629 0.025655722245574000967005545704 -0.000874438206665217876434326172 0.004307315219193696975708007812 0 0 0 0 
2404333333.3333334923 0.178029298782348605056924384371 0.024335019290447238576868826954 -0.000504564668517559766769409180 0.004199954215437173843383789062 0 0 0 0 
2404500000.0000000000 0.177468523383140591720419365629 0.023066150024533268320103829296 -0.000294709985610097700923365460 0.003932211548089981079101562500 0 0 0 0 
2404666666.6666665077 0.177132904529571505447549384371 0.021769372746348381042480468750 -0.000182472678716294494554242545 0.003808340989053248925449990381 0 0 0 0 
2404833333.3333334923 0.176455333828926086425781250000 0.020421879366040229797363281250 0.000107628737168852199189601759 0.003707903670147060914280556787 0 0 0 0 
2405000000.0000000000 0.176087424159049987792968750000 0.018896630033850669860839843750 0.000112126159365288899697442326 0.003782431362196803092956542969 0 0 0 0 
2405166666.6666665077 0.175506845116615295410156250000 0.017221555113792419433593750000 0.000140098622068762806340894156 0.003309185151010752157924033057 0 0 0 0 
2405333333.3333334923 0.175082936882972689529580634371 0.015504678711295129603375819727 0.000444123259512707591056823730 0.003227993380278348922729492188 0 0 0 0 
2405500000.0000000000 0.174541577696800204178018134371 0.013964675366878509521484375000 0.000577948463615030050277709961 0.003170463023707271055934286963 0 0 0 0 
2405666666.6666665077 0.174259975552558898925781250000 0.012298585847020149230957031250 0.000469236809294670820236206055 0.002837019041180611090419150244 0 0 0 0 
2405833333.3333334923 0.173658564686775207519531250000 0.010430989786982539785364920704 0.000610708259046077728271484375 0.002806204603984951972961425781 0 0 0 0 
2406000000.0000000000 0.173407405614852905273437500000 0.008467853069305419921875000000 0.000666797393932938575744628906 0.002578650834038854079005576025 0 0 0 0 
2406166666.6666665077 0.173116758465766906738281250000 0.006703982595354318618774414062 0.000713203393388539552688598633 0.002532589947804809050319052588 0 0 0 0 
2406333333.3333334923 0.172991305589675903320312500000 0.004776730202138423919677734375 0.000752168998587876558303833008 0.002287387149408460097071982275 0 0 0 0 
2406500000.0000000000 0.172777011990547207931356865629 0.002745078876614571051356650244 0.000723308650776743888854980469 0.002243720926344395117518759619 0 0 0 0 
2406666666.6666665077 0.172619417309761102874432481258 0.000750018691178411353766286584 0.000650725269224494695663452148 0.001999224768951534791233681787 0 0 0 0 
2406833333.3333334923 0.172540411353111294845419365629 -0.001356456894427537918090820312 0.000652950140647590160369873047 0.001863894052803515954258584131 0 0 0 0 
2407000000.0000000000 0.172654226422309903243856865629 -0.003511537332087755203247070312 0.000348712113918736577033996582 0.001782791689038277106044150244 0 0 0 0 
2407166666.6666665077 0.172812148928642300704794365629 -0.005375337321311235427856445312 0.000366251333616674000590723859 0.001724559697322547002079629053 0 0 0 0 
2407333333.3333334923 0.172756507992744501311932481258 -0.007649372331798076629638671875 0.000269899668637663125991821289 0.001532086404040456035016704028 0 0 0 0 
2407500000.0000000000 0.172941610217094393631143134371 -0.009609400294721126556396484375 -0.000039008769817883148789405823 0.001485171378590167002436972510 0 0 0 0 
2407666666.6666665077 0.173172429203987093826455634371 -0.011857361532747750718086443555 0.000049685575504554442387034757 0.001424630288966000080108642578 0 0 0 0 
2407833333.3333334923 0.173472821712493896484375000000 -0.013958112336695190774937813671 0.000010169356755795890296799507 0.001622216310352087020874023438 0 0 0 0 
2408000000.0000000000 0.173825770616531399825888115629 -0.015980182215571400033971016796 -0.000300074403639882802963256836 0.001585745369084178967716836084 0 0 0 0 
2408166666.6666665077 0.174189105629920987228231865629 -0.017814226448535919189453125000 -0.000380809040507301688194274902 0.001718417275696993090985942310 0 0 0 0 
2408333333.3333334923 0.174667522311210604568643134371 -0.019836066290736198425292968750 -0.000221310518099926412105560303 0.001766555942595005035400390625 0 0 0 0 
2408500000.0000000000 0.174962505698204012771768134371 -0.021814081817865371704101562500 -0.000452089851023629307746887207 0.001886087120510637977002788013 0 0 0 0 
2408666666.6666665077 0.175366267561912508865518134371 -0.023731937631964680063267891796 -0.000381702993763610720634460449 0.002072885166853665871861123193 0 0 0 0 
2408833333.3333334923 0.175776883959770202636718750000 -0.025368474423885348928431326954 -0.000440312287537381107180994855 0.002157342853024601936340332031 0 0 0 0 
2409000000.0000000000 0.176189020276069613357705634371 -0.026935219764709469186803048046 -0.000327685382217168807983398438 0.002055905293673276901245117188 0 0 0 0 
2409166666.6666665077 0.176560431718826293945312500000 -0.028577081859111789358118826954 -0.000503039045725017786026000977 0.002507599303498864173889160156 0 0 0 0 
2409333333.3333334923 0.177134320139885004241619981258 -0.030013995245099071157435233204 -0.000325899862218648195266723633 0.002398072276264429092407226562 0 0 0 0 
2409500000.0000000000 0.177552342414856012542401231258 -0.031499374657869338989257812500 -0.000144489298691041794702252798 0.002375511219725013212916708838 0 0 0 0 
2409666666.6666665077 0.178041264414787292480468750000 -0.032616473734378821636159528907 0.000012668971976381729951108626 0.002529041841626166863682412256 0 0 0 0 
2409833333.3333334923 0.178305253386497497558593750000 -0.033580165356397628784179687500 0.000078397097240667790174484253 0.002699771197512745857238769531 0 0 0 0 
2410000000.0000000000 0.179035589098930386642294365629 -0.034585557878017432476003278907 0.000168677099281922009870252066 0.002738895360380411148071289062 0 0 0 0 
2410166666.6666665077 0.179310515522956903655682481258 -0.035588931292295462871511091407 0.000204228112124837907865801401 0.002819293644279241995570517432 0 0 0 0 
2410333333.3333334923 0.179729208350181607345419365629 -0.036515049636363983154296875000 0.000413323345128446817398071289 0.002929453505203127861022949219 0 0 0 0 
2410500000.0000000000 0.180262982845306396484375000000 -0.037398323416709899902343750000 0.000674886570777744054794311523 0.002834517043083906173706054688 0 0 0 0 
2410666666.6666665077 0.180688738822937011718750000000 -0.038181744515895836566965471093 0.000770375481806695461273193359 0.002906610490754247145411826025 0 0 0 0 
2410833333.3333334923 0.180933997035026605804119981258 -0.038684487342834472656250000000 0.000894192606210708618164062500 0.003067563055083156065699911963 0 0 0 0 
2411000000.0000000000 0.181245535612106295486611884371 -0.039370667189359671855886091407 0.001078135916031897068023681641 0.002962013240903615951538085938 0 0 0 0 
2411166666.6666665077 0.181577712297439602950888115629 -0.039857421070337302471120466407 0.001257025636732578060747456128 0.002930646296590567068812704932 0 0 0 0 
2411333333.3333334923 0.181567549705505398849325615629 -0.040302891284227371215820312500 0.001520228805020451979396201025 0.002908120863139628930332802881 0 0 0 0 
2411500000.0000000000 0.181707262992858886718750000000 -0.041073191910982131958007812500 0.001643950352445245005963969653 0.002942199818789958953857421875 0 0 0 0 
2411666666.6666665077 0.181752473115920992752236884371 -0.041326347738504409790039062500 0.001949060359038413004634238135 0.002724723424762486977818154443 0 0 0 0 
2411833333.3333334923 0.181807339191436795333700615629 -0.041740946471691131591796875000 0.002012077486142516136169433594 0.002417611656710505919215536963 0 0 0 0 
2412000000.0000000000 0.181702017784118707854901231258 -0.042159952223300926898996721093 0.002191867912188171906712197412 0.002570135751739143891575478662 0 0 0 0 
2412166666.6666665077 0.181327790021896390060263115629 -0.042581032961606979370117187500 0.002385291969403624968287802588 0.002267507137730718092677451025 0 0 0 0 
2412333333.3333334923 0.181148231029510498046875000000 -0.042742650955915451049804687500 0.002573935315012931823730468750 0.002148792380467056794407509912 0 0 0 0 
2412500000.0000000000 0.180512934923171997070312500000 -0.043149497359991066669504533593 0.002454665256664156913757324219 0.001924150390550493977190327222 0 0 0 0 
2412666666.6666665077 0.179973050951957702636718750000 -0.043652880936861038208007812500 0.002704604296013712882995605469 0.001679832930676639080047607422 0 0 0 0 
2412833333.3333334923 0.179302126169204711914062500000 -0.043977934867143630981445312500 0.002682445570826530890223837744 0.001565727288834751085994101416 0 0 0 0 
2413000000.0000000000 0.178602010011673001388388115629 -0.044427867978811257099192033593 0.002693249378353356881382607568 0.001165299094282091097590781104 0 0 0 0 
2413166666.6666665077 0.177789285778999300857705634371 -0.044623471796512596820871721093 0.002567196032032371001002646338 0.001029748120345175049425434644 0 0 0 0 
2413333333.3333334923 0.176777124404907198806924384371 -0.045209821313619606708567033593 0.002398465760052204132080078125 0.000872419332154095172882080078 0 0 0 0 
2413500000.0000000000 0.175929561257362393478231865629 -0.045668866485357291484792341407 0.002421615645289421081542968750 0.000719442090485244989395141602 0 0 0 0 
2413666666.6666665077 0.174950197339057894607705634371 -0.046208970248699188232421875000 0.002208133460953832106349326025 0.000566426198929548263549804688 0 0 0 0 
2413833333.3333334923 0.173719078302383395095986884371 -0.046851743012666702270507812500 0.002263344358652830123901367188 0.000465347548015415722697657452 0 0 0 0 
2414000000.0000000000 0.172645822167396600921307481258 -0.047506660223007202148437500000 0.001842958386987447955487895435 0.000314396544126793687969761981 0 0 0 0 
2414166666.6666665077 0.171496137976646395584268134371 -0.048073712736368179321289062500 0.001847278443165123896357870947 0.000214425395824946490213117056 0 0 0 0 
2414333333.3333334923 0.170342698693275507171307481258 -0.049016166478395462036132812500 0.001773302792571485042572021484 0.000086919957539066672325134277 0 0 0 0 
2414500000.0000000000 0.169138163328170804122763115629 -0.049874793738126761699636091407 0.001443449174985290007350302588 0.000173901949892751899644574576 0 0 0 0 
2414666666.6666665077 0.167880013585090609451455634371 -0.050515212118625640869140625000 0.001352689811028539917589497144 0.000227023541810922297552385873 0 0 0 0 
2414833333.3333334923 0.166722342371940612792968750000 -0.051772166043519966815988908593 0.001195853110402822928187704932 0.000201069095055572688579559326 0 0 0 0 
2415000000.0000000000 0.165370553731918307205361884371 -0.052815143018960952758789062500 0.001175270881503819985630654443 0.000155318222823552787303924561 0 0 0 0 
2415166666.6666665077 0.164250686764717102050781250000 -0.054045010358095169067382812500 0.001121140434406697966931987231 0.000264279340626671910285949707 0 0 0 0 
2415333333.3333334923 0.163096547126769991775674384371 -0.055410072207450866699218750000 0.001065238844603300094604492188 0.000568403338547796010971069336 0 0 0 0 
2415500000.0000000000 0.161896228790283203125000000000 -0.056586161255836486816406250000 0.000935176794882863759994506836 0.000441671028966084122657775879 0 0 0 0 
2415666666.6666665077 0.160800993442535400390625000000 -0.057996947318315512920339216407 0.000834907521493732929229736328 0.000680569675751030553519094202 0 0 0 0 
2415833333.3333334923 0.159765273332595797439736884371 -0.059641096740961081767995466407 0.000802696275059133768081665039 0.000617138401139527559280395508 0 0 0 0 
2416000000.0000000000 0.158446654677391107757244981258 -0.061183005571365363384206403907 0.000826743489596992731094360352 0.000762640091124922037124633789 0 0 0 0 
2416166666.6666665077 0.157762095332145690917968750000 -0.062981955707073211669921875000 0.000849016767460852861404418945 0.000946622632909566164016723633 0 0 0 0 
2416333333.3333334923 0.156637385487556513030682481258 -0.064595736563205718994140625000 0.000746991136111319065093994141 0.000886569730937480926513671875 0 0 0 0 
2416500000.0000000000 0.155876651406288202483807481258 -0.066455878317356109619140625000 0.000941841630265116691589355469 0.000938744284212589263916015625 0 0 0 0 
2416666666.6666665077 0.154842570424079895019531250000 -0.068280018866062164306640625000 0.000808347715064883232116699219 0.000993718742392957210540771484 0 0 0 0 
2416833333.3333334923 0.154120713472366305252236884371 -0.070341892540454864501953125000 0.000993806985206902027130126953 0.001185932196676730892778706128 0 0 0 0 
2417000000.0000000000 0.153215110301971407791299384371 -0.072265967726707458496093750000 0.001103144837543367905857705225 0.001403969130478798909428261865 0 0 0 0 
2417166666.6666665077 0.152611181139946011642294365629 -0.073958620429039001464843750000 0.001061129267327487902400351416 0.001347822253592311902287148584 0 0 0 0 
2417333333.3333334923 0.152067810297012301345986884371 -0.075892195105552673339843750000 0.000988785293884575366973876953 0.001373073551803827068926167065 0 0 0 0 
2417500000.0000000000 0.151367917656898498535156250000 -0.077970333397388458251953125000 0.001078354660421610095380473560 0.001363557763397694067714072119 0 0 0 0 
2417666666.6666665077 0.150895684957504300216513115629 -0.079682968556880950927734375000 0.001252857968211174011230468750 0.001541173667646944956538535010 0 0 0 0 
2417833333.3333334923 0.150532573461532592773437500000 -0.081542856991291046142578125000 0.001189878792501986026763916016 0.001651917351409792900085449219 0 0 0 0 
2418000000.0000000000 0.150189414620399502853231865629 -0.083513855934143066406250000000 0.001151909469626843929290771484 0.001721839187666774012921977466 0 0 0 0 
2418166666.6666665077 0.149799123406410189529580634371 -0.085054874420166015625000000000 0.001488592009991406960728310693 0.001845311489887536005732870947 0 0 0 0 
2418333333.3333334923 0.149815842509269686599893134371 -0.086846642196178436279296875000 0.001494842697866261005401611328 0.001979446271434425873997353662 0 0 0 0 
2418500000.0000000000 0.149618849158287103850994981258 -0.088445477187633514404296875000 0.001599219744093715927721333081 0.002124881371855736212489462744 0 0 0 0 
2418666666.6666665077 0.149537444114685086349325615629 -0.090001001954078674316406250000 0.001890155253931879997253417969 0.002004135400056838989257812500 0 0 0 0 
2418833333.3333334923 0.149408578872680691818075615629 -0.091488048434257507324218750000 0.002025500405579804940464638818 0.002172852866351604895350790869 0 0 0 0 
2419000000.0000000000 0.149420395493507413009481865629 -0.092782326042652130126953125000 0.002216867171227931976318359375 0.002250011079013348059413290869 0 0 0 0 
2419166666.6666665077 0.149476394057273892501669365629 -0.093973256647586822509765625000 0.002617294900119305090663290869 0.002297894330695271925685263525 0 0 0 0 
2419333333.3333334923 0.149418786168098505218182481258 -0.094872772693634033203125000000 0.002677469979971646828892373193 0.002397891599684954123256064307 0 0 0 0 
2419500000.0000000000 0.149822160601615905761718750000 -0.096189655363559722900390625000 0.002957717282697557969334267725 0.002417931100353599028346396338 0 0 0 0 
2419666666.6666665077 0.149863734841346712967080634371 -0.097279012203216552734375000000 0.003364287782460451126098632812 0.002225329633802175955531454932 0 0 0 0 
2419833333.3333334923 0.149917110800743103027343750000 -0.097823314368724822998046875000 0.003635757835581899122950888525 0.002240844769403337998631142725 0 0 0 0 
2420000000.0000000000 0.150311127305030794998330634371 -0.098615832626819610595703125000 0.003959649708122014999389648438 0.001961312722414731979370117188 0 0 0 0 
