# Hz S RI R 50
2400000000.0000000000 0.162438854575157193282919365629 0.052325233817100531841237653907 0.000663291895762085914611816406 0.002849222626537085013148642432 0 0 0 0 
2400166666.6666665077 0.162244424223899813553018134371 0.050603751093149192119557966407 0.000541494518984109163284301758 0.002778403460979462103602743994 0 0 0 0 
2400333333.3333334923 0.162242904305458096603231865629 0.048673223704099662090261091407 0.000536274630576372146606445312 0.002823823131620883941650390625 0 0 0 0 
2400500000.0000000000 0.162041604518890408614950615629 0.046952776610851287841796875000 0.000703993195202201604843139648 0.002775390166789292855503701318 0 0 0 0 
2400666666.6666665077 0.162038490176200894454794365629 0.044927805662155151367187500000 0.000715420697815716266632080078 0.002714069560170174078700400244 0 0 0 0 
2400833333.3333334923 0.162136986851692199707031250000 0.043248210102319717407226562500 0.000765810254961252212524414062 0.002896508667618035836460732568 0 0 0 0 
2401000000.0000000000 0.162001281976699801345986884371 0.041112143546342849731445312500 0.000722964352462440729141235352 0.002808883320540190176722861182 0 0 0 0 
2401166666.6666665077 0.162252053618431091308593750000 0.039050772786140441894531250000 0.000778964138589799404144287109 0.002660893136635423140284872900 0 0 0 0 
2401333333.3333334923 0.162215307354927090743856865629 0.037096630781888961791992187500 0.000929473666474223136901855469 0.002647799905389546914341591943 0 0 0 0 
2401500000.0000000000 0.162637457251548794845419365629 0.035000063478946692729909528907 0.000967511383350938558578491211 0.002533858409151434898376464844 0 0 0 0 
2401666666.6666665077 0.162744998931884793380575615629 0.033009603619575500488281250000 0.001147717703133821921107626807 0.002653457224369049072265625000 0 0 0 0 
2401833333.3333334923 0.163090959191322298904580634371 0.030936945229768749582310860546 0.001095239887945353984832763672 0.002452815184369682832005166162 0 0 0 0 
2402000000.0000000000 0.163270920515060397049111884371 0.029004376381635669363001639454 0.001224798033945261998417519678 0.002626392990350722832920693506 0 0 0 0 
2402166666.6666665077 0.163782536983489990234375000000 0.026958389207720760000208670704 0.001381375594064593098284077222 0.002616109093651175932643271338 0 0 0 0 
2402333333.3333334923 0.164132207632064791580361884371 0.025205723941326141357421875000 0.001442775130271912054774618994 0.002536631422117352919337607275 0 0 0 0 
2402500000.0000000000 0.164934337139129610916299384371 0.023522455245256420480748360546 0.001519985264167190031764365088 0.002479077316820621924159384619 0 0 0 0 
2402666666.6666665077 0.165230140089988708496093750000 0.021527444943785670888880545704 0.001595260109752417044398642432 0.002357395365834236145019531250 0 0 0 0 
2402833333.3333334923 0.166083425283432006835937500000 0.019906710833311080932617187500 0.001820924808271229050279926831 0.002424884354695678190944052588 0 0 0 0 
2403000000.0000000000 0.166723743081092806717080634371 0.018297195434570309030553048046 0.001921159680932760021807026440 0.002258444204926490783691406250 0 0 0 0 
2403166666.6666665077 0.167354464530944796463174384371 0.016565196216106421733815778907 0.002060769591480493979213095557 0.002108193468302487893345498193 0 0 0 0 
2403333333.3333334923 0.168150871992111206054687500000 0.015210345387458799534807774023 0.002140523167327045960667275537 0.002031169831752777099609375000 0 0 0 0 
2403500000.0000000000 0.168716728687286404708700615629 0.013646828942000869405726248829 0.002135665388777852058410644531 0.002106940140947699980494833838 0 0 0 0 
2403666666.6666665077 0.169781640172004699707031250000 0.012284935452044010162353515625 0.002167952945455909209010458838 0.001952610909938812039018940503 0 0 0 0 
2403833333.3333334923 0.170675277709960909744424384371 0.010987586341798310715645037305 0.002416998846456408934352255713 0.001899450784549117088317871094 0 0 0 0 
2404000000.0000000000 0.171452477574348505218182481258 0.009878309443593025207519531250 0.002250605495646595954895019531 0.001733108656480907960178994287 0 0 0 0 
2404166666.6666665077 0.172192230820655794998330634371 0.008662342093884944915771484375 0.002383423503488301797154091943 0.001339961774647236087201762622 0 0 0 0 
2404333333.3333334923 0.173119470477104187011718750000 0.007615096401423215866088867188 0.002464270219206809997558593750 0.001283606165088712952257465894 0 0 0 0 
2404500000.0000000000 0.173811480402946499923544365629 0.006505974568426609039306640625 0.002537694992497562928440713037 0.001215292606502770943882607568 0 0 0 0 
2404666666.6666665077 0.174717560410499600509481865629 0.005575859453529120358938886426 0.002645913045853375954868935693 0.001116935163736342950108193506 0 0 0 0 
2404833333.3333334923 0.175492942333221407791299384371 0.004921781830489636334891034863 0.002727360697463154792785644531 0.000787994824349880218505859375 0 0 0 0 
2405000000.0000000000 0.176123186945915194412393134371 0.003992768004536628723144531250 0.002525290939956903891322470557 0.000748070480767637491226196289 0 0 0 0 
2405166666.6666665077 0.176815956830978393554687500000 0.003315410576760768890380859375 0.002390199573710560798645019531 0.000478847941849380677372532977 0 0 0 0 
2405333333.3333334923 0.177528917789459200760049384371 0.002684953622519969940185546875 0.002415676368400454954860068213 0.000269123032921925187110900879 0 0 0 0 
2405500000.0000000000 0.178038403391838101486044365629 0.002459412207826972007751464844 0.002400378463789821104762411963 0.000120924691145774004146298819 0 0 0 0 
2405666666.6666665077 0.178681880235671997070312500000 0.001854805625043808980229043115 0.002321126870810985998866415869 0.000031173847673926502466201782 0 0 0 0 
2405833333.3333334923 0.179061666131019592285156250000 0.001498940517194568894029926831 0.002163474680855869813206338037 -0.000028318027034401890227590867 0 0 0 0 
2406000000.0000000000 0.179683685302734402755575615629 0.001001942786388098976732563550 0.002044003922492266134974814307 -0.000063753257563803344964981079 0 0 0 0 
2406166666.6666665077 0.179867491126060513595419365629 0.000865168985910713672637939453 0.002109278226271272139308310400 -0.000367949949577450806468409406 0 0 0 0 
2406333333.3333334923 0.180279463529586791992187500000 0.000509549630805850028991699219 0.001760266139172018007991171729 -0.000366708176443353295326232910 0 0 0 0 
2406500000.0000000000 0.180460497736930902679119981258 0.000198351015569642213269910269 0.001734135672450066046473837744 -0.000356066389940679073333740234 0 0 0 0 
2406666666.6666665077 0.180440053343772888183593750000 -0.000025657785954535938799381256 0.001645480166189372973201132666 -0.000405975006287917494773864746 0 0 0 0 
2406833333.3333334923 0.180732935667037991622763115629 -0.000345499778632074594497680664 0.001581928576342761950251913916 -0.000516660395078361034393310547 0 0 0 0 
2407000000.0000000000 0.180723831057548495193643134371 -0.000598380807787179946899414062 0.001278092153370379967930459131 -0.000460216426290571689605712891 0 0 0 0 
2407166666.6666665077 0.180776000022888211349325615629 -0.000708012899849563837051391602 0.001178240985609591007232666016 -0.000539606087841093540191650391 0 0 0 0 
2407333333.3333334923 0.180520296096801813323651231258 -0.001204389496706425926805805737 0.001163849607110023932216025244 -0.000397906929720193201869410382 0 0 0 0 
2407500000.0000000000 0.180241793394088800628338731258 -0.001517241238616406917572021484 0.001140400767326354980468750000 -0.000378803699277341420024317609 0 0 0 0 
2407666666.6666665077 0.179979473352432306487713731258 -0.001866604899987577958347939600 0.000863270892295986413955688477 -0.000405243568820878917544764386 0 0 0 0 
2407833333.3333334923 0.179525464773178100585937500000 -0.002420301083475350899937295068 0.000930528214666992425918579102 -0.000340516504365950822830200195 0 0 0 0 
2408000000.0000000000 0.179147154092788696289062500000 -0.002918944228440523147583007812 0.000640806742012500762939453125 -0.000439982366515323519706726074 0 0 0 0 
2408166666.6666665077 0.178673788905143710037393134371 -0.003349452279508113861083984375 0.000872268108651041984558105469 -0.000451737170806154608726501465 0 0 0 0 
2408333333.3333334923 0.178308159112930297851562500000 -0.004016555380076169967651367188 0.000735214794985949993133544922 -0.000345223146723583286434727802 0 0 0 0 
2408500000.0000000000 0.177657067775726290603799384371 -0.004788659978657960891723632812 0.000623539264779537916183471680 -0.000120461729238741099834442139 0 0 0 0 
2408666666.6666665077 0.176961317658424405196981865629 -0.005595651455223560333251953125 0.000508729426655918359756469727 -0.000187263707630336311742505484 0 0 0 0 
2408833333.3333334923 0.176206961274147005935830634371 -0.006383629981428384780883789062 0.000506891112308949232101440430 -0.000123139223433099687099456787 0 0 0 0 
2409000000.0000000000 0.175419613718986511230468750000 -0.007460948545485734939575195312 0.000298282189760357087284642352 -0.000029866147087886929512023926 0 0 0 0 
2409166666.6666665077 0.174746066331863403320312500000 -0.008349614217877388000488281250 0.000214045823668129687935429706 0.000149387196870520710945129395 0 0 0 0 
2409333333.3333334923 0.174120306968688992599325615629 -0.009503080509603023529052734375 0.000218392277020029696539202280 0.000090367306256666779518127441 0 0 0 0 
2409500000.0000000000 0.173190414905548095703125000000 -0.010786807164549829310407069727 0.000271268072538077777058201923 0.000328910304233431816101074219 0 0 0 0 
2409666666.6666665077 0.172482624650001498123330634371 -0.012060384266078470402727695898 0.000230999314226210090235033578 0.000402370002120733315318507062 0 0 0 0 
2409833333.3333334923 0.171560049057006808181924384371 -0.013300318270921710622767264454 0.000261035951552912592887878418 0.000349690264556556885868626727 0 0 0 0 
2410000000.0000000000 0.170994773507118197342080634371 -0.014743021689355369913121407421 0.000287658331217244321673792706 0.000429809588240459615558070050 0 0 0 0 
2410166666.6666665077 0.170389965176582308670205634371 -0.016287259757518768310546875000 0.000355597934685647487640380859 0.000573845114558935165405273438 0 0 0 0 
2410333333.3333334923 0.169488295912742586990518134371 -0.017918523401021960866907889454 0.000303143402561545426219385968 0.000614551885519176721572875977 0 0 0 0 
2410500000.0000000000 0.168928205966949490646200615629 -0.019620405510067939758300781250 0.000323888525599613785743713379 0.000736182963009923696517944336 0 0 0 0 
2410666666.6666665077 0.168242126703262301345986884371 -0.021558871492743488657017891796 0.000392768823076039606898707257 0.000761589501053094863891601562 0 0 0 0 
2410833333.3333334923 0.167824089527130099197549384371 -0.023084076121449470520019531250 0.000371193455066531896591186523 0.001015002257190644957898784106 0 0 0 0 
2411000000.0000000000 0.167310088872909601409588731258 -0.024864738807082179677943045704 0.000500026275403797626495361328 0.000956945121288299560546875000 0 0 0 0 
2411166666.6666665077 0.166936978697776794433593750000 -0.026778943836688998830775076954 0.000447822996648028492927551270 0.001037321286275983073590922778 0 0 0 0 
2411333333.3333334923 0.166430011391639709472656250000 -0.028748145326972011220911795704 0.000666038249619305133819580078 0.001273237867280841090558696216 0 0 0 0 
2411500000.0000000000 0.165975630283355712890625000000 -0.030881784856319430959681326954 0.000868524017278105020523071289 0.001147311646491288921953510815 0 0 0 0 
2411666666.6666665077 0.166027367115020807464276231258 -0.032755851745605468750000000000 0.000870737305376678705215454102 0.001239621662534772916081093896 0 0 0 0 
2411833333.3333334923 0.165601119399070711990518134371 -0.034575022757053382183034528907 0.000857081089634448289871215820 0.001221845624968409971949911963 0 0 0 0 
2412000000.0000000000 0.165781259536743191818075615629 -0.036676883697509772563893903907 0.001017170608974993012071919019 0.001484130509197711944580078125 0 0 0 0 
2412166666.6666665077 0.165609776973724392989950615629 -0.038504425436258322978932966407 0.001127177500165998935699462891 0.001510507659986614964128803784 0 0 0 0 
2412333333.3333334923 0.165788039565086392501669365629 -0.040472529828548431396484375000 0.001141610788181423924089741284 0.001530361594632267951965332031 0 0 0 0 
2412500000.0000000000 0.165742188692092895507812500000 -0.042262051254510879516601562500 0.001222886727191508033155131763 0.001406359369866549968719482422 0 0 0 0 
2412666666.6666665077 0.166087552905082702636718750000 -0.044628851115703582763671875000 0.001551029970869421958923339844 0.001703882939182222106336284106 0 0 0 0 
2412833333.3333334923 0.166213482618331909179687500000 -0.046315796673297882080078125000 0.001604412565939127965214394678 0.001647479948587716059443808447 0 0 0 0 
2413000000.0000000000 0.166501790285110501388388115629 -0.047984883189201361919362653907 0.001709950040094553990605019678 0.001479354221373796896693564307 0 0 0 0 
2413166666.6666665077 0.166825771331787109375000000000 -0.049969241023063659667968750000 0.001947187585756183104274130713 0.001412085490301250977757119287 0 0 0 0 
2413333333.3333334923 0.167006596922874506194744981258 -0.051630515605211257934570312500 0.002162677003070712089538574219 0.001392460893839597918866801685 0 0 0 0 
2413500000.0000000000 0.167512416839599609375000000000 -0.053296554833650588989257812500 0.002237621927633882002589560400 0.001338444417342544035670615088 0 0 0 0 
2413666666.6666665077 0.167919516563415499588174384371 -0.055115673691034317016601562500 0.002474987180903553962707519531 0.001410968834534288103219057398 0 0 0 0 
2413833333.3333334923 0.168342545628547696212606865629 -0.056522887200117111206054687500 0.002452808432281016869785927881 0.001285245758481323935865092700 0 0 0 0 
2414000000.0000000000 0.168740883469581604003906250000 -0.057890567928552627563476562500 0.002680063946172595024108886719 0.001238565891981125094770121997 0 0 0 0 
2414166666.6666665077 0.169508516788482693771200615629 -0.059294816106557853008229841407 0.002852172823622823195216513525 0.001006647129543126063105917822 0 0 0 0 
2414333333.3333334923 0.169907808303833007812500000000 -0.060659583657979972148854841407 0.002945562824606895013096474756 0.001039510243572294928907084888 0 0 0 0 
2414500000.0000000000 0.170514971017837496658486884371 -0.061728451400995261455495466407 0.002989623229950665993931435693 0.000894457800313830375671386719 0 0 0 0 
2414666666.6666665077 0.171160295605659512618856865629 -0.062758639454841613769531250000 0.003075961489230393929722451318 0.000616635370533913373947143555 0 0 0 0 
2414833333.3333334923 0.171487227082252502441406250000 -0.063742615282535552978515625000 0.003224349115043878988978720557 0.000515301770064979791641235352 0 0 0 0 
2415000000.0000000000 0.171956822276115389724893134371 -0.064568534493446350097656250000 0.003383057890459895133972167969 0.000375115894712507724761962891 0 0 0 0 
2415166666.6666665077 0.172287821769714410979901231258 -0.065362267196178436279296875000 0.003386403666809200806858681787 0.000204143871087580892160692758 0 0 0 0 
2415333333.3333334923 0.172711431980133112151776231258 -0.066265784204006195068359375000 0.003331906860694289207458496094 0.000072379836637992411851882935 0 0 0 0 
2415500000.0000000000 0.173182189464569091796875000000 -0.066695615649223327636718750000 0.003513635601848363876342773438 -0.000079942918091546744108200073 0 0 0 0 
2415666666.6666665077 0.173444658517837496658486884371 -0.067245721817016601562500000000 0.003414625767618418173549033057 -0.000266152259428054094314575195 0 0 0 0 
2415833333.3333334923 0.173619717359542902190838731258 -0.067856892943382263183593750000 0.003451048396527767181396484375 -0.000412021297961473519175928937 0 0 0 0 
2416000000.0000000000 0.173679277300834711272869981258 -0.068333841860294342041015625000 0.003270802088081837134120322119 -0.000520804140251129865646362305 0 0 0 0 
2416166666.6666665077 0.174074873328208895584268134371 -0.068574346601963043212890625000 0.003265515435487031936645507812 -0.000812787155155092477798461914 0 0 0 0 
2416333333.3333334923 0.174054577946662902832031250000 -0.068835683166980743408203125000 0.003405975643545389175415039062 -0.000707150029484182596206665039 0 0 0 0 
2416500000.0000000000 0.173984646797180203536825615629 -0.069152891635894775390625000000 0.003439223393797874884364462744 -0.001081726630218327045440673828 0 0 0 0 
2416666666.6666665077 0.173781871795654296875000000000 -0.069277681410312652587890625000 0.003412953112274407906773232568 -0.001192429917864501909968710791 0 0 0 0 
2416833333.3333334923 0.173594444990158108810263115629 -0.069718353450298309326171875000 0.003157397964969276948216103662 -0.001411329722031950950622558594 0 0 0 0 
2417000000.0000000000 0.173092648386955288986044365629 -0.069874003529548645019531250000 0.003374448278918861909153603662 -0.001398966996930540041682577979 0 0 0 0 
2417166666.6666665077 0.172709628939628601074218750000 -0.069889120757579803466796875000 0.003423842601478099822998046875 -0.001774764386937021992327045972 0 0 0 0 
2417333333.3333334923 0.172356680035591097732705634371 -0.070105589926242828369140625000 0.003185265697538853125331259619 -0.001806669170036911964416503906 0 0 0 0 
2417500000.0000000000 0.171766579151153592208700615629 -0.070438764989376068115234375000 0.003174424404278397993800497900 -0.001942859496921301104901957935 0 0 0 0 
2417666666.6666665077 0.171031981706619290450888115629 -0.070353873074054718017578125000 0.003111941507086157798767089844 -0.001920193783007561943651508862 0 0 0 0 
2417833333.3333334923 0.170353353023529108245526231258 -0.070557370781898498535156250000 0.003046478843316435813903808594 -0.002101336373016238212585449219 0 0 0 0 
2418000000.0000000000 0.169286519289016695877236884371 -0.071004167199134826660156250000 0.003131469711661338806152343750 -0.002302185399457811875584267725 0 0 0 0 
2418166666.6666665077 0.168473273515701293945312500000 -0.071047559380531311035156250000 0.003065468976274133162257529150 -0.002320964587852358818054199219 0 0 0 0 
2418333333.3333334923 0.167705222964286804199218750000 -0.071414493024349212646484375000 0.002895277226343750953674316406 -0.002424862701445817947387695312 0 0 0 0 
2418500000.0000000000 0.166498810052871704101562500000 -0.071650333702564239501953125000 0.002634009579196571870091103662 -0.002542806789278984069824218750 0 0 0 0 
2418666666.6666665077 0.165435761213302612304687500000 -0.072051227092742919921875000000 0.002774911466985940933227539062 -0.002710619242861866950988769531 0 0 0 0 
2418833333.3333334923 0.164131850004196194747763115629 -0.072559259831905364990234375000 0.002665078500285745100734091650 -0.002719636075198649926426552881 0 0 0 0 
2419000000.0000000000 0.162899613380432101150674384371 -0.072944268584251403808593750000 0.002655560150742530822753906250 -0.002814670093357563018798828125 0 0 0 0 
2419166666.6666665077 0.161840572953224209884481865629 -0.073557563126087188720703125000 0.002654856070876121954676962744 -0.002948925830423831939697265625 0 0 0 0 
2419333333.3333334923 0.160461634397506713867187500000 -0.074006967246532440185546875000 0.002525187097489833831787109375 -0.003176128258928657011744833838 0 0 0 0 
2419500000.0000000000 0.159062385559082003494424384371 -0.075007937848567962646484375000 0.002555737737566233114955283057 -0.003165517002344131903407431494 0 0 0 0 
2419666666.6666665077 0.157936125993728609939736884371 -0.075728029012680053710937500000 0.002394645474851131005528115381 -0.003249997971579432921168661963 0 0 0 0 
2419833333.3333334923 0.156550034880638094803018134371 -0.076586939394474029541015625000 0.002325379289686679840087890625 -0.003460980253294109864475869287 0 0 0 0 
2420000000.0000000000 0.155298292636871310135049384371 -0.077444888651371002197265625000 0.002251354977488518194911337744 -0.003532484639436006979701376807 0 0 0 0 
