# Version 1.00
#
freq[Hz];re:Trc1_S11;im:Trc1_S11;re:Trc2_S21;im:Trc2_S21;
2.400000000000000E+009;1.558388322591782E-001;1.104968786239624E-001;4.097253840882331E-004;4.089873109478504E-004;
2.400166666666667E+009;1.551442444324493E-001;1.082796454429627E-001;5.476060905493796E-004;3.681521920952946E-004;
2.400333333333334E+009;1.548773795366287E-001;1.061502248048782E-001;2.862725814338774E-004;2.539664856158197E-004;
2.400500000000000E+009;1.546806246042252E-001;1.033665165305138E-001;1.730494841467589E-004;2.253942802781239E-004;
2.400666666666667E+009;1.544301658868790E-001;1.010325849056244E-001;9.478699212195352E-006;2.645603090059012E-004;
2.400833333333334E+009;1.541225314140320E-001;9.798988699913025E-002;1.242273137904704E-004;2.587595954537392E-004;
2.401000000000000E+009;1.541880816221237E-001;9.506682306528091E-002;-5.845505438628607E-005;3.828043118119240E-004;
2.401166666666667E+009;1.540191918611527E-001;9.225323051214218E-002;-1.108687793021090E-004;4.820153699256480E-004;
2.401333333333334E+009;1.539554446935654E-001;8.962000906467438E-002;-1.667707401793450E-004;6.882312009111047E-004;
2.401500000000000E+009;1.541082561016083E-001;8.627931028604507E-002;-1.684190647210926E-004;6.105123320594430E-004;
2.401666666666667E+009;1.543443202972412E-001;8.337406069040299E-002;-2.262855996377766E-004;7.013050490058959E-004;
2.401833333333334E+009;1.545747965574265E-001;8.028808981180191E-002;-6.387536996044219E-005;9.616448078304529E-004;
2.402000000000000E+009;1.551036834716797E-001;7.732916623353958E-002;7.906818791525438E-005;1.000036834739149E-003;
2.402166666666667E+009;1.558328419923782E-001;7.481565326452255E-002;1.408702373737469E-004;1.032985048368573E-003;
2.402333333333334E+009;1.566699445247650E-001;7.177884131669998E-002;5.227698420640081E-005;1.030003768391907E-003;
2.402500000000000E+009;1.575860828161240E-001;6.906012445688248E-002;2.669237437658012E-004;1.086890581063926E-003;
2.402666666666667E+009;1.584492772817612E-001;6.641519069671631E-002;4.142079851590097E-004;1.194239594042301E-003;
2.402833333333334E+009;1.598213165998459E-001;6.377010792493820E-002;4.505564866121858E-004;1.354044768959284E-003;
2.403000000000000E+009;1.611527204513550E-001;6.115645915269852E-002;7.750611985102296E-004;1.223402214236558E-003;
2.403166666666667E+009;1.628241539001465E-001;5.860190838575363E-002;8.944731089286506E-004;1.109835342504084E-003;
2.403333333333334E+009;1.643560081720352E-001;5.623189359903336E-002;8.972623618319631E-004;1.063904026523233E-003;
2.403500000000000E+009;1.659111827611923E-001;5.395861342549324E-002;1.214183284901083E-003;1.198147190734744E-003;
2.403666666666667E+009;1.679120659828186E-001;5.179073661565781E-002;1.212566625326872E-003;9.304325794801116E-004;
2.403833333333334E+009;1.696553081274033E-001;4.984707757830620E-002;1.233100658282638E-003;6.861561560072005E-004;
2.404000000000000E+009;1.711812317371368E-001;4.772021248936653E-002;1.368559896945953E-003;4.867973621003330E-004;
2.404166666666667E+009;1.732545495033264E-001;4.595335572957993E-002;1.419281703419983E-003;2.469430328346789E-004;
2.404333333333334E+009;1.749383509159088E-001;4.432522878050804E-002;1.398752559907734E-003;2.414756454527378E-004;
2.404500000000000E+009;1.766196340322495E-001;4.270307719707489E-002;1.314173568971455E-003;1.218760880874470E-004;
2.404666666666667E+009;1.785763204097748E-001;4.157162830233574E-002;1.366533571854234E-003;-1.436521779396571E-005;
2.404833333333334E+009;1.804903149604797E-001;4.020775109529495E-002;1.107212621718645E-003;-9.305299317929894E-005;
2.405000000000000E+009;1.820758134126663E-001;3.956980630755425E-002;1.018759794533253E-003;-1.888195547508076E-004;
2.405166666666667E+009;1.837249845266342E-001;3.870827332139015E-002;7.951371371746063E-004;-1.908800768433139E-004;
2.405333333333334E+009;1.854229271411896E-001;3.815573453903198E-002;8.676418801769614E-004;-6.917417340446264E-005;
2.405500000000000E+009;1.869157850742340E-001;3.761934116482735E-002;6.387446774169803E-004;-1.294641115237027E-004;
2.405666666666667E+009;1.884622424840927E-001;3.727625682950020E-002;5.325549864210188E-004;-1.704439455352258E-005;
2.405833333333334E+009;1.899606436491013E-001;3.711118549108505E-002;5.866451538167894E-004;-2.232632832601667E-004;
2.406000000000000E+009;1.913252621889114E-001;3.695420548319817E-002;6.205674726516008E-004;-8.157597039826214E-005;
2.406166666666667E+009;1.925802081823349E-001;3.703980147838593E-002;5.244769272394478E-004;-8.384773536818102E-005;
2.406333333333334E+009;1.937696337699890E-001;3.700998052954674E-002;5.253935814835131E-004;3.502557774481829E-006;
2.406500000000000E+009;1.947519332170487E-001;3.721814230084419E-002;6.316253566183150E-004;-6.245401164051145E-005;
2.406666666666667E+009;1.955776959657669E-001;3.750588744878769E-002;6.513012922368944E-004;2.528250115574338E-005;
2.406833333333334E+009;1.964964121580124E-001;3.769055753946304E-002;7.125370902940631E-004;-6.422912701964378E-005;
2.407000000000000E+009;1.970192790031433E-001;3.799805790185928E-002;7.171370671130717E-004;9.197214239975438E-005;
2.407166666666667E+009;1.975369900465012E-001;3.814298287034035E-002;9.256584453396499E-004;4.654561416828074E-005;
2.407333333333334E+009;1.976265758275986E-001;3.866745159029961E-002;8.715530857443810E-004;-3.162923530908302E-005;
2.407500000000000E+009;1.977515816688538E-001;3.903296217322350E-002;7.846445660106838E-004;-2.289149706484750E-004;
2.407666666666667E+009;1.979072093963623E-001;3.912923112511635E-002;8.440398960374296E-004;-1.243655860889703E-004;
2.407833333333334E+009;1.976457834243774E-001;3.948960453271866E-002;8.810346480458975E-004;-2.588449860922992E-004;
2.408000000000000E+009;1.977574378252029E-001;3.956050425767899E-002;9.389243205077946E-004;-1.622820564080030E-004;
2.408166666666667E+009;1.972131431102753E-001;3.965833783149719E-002;8.325164671987295E-004;-3.612905566114932E-004;
2.408333333333334E+009;1.967742443084717E-001;3.949798643589020E-002;8.286362281069160E-004;-3.147753886878490E-004;
2.408500000000000E+009;1.962098628282547E-001;3.948091715574265E-002;8.020345703698695E-004;-3.201798826921731E-004;
2.408666666666667E+009;1.954659074544907E-001;3.922684863209724E-002;6.967593799345195E-004;-3.038110735360533E-004;
2.408833333333334E+009;1.947033405303955E-001;3.887368738651276E-002;6.351674092002213E-004;-4.027586255688220E-004;
2.409000000000000E+009;1.938008666038513E-001;3.831800445914269E-002;6.566821248270571E-004;-4.673494840972126E-004;
2.409166666666667E+009;1.928487867116928E-001;3.776039555668831E-002;6.801822455599904E-004;-4.759608709719032E-004;
2.409333333333334E+009;1.917532384395599E-001;3.698645159602165E-002;7.526121335104108E-004;-5.959252594038844E-004;
2.409500000000000E+009;1.904976963996887E-001;3.586370870471001E-002;6.193096633069217E-004;-4.778646107297391E-004;
2.409666666666667E+009;1.894936710596085E-001;3.479847311973572E-002;5.317108007147908E-004;-4.761225136462599E-004;
2.409833333333334E+009;1.881372928619385E-001;3.361240029335022E-002;6.359108956530690E-004;-5.093173822388053E-004;
2.410000000000000E+009;1.870970427989960E-001;3.221898898482323E-002;5.396984051913023E-004;-6.200326606631279E-004;
2.410166666666667E+009;1.857280433177948E-001;3.062326274812222E-002;4.573487094603479E-004;-8.058313396759331E-004;
2.410333333333334E+009;1.846898347139359E-001;2.907582744956017E-002;4.039875348098576E-004;-7.311564986594021E-004;
2.410500000000000E+009;1.835418492555618E-001;2.715825662016869E-002;4.520826332736760E-004;-7.565529667772353E-004;
2.410666666666667E+009;1.824992150068283E-001;2.496116980910301E-002;2.746994723565877E-004;-8.167239138856530E-004;
2.410833333333334E+009;1.814213246107101E-001;2.298462204635143E-002;3.072510589845479E-004;-7.018577889539301E-004;
2.411000000000000E+009;1.806004643440247E-001;2.090392820537090E-002;9.997017332352698E-005;-7.382392068393529E-004;
2.411166666666667E+009;1.795609444379807E-001;1.867647096514702E-002;-3.642672527348623E-005;-7.019659387879074E-004;
2.411333333333334E+009;1.788643300533295E-001;1.612071134150028E-002;-7.055788046272937E-006;-5.773250595666468E-004;
2.411500000000000E+009;1.781102865934372E-001;1.372911594808102E-002;-2.902611231547780E-005;-5.939665716141462E-004;
2.411666666666667E+009;1.777069419622421E-001;1.130995433777571E-002;-1.937474589794874E-004;-2.891048789024353E-004;
2.411833333333334E+009;1.774479895830154E-001;8.784905076026917E-003;-1.128078292822465E-004;-3.477742429822683E-004;
2.412000000000000E+009;1.772046983242035E-001;6.073456257581711E-003;-4.993338006897830E-005;-2.116487739840522E-004;
2.412166666666667E+009;1.770077049732208E-001;3.790323389694095E-003;-6.961917824810371E-005;-1.502494706073776E-004;
2.412333333333334E+009;1.771687716245651E-001;9.180279448628426E-004;-7.355740672210231E-005;1.125080962083302E-005;
2.412500000000000E+009;1.775125563144684E-001;-1.634793938137591E-003;-2.087134447492645E-007;-1.305204932577908E-004;
2.412666666666667E+009;1.779382377862930E-001;-4.439831711351872E-003;1.865617959992960E-004;1.590781466802582E-004;
2.412833333333334E+009;1.783300489187241E-001;-6.936680525541306E-003;2.353004238102585E-004;-1.918545785883907E-005;
2.413000000000000E+009;1.791739463806152E-001;-9.416142478585243E-003;3.968401579186320E-004;4.376275683171116E-005;
2.413166666666667E+009;1.797488778829575E-001;-1.205683965235949E-002;4.463175719138235E-004;7.323045429075137E-005;
2.413333333333334E+009;1.809067726135254E-001;-1.459816563874483E-002;5.089362966828048E-004;1.177674130303785E-005;
2.413500000000000E+009;1.819275468587875E-001;-1.708595640957356E-002;6.412990042008460E-004;1.730351868900470E-005;
2.413666666666667E+009;1.830620467662811E-001;-1.956930197775364E-002;6.802799762226641E-004;-1.112184254452586E-004;
2.413833333333334E+009;1.841645240783691E-001;-2.186850272119045E-002;9.281585807912052E-004;-1.998922089114785E-004;
2.414000000000000E+009;1.855263561010361E-001;-2.422954328358173E-002;9.190341224893928E-004;-3.027005004696548E-004;
2.414166666666667E+009;1.868476122617722E-001;-2.611413784325123E-002;8.821913506835699E-004;-5.692512495443225E-004;
2.414333333333334E+009;1.879233121871948E-001;-2.842400781810284E-002;8.236549911089242E-004;-5.611706292256713E-004;
2.414500000000000E+009;1.894543766975403E-001;-3.007455542683601E-002;7.457004394382238E-004;-5.821322556585074E-004;
2.414666666666667E+009;1.908015906810761E-001;-3.175112232565880E-002;7.064815144985914E-004;-7.989858859218657E-004;
2.414833333333334E+009;1.921131461858749E-001;-3.341997042298317E-002;7.659177645109594E-004;-8.032209007069469E-004;
2.415000000000000E+009;1.934172511100769E-001;-3.481438010931015E-002;6.553966668434441E-004;-8.459103992208839E-004;
2.415166666666667E+009;1.949343681335449E-001;-3.605068847537041E-002;5.209798691794276E-004;-9.577220771461725E-004;
2.415333333333334E+009;1.964651793241501E-001;-3.728818148374558E-002;5.907007725909352E-004;-8.650657255202532E-004;
2.415500000000000E+009;1.977029591798782E-001;-3.815460577607155E-002;3.376403765287250E-004;-9.290679590776563E-004;
2.415666666666667E+009;1.990462243556976E-001;-3.913449496030808E-002;3.656125627458096E-004;-1.011963468044996E-003;
2.415833333333334E+009;2.002185881137848E-001;-3.978284075856209E-002;2.940736885648221E-004;-9.505357011221349E-004;
2.416000000000000E+009;2.012122124433518E-001;-4.045062884688377E-002;3.287523577455431E-004;-9.667024714872241E-004;
2.416166666666667E+009;2.022998332977295E-001;-4.118205979466438E-002;2.349348651478067E-004;-9.819489205256105E-004;
2.416333333333334E+009;2.032251060009003E-001;-4.137211665511131E-002;1.901296345749870E-004;-1.074494328349829E-003;
2.416500000000000E+009;2.039746791124344E-001;-4.174648970365524E-002;1.268838386749849E-004;-1.029078615829349E-003;
2.416666666666667E+009;2.044981867074966E-001;-4.199938476085663E-002;4.247778997523710E-005;-1.023207441903651E-003;
2.416833333333334E+009;2.049128264188767E-001;-4.214889183640480E-002;1.614256907487288E-004;-1.104735536500812E-003;
2.417000000000000E+009;2.054208517074585E-001;-4.212033748626709E-002;8.236407302320004E-005;-1.030370360240340E-003;
2.417166666666667E+009;2.053951770067215E-001;-4.194753617048264E-002;-1.077148954209406E-005;-1.161343650892377E-003;
2.417333333333334E+009;2.054229080677033E-001;-4.159933701157570E-002;-1.823000930016860E-004;-1.160788000561297E-003;
2.417500000000000E+009;2.053969651460648E-001;-4.151113331317902E-002;-2.358221972826868E-004;-1.098548178561032E-003;
2.417666666666667E+009;2.051005810499191E-001;-4.112192988395691E-002;-2.578172425273806E-004;-1.156065030954778E-003;
2.417833333333334E+009;2.047928422689438E-001;-4.078973829746246E-002;-4.471540451049805E-004;-1.125937560573220E-003;
2.418000000000000E+009;2.044593989849091E-001;-4.032929241657257E-002;-4.260633722878993E-004;-9.882539743557572E-004;
2.418166666666667E+009;2.038855701684952E-001;-4.016462340950966E-002;-5.078856484033167E-004;-1.278548967093229E-003;
2.418333333333334E+009;2.029058039188385E-001;-3.975272923707962E-002;-6.870885845273733E-004;-1.029010280035436E-003;
2.418500000000000E+009;2.020850330591202E-001;-3.967282176017761E-002;-7.587049040012062E-004;-9.992379928007722E-004;
2.418666666666667E+009;2.012891024351120E-001;-3.930575400590897E-002;-8.033954654820263E-004;-8.845212869346142E-004;
2.418833333333334E+009;2.000778317451477E-001;-3.915731608867645E-002;-8.860660600475967E-004;-7.934021996334195E-004;
2.419000000000000E+009;1.987587064504623E-001;-3.927804902195931E-002;-9.042301098816097E-004;-7.350555970333517E-004;
2.419166666666667E+009;1.976720541715622E-001;-3.931379690766335E-002;-9.823385626077652E-004;-4.558332148008049E-004;
2.419333333333334E+009;1.961500793695450E-001;-3.966841846704483E-002;-9.915556292980909E-004;-5.988152697682381E-004;
2.419500000000000E+009;1.946066319942474E-001;-3.976063057780266E-002;-8.888727752491832E-004;-3.478511061985046E-004;
2.419666666666667E+009;1.929654777050018E-001;-4.037230461835861E-002;-9.241914376616478E-004;-2.320039347978309E-004;
2.419833333333334E+009;1.912729889154434E-001;-4.105294495820999E-002;-9.656756883487105E-004;-2.116647083312273E-004;
2.420000000000000E+009;1.896943747997284E-001;-4.158720746636391E-002;-9.147481760010123E-004;-2.427581202937290E-004;
2.420166666666667E+009;1.879903227090836E-001;-4.248736426234245E-002;-7.862349157221615E-004;-9.762166155269370E-005;
2.420333333333334E+009;1.860506236553192E-001;-4.344004765152931E-002;-6.964870844967663E-004;-1.174009958049282E-004;
2.420500000000000E+009;1.843804866075516E-001;-4.472217336297035E-002;-7.868353277444840E-004;-1.754056138452143E-004;
2.420666666666667E+009;1.824560314416885E-001;-4.576171934604645E-002;-7.177436491474509E-004;-6.461259181378409E-005;
2.420833333333334E+009;1.806242763996124E-001;-4.739394411444664E-002;-7.190114120021462E-004;6.175799171614926E-006;
2.421000000000000E+009;1.790083348751068E-001;-4.884324222803116E-002;-5.756439059041441E-004;-1.145039714174345E-004;
2.421166666666667E+009;1.775000244379044E-001;-5.044385790824890E-002;-5.925757577642798E-004;-3.493967597023584E-005;
2.421333333333334E+009;1.754512041807175E-001;-5.207087472081184E-002;-4.698427219409496E-004;1.057056215358898E-004;
2.421500000000000E+009;1.739308238029480E-001;-5.405990779399872E-002;-4.315776459407061E-004;1.419472391717136E-004;
2.421666666666667E+009;1.724347472190857E-001;-5.592637136578560E-002;-4.623071872629225E-004;-2.067647801595740E-005;
2.421833333333334E+009;1.709592342376709E-001;-5.783759802579880E-002;-4.381952167022973E-004;-1.160262490884634E-005;
2.422000000000000E+009;1.696599125862122E-001;-5.995348840951920E-002;-3.594617010094225E-004;-1.092047568818089E-005;
2.422166666666667E+009;1.685320287942886E-001;-6.213510408997536E-002;-4.097655764780939E-004;3.546344669302926E-005;
2.422333333333334E+009;1.672877967357636E-001;-6.441919505596161E-002;-4.199409158900380E-004;1.692019941401668E-005;
2.422500000000000E+009;1.663778126239777E-001;-6.651551276445389E-002;-2.558428386691958E-004;3.739748353837058E-005;
2.422666666666667E+009;1.654480993747711E-001;-6.854843348264694E-002;-4.583955451380462E-004;-8.349240670213476E-005;
2.422833333333334E+009;1.649447977542877E-001;-7.097129523754120E-002;-4.057205806020647E-004;6.812496576458216E-005;
2.423000000000000E+009;1.641187518835068E-001;-7.318562269210815E-002;-3.739830863196403E-004;1.906828947539907E-005;
2.423166666666667E+009;1.636772751808167E-001;-7.534620910882950E-002;-4.196318041067570E-004;1.085378389689140E-004;
2.423333333333334E+009;1.633133441209793E-001;-7.767628878355026E-002;-3.385736199561507E-004;1.411639677826315E-004;
2.423500000000000E+009;1.631402522325516E-001;-7.965953648090363E-002;-1.956581545528024E-004;1.821476180339232E-004;
2.423666666666667E+009;1.631492823362351E-001;-8.167874068021774E-002;-2.273576828883961E-004;2.694348950171843E-005;
2.423833333333334E+009;1.629487127065659E-001;-8.384180814027786E-002;-1.381220499752089E-004;2.060679544229060E-004;
2.424000000000000E+009;1.631242185831070E-001;-8.583990484476090E-002;-2.107945329044014E-004;1.004101795842871E-004;
2.424166666666667E+009;1.631842106580734E-001;-8.773229271173477E-002;-9.027418855112046E-005;1.519207726232708E-004;
2.424333333333334E+009;1.635452955961227E-001;-8.942299336194992E-002;-9.274976764572784E-005;1.358446170343086E-004;
2.424500000000000E+009;1.637504696846008E-001;-9.138619899749756E-002;-1.374108887830516E-005;-1.060024601429177E-006;
2.424666666666667E+009;1.642067730426788E-001;-9.309531003236771E-002;-3.667797136586160E-005;5.482240158016793E-005;
2.424833333333334E+009;1.649143546819687E-001;-9.448944777250290E-002;1.304162869928405E-004;-2.873611992981751E-005;
2.425000000000000E+009;1.654606014490128E-001;-9.594769030809403E-002;1.194739525089972E-004;-7.814003765815869E-005;
2.425166666666667E+009;1.658043861389160E-001;-9.720812737941742E-002;1.447253307560459E-004;-2.358514757361263E-004;
2.425333333333334E+009;1.662590354681015E-001;-9.833069145679474E-002;1.342137256870046E-004;-2.262731577502564E-004;
2.425500000000000E+009;1.670190840959549E-001;-9.948629885911942E-002;1.123531765188091E-004;-5.358672933652997E-004;
2.425666666666667E+009;1.675754785537720E-001;-1.003325656056404E-001;6.947021756786853E-005;-4.406948573887348E-004;
2.425833333333334E+009;1.680677086114883E-001;-1.013356596231461E-001;-1.244148879777640E-004;-4.568416043184698E-004;
2.426000000000000E+009;1.687785238027573E-001;-1.018184646964073E-001;-9.954236884368584E-005;-5.283747450448573E-004;
2.426166666666667E+009;1.693370342254639E-001;-1.025525555014610E-001;-1.601838448550552E-004;-6.878181011416018E-004;
2.426333333333334E+009;1.697242259979248E-001;-1.030185818672180E-001;-9.133351704804227E-005;-6.269933655858040E-004;
2.426500000000000E+009;1.703551411628723E-001;-1.034179255366325E-001;-3.339637187309563E-004;-5.911090411245823E-004;
2.426666666666667E+009;1.709462553262711E-001;-1.037237569689751E-001;-2.653849660418928E-004;-6.464891484938562E-004;
2.426833333333334E+009;1.713409274816513E-001;-1.040384471416473E-001;-3.729410818777978E-004;-6.104312487877905E-004;
2.427000000000000E+009;1.715610623359680E-001;-1.041160970926285E-001;-4.762193129863590E-004;-7.041979115456343E-004;
2.427166666666667E+009;1.718785315752029E-001;-1.042875498533249E-001;-6.159697659313679E-004;-7.091086590662599E-004;
2.427333333333334E+009;1.720545738935471E-001;-1.044243797659874E-001;-5.269086104817689E-004;-5.808809073641896E-004;
2.427500000000000E+009;1.719851046800613E-001;-1.045828983187676E-001;-5.789151182398200E-004;-6.243790267035365E-004;
2.427666666666667E+009;1.718962490558624E-001;-1.044724360108376E-001;-7.504578679800034E-004;-6.004699389450252E-004;
