# Hz S RI R 
2400000000.0000000000 0.158599108457565307617187500000 0.062739878892898559570312500000 -0.000305751978885382413864135742 0.002239327179268002943751669775 0 0 0 0 
2400166666.6666665077 0.158471256494522094726562500000 0.061074588447809219360351562500 -0.000410729728173464482456761493 0.002366764238104224205017089844 0 0 0 0 
2400333333.3333334923 0.158205434679985101897869981258 0.059260502457618713378906250000 -0.000402237696107477003901881085 0.002669957466423511938807822119 0 0 0 0 
2400500000.0000000000 0.158190160989761408050213731258 0.057362105697393417358398437500 -0.000212195693165995207711896353 0.002550574718043208122253417969 0 0 0 0 
2400666666.6666665077 0.157759636640548706054687500000 0.055585093796253197406809221093 -0.000184406875632703304290771484 0.002696425188332796096801757812 0 0 0 0 
2400833333.3333334923 0.158140257000923212249432481258 0.053619556128978729248046875000 -0.000052957111620344221591949463 0.002638801233842968940734863281 0 0 0 0 
2401000000.0000000000 0.157874256372451809982138115629 0.051398001611232757568359375000 0.000010005173862737139518362846 0.002521943300962448120117187500 0 0 0 0 
2401166666.6666665077 0.158102974295616205413494981258 0.049212433397769927978515625000 0.000179302369360812008380889893 0.002561943372711538834812783350 0 0 0 0 
2401333333.3333334923 0.158283576369285611251669365629 0.047174565494060523296315778907 0.000271804456133395379215794696 0.002600754611194134192225790869 0 0 0 0 
2401500000.0000000000 0.158514469861984308440838731258 0.045371033251285552978515625000 0.000217017746763303903028211050 0.002788262441754341125488281250 0 0 0 0 
2401666666.6666665077 0.158796310424804687500000000000 0.043215006589889533306081403907 0.000386211031582206487655639648 0.002863818313926457925083779443 0 0 0 0 
2401833333.3333334923 0.159070655703544588943643134371 0.041047751903533942485768903907 0.000460512441350147073895054950 0.002869184361770749092102050781 0 0 0 0 
2402000000.0000000000 0.159332975745201110839843750000 0.038904402405023581767995466407 0.000660767604131251573562622070 0.002918349113315343856811523438 0 0 0 0 
2402166666.6666665077 0.159902885556221008300781250000 0.037109408527612693096120466407 0.000704726611729711294174194336 0.002966832602396606965305947412 0 0 0 0 
2402333333.3333334923 0.160225182771682711502236884371 0.035207822918891906738281250000 0.000580901163630187511444091797 0.003228198969736694855930947412 0 0 0 0 
2402500000.0000000000 0.161058470606803894042968750000 0.033341519534587860107421875000 0.000975274131633341312408447266 0.002992728957906364960911416162 0 0 0 0 
2402666666.6666665077 0.161637440323829706390057481258 0.031539198011159896850585937500 0.001062026247382164001464843750 0.003043709788471459908726357568 0 0 0 0 
2402833333.3333334923 0.162393257021903991699218750000 0.029904702678322788583775704296 0.001070084050297736904741596753 0.003020146163180470900294638525 0 0 0 0 
2403000000.0000000000 0.163050666451454190353231865629 0.028279412537813190114954764454 0.001182090491056442043901753003 0.003057481488212943077087402344 0 0 0 0 
2403166666.6666665077 0.163927137851715087890625000000 0.026619400829076770437220389454 0.001437100348994136073468852466 0.003015208290889859199523925781 0 0 0 0 
2403333333.3333334923 0.165045022964477511306924384371 0.025105167180299758911132812500 0.001550307380966841957689594800 0.002962857717648148970362997900 0 0 0 0 
2403500000.0000000000 0.165750816464424105545205634371 0.023664506152272220956822579296 0.001734210178256035067914653247 0.002998814452439547018763876807 0 0 0 0 
2403666666.6666665077 0.166712403297424288650674384371 0.022088879719376560556431954296 0.001860239775851368904113769531 0.002985869068652391000034951318 0 0 0 0 
2403833333.3333334923 0.167885035276412991622763115629 0.020810378715395930898646170704 0.001917080604471266052843403394 0.003003779333084822134730673682 0 0 0 0 
2404000000.0000000000 0.168664693832397488693075615629 0.019665991887450221670130545704 0.002075101947411894798278808594 0.002963686361908913092372275244 0 0 0 0 
2404166666.6666665077 0.169517442584037808517294365629 0.018435332924127578735351562500 0.002232242142781614823582314600 0.002812750404700636863708496094 0 0 0 0 
2404333333.3333334923 0.170634925365447998046875000000 0.017566096037626269948939139454 0.002579113002866507010218954932 0.002573593053966761069056845557 0 0 0 0 
2404500000.0000000000 0.171562671661377008636151231258 0.016422107815742489206334298046 0.002614239463582634925842285156 0.002653032541275023980381631006 0 0 0 0 
2404666666.6666665077 0.172586351633071899414062500000 0.015475888736546039581298828125 0.002670060610398650169372558594 0.002741291653364897207972861182 0 0 0 0 
2404833333.3333334923 0.173410087823867797851562500000 0.014832813292741780716865740430 0.002785762306302785873413085938 0.002775821136310697035548544775 0 0 0 0 
2405000000.0000000000 0.174429371953010586837606865629 0.014008655212819579732874686329 0.003082727780565619902369833838 0.002507619559764862060546875000 0 0 0 0 
2405166666.6666665077 0.175167009234428405761718750000 0.013401252217590810603131679102 0.003259838791564106941223144531 0.002346580848097801208496093750 0 0 0 0 
2405333333.3333334923 0.176170125603675786774005018742 0.012574549764394760131835937500 0.003408787772059441046473837744 0.002223352668806910948512411963 0 0 0 0 
2405500000.0000000000 0.177029445767402704436932481258 0.012235391885042190551757812500 0.003576448420062661170959472656 0.002304806839674710793736123193 0 0 0 0 
2405666666.6666665077 0.177595481276512201507244981258 0.011869189329445360356340977148 0.003724365029484034018275595557 0.002095245989039539857151650537 0 0 0 0 
2405833333.3333334923 0.178192019462585504729901231258 0.011513215489685540635078631055 0.003688844386488198800327920068 0.002080560894683002991917275537 0 0 0 0 
2406000000.0000000000 0.178875982761383112151776231258 0.010803156532347200566301914648 0.003892075270414351983311318506 0.001954352017492055892944335938 0 0 0 0 
2406166666.6666665077 0.179378896951675387283486884371 0.010701472871005540329902849805 0.004027331247925758361816406250 0.001695545157417654991149902344 0 0 0 0 
2406333333.3333334923 0.179881274700164794921875000000 0.010409066453576089686383632227 0.004154925234615802764892578125 0.001568554434925317981122661060 0 0 0 0 
2406500000.0000000000 0.180240854620933504959268134371 0.010010876692831519735316092579 0.004102239850908517837524414062 0.001270037493668497042414999854 0 0 0 0 
2406666666.6666665077 0.180317550897598294357138115629 0.009832882322371006011962890625 0.004147246014326810836791992188 0.001224409206770360903498984229 0 0 0 0 
2406833333.3333334923 0.180721253156661987304687500000 0.009365465492010116577148437500 0.004219648428261280059814453125 0.001136902370490133979200053638 0 0 0 0 
2407000000.0000000000 0.180906131863594110686932481258 0.009136434644460678100585937500 0.004428757820278406143188476562 0.000921643571928143501281738281 0 0 0 0 
2407166666.6666665077 0.181060731410980196853799384371 0.008856406435370445251464843750 0.004415333271026611328125000000 0.000725844700355082750320434570 0 0 0 0 
2407333333.3333334923 0.180875793099403409103231865629 0.008410759270191192626953125000 0.004624626133590936660766601562 0.000601408886723220348358154297 0 0 0 0 
2407500000.0000000000 0.180846050381660489181356865629 0.008133840747177600860595703125 0.004603028763085603713989257812 0.000483599607832729816436767578 0 0 0 0 
2407666666.6666665077 0.180814400315284701248330634371 0.007702076341956853866577148438 0.004476974252611398696899414062 0.000364193838322535211413782941 0 0 0 0 
2407833333.3333334923 0.180283412337303189376669365629 0.007005191873759031295776367188 0.004628931637853384017944335938 0.000109158332634251605398716112 0 0 0 0 
2408000000.0000000000 0.179987177252769497970419365629 0.006449026521295309066772460938 0.004685237538069486618041992188 -0.000122949408250860896989545279 0 0 0 0 
2408166666.6666665077 0.179565310478210504729901231258 0.005992984399199485778808593750 0.004644064698368310928344726562 -0.000172905929503031102105817252 0 0 0 0 
2408333333.3333334923 0.179437533020973205566406250000 0.005373514257371425628662109375 0.004681870806962251663208007812 -0.000318612030241638422012329102 0 0 0 0 
2408500000.0000000000 0.178797364234924288650674384371 0.004446999169886112213134765625 0.004611917305737733840942382812 -0.000634537951555103063583374023 0 0 0 0 
2408666666.6666665077 0.178209260106086703201455634371 0.003562940284609795050380087744 0.004721026401966810226440429688 -0.000820760265924036502838134766 0 0 0 0 
2408833333.3333334923 0.177463740110397311111611884371 0.002698648022487760023829794775 0.004782022442668676376342773438 -0.001004487741738558032392192310 0 0 0 0 
2409000000.0000000000 0.176914423704147311111611884371 0.001643818919546901962877583081 0.004607276991009712219238281250 -0.001189306494779885032056498950 0 0 0 0 
2409166666.6666665077 0.176193699240684509277343750000 0.000555943173822015523910522461 0.004694885574281215667724609375 -0.001313468208536505915998149341 0 0 0 0 
2409333333.3333334923 0.175620988011360196212606865629 -0.000595648307353258132934570312 0.004582198336720466613769531250 -0.001517015742138027927995991284 0 0 0 0 
2409500000.0000000000 0.174895703792571993728799384371 -0.001990762772038578987121582031 0.004897142760455608367919921875 -0.001704462803900242068647075122 0 0 0 0 
2409666666.6666665077 0.174104258418083190917968750000 -0.003187431953847407860996865381 0.004716640338301658630371093750 -0.001775990473106503920314169775 0 0 0 0 
2409833333.3333334923 0.173370525240898104568643134371 -0.004638800863176584243774414062 0.004547272808849812421316816113 -0.002016871469095348878147744287 0 0 0 0 
2410000000.0000000000 0.172880709171295193771200615629 -0.006060022860765457153320312500 0.004650611430406569567208574512 -0.002183454576879740195033408057 0 0 0 0 
2410166666.6666665077 0.172160029411315890213174384371 -0.007465601898729801177978515625 0.004507319536060094833374023438 -0.002577873179689050154445029150 0 0 0 0 
2410333333.3333334923 0.171528175473213195800781250000 -0.009242447093129158020019531250 0.004495204426348209381103515625 -0.002587286289781332015991210938 0 0 0 0 
2410500000.0000000000 0.170903190970420809646768134371 -0.011057897470891479146937186329 0.004445413593202829360961914062 -0.002880849177017807960510253906 0 0 0 0 
2410666666.6666665077 0.170352548360824612716513115629 -0.012899226509034630167027657421 0.004313416779041290283203125000 -0.003084927331656218008754111182 0 0 0 0 
2410833333.3333334923 0.169838726520538302322549384371 -0.014493996277451520401924334180 0.004372281022369861602783203125 -0.003268106374889612197875976562 0 0 0 0 
2411000000.0000000000 0.169388160109519986251669365629 -0.016434097662568088876744454296 0.004240539856255055341238691113 -0.003461502725258470015284872900 0 0 0 0 
2411166666.6666665077 0.168951615691184997558593750000 -0.018293632194399830209752266796 0.004094984848052263259887695312 -0.003681161673739552931544638525 0 0 0 0 
2411333333.3333334923 0.168608993291854886154013115629 -0.020109809935092929494837576954 0.003788059111684561209437704932 -0.003838856238871812820434570312 0 0 0 0 
2411500000.0000000000 0.168350875377655001541299384371 -0.022301709279417991638183593750 0.003702688962221146063563681494 -0.004056139849126338958740234375 0 0 0 0 
2411666666.6666665077 0.168275669217109707931356865629 -0.024047868326306339609166329296 0.003674965351819992065429687500 -0.004245904739946126937866210938 0 0 0 0 
2411833333.3333334923 0.168235152959823608398437500000 -0.025788556784391399728795235546 0.003442255081608891920802451025 -0.004337674006819725036621093750 0 0 0 0 
2412000000.0000000000 0.168272078037261990646200615629 -0.027915274724364280700683593750 0.003331050276756287054774618994 -0.004623270593583583831787109375 0 0 0 0 
2412166666.6666665077 0.168245032429695101638955634371 -0.029924320057034489023228829296 0.002913701348006724877598427881 -0.004711958579719066619873046875 0 0 0 0 
2412333333.3333334923 0.168444186449050903320312500000 -0.031867217272520072246511091407 0.002876071259379386901855468750 -0.005092729348689317703247070312 0 0 0 0 
2412500000.0000000000 0.168589711189269991775674384371 -0.033891230821609497070312500000 0.002650423441082239151000976562 -0.005020810756832361221313476562 0 0 0 0 
2412666666.6666665077 0.168918162584304809570312500000 -0.035803265869617462158203125000 0.002277594292536377906799316406 -0.005152737721800804138183593750 0 0 0 0 
2412833333.3333334923 0.169229596853256197830361884371 -0.037670724093914031982421875000 0.002093526767566800117492675781 -0.005479195155203341570382402637 0 0 0 0 
2413000000.0000000000 0.169486612081527709960937500000 -0.039477158337831497192382812500 0.001913347397930919907213520581 -0.005382434930652379989624023438 0 0 0 0 
2413166666.6666665077 0.169879138469695989410723768742 -0.041241109371185302734375000000 0.001537370379082858996150351416 -0.005546673201024532318115234375 0 0 0 0 
2413333333.3333334923 0.170311495661735506912393134371 -0.042970526963472373271901716407 0.001340172253549098968505859375 -0.005585107486695051193237304688 0 0 0 0 
2413500000.0000000000 0.170749202370643587967080634371 -0.044747292995452880859375000000 0.001152447075583040931104350513 -0.005543128587305545806884765625 0 0 0 0 
2413666666.6666665077 0.171483099460601806640625000000 -0.046203602105379111553151716407 0.000818846398033201694488525391 -0.005521977785974740982055664062 0 0 0 0 
2413833333.3333334923 0.171851530671119689941406250000 -0.047894544899463646625559221093 0.000535480910912156105041503906 -0.005602493416517972946166992188 0 0 0 0 
2414000000.0000000000 0.172266006469726590255575615629 -0.049222104251384742046315778907 0.000111011882836464806042532649 -0.005622624885290861129760742188 0 0 0 0 
2414166666.6666665077 0.172879621386527987381143134371 -0.050536043941974639892578125000 -0.000014300237126008140091794167 -0.005684013944119215011596679688 0 0 0 0 
2414333333.3333334923 0.173521727323532104492187500000 -0.051872897893190376972238908593 -0.000242112728301435708999633789 -0.005656815133988857269287109375 0 0 0 0 
2414500000.0000000000 0.174176365137100191970986884371 -0.053007822483777999877929687500 -0.000636776501778513193130493164 -0.005399047397077083587646484375 0 0 0 0 
2414666666.6666665077 0.174479916691780090332031250000 -0.054120905697345726703684221093 -0.000714192749001085758209228516 -0.005396040622144938382620527051 0 0 0 0 
2414833333.3333334923 0.175018742680549593826455634371 -0.055206663906574249267578125000 -0.001090162433683872006059956128 -0.005366071593016386032104492188 0 0 0 0 
2415000000.0000000000 0.175384297966957092285156250000 -0.056019801646471016620676408593 -0.000989830470643937587738037109 -0.005354404449462890625000000000 0 0 0 0 
2415166666.6666665077 0.175817772746086092849893134371 -0.056805424392223358154296875000 -0.001373039907775819084764790112 -0.005161337088793516159057617188 0 0 0 0 
2415333333.3333334923 0.176328897476196289062500000000 -0.057768505066633217548410783593 -0.001726563787087797901750874097 -0.005260506644845008850097656250 0 0 0 0 
2415500000.0000000000 0.176604226231575012207031250000 -0.058254081755876541137695312500 -0.001660608220845460891723632812 -0.005037690512835980329031659863 0 0 0 0 
2415666666.6666665077 0.176889002323150607010049384371 -0.058851562440395362163503278907 -0.001998177263885736899134970557 -0.005016861949115991592407226562 0 0 0 0 
2415833333.3333334923 0.177267596125602694412393134371 -0.059363190084695822978932966407 -0.002129538683220744132995605469 -0.004672280512750148773193359375 0 0 0 0 
2416000000.0000000000 0.177178084850311307052450615629 -0.059914015233516693115234375000 -0.002383274957537651062011718750 -0.004653596319258213043212890625 0 0 0 0 
2416166666.6666665077 0.177571564912795992752236884371 -0.060288585722446441650390625000 -0.002542995382100344137904501807 -0.004554565995931625366210937500 0 0 0 0 
2416333333.3333334923 0.177382022142410306075888115629 -0.060544643551111221313476562500 -0.002510186051949859099147177588 -0.004420679993927478790283203125 0 0 0 0 
2416500000.0000000000 0.177295923233032198806924384371 -0.060898095369338989257812500000 -0.002718657022342085838317871094 -0.004133957438170909881591796875 0 0 0 0 
2416666666.6666665077 0.177127748727798489669638115629 -0.061082199215888977050781250000 -0.002892623888328671889064169775 -0.004239820875227451324462890625 0 0 0 0 
2416833333.3333334923 0.177010118961334200760049384371 -0.061476863920688629150390625000 -0.002862958004698156876804970850 -0.003874178510159254074096679688 0 0 0 0 
2417000000.0000000000 0.176550626754760686676348768742 -0.061728697270154953002929687500 -0.003053620690479875044581747900 -0.003621108597144484953639365088 0 0 0 0 
2417166666.6666665077 0.176086634397506713867187500000 -0.061845995485782623291015625000 -0.003252929542213677926304482568 -0.003619695315137505964991904150 0 0 0 0 
2417333333.3333334923 0.175677239894866887848223768742 -0.062010928988456733013112653907 -0.003257783362641931013820029150 -0.003400556975975633101222372900 0 0 0 0 
2417500000.0000000000 0.175069183111190795898437500000 -0.062358886003494262695312500000 -0.003284138394519687132594443213 -0.003358067246153951124904013525 0 0 0 0 
2417666666.6666665077 0.174474492669105502029580634371 -0.062429748475551612163503278907 -0.003486471250653266906738281250 -0.003269352484494448141810751807 0 0 0 0 
2417833333.3333334923 0.173704713582992609222088731258 -0.062634840607643127441406250000 -0.003587601939216256141662597656 -0.003000471973791718916652060400 0 0 0 0 
2418000000.0000000000 0.172733858227729797363281250000 -0.063009589910507202148437500000 -0.003524931613355875015258789062 -0.003041057381778955893275595557 0 0 0 0 
2418166666.6666665077 0.171983525156974792480468750000 -0.063242547214031219482421875000 -0.003640481038019061088562011719 -0.002988538006320596174952841650 0 0 0 0 
2418333333.3333334923 0.171209380030631991287393134371 -0.063664697110652923583984375000 -0.003567802021279931068420410156 -0.002614427357912064032313681494 0 0 0 0 
2418500000.0000000000 0.170009851455688504318075615629 -0.063948042690753936767578125000 -0.003657458117231727080104208838 -0.002530357800424098968505859375 0 0 0 0 
2418666666.6666665077 0.169058129191398592849893134371 -0.064484246075153350830078125000 -0.003673621453344821929931640625 -0.002399062039330602125880576025 0 0 0 0 
2418833333.3333334923 0.167804211378097506424111884371 -0.064961813390254974365234375000 -0.003874216461554170088527060400 -0.002393814735114573998692177881 0 0 0 0 
2419000000.0000000000 0.166477739810943603515625000000 -0.065516829490661621093750000000 -0.003852570895105599923374795068 -0.002270560245960950851440429688 0 0 0 0 
2419166666.6666665077 0.165466979146003695388955634371 -0.066192738711833953857421875000 -0.003822763916105031967163085938 -0.002148203318938612937927246094 0 0 0 0 
2419333333.3333334923 0.164128541946411105056924384371 -0.066652052104473114013671875000 -0.003864429891109466986415243994 -0.002000923966988921165466308594 0 0 0 0 
2419500000.0000000000 0.163006767630577087402343750000 -0.067643336951732635498046875000 -0.003854750655591487884521484375 -0.001945681287907063961029052734 0 0 0 0 
2419666666.6666665077 0.161915645003318786621093750000 -0.068517997860908508300781250000 -0.003926282282918691635131835938 -0.001873313449323176903965615381 0 0 0 0 
2419833333.3333334923 0.160522475838661193847656250000 -0.069265447556972503662109375000 -0.003976312465965747833251953125 -0.001872249762527645067927695166 0 0 0 0 
