# Hz S RI R 50
2400000000.0000000000 0.158619195222854586502236884371 0.062743209302425384521484375000 -0.000572253775317221879959106445 0.002395597053691744804382324219 0 0 0 0 
2400166666.6666665077 0.158325448632240295410156250000 0.061200890690088272094726562500 -0.000400029472075402682453709735 0.002547454088926314873936318506 0 0 0 0 
2400333333.3333334923 0.158209294080734308440838731258 0.059160526841878890991210937500 -0.000328096153680235201686304913 0.002442181576043366952183388818 0 0 0 0 
2400500000.0000000000 0.157925784587860107421875000000 0.057565476745367050170898437500 -0.000372103706467896699905395508 0.002586991991847753958461142432 0 0 0 0 
2400666666.6666665077 0.157991260290145901779013115629 0.055403970181941993022878278907 -0.000216570930206216898843488150 0.002597585553303360939025878906 0 0 0 0 
2400833333.3333334923 0.158090904355049105545205634371 0.053402386605739586566965471093 -0.000052373070502653717994689941 0.002532832790166140036342001807 0 0 0 0 
2401000000.0000000000 0.157943576574325589279013115629 0.051380593329668051982839216407 -0.000075675656262319535017013550 0.002756897360086441040039062500 0 0 0 0 
2401166666.6666665077 0.158158436417579706390057481258 0.049276489764451980590820312500 0.000124092155601829290390014648 0.002655927557498217062709189307 0 0 0 0 
2401333333.3333334923 0.158247619867324801345986884371 0.047294855117797851562500000000 0.000146831866004504290506085806 0.002810534322634338898899697412 0 0 0 0 
2401500000.0000000000 0.158669263124465886871661268742 0.045191902667284011840820312500 0.000024544600819353948941434554 0.002801542403176426887512207031 0 0 0 0 
2401666666.6666665077 0.158861801028251703460369981258 0.043159034103155143047292341407 0.000160809984663501408979138785 0.002783096628263593153712607275 0 0 0 0 
2401833333.3333334923 0.159108430147170992752236884371 0.041088860481977462768554687500 0.000291412929072976112365722656 0.002871419768780469894409179688 0 0 0 0 
2402000000.0000000000 0.159311190247535705566406250000 0.039228796958923339843750000000 0.000442719407146796584129333496 0.002901467261835933165309286963 0 0 0 0 
2402166666.6666665077 0.159860625863075311858807481258 0.037014041095972061157226562500 0.000471708102850243503421229230 0.003162404987961053848266601562 0 0 0 0 
2402333333.3333334923 0.160290881991386413574218750000 0.035305552184581756591796875000 0.000889129529241472482681274414 0.003035378176718949837925576318 0 0 0 0 
2402500000.0000000000 0.161196261644363403320312500000 0.033467523753643042827565778907 0.000801778747700154781341552734 0.003067666897550224824192666162 0 0 0 0 
2402666666.6666665077 0.161599501967430086990518134371 0.031691256910562522197682966407 0.000981077784672379493713378906 0.002929199254140257835388183594 0 0 0 0 
2402833333.3333334923 0.162376284599304199218750000000 0.029933949932456020009974295704 0.001035572029650210900547646631 0.003122781636193395094630576025 0 0 0 0 
2403000000.0000000000 0.163209706544876098632812500000 0.028171950951218608510950858204 0.001273850561119616031646728516 0.003094548126682639122009277344 0 0 0 0 
2403166666.6666665077 0.164020553231239291092080634371 0.026534778997302058828333670704 0.001356403110548854091046977466 0.003192358184605836868286132812 0 0 0 0 
2403333333.3333334923 0.164841458201408386230468750000 0.025173841044306758535364920704 0.001481164363212883906123495947 0.003118777647614479064941406250 0 0 0 0 
2403500000.0000000000 0.165624514222145108321981865629 0.023642200976610180246373360546 0.001754877739585936069488525391 0.003184966975823045210597372900 0 0 0 0 
2403666666.6666665077 0.166785091161727905273437500000 0.022221300750970840454101562500 0.001725147129036485931993794019 0.002947023604065179824829101562 0 0 0 0 
2403833333.3333334923 0.167686894536018399337606865629 0.020994657650589939462681954296 0.001853910507634281895281147534 0.002942242193967103958129882812 0 0 0 0 
2404000000.0000000000 0.168672040104866000076455634371 0.019673516973853111267089843750 0.002201940165832639174220419775 0.002975827315822244124171591650 0 0 0 0 
2404166666.6666665077 0.169750943779945401290731865629 0.018583379685878750192662423046 0.002224627416580915884730673682 0.002960487036034464836120605469 0 0 0 0 
2404333333.3333334923 0.170639976859092712402343750000 0.017563106492161750793457031250 0.002438295166939496994018554688 0.002897182479500771002528525244 0 0 0 0 
2404500000.0000000000 0.171641975641250610351562500000 0.016446819528937339782714843750 0.002504979027435183958766318213 0.002932480769231915907618857275 0 0 0 0 
2404666666.6666665077 0.172529324889182988922442518742 0.015460680238902570551862147852 0.002661511069163680076599121094 0.002774612279608846144435263525 0 0 0 0 
2404833333.3333334923 0.173626407980918912032919365629 0.014724911190569400787353515625 0.002923542866483331160304404150 0.002457249443978071212768554688 0 0 0 0 
2405000000.0000000000 0.174298256635665893554687500000 0.014007790014147760218610194727 0.003029156941920518875122070312 0.002579459687694907188415527344 0 0 0 0 
2405166666.6666665077 0.175322979688644409179687500000 0.013264480978250500070592110546 0.003187669906765222983119345557 0.002472807653248310089111328125 0 0 0 0 
2405333333.3333334923 0.176236346364021301269531250000 0.012703979387879369908342930273 0.003260830184444785118103027344 0.002302239183336495919468545068 0 0 0 0 
2405500000.0000000000 0.177025735378265408614950615629 0.012144089676439760380755039648 0.003321065101772547201869345557 0.002164499601349235014674521338 0 0 0 0 
2405666666.6666665077 0.177707940340042086502236884371 0.011850162409245969599713710352 0.003554700873792171911952353369 0.001966329524293541908264160156 0 0 0 0 
2405833333.3333334923 0.178209602832794189453125000000 0.011384231038391590118408203125 0.003741747932508587837219238281 0.001853843568824232058284140479 0 0 0 0 
2406000000.0000000000 0.178947895765304593185263115629 0.010780126787722110748291015625 0.003690531942993402914759970557 0.001990784192457795143127441406 0 0 0 0 
2406166666.6666665077 0.179394513368606595138388115629 0.010664521716535089665423008398 0.003934846259653568267822265625 0.001624628668650984980939555591 0 0 0 0 
2406333333.3333334923 0.180065855383873013595419365629 0.010308997705578800546666329296 0.003824801184237002892735146631 0.001581550342962146022199321216 0 0 0 0 
2406500000.0000000000 0.180317968130111694335937500000 0.009914245456457138061523437500 0.004138662479817867279052734375 0.001492877257987857081769633716 0 0 0 0 
2406666666.6666665077 0.180337026715278597732705634371 0.009695721790194511413574218750 0.004155762493610382080078125000 0.001285241916775702996494912256 0 0 0 0 
2406833333.3333334923 0.180728018283843994140625000000 0.009301291778683662414550781250 0.004255617968738079071044921875 0.001109850592911243005039834131 0 0 0 0 
2407000000.0000000000 0.180865108966827392578125000000 0.009025444276630878448486328125 0.004369196016341447830200195312 0.000765364384278655052185058594 0 0 0 0 
2407166666.6666665077 0.181008934974670410156250000000 0.008932437747716903686523437500 0.004344206769019365310668945312 0.000752346648368984460830688477 0 0 0 0 
2407333333.3333334923 0.180945321917533902267294365629 0.008340159431099891662597656250 0.004438994452357292175292968750 0.000609691778663545846939086914 0 0 0 0 
2407500000.0000000000 0.180954143404960604568643134371 0.008057559840381145477294921875 0.004430396016687154769897460938 0.000559340871404856443405151367 0 0 0 0 
2407666666.6666665077 0.180636689066886901855468750000 0.007613855414092540740966796875 0.004485400393605232238769531250 0.000288563896901905482441502704 0 0 0 0 
2407833333.3333334923 0.180198803544044494628906250000 0.007016517221927642822265625000 0.004693707916885614395141601562 0.000164086581207811805322924203 0 0 0 0 
2408000000.0000000000 0.180033132433891296386718750000 0.006413124036043882369995117188 0.004553387407213450345511152051 0.000013164141819288490171534385 0 0 0 0 
2408166666.6666665077 0.179552495479583712478799384371 0.005996336694806814193725585938 0.004587500821799039840698242188 -0.000288648909190669710009974347 0 0 0 0 
2408333333.3333334923 0.179254218935966491699218750000 0.005287513136863709363455487988 0.004743034951388835906982421875 -0.000319606479024514610141199933 0 0 0 0 
2408500000.0000000000 0.178696408867835998535156250000 0.004343609325587750348562909863 0.004662940744310616579537676074 -0.000510010053403675556182861328 0 0 0 0 
2408666666.6666665077 0.178211495280265808105468750000 0.003591350978240371184108115088 0.004748379345983266830444335938 -0.000924072228372097015380859375 0 0 0 0 
2408833333.3333334923 0.177284687757492093185263115629 0.002565693575888872146606445312 0.004689197055995464324951171875 -0.000849602045491337776184082031 0 0 0 0 
2409000000.0000000000 0.176744818687438992599325615629 0.001705197850242256901384663159 0.004701276309788227081298828125 -0.001011139829643070914624858325 0 0 0 0 
2409166666.6666665077 0.176354989409446688553018134371 0.000688314379658550024032592773 0.004670005291700363159179687500 -0.001163478824310004927991557544 0 0 0 0 
2409333333.3333334923 0.175593763589859008789062500000 -0.000615615106653422117233276367 0.004668192937970160570626543262 -0.001460763509385287978528666919 0 0 0 0 
2409500000.0000000000 0.174693152308464105804119981258 -0.002049129689112306074855185400 0.004716100636869668960571289062 -0.001630492508411407904383993994 0 0 0 0 
2409666666.6666665077 0.174009919166564913650674384371 -0.003146862844005227088928222656 0.004812448751181364059448242188 -0.001898208400234580039978027344 0 0 0 0 
2409833333.3333334923 0.173463881015777587890625000000 -0.004552468191832304000854492188 0.004619757179170846939086914062 -0.002141969045624136924743652344 0 0 0 0 
2410000000.0000000000 0.172785326838493402679119981258 -0.005970385856926441192626953125 0.004704259335994721326346112988 -0.002244150498881936073303222656 0 0 0 0 
2410166666.6666665077 0.172145992517471313476562500000 -0.007640501949936152371878339551 0.004578559193760156631469726562 -0.002416193950921297073364257812 0 0 0 0 
2410333333.3333334923 0.171562865376472500900106865629 -0.009144812822341918945312500000 0.004533098544925451278686523438 -0.002640758873894811110255576025 0 0 0 0 
2410500000.0000000000 0.170865714550018310546875000000 -0.010739013552665710449218750000 0.004534574225544930371756269238 -0.003042110241949557824375771631 0 0 0 0 
2410666666.6666665077 0.170356243848800686935263115629 -0.012834258377552030735979649023 0.004420268349349498748779296875 -0.003147390671074389977696084131 0 0 0 0 
2410833333.3333334923 0.170006498694419888595419365629 -0.014428005553781989706019217579 0.004228835459798573580270097949 -0.003406737232580780982971191406 0 0 0 0 
2411000000.0000000000 0.169411137700080899337606865629 -0.016366258263587951660156250000 0.004078140482306480407714843750 -0.003427996998652815818786621094 0 0 0 0 
2411166666.6666665077 0.169077321887016296386718750000 -0.018313501030206680297851562500 0.004157095681875944137573242188 -0.003800974227488040924072265625 0 0 0 0 
2411333333.3333334923 0.168697953224182101150674384371 -0.020109133794903758657435233204 0.003875615075230598016026162256 -0.004058979451656342420096112988 0 0 0 0 
2411500000.0000000000 0.168509498238563509842080634371 -0.022233303636312491680104841407 0.003933912143111228942871093750 -0.004146900959312915802001953125 0 0 0 0 
2411666666.6666665077 0.168474033474922207931356865629 -0.024131815880537029611607735546 0.003659235779196023941040039062 -0.004328821785748004913330078125 0 0 0 0 
2411833333.3333334923 0.168404534459114102462606865629 -0.026035368442535400390625000000 0.003607094055041670799255371094 -0.004477468784898520383352948926 0 0 0 0 
2412000000.0000000000 0.168624043464660589020098768742 -0.028072860091924670827845389454 0.003299046074971557097194052588 -0.004669424146413803100585937500 0 0 0 0 
2412166666.6666665077 0.168486401438713101486044365629 -0.029848733916878700256347656250 0.003037956077605485916137695312 -0.004889398813247680664062500000 0 0 0 0 
2412333333.3333334923 0.168652042746543912032919365629 -0.031808707863092422485351562500 0.002760051283985375924351357568 -0.005093640647828578948974609375 0 0 0 0 
2412500000.0000000000 0.168661266565322903732138115629 -0.033589113503694527362863908593 0.002576269442215561866760253906 -0.005136850290000438690185546875 0 0 0 0 
2412666666.6666665077 0.169077426195144708831463731258 -0.035916585475206382060964216407 0.002384802093729376792907714844 -0.005242202430963516235351562500 0 0 0 0 
2412833333.3333334923 0.169356048107147189041299384371 -0.037690516561269760131835937500 0.002156751230359077887294150244 -0.005399728659540414810180664062 0 0 0 0 
2413000000.0000000000 0.169694006443023709396200615629 -0.039370395243167877197265625000 0.001950990641489624977111816406 -0.005571578163653612136840820312 0 0 0 0 
2413166666.6666665077 0.170089483261108398437500000000 -0.041289690881967551494557966407 0.001590878586284816048265766675 -0.005631628446280956268310546875 0 0 0 0 
2413333333.3333334923 0.170343548059463500976562500000 -0.043088119477033622051198591407 0.001312758540734648921369243091 -0.005720079410821199417114257812 0 0 0 0 
2413500000.0000000000 0.170942425727844210525674384371 -0.044630672782659530639648437500 0.001094882958568633036372519385 -0.005734239704906941327566816113 0 0 0 0 
2413666666.6666665077 0.171377286314964294433593750000 -0.046192530542612082744557966407 0.000760033086407929658889770508 -0.005721207708120346069335937500 0 0 0 0 
2413833333.3333334923 0.171800851821899386306924384371 -0.047747079282999038696289062500 0.000553714344277977943420410156 -0.005755146499723196029663085938 0 0 0 0 
2414000000.0000000000 0.172212719917297391036825615629 -0.049283646047115332866628278907 0.000247509655309840982586461200 -0.005737832747399806976318359375 0 0 0 0 
2414166666.6666665077 0.172953680157661410232705634371 -0.050631195306777947162668596093 0.000123316800454631502002161847 -0.005701036192476749420166015625 0 0 0 0 
2414333333.3333334923 0.173389688134193392654580634371 -0.051902145147323608398437500000 -0.000227826181799173409312647687 -0.005770426243543624877929687500 0 0 0 0 
2414500000.0000000000 0.174202129244804410079794365629 -0.053087487816810607910156250000 -0.000346990389516577124595642090 -0.005679672583937644958496093750 0 0 0 0 
2414666666.6666665077 0.174503222107887295821981865629 -0.054141543805599212646484375000 -0.000799597648438066244125366211 -0.005529392044991254806518554688 0 0 0 0 
2414833333.3333334923 0.175102397799491910079794365629 -0.055202078074216842651367187500 -0.000997215858660638332366943359 -0.005441822577267885208129882812 0 0 0 0 
2415000000.0000000000 0.175563231110572787185830634371 -0.056054767221212387084960937500 -0.001385103329084814028498984229 -0.005435622297227382659912109375 0 0 0 0 
2415166666.6666665077 0.175800725817680386642294365629 -0.056888747960329062725026716407 -0.001407778938300908045527792822 -0.005281372461467981338500976562 0 0 0 0 
2415333333.3333334923 0.176361411809921292404013115629 -0.057818677276372909545898437500 -0.001650367630645632960675883716 -0.005230021197348833084106445312 0 0 0 0 
2415500000.0000000000 0.176684737205505398849325615629 -0.058289706707000732421875000000 -0.001859931158833205916761088794 -0.005055532325059176358694745801 0 0 0 0 
2415666666.6666665077 0.176960006356239291092080634371 -0.058744862675666809082031250000 -0.001970797544345260100123740088 -0.004931945819407702359671308301 0 0 0 0 
2415833333.3333334923 0.177306592464446993728799384371 -0.059329375624656677246093750000 -0.002035135403275489807128906250 -0.004914655350148677825927734375 0 0 0 0 
2416000000.0000000000 0.177285045385360690017861884371 -0.059917710721492767333984375000 -0.002362333936616777940037392725 -0.004699361976236104965209960938 0 0 0 0 
2416166666.6666665077 0.177457347512245205978231865629 -0.060318075120449073101003278907 -0.002392578171566129164454794775 -0.004503188189119100570678710938 0 0 0 0 
2416333333.3333334923 0.177423447370529202560263115629 -0.060502253472805023193359375000 -0.002657317789271473884582519531 -0.004345248918980360031127929688 0 0 0 0 
2416500000.0000000000 0.177386477589607211013955634371 -0.060848239809274673461914062500 -0.002681964077055453820469521631 -0.004325125366449356079101562500 0 0 0 0 
2416666666.6666665077 0.177184969186782809158486884371 -0.061220515519380569458007812500 -0.003053216962143778800964355469 -0.004026331007480621337890625000 0 0 0 0 
2416833333.3333334923 0.177067726850509588043536268742 -0.061469595879316329956054687500 -0.003030942985787988142726279150 -0.003980549983680248260498046875 0 0 0 0 
2417000000.0000000000 0.176485866308212308029013115629 -0.061632018536329269409179687500 -0.003180541330948472023010253906 -0.003855498274788260893580771338 0 0 0 0 
2417166666.6666665077 0.176182642579078702071981865629 -0.061811245977878570556640625000 -0.003248638240620493888854980469 -0.003584428923204541206359863281 0 0 0 0 
2417333333.3333334923 0.175697162747383089920205634371 -0.062016684561967849731445312500 -0.003367534838616847991943359375 -0.003453656798228621916529990088 0 0 0 0 
2417500000.0000000000 0.175122827291488702972088731258 -0.062325276434421539306640625000 -0.003488464048132299943211220850 -0.003410453675314784049987792969 0 0 0 0 
2417666666.6666665077 0.174517899751663208007812500000 -0.062416117638349533081054687500 -0.003415301209315658049342490088 -0.003335074754431844191310263525 0 0 0 0 
2417833333.3333334923 0.173628404736518887618856865629 -0.062652505934238433837890625000 -0.003595527261495590209960937500 -0.003110073506832122802734375000 0 0 0 0 
2418000000.0000000000 0.172835379838943509200888115629 -0.063043251633644104003906250000 -0.003429250093176960945129394531 -0.002849271520972251892089843750 0 0 0 0 
2418166666.6666665077 0.171919509768485995193643134371 -0.063195325434207916259765625000 -0.003473330289125442938563681494 -0.002914248500019311904907226562 0 0 0 0 
2418333333.3333334923 0.171250805258750887771768134371 -0.063664577901363372802734375000 -0.003679857356473803953883505713 -0.002632774179801344871520996094 0 0 0 0 
2418500000.0000000000 0.169946789741516113281250000000 -0.064037971198558807373046875000 -0.003764952532947063012364052881 -0.002723166253417729897740029443 0 0 0 0 
2418666666.6666665077 0.169034555554390009124432481258 -0.064418762922286987304687500000 -0.003823728766292334036586142432 -0.002555225742980837821960449219 0 0 0 0 
2418833333.3333334923 0.167780086398124694824218750000 -0.065012827515602111816406250000 -0.003826177446171640916111611475 -0.002476770896464585824253701318 0 0 0 0 
2419000000.0000000000 0.166655078530311612228231865629 -0.065571732819080352783203125000 -0.003712344681844114823582314600 -0.002444796497002243995666503906 0 0 0 0 
2419166666.6666665077 0.165533050894737188141192518742 -0.066127032041549682617187500000 -0.003884351579472423033473349463 -0.002095124218612908883335732568 0 0 0 0 
2419333333.3333334923 0.164070591330528287032919365629 -0.066597245633602142333984375000 -0.003841497469693421883824013818 -0.002135306829586625099182128906 0 0 0 0 
2419500000.0000000000 0.162998840212821988204794365629 -0.067551165819168090820312500000 -0.003885441692546010017395019531 -0.001963779563084245161769247900 0 0 0 0 
2419666666.6666665077 0.161845922470092801193075615629 -0.068493224680423736572265625000 -0.003985730465501546859741210938 -0.001900463597849010987522744287 0 0 0 0 
2419833333.3333334923 0.160537391901016207595986884371 -0.069319039583206176757812500000 -0.003961998503655195236206054688 -0.001695782179012895064112997900 0 0 0 0 
