# Version 1.00
#
freq[Hz];re:Trc1_S11;im:Trc1_S11;re:Trc2_S21;im:Trc2_S21;
2.400000000000000E+009;1.583319902420044E-001;6.263057142496109E-002;-3.273154143244028E-003;-2.562782727181912E-003;
2.400166666666667E+009;1.582501530647278E-001;6.090193614363670E-002;-3.412178717553616E-003;-2.425796817988157E-003;
2.400333333333334E+009;1.580474078655243E-001;5.903241410851479E-002;-3.578431671485305E-003;-2.154007786884904E-003;
2.400500000000000E+009;1.579425334930420E-001;5.707941949367523E-002;-3.291686298325658E-003;-2.062760526314378E-003;
2.400666666666667E+009;1.579028964042664E-001;5.504044517874718E-002;-3.636413253843784E-003;-1.968772849068046E-003;
2.400833333333334E+009;1.580026149749756E-001;5.316898971796036E-002;-3.638887545093894E-003;-1.653712359257042E-003;
2.401000000000000E+009;1.580870300531387E-001;5.097042024135590E-002;-3.776948899030685E-003;-1.480266219004989E-003;
2.401166666666667E+009;1.582735925912857E-001;4.889338091015816E-002;-3.700926899909973E-003;-1.335356850177050E-003;
2.401333333333334E+009;1.582230478525162E-001;4.685719311237335E-002;-3.676537424325943E-003;-1.145220594480634E-003;
2.401500000000000E+009;1.586451828479767E-001;4.480820894241333E-002;-3.538000863045454E-003;-9.524155757389963E-004;
2.401666666666667E+009;1.589091867208481E-001;4.294193163514137E-002;-3.632305655628443E-003;-8.813208551146090E-004;
2.401833333333334E+009;1.592577993869782E-001;4.066267237067223E-002;-3.568402957171202E-003;-5.471339682117105E-004;
2.402000000000000E+009;1.595716625452042E-001;3.872859850525856E-002;-3.674829844385386E-003;-5.060440744273365E-004;
2.402166666666667E+009;1.600468009710312E-001;3.669971227645874E-002;-3.349374048411846E-003;-3.817256365437061E-004;
2.402333333333334E+009;1.605977863073349E-001;3.471682965755463E-002;-3.471344243735075E-003;-6.533360283356160E-005;
2.402500000000000E+009;1.614237725734711E-001;3.301811590790749E-002;-3.234397852793336E-003;4.311184602556750E-005;
2.402666666666667E+009;1.620464622974396E-001;3.123806789517403E-002;-3.232284216210246E-003;1.149947056546807E-004;
2.402833333333334E+009;1.628696918487549E-001;2.954483404755592E-002;-3.092988627031446E-003;3.165060770697892E-004;
2.403000000000000E+009;1.635697484016419E-001;2.782584726810455E-002;-3.008713712915778E-003;2.820720546878874E-004;
2.403166666666667E+009;1.643913388252258E-001;2.605886943638325E-002;-2.957761753350496E-003;4.545550618786365E-004;
2.403333333333334E+009;1.653070151805878E-001;2.477533929049969E-002;-2.784259617328644E-003;6.410818896256387E-004;
2.403500000000000E+009;1.661105453968048E-001;2.322385273873806E-002;-2.784015377983451E-003;5.987906479276717E-004;
2.403666666666667E+009;1.672726422548294E-001;2.200921252369881E-002;-2.678924705833197E-003;5.620726151391864E-004;
2.403833333333334E+009;1.681067049503326E-001;2.067741379141808E-002;-2.761563751846552E-003;7.884909864515066E-004;
2.404000000000000E+009;1.691904217004776E-001;1.937191002070904E-002;-2.482087817043066E-003;7.851158152334392E-004;
2.404166666666667E+009;1.700163930654526E-001;1.817663200199604E-002;-2.365883439779282E-003;7.862516795285046E-004;
2.404333333333334E+009;1.710792034864426E-001;1.734021306037903E-002;-2.385073108598590E-003;8.291927515529096E-004;
2.404500000000000E+009;1.718768775463104E-001;1.638892851769924E-002;-2.272157697007060E-003;8.764225640334189E-004;
2.404666666666667E+009;1.728492230176926E-001;1.539248693734407E-002;-2.169874263927341E-003;9.104349301196635E-004;
2.404833333333334E+009;1.738520562648773E-001;1.473197713494301E-002;-1.992010045796633E-003;9.432297083549202E-004;
2.405000000000000E+009;1.747575849294663E-001;1.387589517980814E-002;-1.880205469205976E-003;9.483723551966250E-004;
2.405166666666667E+009;1.754891574382782E-001;1.332727167755365E-002;-2.023720648139715E-003;9.440739522688091E-004;
2.405333333333334E+009;1.765837669372559E-001;1.274246815592051E-002;-1.896432950161398E-003;9.406195604242384E-004;
2.405500000000000E+009;1.771278083324432E-001;1.226688083261251E-002;-1.665053074248135E-003;1.100719440728426E-003;
2.405666666666667E+009;1.777568608522415E-001;1.190173439681530E-002;-1.815114053897560E-003;1.087051816284657E-003;
2.405833333333334E+009;1.783562600612640E-001;1.147161982953548E-002;-1.633269828744233E-003;9.333123452961445E-004;
2.406000000000000E+009;1.789935082197189E-001;1.102369651198387E-002;-1.624680939130485E-003;9.571978589519858E-004;
2.406166666666667E+009;1.793958842754364E-001;1.089703850448132E-002;-1.401508343406022E-003;1.102800015360117E-003;
2.406333333333334E+009;1.798584908246994E-001;1.055391784757376E-002;-1.427560346201062E-003;7.699520792812109E-004;
2.406500000000000E+009;1.800664961338043E-001;1.013856567442417E-002;-1.401068991981447E-003;9.073418332263827E-004;
2.406666666666667E+009;1.802512109279633E-001;9.919255971908569E-003;-1.396464882418513E-003;9.426917531527579E-004;
2.406833333333334E+009;1.804216057062149E-001;9.586153551936150E-003;-1.320594223216176E-003;9.858147241175175E-004;
2.407000000000000E+009;1.807366162538528E-001;9.247216396033764E-003;-1.340553164482117E-003;1.033644890412688E-003;
2.407166666666667E+009;1.806691139936447E-001;9.022758342325687E-003;-1.326791592873633E-003;1.003520446829498E-003;
2.407333333333334E+009;1.805912554264069E-001;8.564335294067860E-003;-1.105302129872143E-003;9.152421844191849E-004;
2.407500000000000E+009;1.804315447807312E-001;8.147554472088814E-003;-1.212861854583025E-003;8.169975480996072E-004;
2.407666666666667E+009;1.802156418561935E-001;7.852262817323208E-003;-1.195169868879020E-003;6.977316807024181E-004;
2.407833333333334E+009;1.797870546579361E-001;7.071888539940119E-003;-1.251774490810931E-003;7.401732727885246E-004;
2.408000000000000E+009;1.794110834598541E-001;6.589288823306561E-003;-1.044788514263928E-003;9.327931329607964E-004;
2.408166666666667E+009;1.791101843118668E-001;6.111429072916508E-003;-1.156886108219624E-003;8.928427123464644E-004;
2.408333333333334E+009;1.786683052778244E-001;5.488660186529160E-003;-1.116377767175436E-003;7.366348290815949E-004;
2.408500000000000E+009;1.780745834112167E-001;4.529293626546860E-003;-1.176574500277638E-003;7.196802762337029E-004;
2.408666666666667E+009;1.775634139776230E-001;3.584422171115875E-003;-1.146890805102885E-003;7.637442904524505E-004;
2.408833333333334E+009;1.767517328262329E-001;2.659895922988653E-003;-1.250264351256192E-003;8.371018338948488E-004;
2.409000000000000E+009;1.760258972644806E-001;1.711415825411677E-003;-1.177897443994880E-003;9.056018316186965E-004;
2.409166666666667E+009;1.754334568977356E-001;5.610865191556513E-004;-1.166527392342687E-003;8.570965146645904E-004;
2.409333333333334E+009;1.748310774564743E-001;-7.273580995388329E-004;-1.323041738942266E-003;7.725835312157869E-004;
2.409500000000000E+009;1.741630285978317E-001;-1.964288065209985E-003;-1.146741909906268E-003;8.034724742174149E-004;
2.409666666666667E+009;1.734127700328827E-001;-3.442770568653941E-003;-1.151056028902531E-003;9.286961867474020E-004;
2.409833333333334E+009;1.724625080823898E-001;-4.512479528784752E-003;-1.184180960990489E-003;7.927412516437471E-004;
2.410000000000000E+009;1.720956712961197E-001;-6.222337950021029E-003;-1.204536529257894E-003;6.999816978350282E-004;
2.410166666666667E+009;1.713032871484757E-001;-7.693967316299677E-003;-1.040213508531451E-003;9.129670797847211E-004;
2.410333333333334E+009;1.707397848367691E-001;-9.340018033981323E-003;-1.141558866947889E-003;9.130445541813970E-004;
2.410500000000000E+009;1.701342165470123E-001;-1.100824680179358E-002;-1.013128552585840E-003;7.899386109784246E-004;
2.410666666666667E+009;1.695900112390518E-001;-1.285045035183430E-002;-1.051464816555381E-003;7.510893046855927E-004;
2.410833333333334E+009;1.692964583635330E-001;-1.459230389446020E-002;-1.150475349277258E-003;9.097221191041172E-004;
2.411000000000000E+009;1.689269393682480E-001;-1.640318892896175E-002;-1.161463907919824E-003;8.051518234424293E-004;
2.411166666666667E+009;1.685252189636231E-001;-1.841031387448311E-002;-1.053635729476810E-003;8.106268360279501E-004;
2.411333333333334E+009;1.682551950216293E-001;-2.016637101769447E-002;-1.129927113652229E-003;9.286528802476823E-004;
2.411500000000000E+009;1.681521832942963E-001;-2.229323610663414E-002;-1.044714124873281E-003;9.429587516933680E-004;
2.411666666666667E+009;1.680412292480469E-001;-2.415962144732475E-002;-1.157186459749937E-003;8.821650990284979E-004;
2.411833333333334E+009;1.679510325193405E-001;-2.613172121345997E-002;-1.034926972351968E-003;8.536532986909151E-004;
2.412000000000000E+009;1.681332737207413E-001;-2.808099426329136E-002;-8.852483006194234E-004;8.007599390111864E-004;
2.412166666666667E+009;1.681908071041107E-001;-3.000138141214848E-002;-9.718840010464191E-004;8.386243716813624E-004;
2.412333333333334E+009;1.684994548559189E-001;-3.176099434494972E-002;-1.015642541460693E-003;6.830618367530406E-004;
2.412500000000000E+009;1.684533208608627E-001;-3.371118381619453E-002;-1.086346106603742E-003;9.163560462184250E-004;
2.412666666666667E+009;1.690096855163574E-001;-3.572476282715797E-002;-1.269380096346140E-003;8.826425182633102E-004;
2.412833333333334E+009;1.693280041217804E-001;-3.765609860420227E-002;-9.675257024355233E-004;9.299818193539977E-004;
2.413000000000000E+009;1.695988029241562E-001;-3.923718258738518E-002;-1.231415895745158E-003;8.792464504949749E-004;
2.413166666666667E+009;1.700619161128998E-001;-4.102934524416924E-002;-1.151804346591234E-003;1.044090837240219E-003;
2.413333333333334E+009;1.706071048974991E-001;-4.291925951838493E-002;-1.098268199712038E-003;8.845768752507865E-004;
2.413500000000000E+009;1.712544858455658E-001;-4.453967139124870E-002;-1.117789535783231E-003;8.832145249471068E-004;
2.413666666666667E+009;1.716011762619019E-001;-4.622975736856461E-002;-1.161484629847109E-003;1.019115676172078E-003;
2.413833333333334E+009;1.721477508544922E-001;-4.765236377716065E-002;-1.196685363538563E-003;9.532444528304040E-004;
2.414000000000000E+009;1.727334856987000E-001;-4.909894615411758E-002;-1.186255016364157E-003;1.057506771758199E-003;
2.414166666666667E+009;1.733638346195221E-001;-5.044299364089966E-002;-1.214335439726710E-003;1.080793794244528E-003;
2.414333333333334E+009;1.737820655107498E-001;-5.160028487443924E-002;-1.113593578338623E-003;1.222005928866565E-003;
2.414500000000000E+009;1.745403259992600E-001;-5.277115106582642E-002;-1.255751471035183E-003;1.253508380614221E-003;
2.414666666666667E+009;1.748796552419663E-001;-5.388716980814934E-002;-1.067802775651217E-003;1.185292028822005E-003;
2.414833333333334E+009;1.755798310041428E-001;-5.480277165770531E-002;-1.210646820254624E-003;1.341011258773506E-003;
2.415000000000000E+009;1.759073138237000E-001;-5.564950779080391E-002;-1.046870020218194E-003;1.299356226809323E-003;
2.415166666666667E+009;1.764280945062637E-001;-5.641704425215721E-002;-1.295221038162708E-003;1.291607273742557E-003;
2.415333333333334E+009;1.768240928649902E-001;-5.729725956916809E-002;-1.057411776855588E-003;1.524830586276949E-003;
2.415500000000000E+009;1.771445274353027E-001;-5.792413279414177E-002;-9.683664538897574E-004;1.302945893257856E-003;
2.415666666666667E+009;1.774481385946274E-001;-5.836378037929535E-002;-9.911739034578204E-004;1.555758994072676E-003;
2.415833333333334E+009;1.776601523160934E-001;-5.900370702147484E-002;-1.125223934650421E-003;1.401386223733425E-003;
2.416000000000000E+009;1.776602119207382E-001;-5.942595377564430E-002;-1.137204584665597E-003;1.565830665640533E-003;
2.416166666666667E+009;1.779278218746185E-001;-5.970158800482750E-002;-9.373195352964103E-004;1.754541881382465E-003;
2.416333333333334E+009;1.778524369001389E-001;-6.006876379251480E-002;-9.836680255830288E-004;1.806192565709353E-003;
2.416500000000000E+009;1.777359247207642E-001;-6.035463139414787E-002;-8.314973092637956E-004;1.762929372489452E-003;
2.416666666666667E+009;1.774631291627884E-001;-6.060365960001946E-002;-1.075804000720382E-003;1.840044744312763E-003;
2.416833333333334E+009;1.773127764463425E-001;-6.098065152764320E-002;-8.534274529665709E-004;1.910960651002824E-003;
2.417000000000000E+009;1.767970770597458E-001;-6.114625930786133E-002;-8.961901767179370E-004;2.055533463135362E-003;
2.417166666666667E+009;1.763125807046890E-001;-6.127567589282990E-002;-8.958440157584846E-004;2.051036572083831E-003;
2.417333333333334E+009;1.758910566568375E-001;-6.153894215822220E-002;-7.914516609162092E-004;1.830725348554552E-003;
2.417500000000000E+009;1.751890480518341E-001;-6.184684485197067E-002;-7.881779456511140E-004;2.053967909887433E-003;
2.417666666666667E+009;1.745922863483429E-001;-6.198972463607788E-002;-6.595005397684872E-004;2.065796637907624E-003;
2.417833333333334E+009;1.737781167030335E-001;-6.220904737710953E-002;-8.271817350760102E-004;2.100966172292829E-003;
2.418000000000000E+009;1.728739887475967E-001;-6.273430585861206E-002;-6.988309323787689E-004;2.182980300858617E-003;
2.418166666666667E+009;1.720246970653534E-001;-6.273309141397476E-002;-6.126608932390809E-004;2.291930140927434E-003;
2.418333333333334E+009;1.712103039026260E-001;-6.323844939470291E-002;-5.264964420348406E-004;2.161688869819045E-003;
2.418500000000000E+009;1.699295789003372E-001;-6.360395997762680E-002;-4.799639282282442E-004;2.312319818884134E-003;
2.418666666666667E+009;1.690781265497208E-001;-6.414451450109482E-002;-2.618430589791387E-004;2.329017035663128E-003;
2.418833333333334E+009;1.677138954401016E-001;-6.460541486740112E-002;-4.990145680494607E-004;2.368728397414088E-003;
2.419000000000000E+009;1.665247529745102E-001;-6.534802168607712E-002;-2.728692488744855E-004;2.412447473034263E-003;
2.419166666666667E+009;1.654219925403595E-001;-6.597263365983963E-002;-2.322055079275742E-004;2.417536685243249E-003;
2.419333333333334E+009;1.640247106552124E-001;-6.629159301519394E-002;-2.518072142265737E-004;2.486916724592447E-003;
2.419500000000000E+009;1.629975438117981E-001;-6.748566031455994E-002;-1.326483616139740E-004;2.431830624118447E-003;
2.419666666666667E+009;1.618037670850754E-001;-6.843814253807068E-002;-4.712905865744688E-005;2.521131420508027E-003;
2.419833333333334E+009;1.605671942234039E-001;-6.915840506553650E-002;8.045654976740480E-005;2.585688605904579E-003;
2.420000000000000E+009;1.594900935888290E-001;-7.028265297412872E-002;1.712545781629160E-004;2.590600633993745E-003;
2.420166666666667E+009;1.583104580640793E-001;-7.143363356590271E-002;2.614144468680024E-004;2.702171215787530E-003;
2.420333333333334E+009;1.572433263063431E-001;-7.272225618362427E-002;2.834569604601711E-004;2.644654363393784E-003;
2.420500000000000E+009;1.562396287918091E-001;-7.378419488668442E-002;2.713823341764510E-004;2.680367091670632E-003;
2.420666666666667E+009;1.551999896764755E-001;-7.507576793432236E-002;4.531882295850664E-004;2.577590756118298E-003;
2.420833333333334E+009;1.543949246406555E-001;-7.651509344577789E-002;4.790130769833922E-004;2.639409853145480E-003;
2.421000000000000E+009;1.533057242631912E-001;-7.790043205022812E-002;5.969168269075453E-004;2.525347284972668E-003;
2.421166666666667E+009;1.526851356029511E-001;-7.944671064615250E-002;5.219914601184428E-004;2.584236441180110E-003;
2.421333333333334E+009;1.520176827907562E-001;-8.114106208086014E-002;7.944679819047451E-004;2.665270119905472E-003;
2.421500000000000E+009;1.513100266456604E-001;-8.258925378322601E-002;8.227200014516711E-004;2.792824525386095E-003;
2.421666666666667E+009;1.508283317089081E-001;-8.420037478208542E-002;8.614843827672303E-004;2.675071125850081E-003;
2.421833333333334E+009;1.503143757581711E-001;-8.597398549318314E-002;9.955585701391101E-004;2.544721355661750E-003;
2.422000000000000E+009;1.498429179191589E-001;-8.759078383445740E-002;1.073698280379176E-003;2.644809661433101E-003;
2.422166666666667E+009;1.497798413038254E-001;-8.956766128540039E-002;1.128236181102693E-003;2.502333838492632E-003;
2.422333333333334E+009;1.494173854589462E-001;-9.115270525217056E-002;1.142816734500229E-003;2.705269725993276E-003;
2.422500000000000E+009;1.491767019033432E-001;-9.265378862619400E-002;1.222683000378311E-003;2.658894052729011E-003;
2.422666666666667E+009;1.491631269454956E-001;-9.440724551677704E-002;1.499856938607991E-003;2.506633987650275E-003;
2.422833333333334E+009;1.493687778711319E-001;-9.618563950061798E-002;1.302688033320010E-003;2.480332041159272E-003;
2.423000000000000E+009;1.494576185941696E-001;-9.759721904993057E-002;1.505249645560980E-003;2.454568399116397E-003;
2.423166666666667E+009;1.497183293104172E-001;-9.940939396619797E-002;1.583529636263847E-003;2.559604123234749E-003;
2.423333333333334E+009;1.500044167041779E-001;-1.008412763476372E-001;1.784452353604138E-003;2.602520864456892E-003;
2.423500000000000E+009;1.504061222076416E-001;-1.024936139583588E-001;1.788598601706326E-003;2.495610155165196E-003;
2.423666666666667E+009;1.504774093627930E-001;-1.041633039712906E-001;1.848021638579667E-003;2.463070442900062E-003;
2.423833333333334E+009;1.510079950094223E-001;-1.054325699806213E-001;1.870018662884831E-003;2.430816181004047E-003;
2.424000000000000E+009;1.514908522367477E-001;-1.068169772624970E-001;2.024536952376366E-003;2.330770716071129E-003;
2.424166666666667E+009;1.518912017345429E-001;-1.080520600080490E-001;2.072317991405726E-003;2.545499242842197E-003;
2.424333333333334E+009;1.525028347969055E-001;-1.092112958431244E-001;2.313225297257304E-003;2.159589668735862E-003;
2.424500000000000E+009;1.528406888246536E-001;-1.104625985026360E-001;2.299421699717641E-003;2.162385964766145E-003;
2.424666666666667E+009;1.534536182880402E-001;-1.114198192954063E-001;2.452838700264692E-003;2.345931949093938E-003;
2.424833333333334E+009;1.537794023752213E-001;-1.124995574355125E-001;2.511369762942195E-003;2.097913296893239E-003;
2.425000000000000E+009;1.542981564998627E-001;-1.133232414722443E-001;2.548356307670474E-003;2.080630976706743E-003;
2.425166666666667E+009;1.546600311994553E-001;-1.143402829766274E-001;2.598779974505305E-003;1.889172592200339E-003;
2.425333333333334E+009;1.552093476057053E-001;-1.150204986333847E-001;2.728207735344768E-003;2.090082271024585E-003;
2.425500000000000E+009;1.555119454860687E-001;-1.156906932592392E-001;2.988468622788787E-003;2.090154681354761E-003;
2.425666666666667E+009;1.557294726371765E-001;-1.163762360811234E-001;2.921863924711943E-003;1.767622423358262E-003;
2.425833333333334E+009;1.560796201229096E-001;-1.168344765901566E-001;2.806128468364477E-003;1.599894370883703E-003;
2.426000000000000E+009;1.561700105667114E-001;-1.173761114478111E-001;2.866585040464997E-003;1.611246610991657E-003;
2.426166666666667E+009;1.564887464046478E-001;-1.177745535969734E-001;3.223226871341467E-003;1.437712577171624E-003;
2.426333333333334E+009;1.564244776964188E-001;-1.180621683597565E-001;3.301534801721573E-003;1.298770890571177E-003;
2.426500000000000E+009;1.565299332141876E-001;-1.182728484272957E-001;3.279816359281540E-003;1.358242938295007E-003;
2.426666666666667E+009;1.565376818180084E-001;-1.183862164616585E-001;3.289545886218548E-003;1.262312522158027E-003;
2.426833333333334E+009;1.562904268503189E-001;-1.185926049947739E-001;3.459546482190490E-003;1.184309134259820E-003;
2.427000000000000E+009;1.559492200613022E-001;-1.188200786709786E-001;3.567287465557456E-003;9.749620221555233E-004;
2.427166666666667E+009;1.556064635515213E-001;-1.188244000077248E-001;3.707743017002940E-003;8.402731618843973E-004;
2.427333333333334E+009;1.550818532705307E-001;-1.190681755542755E-001;3.688832279294729E-003;9.075438720174134E-004;
2.427500000000000E+009;1.547168344259262E-001;-1.190355792641640E-001;3.809602698311210E-003;7.518279599025846E-004;
2.427666666666667E+009;1.539282798767090E-001;-1.192703917622566E-001;3.888674778863788E-003;5.563277518376708E-004;
2.427833333333334E+009;1.530849784612656E-001;-1.193168088793755E-001;3.773842006921768E-003;3.229361609555781E-004;
