# Hz S RI R 50
2400000000.0000000000 0.173531115055084200760049384371 0.049132235348224639892578125000 0.004561923444271087646484375000 0.005266441963613033294677734375 0 0 0 0 
2400166666.6666665077 0.174291163682937594314736884371 0.048616368323564529418945312500 0.004573441110551357269287109375 0.005075544584542512893676757812 0 0 0 0 
2400333333.3333334923 0.174590602517127990722656250000 0.048073515295982360839843750000 0.004728833679109811782836914062 0.004778153728693723678588867188 0 0 0 0 
2400500000.0000000000 0.174909785389900207519531250000 0.047160655260086059570312500000 0.004615210462361574172973632812 0.004561198409646750363821698926 0 0 0 0 
2400666666.6666665077 0.174965441226959200760049384371 0.046562667936086661601979841407 0.004806852433830499649047851562 0.004304632078856229782104492188 0 0 0 0 
2400833333.3333334923 0.175564602017402704436932481258 0.045987386256456382060964216407 0.004515299107879400253295898438 0.004104772582650184631347656250 0 0 0 0 
2401000000.0000000000 0.175427630543708801269531250000 0.045141834765672676776926408593 0.004718550015240907669067382812 0.003935042303055524826049804688 0 0 0 0 
2401166666.6666665077 0.175612524151802090743856865629 0.044709924608469009399414062500 0.004702460486441850662231445312 0.003965578041970729827880859375 0 0 0 0 
2401333333.3333334923 0.175631031394004794021768134371 0.043915167450904853130300153907 0.004846494179219008359427167676 0.003660509595647453828098916162 0 0 0 0 
2401500000.0000000000 0.175620049238205011565838731258 0.043321892619133002544362653907 0.004692880436778069409842206738 0.003545358544215559959411621094 0 0 0 0 
2401666666.6666665077 0.175463378429412786285723768742 0.042709808796644210815429687500 0.004887067712843418121337890625 0.003433833131566644148585654150 0 0 0 0 
2401833333.3333334923 0.175481587648391695877236884371 0.041804343461990363384206403907 0.004758195951581001281738281250 0.003308451268821955160853720557 0 0 0 0 
2402000000.0000000000 0.175111874938011197189169365629 0.040983483195304870605468750000 0.004831082653254271420950605176 0.003200528211891651153564453125 0 0 0 0 
2402166666.6666665077 0.175023868680000305175781250000 0.039878658950328826904296875000 0.004789552185684443387503339551 0.003105805022642015977146767725 0 0 0 0 
2402333333.3333334923 0.174612045288085909744424384371 0.039219792932271957397460937500 0.004945380613207817077636718750 0.002950807800516486167907714844 0 0 0 0 
2402500000.0000000000 0.174568772315979003906250000000 0.038108889013528816913645158593 0.004929113201797009381766034863 0.002878973260521889166591025244 0 0 0 0 
2402666666.6666665077 0.174181461334228487869424384371 0.036985136568546302104909528907 0.004742025863379240036010742188 0.002701185178011655807495117188 0 0 0 0 
2402833333.3333334923 0.173861116170883206466513115629 0.035747144371271133422851562500 0.004982797428965569409842206738 0.002538973232731223106384277344 0 0 0 0 
2403000000.0000000000 0.173564583063125610351562500000 0.034360866993665702129323591407 0.004958319477736949920654296875 0.002326062414795159859898232568 0 0 0 0 
2403166666.6666665077 0.173207253217697088043536268742 0.032965674996376037597656250000 0.004728625994175673398489667676 0.002320277737453579902648925781 0 0 0 0 
2403333333.3333334923 0.172989770770072909256143134371 0.031537409871816642070729841407 0.004904581699520350369925214551 0.002084524370729922814610146631 0 0 0 0 
2403500000.0000000000 0.172335803508758489410723768742 0.030186194926500320434570312500 0.004848762881010770797729492188 0.002071167109534143967869423975 0 0 0 0 
2403666666.6666665077 0.172184720635414095779580634371 0.028330206871032718313196951954 0.004669620655477046966552734375 0.001874452340416610024095844800 0 0 0 0 
2403833333.3333334923 0.171759605407714788238848768742 0.026709772646427161479909528907 0.004730307497084140777587890625 0.002101112157106399969813681494 0 0 0 0 
2404000000.0000000000 0.171290472149848910232705634371 0.024978229776024818420410156250 0.004679009784013032913208007812 0.001740444218739866993547749097 0 0 0 0 
2404166666.6666665077 0.170817047357559204101562500000 0.022961564362049099313756173046 0.004669100977480412396902753613 0.002001561457291245894191122900 0 0 0 0 
2404333333.3333334923 0.170430272817611694335937500000 0.021119810640811920166015625000 0.004801062401384115219116210938 0.002012101234868168830871582031 0 0 0 0 
2404500000.0000000000 0.170006796717643710037393134371 0.019134916365146640432337576954 0.004824306350201368331909179688 0.001836603041738271930097270435 0 0 0 0 
2404666666.6666665077 0.170000016689300509353799384371 0.017209561541676521301269531250 0.005021300166845321655273437500 0.001810193294659256935119628906 0 0 0 0 
2404833333.3333334923 0.169696897268295288085937500000 0.015077923424541950225830078125 0.005055053159594535827636718750 0.001826317165978253104566264575 0 0 0 0 
2405000000.0000000000 0.169611394405364990234375000000 0.013019930571317669260045235546 0.005009535700082778930664062500 0.001590345753356813950779580225 0 0 0 0 
2405166666.6666665077 0.169424846768379211425781250000 0.011075827293097969400426094921 0.005080799106508493423461914062 0.001421990687958895943285297925 0 0 0 0 
2405333333.3333334923 0.169607535004615811446981865629 0.008939416147768497467041015625 0.005134692881256341934204101562 0.001530836103484034971949911963 0 0 0 0 
2405500000.0000000000 0.169521525502204895019531250000 0.007103228010237216949462890625 0.005303858779370784759521484375 0.001437698490917683081385947119 0 0 0 0 
2405666666.6666665077 0.169770509004592895507812500000 0.005065967794507741928100585938 0.005410326644778251647949218750 0.001447865157388150908826518481 0 0 0 0 
2405833333.3333334923 0.169769421219825689117755018742 0.003049561753869057135341025244 0.005568205844610930356497480176 0.001343417796306312084197998047 0 0 0 0 
2406000000.0000000000 0.170262530446052606780682481258 0.000878622522577643394470214844 0.005606924183666706085205078125 0.001264093327336013100267719800 0 0 0 0 
2406166666.6666665077 0.170410841703414889236611884371 -0.000997665221802890300750732422 0.005609870888292790326590253613 0.001287852879613637924194335938 0 0 0 0 
2406333333.3333334923 0.170948877930641202071981865629 -0.003130572615191340012791298975 0.005968962796032428741455078125 0.001182383275590837001800537109 0 0 0 0 
2406500000.0000000000 0.171484798192977905273437500000 -0.005009876564145088195800781250 0.005853649228811264038085937500 0.000997087336145341396331787109 0 0 0 0 
2406666666.6666665077 0.171824991703033502776776231258 -0.006903890520334243774414062500 0.006200073752552270889282226562 0.000795981963165104389190673828 0 0 0 0 
2406833333.3333334923 0.172629207372665405273437500000 -0.008879764936864376068115234375 0.006183237303048372268676757812 0.000670074950903654098510742188 0 0 0 0 
2407000000.0000000000 0.173249006271362304687500000000 -0.010747229680418969935407069727 0.006347063928842545423025800488 0.000582647102419286966323852539 0 0 0 0 
2407166666.6666665077 0.174143567681312588790731865629 -0.012493723072111610067347342579 0.006504889111965894699096679688 0.000285266985883936285972595215 0 0 0 0 
2407333333.3333334923 0.174660235643386813064736884371 -0.014403080567717550450335117773 0.006620364263653755187988281250 0.000152976484969258308410644531 0 0 0 0 
2407500000.0000000000 0.175590619444847106933593750000 -0.015962364152073860168457031250 0.006727139465510845184326171875 -0.000132257147924974587842664175 0 0 0 0 
2407666666.6666665077 0.176324799656868008712606865629 -0.017612397670745849609375000000 0.006929025985300540924072265625 -0.000573436031118035316467285156 0 0 0 0 
2407833333.3333334923 0.176933392882347106933593750000 -0.019329970702528950082799141796 0.006838830187916755676269531250 -0.000865428475663065910339355469 0 0 0 0 
2408000000.0000000000 0.177787467837333706954794365629 -0.020843872800469398498535156250 0.007004953920841217041015625000 -0.001079989015124737999559711987 0 0 0 0 
2408166666.6666665077 0.178578108549117986481036268742 -0.022223487496376041067103201954 0.007091055624186992645263671875 -0.001413831370882689952850341797 0 0 0 0 
2408333333.3333334923 0.179530590772628811935263115629 -0.023759875446557998657226562500 0.007028194144368171691894531250 -0.001706810202449559948564838940 0 0 0 0 
2408500000.0000000000 0.180099755525588989257812500000 -0.025023665279150009155273437500 0.006871118675917387008666992188 -0.002154302317649126052856445312 0 0 0 0 
2408666666.6666665077 0.180822566151619013030682481258 -0.026280123740434650075892264454 0.006816435139626264572143554688 -0.002304255031049251990077353369 0 0 0 0 
2408833333.3333334923 0.181290343403816195388955634371 -0.027339041233062740671178048046 0.006584951654076576232910156250 -0.002728277584537864165065146338 0 0 0 0 
2409000000.0000000000 0.181634411215782193282919365629 -0.028211113065481189382532889454 0.006575766950845718383789062500 -0.003178415820002555847167968750 0 0 0 0 
2409166666.6666665077 0.182482078671455411056356865629 -0.029333814978599548339843750000 0.006490551866590976715087890625 -0.003446983639150857925415039062 0 0 0 0 
2409333333.3333334923 0.182909056544303894042968750000 -0.030130142346024509775181954296 0.006385503336787223815917968750 -0.003574660280719399885890341650 0 0 0 0 
2409500000.0000000000 0.183063685894012506683026231258 -0.030974119901657101022740548046 0.006169691681861876574044512012 -0.003868100466206669807434082031 0 0 0 0 
2409666666.6666665077 0.183322116732597406585369981258 -0.031578984111547470092773437500 0.006008445285260677337646484375 -0.004070107825100421905517578125 0 0 0 0 
2409833333.3333334923 0.183558732271194513518963731258 -0.032045815140008933330495466407 0.005749185569584369659423828125 -0.004321369342505931854248046875 0 0 0 0 
2410000000.0000000000 0.184009164571762112716513115629 -0.032459255307912826538085937500 0.005597406998276711377615644238 -0.004501889459788799285888671875 0 0 0 0 
2410166666.6666665077 0.183935999870300292968750000000 -0.032814715057611472392995466407 0.005356278736144304275512695312 -0.004907593596726655960083007812 0 0 0 0 
2410333333.3333334923 0.183916777372360201736611884371 -0.033310454338788993144948591407 0.005043056327849627408499433301 -0.004797976464033126831054687500 0 0 0 0 
2410500000.0000000000 0.184025540947914095779580634371 -0.033564690500497817993164062500 0.004920124076306819915771484375 -0.005030346568673849105834960938 0 0 0 0 
2410666666.6666665077 0.183775559067726107498330634371 -0.033946484327316277240793596093 0.004851333331316710385794355176 -0.005106227006763219833374023438 0 0 0 0 
2410833333.3333334923 0.183905839920044000823651231258 -0.034033965319395072246511091407 0.004660578910261392593383789062 -0.005214283708482980728149414062 0 0 0 0 
2411000000.0000000000 0.183449164032936096191406250000 -0.034227050840854651714284528907 0.004458846058696508407592773438 -0.005304801277816295623779296875 0 0 0 0 
2411166666.6666665077 0.183164864778518704513388115629 -0.034596368670463562011718750000 0.004153267014771699905395507812 -0.005595750175416469573974609375 0 0 0 0 
2411333333.3333334923 0.182698160409927395919638115629 -0.034969210624694817279856096093 0.004050164017826318740844726562 -0.005804090294986963272094726562 0 0 0 0 
2411500000.0000000000 0.182164475321769686599893134371 -0.035362917929887771606445312500 0.003723665373399854140040732275 -0.005762035027146339416503906250 0 0 0 0 
2411666666.6666665077 0.181597590446472195724325615629 -0.035764601081609732891042341407 0.003510977607220410866978310693 -0.005941299721598625183105468750 0 0 0 0 
2411833333.3333334923 0.180839359760284396072549384371 -0.036087337881326682353932966407 0.003329656785354018211364746094 -0.006033662706613540649414062500 0 0 0 0 
2412000000.0000000000 0.180218100547790499588174384371 -0.036611083894968032836914062500 0.003047158010303974151611328125 -0.005992696154862642288208007812 0 0 0 0 
2412166666.6666665077 0.179365158081054687500000000000 -0.037155024707317352294921875000 0.002842706628143786950352334131 -0.006188760977238416671752929688 0 0 0 0 
2412333333.3333334923 0.178424954414367703536825615629 -0.037507876753807067871093750000 0.002632181160151958899257040869 -0.006169747561216354370117187500 0 0 0 0 
2412500000.0000000000 0.177155211567878695388955634371 -0.038044814020395278930664062500 0.002410674700513482093811035156 -0.006433744914829730987548828125 0 0 0 0 
2412666666.6666665077 0.176163733005523709396200615629 -0.039078202098608016967773437500 0.002152571454644203186035156250 -0.006354974117130041122436523438 0 0 0 0 
2412833333.3333334923 0.175013557076454190353231865629 -0.039857778698205947875976562500 0.001995192142203450202941894531 -0.006521655246615409851074218750 0 0 0 0 
2413000000.0000000000 0.173778623342514010330361884371 -0.040324881672859191894531250000 0.001727978698909282901166606372 -0.006574504543095827102661132812 0 0 0 0 
2413166666.6666665077 0.172452479600906399825888115629 -0.041344590485095977783203125000 0.001534841489046812057495117188 -0.006569520104676485061645507812 0 0 0 0 
2413333333.3333334923 0.171074703335761996170205634371 -0.042313396930694580078125000000 0.001339492620900273106218647534 -0.006528480909764766693115234375 0 0 0 0 
2413500000.0000000000 0.169902697205543490310830634371 -0.043269783258438110351562500000 0.001160991843789815902709960938 -0.006670004688203334808349609375 0 0 0 0 
2413666666.6666665077 0.168541654944419888595419365629 -0.044400654733180999755859375000 0.000816086656413972377777099609 -0.006733830552548170089721679688 0 0 0 0 
2413833333.3333334923 0.167025774717330904861611884371 -0.045574042946100241924245466407 0.000726158556062728166580200195 -0.006770646199584007263183593750 0 0 0 0 
2414000000.0000000000 0.165861755609512301345986884371 -0.046838812530040740966796875000 0.000349099573213607127040308820 -0.006671676877886056900024414062 0 0 0 0 
2414166666.6666665077 0.164673447608947809417401231258 -0.048305351287126541137695312500 0.000113131594844162504799427171 -0.006795223802328109741210937500 0 0 0 0 
2414333333.3333334923 0.163412749767303494552450615629 -0.049690589308738708496093750000 -0.000098225282272323966026306152 -0.006658007856458426389212323926 0 0 0 0 
2414500000.0000000000 0.162391990423202486892861884371 -0.051095079630613327026367187500 -0.000318098696880042607158106671 -0.006648865528404712677001953125 0 0 0 0 
2414666666.6666665077 0.161055356264114407638388115629 -0.052722349762916571880300153907 -0.000647517095785588026046752930 -0.006540201138705015182495117188 0 0 0 0 
2414833333.3333334923 0.159883305430412292480468750000 -0.054395999759435646747629533593 -0.000862052314914762973785400391 -0.006413983646780253324026777051 0 0 0 0 
2415000000.0000000000 0.158921256661415100097656250000 -0.056029535830020911479909528907 -0.001173338969238102002384804834 -0.006472443230450153350830078125 0 0 0 0 
2415166666.6666665077 0.158014014363288907150106865629 -0.057770863175392150878906250000 -0.001451189396902919032453227466 -0.006393324583768844604492187500 0 0 0 0 
2415333333.3333334923 0.157168343663215609451455634371 -0.059769667685031890869140625000 -0.001849828753620385906816792065 -0.006158249452710151672363281250 0 0 0 0 
2415500000.0000000000 0.156318739056587191482705634371 -0.061428602784872061992604841407 -0.002059339778497815132141113281 -0.006096268538385629653930664062 0 0 0 0 
2415666666.6666665077 0.155569031834602411468182481258 -0.063318222761154174804687500000 -0.002133548958227037949803017725 -0.005880395881831645965576171875 0 0 0 0 
2415833333.3333334923 0.154983446002006503006143134371 -0.065298847854137420654296875000 -0.002455330453813076019287109375 -0.005578051786869764328002929688 0 0 0 0 
2416000000.0000000000 0.154250383377075195312500000000 -0.067283973097801208496093750000 -0.002705521183088421821594238281 -0.005347390659153462323660566113 0 0 0 0 
2416166666.6666665077 0.153968364000320406814736884371 -0.069307528436183929443359375000 -0.002714548259973526000976562500 -0.005168970674276351928710937500 0 0 0 0 
2416333333.3333334923 0.153406739234924288650674384371 -0.071199946105480194091796875000 -0.002802590373903512954711914062 -0.004882972687482833862304687500 0 0 0 0 
2416500000.0000000000 0.153069809079170199295205634371 -0.073214709758758544921875000000 -0.002753835637122393088099814307 -0.004565480165183544158935546875 0 0 0 0 
2416666666.6666665077 0.152604207396507290939169365629 -0.075110733509063720703125000000 -0.002938435878604650931117392432 -0.004317743238061667356009198926 0 0 0 0 
2416833333.3333334923 0.152483358979225186446981865629 -0.077194660902023315429687500000 -0.003114319173619151115417480469 -0.004196808207780122756958007812 0 0 0 0 
2417000000.0000000000 0.152066856622695895095986884371 -0.079041473567485809326171875000 -0.002933695446699858145472861182 -0.003964917734265328320975019238 0 0 0 0 
2417166666.6666665077 0.152032345533370999435263115629 -0.080826275050640106201171875000 -0.003016383387148379845860146631 -0.003741110209375619888305664062 0 0 0 0 
2417333333.3333334923 0.151980310678482111175213731258 -0.082559011876583099365234375000 -0.002968977671116590933558798682 -0.003668910358101129965541220557 0 0 0 0 
2417500000.0000000000 0.151850268244743402679119981258 -0.084332235157489776611328125000 -0.002802096307277679009678506006 -0.003453312907367945151088095557 0 0 0 0 
2417666666.6666665077 0.152071192860603304763955634371 -0.085753031075000762939453125000 -0.002834310755133628845214843750 -0.003402717178687452836277627100 0 0 0 0 
2417833333.3333334923 0.152106344699859591385049384371 -0.087345808744430541992187500000 -0.002712770365178585052490234375 -0.003232415532693266868591308594 0 0 0 0 
2418000000.0000000000 0.152105316519737188141192518742 -0.088934317231178283691406250000 -0.002603708999231458143946982275 -0.003195152850821613831761025537 0 0 0 0 
2418166666.6666665077 0.152286455035209711272869981258 -0.090116821229457855224609375000 -0.002669706474989653067347861182 -0.003292510518804192976710654150 0 0 0 0 
2418333333.3333334923 0.152677282691001892089843750000 -0.091361977159976959228515625000 -0.002510831225663423971888876807 -0.003231414593756198883056640625 0 0 0 0 
2418500000.0000000000 0.152668267488479586502236884371 -0.092572435736656188964843750000 -0.002583021065220237211940146338 -0.003240233752876520156860351562 0 0 0 0 
2418666666.6666665077 0.153214871883392306228799384371 -0.093418337404727935791015625000 -0.002497701440006494955775595557 -0.003311400068923830986022949219 0 0 0 0 
2418833333.3333334923 0.153166979551315307617187500000 -0.094375424087047576904296875000 -0.002576574217528105215785361182 -0.003435887163504958152770996094 0 0 0 0 
2419000000.0000000000 0.153399527072906494140625000000 -0.095195107161998748779296875000 -0.002718245610594749884364462744 -0.003373368410393596129176474463 0 0 0 0 
2419166666.6666665077 0.153611689805984497070312500000 -0.095856830477714538574218750000 -0.002847241470590233802795410156 -0.003355626715347170829772949219 0 0 0 0 
2419333333.3333334923 0.153742119669914301116619981258 -0.096043869853019714355468750000 -0.002852580742910503907444619287 -0.003393949475139379935023642432 0 0 0 0 
2419500000.0000000000 0.154008701443672207931356865629 -0.096733585000038146972656250000 -0.003065604949370027022120810400 -0.003411305136978625817539834131 0 0 0 0 
2419666666.6666665077 0.154275238513946505447549384371 -0.097201049327850341796875000000 -0.003221505321562290191650390625 -0.003330246079713106155395507812 0 0 0 0 
2419833333.3333334923 0.154239073395729092696981865629 -0.097277738153934478759765625000 -0.003276550909504293961765908350 -0.003258294658735394911525107275 0 0 0 0 
