# Hz S RI R 50
2400000000.0000000000 0.171534270048141507247763115629 0.040235623717308037494699846093 0.000432679808000102584988194598 -0.001327790436334908008575439453 0 0 0 0 
2400166666.6666665077 0.172142222523689297775106865629 0.039897538721561431884765625000 0.000439616822404786890179234637 -0.001421934459358453967450786060 0 0 0 0 
2400333333.3333334923 0.172674655914306612869424384371 0.039164755493402481079101562500 0.000539669825229793787002563477 -0.001135300844907761053798056494 0 0 0 0 
2400500000.0000000000 0.173181638121604891678018134371 0.038430593907833099365234375000 0.000587433751206845153509938928 -0.001281023374758661010144877856 0 0 0 0 
2400666666.6666665077 0.173424318432807894607705634371 0.037954725325107567523996721093 0.000665834930259734392166137695 -0.001348851947113872008082724463 0 0 0 0 
2400833333.3333334923 0.173587992787361200530682481258 0.037185940891504287719726562500 0.000847845687530934810638427734 -0.001198047422803937955143593896 0 0 0 0 
2401000000.0000000000 0.173784717917442294021768134371 0.036616399884223937988281250000 0.000993923400528728961944580078 -0.001133066136389970996259379810 0 0 0 0 
2401166666.6666665077 0.173971787095069913009481865629 0.035846222192049033428151716407 0.001038704183883965015411376953 -0.001261449069716036102892231519 0 0 0 0 
2401333333.3333334923 0.173964425921440096756143134371 0.035077705979347229003906250000 0.000928632041905075311660766602 -0.001354417181573807976366352612 0 0 0 0 
2401500000.0000000000 0.173932000994682312011718750000 0.034644857048988342285156250000 0.001205189153552054925205849756 -0.001364980591461061997654580225 0 0 0 0 
2401666666.6666665077 0.173677459359169006347656250000 0.034025579690933227539062500000 0.001086418982595205090166401440 -0.001321001444011927084681845557 0 0 0 0 
2401833333.3333334923 0.173460483551025390625000000000 0.033135645091533660888671875000 0.001201065722852944894077920068 -0.001464424538426100990892719800 0 0 0 0 
2402000000.0000000000 0.173118636012077303787393134371 0.032649356871843338012695312500 0.001079484121873975016950297778 -0.001532521098852158026454306494 0 0 0 0 
2402166666.6666665077 0.173011824488639803787393134371 0.031650945544242858886718750000 0.001364445197395979924442910303 -0.001670952886343002102495503003 0 0 0 0 
2402333333.3333334923 0.172629639506339999099893134371 0.030790060758590701711634451954 0.001333349035121500925776816260 -0.001863141427747905037523579175 0 0 0 0 
2402500000.0000000000 0.172613099217414911468182481258 0.029947305098175999032994454296 0.001416497398167849020717001807 -0.001755829551257193088531494141 0 0 0 0 
2402666666.6666665077 0.172073230147361810882244981258 0.029052712023258209228515625000 0.001653536804951726956608437646 -0.001975995488464831872227334131 0 0 0 0 
2402833333.3333334923 0.171817794442176791092080634371 0.028109321370720859872838204296 0.001694608945399522998212504810 -0.002083385828882455825805664062 0 0 0 0 
2403000000.0000000000 0.171289220452308710296307481258 0.026931641623377799987792968750 0.001690252567641437053680419922 -0.002345169428735971884486533057 0 0 0 0 
2403166666.6666665077 0.171087682247161892989950615629 0.025686390697956088674525076954 0.001634808955714106993434286963 -0.002538316650316119194030761719 0 0 0 0 
2403333333.3333334923 0.170703947544097900390625000000 0.024605261161923408508300781250 0.001451002899557352066040039062 -0.002721844706684350967407226562 0 0 0 0 
2403500000.0000000000 0.170377507805824307540731865629 0.023369090631604201580007185157 0.001396236009895801977870322119 -0.003002966754138470129725790869 0 0 0 0 
2403666666.6666665077 0.169848456978797912597656250000 0.021959874778985980642298514454 0.001172281568869947953465127100 -0.003093987237662076950073242188 0 0 0 0 
2403833333.3333334923 0.169625937938690213302450615629 0.020609276369214061391810233204 0.000974955211859196424484252930 -0.003307649167254567146301269531 0 0 0 0 
2404000000.0000000000 0.169274851679801913162393134371 0.019231189042329791677454764454 0.000765861768741160631179809570 -0.003494394011795521216151572119 0 0 0 0 
2404166666.6666665077 0.169062569737434387207031250000 0.017579043284058570861816406250 0.000553393969312310218811035156 -0.003397571388632059097290039062 0 0 0 0 
2404333333.3333334923 0.168561518192291287521200615629 0.016132380813360210763951485546 0.000203312825760804089620867319 -0.003664134768769145011901855469 0 0 0 0 
2404500000.0000000000 0.168333992362022399902343750000 0.014481589198112489527692225977 0.000088129680079873651266098022 -0.003463944187387824058532714844 0 0 0 0 
2404666666.6666665077 0.168256059288978604415731865629 0.012963281013071540487269217579 -0.000210522106499411192819318228 -0.003571435809135437011718750000 0 0 0 0 
2404833333.3333334923 0.168007925152778597732705634371 0.011156686581671239680280116602 -0.000351946335285902023315429688 -0.003459481289610267119166708838 0 0 0 0 
2405000000.0000000000 0.168150097131729098220986884371 0.009450516663491725921630859375 -0.000368260836694389581680297852 -0.003496628487482666969299316406 0 0 0 0 
2405166666.6666665077 0.167879477143287686446981865629 0.007546908687800168991088867188 -0.000595447956584393978118896484 -0.003334526903927326202392578125 0 0 0 0 
2405333333.3333334923 0.167888864874839810470419365629 0.005725436378270387649536132812 -0.000646899163257330656051635742 -0.003262103302404284910914755713 0 0 0 0 
2405500000.0000000000 0.167778477072715787032919365629 0.004056990612298250198364257812 -0.000814139610156416893005371094 -0.003111556870862842039821005713 0 0 0 0 
2405666666.6666665077 0.167782843112945612151776231258 0.002106183441355824904200888525 -0.000814214930869638919830322266 -0.002939944388344883918762207031 0 0 0 0 
2405833333.3333334923 0.167630434036254910568075615629 0.000355437310645356774330139160 -0.000904092332348227500915527344 -0.002968550194054841995239257812 0 0 0 0 
2406000000.0000000000 0.167771011590957613845986884371 -0.001743483007885515906690288013 -0.001003369921818376021144247900 -0.002946458291262387795689248193 0 0 0 0 
2406166666.6666665077 0.167668983340263394454794365629 -0.003339254995808004899265908350 -0.001023089047521352984784770435 -0.002739729126915336088893271338 0 0 0 0 
2406333333.3333334923 0.167984992265701293945312500000 -0.005290451459586620330810546875 -0.001058059162460267977473593604 -0.002870592288672924041748046875 0 0 0 0 
2406500000.0000000000 0.167830288410186795333700615629 -0.007064589764922857284545898438 -0.001100054592825471921208047021 -0.002719596028327941894531250000 0 0 0 0 
2406666666.6666665077 0.167747274041175786774005018742 -0.008701715618371963500976562500 -0.001140938722528517029405903394 -0.002639590762555599212646484375 0 0 0 0 
2406833333.3333334923 0.167922109365463312347088731258 -0.010608891025185590226143084180 -0.001004821038804947896244668115 -0.002536688698455690903904580225 0 0 0 0 
2407000000.0000000000 0.168060928583145113845986884371 -0.012221874669194219761858555273 -0.000976052775513380765914916992 -0.002647442510351539091822958838 0 0 0 0 
2407166666.6666665077 0.168185263872146606445312500000 -0.013635071925818920135498046875 -0.001156428363174200057983398438 -0.002561795292422174973728798975 0 0 0 0 
2407333333.3333334923 0.168172180652618408203125000000 -0.015250498428940769540806954296 -0.001080336165614425919176411206 -0.002647151472046970887425088037 0 0 0 0 
2407500000.0000000000 0.168269455432891901214276231258 -0.016587106510996818542480468750 -0.001092909020371735095977783203 -0.002859017346054316000697470557 0 0 0 0 
2407666666.6666665077 0.168217256665229797363281250000 -0.017811330035328868520716483204 -0.001103979186154901981353759766 -0.002826355863362551169154501807 0 0 0 0 
2407833333.3333334923 0.168321445584297207931356865629 -0.019186500459909439086914062500 -0.001169133698567748069763183594 -0.002811757614836097197291708838 0 0 0 0 
2408000000.0000000000 0.168654382228851290603799384371 -0.020326772704720500600794608204 -0.001312884269282222010968852466 -0.002824224997311830954310751807 0 0 0 0 
2408166666.6666665077 0.168864428997039794921875000000 -0.021169289946556091308593750000 -0.001387850497849286036250449072 -0.003117955988273024992701865088 0 0 0 0 
2408333333.3333334923 0.169120520353317288497763115629 -0.022142602130770679819127266796 -0.001556592644192277951481484521 -0.003016068367287517027613974463 0 0 0 0 
2408500000.0000000000 0.169273540377616910079794365629 -0.023147225379943851125696951954 -0.001789817353710531971575092847 -0.003208510112017393112182617188 0 0 0 0 
2408666666.6666665077 0.169661909341812106033486884371 -0.024005554616451259958287423046 -0.001898558228276669979095458984 -0.003131405683234333992004394531 0 0 0 0 
2408833333.3333334923 0.169822007417678805252236884371 -0.024765193462371829641321951954 -0.002146118087694048881530761719 -0.003268169704824686050415039062 0 0 0 0 
2409000000.0000000000 0.170267522335052490234375000000 -0.025437444448471069335937500000 -0.002328921342268586158752441406 -0.003132666461169720129725790869 0 0 0 0 
2409166666.6666665077 0.170609503984451293945312500000 -0.026195418089628219604492187500 -0.002574242651462554931640625000 -0.002962948521599173979518271338 0 0 0 0 
2409333333.3333334923 0.170976758003234891036825615629 -0.026934308931231498718261718750 -0.002837369916960597038269042969 -0.003060398623347281975987099756 0 0 0 0 
2409500000.0000000000 0.171244263648986788650674384371 -0.027737751603126529348353201954 -0.002844927832484244866612099756 -0.002980090212076901955845498193 0 0 0 0 
2409666666.6666665077 0.171338871121406610686932481258 -0.028311097994446750986119454296 -0.003044588956981896920445107568 -0.002668339991942048072814941406 0 0 0 0 
2409833333.3333334923 0.171517074108123807052450615629 -0.028971130028367039072056954296 -0.003131314413622022108790732275 -0.002641907194629311995265341650 0 0 0 0 
2410000000.0000000000 0.171870499849319513518963731258 -0.029649535194039351726491560157 -0.003218068042770028114318847656 -0.002558877691626549200770712744 0 0 0 0 
2410166666.6666665077 0.172033295035362188141192518742 -0.030339917168021198617955391796 -0.003275172086432576179504394531 -0.002534877508878707885742187500 0 0 0 0 
2410333333.3333334923 0.172028943896293612381143134371 -0.030887730419635769235631173046 -0.003434471553191543059108115088 -0.002353091491386293931248330225 0 0 0 0 
2410500000.0000000000 0.171989083290100097656250000000 -0.031540952622890472412109375000 -0.003602472832426428794860839844 -0.002225236035883427099940634619 0 0 0 0 
2410666666.6666665077 0.172017902135848999023437500000 -0.032325182110071182250976562500 -0.003704331815242766900303506006 -0.002072367584332824187037802588 0 0 0 0 
2410833333.3333334923 0.171807229518890408614950615629 -0.032812066376209259033203125000 -0.003926423378288745880126953125 -0.001991219120100141005275107275 0 0 0 0 
2411000000.0000000000 0.171540871262550409515057481258 -0.033433485776185989379882812500 -0.004003853071480990323538495801 -0.001742833293974400000331259619 0 0 0 0 
2411166666.6666665077 0.171226635575294494628906250000 -0.034231945872306816791574846093 -0.004177911207079887390136718750 -0.001590053085237741904017783057 0 0 0 0 
2411333333.3333334923 0.170944422483444213867187500000 -0.034770056605339050292968750000 -0.004213731735944747924804687500 -0.001320321112871170043945312500 0 0 0 0 
2411500000.0000000000 0.170505344867706298828125000000 -0.035418819636106491088867187500 -0.004347661044448614120483398438 -0.001104033202864229895948100513 0 0 0 0 
2411666666.6666665077 0.170299679040908813476562500000 -0.035891607403755187988281250000 -0.004377347417175769805908203125 -0.001073275576345622973201132666 0 0 0 0 
2411833333.3333334923 0.169915780425071688553018134371 -0.036507841199636459350585937500 -0.004455612972378730773925781250 -0.000617064884863793849945068359 0 0 0 0 
2412000000.0000000000 0.169497266411781311035156250000 -0.037224654108285896991770158593 -0.004559119697660207748413085938 -0.000407090556109324097633361816 0 0 0 0 
2412166666.6666665077 0.168981134891510009765625000000 -0.037956256419420242309570312500 -0.004384910222142934799194335938 -0.000287042581476271206706446515 0 0 0 0 
2412333333.3333334923 0.168413206934928894042968750000 -0.038901329040527336811106096093 -0.004407420754432678222656250000 -0.000158496448420919505044660025 0 0 0 0 
2412500000.0000000000 0.167854681611061096191406250000 -0.039759527891874313354492187500 -0.004423991311341524124145507812 0.000120386168418917804956436157 0 0 0 0 
2412666666.6666665077 0.167368710041046087066973768742 -0.040638223290443420410156250000 -0.004249830264598131179809570312 0.000467562233097851276397705078 0 0 0 0 
2412833333.3333334923 0.166804939508438110351562500000 -0.041611291468143463134765625000 -0.004235655535012483596801757812 0.000531965983100235462188720703 0 0 0 0 
2413000000.0000000000 0.166062116622924804687500000000 -0.042385865002870559692382812500 -0.004046295769512653350830078125 0.000763849995564669370651245117 0 0 0 0 
2413166666.6666665077 0.165414899587631197830361884371 -0.043274540454149253154714216407 -0.004170213360339403152465820312 0.000897026853635907173156738281 0 0 0 0 
2413333333.3333334923 0.164476215839385986328125000000 -0.044341087341308586811106096093 -0.004047336056828498840332031250 0.001031161053106188990949321216 0 0 0 0 
2413500000.0000000000 0.163923352956771906097088731258 -0.045418139547109596942942033593 -0.003998897969722747802734375000 0.001135349622927606105804443359 0 0 0 0 
2413666666.6666665077 0.163204923272132901290731865629 -0.046555515378713607788085937500 -0.003831382375210524039027548682 0.001406048890203237967250204932 0 0 0 0 
2413833333.3333334923 0.162456333637237604339276231258 -0.047590263187885277484934221093 -0.003835414769127964973449707031 0.001597438124008476951001811450 0 0 0 0 
2414000000.0000000000 0.161768198013305691818075615629 -0.048743873834609992290456403907 -0.003580196062102913856506347656 0.001707542454823852019069052588 0 0 0 0 
2414166666.6666665077 0.161178231239318903167401231258 -0.049742374569177627563476562500 -0.003473204094916582107543945312 0.001866880804300308010698628003 0 0 0 0 
2414333333.3333334923 0.160559311509132413009481865629 -0.050949286669492721557617187500 -0.003377605229616165161132812500 0.001932150567881762981414794922 0 0 0 0 
2414500000.0000000000 0.160266473889350891113281250000 -0.052185930311679840087890625000 -0.003183218417689204216003417969 0.002082495018839836120605468750 0 0 0 0 
2414666666.6666665077 0.159600883722305297851562500000 -0.053142577409744262695312500000 -0.002939698286354542212245322119 0.002384489169344305992126464844 0 0 0 0 
2414833333.3333334923 0.159150272607803289215411268742 -0.054513715207576751708984375000 -0.002759882481768726868870400537 0.002324174856767057938816689600 0 0 0 0 
2415000000.0000000000 0.158890515565872192382812500000 -0.055770304054021842266042341407 -0.002865396905690432028529501807 0.002610851777717471122741699219 0 0 0 0 
2415166666.6666665077 0.158587336540222195724325615629 -0.056999731808900833129882812500 -0.002435415983200072808506631006 0.002539282664656639099121093750 0 0 0 0 
2415333333.3333334923 0.158349320292472811599893134371 -0.058425463736057281494140625000 -0.002286336850374937057495117188 0.002461535390466452078578329932 0 0 0 0 
2415500000.0000000000 0.158114746212959289550781250000 -0.059824816882610321044921875000 -0.001918349298648535988451313550 0.002793866675347090201136923682 0 0 0 0 
2415666666.6666665077 0.157937586307525607010049384371 -0.061194296926260001445729841407 -0.001797796459868550083757710034 0.002605330664664506912231445312 0 0 0 0 
2415833333.3333334923 0.157796338200569208343182481258 -0.062672436237335205078125000000 -0.001613052794709802107570029150 0.002447067759931087927577353369 0 0 0 0 
2416000000.0000000000 0.157404795289039611816406250000 -0.064145110547542572021484375000 -0.001394492108374834060668945312 0.002675187774002552032470703125 0 0 0 0 
2416166666.6666665077 0.157492190599441500564736884371 -0.065608717501163482666015625000 -0.001278769108466804027557373047 0.002499148715287446975708007812 0 0 0 0 
2416333333.3333334923 0.157173037528991699218750000000 -0.066976077854633331298828125000 -0.000978791969828307628631591797 0.002332992386072874069213867188 0 0 0 0 
2416500000.0000000000 0.156954094767570495605468750000 -0.068552315235137939453125000000 -0.000843514571897685527801513672 0.002132538938894867897033691406 0 0 0 0 
2416666666.6666665077 0.156653195619583102127236884371 -0.069911040365695953369140625000 -0.000820753863081336021423339844 0.001958802109584211869480752100 0 0 0 0 
2416833333.3333334923 0.156710878014564486404580634371 -0.071463152766227722167968750000 -0.000681779056321829557418823242 0.001579932053573430018184042822 0 0 0 0 
2417000000.0000000000 0.156291976571083096603231865629 -0.072629019618034362792968750000 -0.000622854451648890972137451172 0.001444812747649848894831992041 0 0 0 0 
2417166666.6666665077 0.156155452132225008865518134371 -0.074010625481605529785156250000 -0.000689477776177227497100830078 0.001366974669508635997772216797 0 0 0 0 
2417333333.3333334923 0.156064510345459012130575615629 -0.074995428323745727539062500000 -0.000739594514016062021255493164 0.001115484978072345039964985425 0 0 0 0 
2417500000.0000000000 0.155811548233032198806924384371 -0.076245911419391632080078125000 -0.000693286303430795669555664062 0.000923047482501715421676635742 0 0 0 0 
2417666666.6666665077 0.155778050422668512542401231258 -0.077145814895629882812500000000 -0.000999845447950065135955810547 0.001036897767335176901576376807 0 0 0 0 
2417833333.3333334923 0.155639097094535799881143134371 -0.078184872865676879882812500000 -0.001109787262976170019862509619 0.000794944236986339092254638672 0 0 0 0 
2418000000.0000000000 0.155434697866439791580361884371 -0.079219341278076171875000000000 -0.001149496063590049960492778247 0.000929735600948333740234375000 0 0 0 0 
2418166666.6666665077 0.155492439866066006759481865629 -0.079934202134609222412109375000 -0.001265264814719557978986430591 0.000791097467299550771713256836 0 0 0 0 
2418333333.3333334923 0.155665740370750399490518134371 -0.080827847123146057128906250000 -0.001503719715401530048967670972 0.000870193762239068746566772461 0 0 0 0 
2418500000.0000000000 0.155517145991325406173544365629 -0.081483833491802215576171875000 -0.001655025058425962924957275391 0.000895055360160768032073974609 0 0 0 0 
2418666666.6666665077 0.155473887920379610916299384371 -0.082379952073097229003906250000 -0.001762400381267070987104106372 0.001044717617332934899571084131 0 0 0 0 
2418833333.3333334923 0.155366137623786898513955634371 -0.083052389323711395263671875000 -0.001895294873975216908695839990 0.001132615609094500975367880713 0 0 0 0 
2419000000.0000000000 0.155368417501449612716513115629 -0.083541229367256164550781250000 -0.001750468392856419086456298828 0.001177273225039243914960551685 0 0 0 0 
2419166666.6666665077 0.155204743146896390060263115629 -0.084159538149833679199218750000 -0.001884912839159369902369833838 0.001268736436031759002088237231 0 0 0 0 
2419333333.3333334923 0.154997423291206387618856865629 -0.084460489451885223388671875000 -0.001834713388234376907348632812 0.001502441707998513958574604565 0 0 0 0 
2419500000.0000000000 0.154896169900894192794638115629 -0.085214860737323760986328125000 -0.001931324251927434964420937646 0.001622693031094968102098774487 0 0 0 0 
2419666666.6666665077 0.154857382178306607345419365629 -0.085729263722896575927734375000 -0.001907049445435404994367289966 0.001700863358564675071118998950 0 0 0 0 
2419833333.3333334923 0.154579937458038302322549384371 -0.085965976119041442871093750000 -0.001807242282666265964508056641 0.001816787291318177960039448315 0 0 0 0 
