# Hz S RI R 50
2400000000.0000000000 0.161765828728675786774005018742 0.056510135531425483013112653907 0.001271386980079114003422402490 0.003172726836055517196655273438 0 0 0 0 
2400166666.6666665077 0.161820828914642306228799384371 0.055079791694879531860351562500 0.001427378156222403049468994141 0.003300106152892113165614462744 0 0 0 0 
2400333333.3333334923 0.161886900663375910003338731258 0.053455494344234466552734375000 0.001563648460432887077331542969 0.003396053565666079954860068213 0 0 0 0 
2400500000.0000000000 0.162063270807266207595986884371 0.051708351820707321166992187500 0.001689041964709758975385356372 0.003289404790848494009730673682 0 0 0 0 
2400666666.6666665077 0.162020489573478698730468750000 0.049954701215028762817382812500 0.001770462724380194923998188550 0.003195083001628518104553222656 0 0 0 0 
2400833333.3333334923 0.162346422672271700760049384371 0.048358123749494552612304687500 0.001969400560483336014988564600 0.003414041828364133834838867188 0 0 0 0 
2401000000.0000000000 0.162323862314224187652911268742 0.046493977308273322368581403907 0.002125656232237815856933593750 0.003155733225867152214050292969 0 0 0 0 
2401166666.6666665077 0.162664562463760403732138115629 0.044788744300603866577148437500 0.002242272021248937086818076025 0.003470987314358354048487997900 0 0 0 0 
2401333333.3333334923 0.162504374980926513671875000000 0.043064877390861511230468750000 0.002353847958147525787353515625 0.003309229156002401871922158350 0 0 0 0 
2401500000.0000000000 0.163206636905670193771200615629 0.041339077055454247211496721093 0.002603883389383554892299033057 0.003361243987455964088439941406 0 0 0 0 
2401666666.6666665077 0.163390055298805209060830634371 0.039659988135099411010742187500 0.002802881412208079858067177881 0.003433294594287871880772256006 0 0 0 0 
2401833333.3333334923 0.163603723049163790603799384371 0.037781052291393280029296875000 0.002916049212217330932617187500 0.003296077717095613913295126807 0 0 0 0 
2402000000.0000000000 0.163918375968933105468750000000 0.036079462617635726928710937500 0.003125217277556657791137695312 0.003004349302500485940220498193 0 0 0 0 
2402166666.6666665077 0.164333805441856412032919365629 0.034073647111654281616210937500 0.003324704244732857184169150244 0.003040909068658947944641113281 0 0 0 0 
2402333333.3333334923 0.164753794670105008224325615629 0.032659959048032760620117187500 0.003435952588915824890136718750 0.002908667316660284996032714844 0 0 0 0 
2402500000.0000000000 0.165323689579963711837606865629 0.031301509588956832885742187500 0.003811760107055306000950478662 0.002851319033652544021606445312 0 0 0 0 
2402666666.6666665077 0.165634408593177795410156250000 0.029503969475626948965052420704 0.003873498644679785208461142432 0.002569276141002773804905556787 0 0 0 0 
2402833333.3333334923 0.166456699371337890625000000000 0.028117312118411060678502266796 0.004113134462386369705200195312 0.002516329521313310103175497900 0 0 0 0 
2403000000.0000000000 0.166880875825882013518963731258 0.026742782443761829030970389454 0.004240935202687978744506835938 0.002240002155303955078125000000 0 0 0 0 
2403166666.6666665077 0.167676836252212496658486884371 0.025414608418941501272181326954 0.004426721483469009399414062500 0.002208243589848279953002929688 0 0 0 0 
2403333333.3333334923 0.168164148926734896560830634371 0.024045746773481369018554687500 0.004494126420468091964721679688 0.001802182290703058025957417065 0 0 0 0 
2403500000.0000000000 0.168862223625183105468750000000 0.022652147337794300424596016796 0.004625038243830204010009765625 0.001637751120142638900159526294 0 0 0 0 
2403666666.6666665077 0.169473558664321899414062500000 0.021488454192876819265345389454 0.004699380602687597274780273438 0.001476483186706901030299521338 0 0 0 0 
2403833333.3333334923 0.170133307576179504394531250000 0.020192744210362430917760079296 0.004836395382881165418142987988 0.001274566049687563939335488428 0 0 0 0 
2404000000.0000000000 0.170704603195190401931924384371 0.019167175516486171377161795704 0.004963118117302656173706054688 0.000983882113359868526458740234 0 0 0 0 
2404166666.6666665077 0.171392470598220797439736884371 0.018030378967523578298548514454 0.005088965874165297421927167676 0.000551426084712147712707519531 0 0 0 0 
2404333333.3333334923 0.172052666544914301116619981258 0.017008833587169650686243826954 0.005098596215248107910156250000 0.000321662140777334625094813214 0 0 0 0 
2404500000.0000000000 0.172690913081169100662393134371 0.016153192147612571716308593750 0.005071447230875492095947265625 0.000038665228203171857375691073 0 0 0 0 
2404666666.6666665077 0.173360660672187805175781250000 0.015187810175120830535888671875 0.005007721018046140670776367188 -0.000431427994044497609138488770 0 0 0 0 
2404833333.3333334923 0.173918917775154113769531250000 0.014326835051178930455217930273 0.004821366630494594573974609375 -0.000583682558499276638031005859 0 0 0 0 
2405000000.0000000000 0.174453571438789395431356865629 0.013506203889846800023089024023 0.004884234163910151395315839551 -0.000723618490155786275863647461 0 0 0 0 
2405166666.6666665077 0.174969121813774108886718750000 0.012773386202752590179443359375 0.004716770723462104797363281250 -0.000987429870292544364929199219 0 0 0 0 
2405333333.3333334923 0.175603955984115600585937500000 0.011920170858502389735211757227 0.004765107762068510055541992188 -0.001188888680189847946166992188 0 0 0 0 
2405500000.0000000000 0.175978705286979703048544365629 0.011526931077241899317731288477 0.004589109215885400772094726562 -0.001511500217020512060878134619 0 0 0 0 
2405666666.6666665077 0.176487430930137606521768134371 0.010823062621057030069371407421 0.004408388398587703704833984375 -0.001644285046495497009874653394 0 0 0 0 
2405833333.3333334923 0.176775097846984891036825615629 0.010401762090623380488385585352 0.004229168407619000348562909863 -0.001843863981775939898249960791 0 0 0 0 
2406000000.0000000000 0.177096799015998812576455634371 0.009779496118426322937011718750 0.004090569913387298583984375000 -0.002099886303767561912536621094 0 0 0 0 
2406166666.6666665077 0.177311792969703702071981865629 0.009382109157741069793701171875 0.003854011418297886848449707031 -0.002282723784446715874912881006 0 0 0 0 
2406333333.3333334923 0.177704915404319790939169365629 0.008866811171174049377441406250 0.003648052923381329016444540869 -0.002169656101614236831665039062 0 0 0 0 
2406500000.0000000000 0.177844673395156888107138115629 0.008306839503347873687744140625 0.003485149005427957014796591650 -0.002224896335974336104152060400 0 0 0 0 
2406666666.6666665077 0.177961811423301696777343750000 0.007793694268912076950073242188 0.003334616078063846068141318213 -0.002407611580565571784973144531 0 0 0 0 
2406833333.3333334923 0.177945479750633211990518134371 0.007315451279282569885253906250 0.003292496548965572877171181787 -0.002509912243112922148463583838 0 0 0 0 
2407000000.0000000000 0.177975475788116510589276231258 0.006685787346214056015014648438 0.003142225788906217055079794775 -0.002525422256439923806431435693 0 0 0 0 
2407166666.6666665077 0.178143188357353210449218750000 0.006363614462316036224365234375 0.002758650342002511024475097656 -0.002609718823805450959446572412 0 0 0 0 
2407333333.3333334923 0.177936583757400512695312500000 0.005625278688967227935791015625 0.002680311212316154999973916162 -0.002815139247104525999781943213 0 0 0 0 
2407500000.0000000000 0.177781105041503906250000000000 0.005049196537584066390991210938 0.002567330840975046157836914062 -0.002847047522664070129394531250 0 0 0 0 
2407666666.6666665077 0.177550286054611206054687500000 0.004413105547428131103515625000 0.002353787655010819001438759912 -0.002768411533907055854797363281 0 0 0 0 
2407833333.3333334923 0.177162513136863708496093750000 0.003538540797308086915257119287 0.002251493744552135901210165869 -0.002922498621046543121337890625 0 0 0 0 
2408000000.0000000000 0.177029848098754910568075615629 0.002802710747346282005310058594 0.002077806508168578147888183594 -0.002821854781359434127807617188 0 0 0 0 
2408166666.6666665077 0.176643952727317810058593750000 0.002157350303605198860168457031 0.001894534681923687891719199072 -0.002887718379497528076171875000 0 0 0 0 
2408333333.3333334923 0.176409885287284906585369981258 0.001083608716726303100585937500 0.001808500848710536956787109375 -0.002953038318082689805271767725 0 0 0 0 
2408500000.0000000000 0.175933197140693692306356865629 0.000208917495911009609699249268 0.001651827478781342940089560400 -0.002887692768126726150512695312 0 0 0 0 
2408666666.6666665077 0.175525516271591186523437500000 -0.000773896696045994758605957031 0.001449023839086293957353901440 -0.002914530225098133087158203125 0 0 0 0 
2408833333.3333334923 0.174993053078651400467080634371 -0.001777343219146132902858115088 0.001249385299161076979396201025 -0.002703550970181823210475302588 0 0 0 0 
2409000000.0000000000 0.174479231238365201095419365629 -0.002866115188226104216334677588 0.001249799388460814952850341797 -0.002635299926623702049255371094 0 0 0 0 
2409166666.6666665077 0.173958852887153597732705634371 -0.004194849170744419097900390625 0.000972728594206273555755615234 -0.002535976702347397804260253906 0 0 0 0 
2409333333.3333334923 0.173661768436431912521200615629 -0.005331092514097690582275390625 0.000963855010922998189926147461 -0.002716213464736938910243368994 0 0 0 0 
2409500000.0000000000 0.173028513789176913162393134371 -0.006893584504723548889160156250 0.001008754828944802067400288159 -0.002498278860002756118774414062 0 0 0 0 
2409666666.6666665077 0.172443568706512506683026231258 -0.008147207088768482208251953125 0.000772322004195302724838256836 -0.002553252270445228056666708838 0 0 0 0 
2409833333.3333334923 0.171931654214859008789062500000 -0.009373471140861511230468750000 0.000780713569838553667068481445 -0.002407706808298825783970498193 0 0 0 0 
2410000000.0000000000 0.171596959233283996582031250000 -0.010770351625978950155237967579 0.000739514536689966917037963867 -0.002419009804725646972656250000 0 0 0 0 
2410166666.6666665077 0.171085402369499206542968750000 -0.012463807128369809931744960352 0.000592866272199898958206176758 -0.002380769001320004896876669775 0 0 0 0 
2410333333.3333334923 0.170860812067985506912393134371 -0.013969459570944309234619140625 0.000626611523330211639404296875 -0.002160027157515286965611123193 0 0 0 0 
2410500000.0000000000 0.170320168137550409515057481258 -0.015575892291963100433349609375 0.000639789621345698833465576172 -0.002257057465612887902500771631 0 0 0 0 
2410666666.6666665077 0.170042619109153803069744981258 -0.017338132485747340810755545704 0.000596310419496148824691772461 -0.002006049500778317885157919775 0 0 0 0 
2410833333.3333334923 0.169729888439178494552450615629 -0.019004188477993011474609375000 0.000721344258636236190795898438 -0.001997614977881311936619423975 0 0 0 0 
2411000000.0000000000 0.169550701975822504241619981258 -0.020720444619655609130859375000 0.000702101213391870260238647461 -0.002013175282627344131469726562 0 0 0 0 
2411166666.6666665077 0.169201344251632690429687500000 -0.022501410916447639465332031250 0.000658026256132870912551879883 -0.002046534093096851868870400537 0 0 0 0 
2411333333.3333334923 0.168964967131614712814169365629 -0.024025706574320789682408516796 0.000712387845851480960845947266 -0.001843297621235250993015908350 0 0 0 0 
2411500000.0000000000 0.168841511011123712737713731258 -0.026290543377399451518972028907 0.000678087875712662935256958008 -0.001888046623207628943799663013 0 0 0 0 
2411666666.6666665077 0.168937742710113497635049384371 -0.027904473245143890380859375000 0.000701134966220706701278686523 -0.001777146128006279902217245947 0 0 0 0 
2411833333.3333334923 0.168872550129890386383380018742 -0.029661042615771290170689766796 0.000782152870669960975646972656 -0.001990662422031164169311523438 0 0 0 0 
2412000000.0000000000 0.168964475393295288085937500000 -0.031416106969118118286132812500 0.000688979343976825475692749023 -0.002000249456614255905151367188 0 0 0 0 
2412166666.6666665077 0.169026151299476595779580634371 -0.033318996429443359375000000000 0.000735624169465154409408569336 -0.001885904814116656997083354419 0 0 0 0 
2412333333.3333334923 0.169370144605636596679687500000 -0.034950468689203262329101562500 0.000787407625466585159301757812 -0.002043913118541241125819540869 0 0 0 0 
2412500000.0000000000 0.169405907392501803299111884371 -0.036691758781671517108957658593 0.000735107285436242818832397461 -0.002084977924823760986328125000 0 0 0 0 
2412666666.6666665077 0.169561430811881991287393134371 -0.038657724857330322265625000000 0.000799896952230483293533325195 -0.002078219782561064200160361182 0 0 0 0 
2412833333.3333334923 0.169987425208091708084268134371 -0.040345754474401467060129533593 0.000762871000915765762329101562 -0.002143363934010266824009560693 0 0 0 0 
2413000000.0000000000 0.170251235365867586990518134371 -0.041814371943473822856862653907 0.000690490182023495435714721680 -0.002252051141113042831420898438 0 0 0 0 
2413166666.6666665077 0.170537918806076105315838731258 -0.043348826467990882183034528907 0.000687215884681791067123413086 -0.002271784003823996023890829932 0 0 0 0 
2413333333.3333334923 0.170868650078773498535156250000 -0.045033250004053122783620466407 0.000659102981444448232650756836 -0.002061117440462111993076943506 0 0 0 0 
2413500000.0000000000 0.171147614717483492752236884371 -0.046520847827196121215820312500 0.000552419922314584255218505859 -0.002386770909652113914489746094 0 0 0 0 
2413666666.6666665077 0.171742036938667297363281250000 -0.047888107597827911376953125000 0.000403638783609494621127528058 -0.002408175729215145111083984375 0 0 0 0 
2413833333.3333334923 0.172023326158523587325888115629 -0.049164202064275741577148437500 0.000495564599987119436264038086 -0.002409334294497967200038290869 0 0 0 0 
2414000000.0000000000 0.172233805060386713225994981258 -0.050591599196195602416992187500 0.000510399579070508480072021484 -0.002507046097889543013331747900 0 0 0 0 
2414166666.6666665077 0.172897666692733792404013115629 -0.051787648350000381469726562500 0.000412359309848398024409693585 -0.002395316958427429199218750000 0 0 0 0 
2414333333.3333334923 0.173114866018295288085937500000 -0.053056433796882629394531250000 0.000250474695349112207263392316 -0.002548997523263096809387207031 0 0 0 0 
2414500000.0000000000 0.173847511410713195800781250000 -0.054075825959444052959401716407 0.000325156754115596413612365723 -0.002498866990208625793457031250 0 0 0 0 
2414666666.6666665077 0.174088910222053500076455634371 -0.054915960878133766864817033593 0.000188809775863774093702593393 -0.002580331871286035017726279150 0 0 0 0 
2414833333.3333334923 0.174286752939224187652911268742 -0.056032244116067893291432966407 0.000105618637462612200848995070 -0.002609736984595655961277627100 0 0 0 0 
2415000000.0000000000 0.174746572971343994140625000000 -0.056664790958166122436523437500 0.000190744860447011888027191162 -0.002601158572360872788670205225 0 0 0 0 
2415166666.6666665077 0.174941733479499789138955634371 -0.057517569512128829956054687500 0.000118365431262645897552213126 -0.002660392783582210974452353369 0 0 0 0 
2415333333.3333334923 0.175349622964859008789062500000 -0.058289252221584320068359375000 -0.000103773083537817001342773438 -0.002573502948507667021510458838 0 0 0 0 
2415500000.0000000000 0.175525039434433011154013115629 -0.058866266161203377460520158593 -0.000036518191336654126644134521 -0.002582698594778776168823242188 0 0 0 0 
2415666666.6666665077 0.175521358847618103027343750000 -0.059415392577648162841796875000 -0.000270595890469849109649658203 -0.002784306416288017792942666162 0 0 0 0 
2415833333.3333334923 0.175934299826622009277343750000 -0.060027923434972763061523437500 -0.000397704541683197021484375000 -0.002633538795635104179382324219 0 0 0 0 
2416000000.0000000000 0.175826653838157709319744981258 -0.060466405004262917255442033593 -0.000290558411506936008304041730 -0.002584779635071754889247275244 0 0 0 0 
2416166666.6666665077 0.175961688160896301269531250000 -0.060815162956714630126953125000 -0.000502610055264085531234741211 -0.002598780440166593031642294775 0 0 0 0 
2416333333.3333334923 0.175861969590187100509481865629 -0.061238206923007972026784528907 -0.000635781907476484775543212891 -0.002758627058938146071193076025 0 0 0 0 
2416500000.0000000000 0.175635859370231600662393134371 -0.061629120260477072978932966407 -0.000539839966222643852233886719 -0.002735064830631018118617392432 0 0 0 0 
2416666666.6666665077 0.175372421741485595703125000000 -0.061898261308670037006418596093 -0.000633651099633425474166870117 -0.002815069863572717146632529150 0 0 0 0 
2416833333.3333334923 0.175235509872436495681924384371 -0.062339518219232559204101562500 -0.000568718067370355129241943359 -0.002749723847955464883091591943 0 0 0 0 
2417000000.0000000000 0.174620717763900812347088731258 -0.062637612223625183105468750000 -0.000871728581842035055160522461 -0.002677000826224685148951865088 0 0 0 0 
2417166666.6666665077 0.174158141016960088531817518742 -0.062845997512340545654296875000 -0.000814188621006906032562255859 -0.002637672470882534980773925781 0 0 0 0 
2417333333.3333334923 0.173635825514793395996093750000 -0.063107594847679138183593750000 -0.000897766789421439170837402344 -0.002582571236416697935817099463 0 0 0 0 
2417500000.0000000000 0.172994866967201205154580634371 -0.063606962561607360839843750000 -0.000949772424064576625823974609 -0.002663140185177326202392578125 0 0 0 0 
2417666666.6666665077 0.172418251633644104003906250000 -0.063764929771423339843750000000 -0.001103012356907129070879292065 -0.002625293564051390127894736182 0 0 0 0 
2417833333.3333334923 0.171692878007888793945312500000 -0.064073421061038970947265625000 -0.001140693435445427894592285156 -0.002575432416051626205444335938 0 0 0 0 
2418000000.0000000000 0.170705273747444208343182481258 -0.064491018652915954589843750000 -0.001212615170516073920606303638 -0.002414440037682652907130576025 0 0 0 0 
2418166666.6666665077 0.169946566224098205566406250000 -0.064781919121742248535156250000 -0.001280626514926552989362407153 -0.002367971464991569952723837744 0 0 0 0 
2418333333.3333334923 0.169342145323753412444744981258 -0.065315470099449157714843750000 -0.001211126800626515908482216943 -0.002403062535449862913844443213 0 0 0 0 
2418500000.0000000000 0.168083056807518005371093750000 -0.065750278532505035400390625000 -0.001402237219735980033874511719 -0.002368102315813302993774414062 0 0 0 0 
2418666666.6666665077 0.167263835668563787262286268742 -0.066321432590484619140625000000 -0.001407550997100770907161093604 -0.002359915990382432937622070312 0 0 0 0 
2418833333.3333334923 0.165994763374328613281250000000 -0.066962540149688720703125000000 -0.001481566810980438969255756909 -0.002346502384170889854431152344 0 0 0 0 
2419000000.0000000000 0.164909943938255310058593750000 -0.067521780729293823242187500000 -0.001524139777757226987126015771 -0.002286427188664675192592001807 0 0 0 0 
2419166666.6666665077 0.163739651441574096679687500000 -0.068265959620475769042968750000 -0.001696225954219698905944824219 -0.002289280993863939805271767725 0 0 0 0 
2419333333.3333334923 0.162627428770065307617187500000 -0.068723730742931365966796875000 -0.001596959424205123944523476709 -0.002202570904046297073364257812 0 0 0 0 
2419500000.0000000000 0.161415532231330899337606865629 -0.069839119911193847656250000000 -0.001523995655588805892347026294 -0.002252678154036403136012411963 0 0 0 0 
2419666666.6666665077 0.160432502627372686188067518742 -0.070836476981639862060546875000 -0.001727265305817127010942768628 -0.002147726481780409812927246094 0 0 0 0 
2419833333.3333334923 0.159245565533638000488281250000 -0.071561500430107116699218750000 -0.001845775521360337951062846606 -0.002349030226469039916992187500 0 0 0 0 
