# Version 1.00
#
freq[Hz];re:Trc1_S11;im:Trc1_S11;re:Trc2_S21;im:Trc2_S21;
2.400000000000000E+009;1.555363982915878E-001;1.049301922321320E-001;-2.237500390037894E-003;-3.243781859055162E-003;
2.400166666666667E+009;1.553036570549011E-001;1.026730090379715E-001;-2.304828725755215E-003;-3.082404378801584E-003;
2.400333333333334E+009;1.557626128196716E-001;1.003306955099106E-001;-2.061699284240603E-003;-3.026837017387152E-003;
2.400500000000000E+009;1.556920558214188E-001;9.769277274608612E-002;-2.105084247887135E-003;-2.948513254523277E-003;
2.400666666666667E+009;1.560288071632385E-001;9.540516883134842E-002;-1.982477260753512E-003;-2.946204971522093E-003;
2.400833333333334E+009;1.563082039356232E-001;9.262722730636597E-002;-2.060256199911237E-003;-3.015878144651651E-003;
2.401000000000000E+009;1.566689908504486E-001;9.001682698726654E-002;-2.000548178330064E-003;-3.007348626852036E-003;
2.401166666666667E+009;1.567068845033646E-001;8.731647580862045E-002;-2.178777474910021E-003;-2.946426859125495E-003;
2.401333333333334E+009;1.571185737848282E-001;8.476432412862778E-002;-2.042213454842567E-003;-3.104213159531355E-003;
2.401500000000000E+009;1.576499789953232E-001;8.206076174974442E-002;-2.354332245886326E-003;-3.306736005470157E-003;
2.401666666666667E+009;1.580791920423508E-001;7.931707054376602E-002;-2.583852037787437E-003;-3.210603492334485E-003;
2.401833333333334E+009;1.586815267801285E-001;7.680654525756836E-002;-2.733897883445025E-003;-3.081676317378879E-003;
2.402000000000000E+009;1.593097895383835E-001;7.404780387878418E-002;-2.901621395722032E-003;-3.146397415548563E-003;
2.402166666666667E+009;1.603800952434540E-001;7.195020467042923E-002;-3.065329510718584E-003;-3.037574235349894E-003;
2.402333333333334E+009;1.613433957099915E-001;6.924334913492203E-002;-3.122303169220686E-003;-2.899697748944163E-003;
2.402500000000000E+009;1.624408215284348E-001;6.703550368547440E-002;-3.185126231983304E-003;-2.861599903553724E-003;
2.402666666666667E+009;1.633184850215912E-001;6.482993066310883E-002;-3.438220126554370E-003;-2.736580558121204E-003;
2.402833333333334E+009;1.646450310945511E-001;6.247252970933914E-002;-3.534494899213314E-003;-2.499469323083758E-003;
2.403000000000000E+009;1.661131680011749E-001;6.026216968894005E-002;-3.633691696450114E-003;-2.502102404832840E-003;
2.403166666666667E+009;1.677192449569702E-001;5.827241018414497E-002;-3.797519719228149E-003;-2.130451845005155E-003;
2.403333333333334E+009;1.690815240144730E-001;5.620113760232925E-002;-3.923119511455298E-003;-2.065626671537757E-003;
2.403500000000000E+009;1.706814616918564E-001;5.415040627121925E-002;-3.828908316791058E-003;-1.822153921239078E-003;
2.403666666666667E+009;1.721177548170090E-001;5.248455703258514E-002;-3.904084442183375E-003;-1.737063634209335E-003;
2.403833333333334E+009;1.736955940723419E-001;5.072171241044998E-002;-4.121767822653055E-003;-1.462204498238862E-003;
2.404000000000000E+009;1.750249862670898E-001;4.900427907705307E-002;-4.018591251224279E-003;-1.466324785724282E-003;
2.404166666666667E+009;1.766071617603302E-001;4.757905751466751E-002;-3.926798701286316E-003;-1.201140810735524E-003;
2.404333333333334E+009;1.782454401254654E-001;4.608251899480820E-002;-3.813665825873613E-003;-1.087421318516135E-003;
2.404500000000000E+009;1.796260327100754E-001;4.473464563488960E-002;-3.963824827224016E-003;-8.668705122545362E-004;
2.404666666666667E+009;1.809845417737961E-001;4.365939646959305E-002;-3.921695053577423E-003;-7.377543952316046E-004;
2.404833333333334E+009;1.825949102640152E-001;4.265630617737770E-002;-3.863494377583265E-003;-7.832432747818530E-004;
2.405000000000000E+009;1.837535500526428E-001;4.193910211324692E-002;-3.831130918115377E-003;-4.765876801684499E-004;
2.405166666666667E+009;1.849866658449173E-001;4.108865186572075E-002;-3.873063717037439E-003;-3.641959920059890E-004;
2.405333333333334E+009;1.863070726394653E-001;4.066869989037514E-002;-3.690022276714444E-003;-4.409661050885916E-004;
2.405500000000000E+009;1.875185966491699E-001;3.999816998839378E-002;-3.834305796772242E-003;-4.101962840650231E-004;
2.405666666666667E+009;1.886049509048462E-001;3.965446725487709E-002;-3.808670677244663E-003;-3.307857259642333E-004;
2.405833333333334E+009;1.897367238998413E-001;3.934556990861893E-002;-3.867016872391105E-003;-2.131224755430594E-004;
2.406000000000000E+009;1.906158179044724E-001;3.894856944680214E-002;-3.824406536296010E-003;-1.359498564852402E-004;
2.406166666666667E+009;1.915895491838455E-001;3.884319216012955E-002;-3.712876932695508E-003;-1.023111253743991E-004;
2.406333333333334E+009;1.922514587640762E-001;3.872792050242424E-002;-3.869014792144299E-003;2.032286647590809E-005;
2.406500000000000E+009;1.929069459438324E-001;3.862321376800537E-002;-3.642031922936440E-003;-2.028175731538795E-005;
2.406666666666667E+009;1.935544908046722E-001;3.839434683322907E-002;-3.804491367191076E-003;1.707912888377905E-004;
2.406833333333334E+009;1.939495950937271E-001;3.825427219271660E-002;-3.897539805620909E-003;1.885246165329590E-004;
2.407000000000000E+009;1.942123174667358E-001;3.836975619196892E-002;-3.935557790100575E-003;1.844981306931004E-004;
2.407166666666667E+009;1.945354640483856E-001;3.793201595544815E-002;-3.929780796170235E-003;4.497102927416563E-004;
2.407333333333334E+009;1.944532096385956E-001;3.803212940692902E-002;-3.826508764177561E-003;4.743375466205180E-004;
2.407500000000000E+009;1.944375336170197E-001;3.790435567498207E-002;-3.906808327883482E-003;5.774320452474058E-004;
2.407666666666667E+009;1.945066750049591E-001;3.760658204555512E-002;-4.116814117878676E-003;6.619886262342334E-004;
2.407833333333334E+009;1.940702944993973E-001;3.730547055602074E-002;-3.965206444263458E-003;8.190593216568232E-004;
2.408000000000000E+009;1.940233409404755E-001;3.700177371501923E-002;-3.979838453233242E-003;9.342556586489081E-004;
2.408166666666667E+009;1.935423612594605E-001;3.653552755713463E-002;-3.942949697375298E-003;1.185702974908054E-003;
2.408333333333334E+009;1.930489987134934E-001;3.583956137299538E-002;-4.053356591612101E-003;1.184506691060960E-003;
2.408500000000000E+009;1.925819814205170E-001;3.548959270119667E-002;-3.929049242287874E-003;1.322811469435692E-003;
2.408666666666667E+009;1.919534355401993E-001;3.471277654170990E-002;-3.940633963793516E-003;1.314518856815994E-003;
2.408833333333334E+009;1.913040727376938E-001;3.384109959006310E-002;-4.027156624943018E-003;1.479601021856070E-003;
2.409000000000000E+009;1.906201988458633E-001;3.272842615842819E-002;-3.912815358489752E-003;1.632156781852245E-003;
2.409166666666667E+009;1.897305399179459E-001;3.165854886174202E-002;-3.871632739901543E-003;1.772685558535159E-003;
2.409333333333334E+009;1.890087872743607E-001;3.063973784446716E-002;-3.874801797792316E-003;1.978747546672821E-003;
2.409500000000000E+009;1.881117224693298E-001;2.930136211216450E-002;-3.919987007975578E-003;2.021249383687973E-003;
2.409666666666667E+009;1.871961653232575E-001;2.783244289457798E-002;-3.946989774703980E-003;2.398285083472729E-003;
2.409833333333334E+009;1.862481981515884E-001;2.630436047911644E-002;-3.890610067173839E-003;2.557578496634960E-003;
2.410000000000000E+009;1.855137050151825E-001;2.467923238873482E-002;-3.897867863997817E-003;2.658166456967592E-003;
2.410166666666667E+009;1.846849471330643E-001;2.288063801825047E-002;-3.623491385951638E-003;2.907073590904474E-003;
2.410333333333334E+009;1.840599179267883E-001;2.118830382823944E-002;-3.573587629944086E-003;3.077374305576086E-003;
2.410500000000000E+009;1.830228418111801E-001;1.930358819663525E-002;-3.292704001069069E-003;3.181465668603778E-003;
2.410666666666667E+009;1.824012398719788E-001;1.699775084853172E-002;-3.186414483934641E-003;3.239725017920137E-003;
2.410833333333334E+009;1.818332076072693E-001;1.491342671215534E-002;-3.011357737705112E-003;3.374549560248852E-003;
2.411000000000000E+009;1.811402887105942E-001;1.269959285855293E-002;-2.914866898208857E-003;3.531080204993486E-003;
2.411166666666667E+009;1.808433383703232E-001;1.077981851994991E-002;-2.781903371214867E-003;3.537843935191631E-003;
2.411333333333334E+009;1.804732978343964E-001;8.399412035942078E-003;-2.543690614402294E-003;3.562716068699956E-003;
2.411500000000000E+009;1.800408512353897E-001;6.127452012151480E-003;-2.476364374160767E-003;3.581397468224168E-003;
2.411666666666667E+009;1.800008863210678E-001;3.885811194777489E-003;-2.401615027338266E-003;3.620083676651120E-003;
2.411833333333334E+009;1.798291355371475E-001;1.617320696823299E-003;-2.157565671950579E-003;3.624706529080868E-003;
2.412000000000000E+009;1.799721270799637E-001;-9.183576330542564E-004;-2.225740812718868E-003;3.597211791202426E-003;
2.412166666666667E+009;1.799048036336899E-001;-2.929582493379712E-003;-2.034784993156791E-003;3.717879997566342E-003;
2.412333333333334E+009;1.802027523517609E-001;-5.301476921886206E-003;-1.810237648896873E-003;3.661657916381955E-003;
2.412500000000000E+009;1.806459277868271E-001;-7.608205080032349E-003;-1.670365571044385E-003;3.824471728876233E-003;
2.412666666666667E+009;1.813281178474426E-001;-9.868191555142403E-003;-1.558542251586914E-003;3.676788648590446E-003;
2.412833333333334E+009;1.818927675485611E-001;-1.209616195410490E-002;-1.529375556856394E-003;3.652946790680289E-003;
2.413000000000000E+009;1.826478391885757E-001;-1.435160823166370E-002;-1.443297602236271E-003;3.926742356270552E-003;
2.413166666666667E+009;1.833064109086990E-001;-1.628824509680271E-002;-1.409650314599276E-003;3.841398283839226E-003;
2.413333333333334E+009;1.843124628067017E-001;-1.851378567516804E-002;-1.123406807892025E-003;3.776017343625426E-003;
2.413500000000000E+009;1.851550340652466E-001;-2.063130401074886E-002;-1.169060822576284E-003;3.929947037249804E-003;
2.413666666666667E+009;1.860326975584030E-001;-2.266433276236057E-002;-1.053264946676791E-003;3.938554786145687E-003;
2.413833333333334E+009;1.870040446519852E-001;-2.458266541361809E-002;-9.403429576195777E-004;4.141367040574551E-003;
2.414000000000000E+009;1.880789548158646E-001;-2.630379982292652E-002;-8.081762352958322E-004;4.061318468302488E-003;
2.414166666666667E+009;1.891836971044540E-001;-2.814805507659912E-002;-7.541091763414443E-004;4.077786579728127E-003;
2.414333333333334E+009;1.901020258665085E-001;-2.991047501564026E-002;-5.757823819294572E-004;4.205255303531885E-003;
2.414500000000000E+009;1.912754029035568E-001;-3.131213411688805E-002;-4.247557371854782E-004;4.140166100114584E-003;
2.414666666666667E+009;1.922764033079147E-001;-3.288988023996353E-002;-2.660999307408929E-004;4.130209330469370E-003;
2.414833333333334E+009;1.933307647705078E-001;-3.402455523610115E-002;-2.147630402760115E-005;4.173303954303265E-003;
2.415000000000000E+009;1.940898150205612E-001;-3.532493859529495E-002;4.391033144202083E-006;4.091260954737663E-003;
2.415166666666667E+009;1.952247470617294E-001;-3.624226525425911E-002;1.240926940226927E-004;4.161650780588388E-003;
2.415333333333334E+009;1.963459104299545E-001;-3.733832016587257E-002;3.771878546103835E-004;3.986261319369078E-003;
2.415500000000000E+009;1.972738057374954E-001;-3.810970112681389E-002;5.597695126198232E-004;4.156541544944048E-003;
2.415666666666667E+009;1.980595588684082E-001;-3.896974399685860E-002;4.299061256460846E-004;3.847376443445683E-003;
2.415833333333334E+009;1.987299174070358E-001;-3.951841592788696E-002;6.884504691697657E-004;3.996496554464102E-003;
2.416000000000000E+009;1.993874311447144E-001;-4.011797904968262E-002;6.440567085519433E-004;3.817749209702015E-003;
2.416166666666667E+009;2.000433802604675E-001;-4.077282547950745E-002;7.600003154948354E-004;3.850023495033383E-003;
2.416333333333334E+009;2.004919201135635E-001;-4.111666604876518E-002;8.628512150608003E-004;3.951600287109613E-003;
2.416500000000000E+009;2.008555084466934E-001;-4.146167635917664E-002;9.148812387138605E-004;3.840860212221742E-003;
2.416666666666667E+009;2.011938542127609E-001;-4.196827113628388E-002;1.007568906061351E-003;3.882658667862415E-003;
2.416833333333334E+009;2.011240124702454E-001;-4.204094409942627E-002;1.214356627315283E-003;3.838200122117996E-003;
2.417000000000000E+009;2.011009007692337E-001;-4.227448254823685E-002;1.344579854048789E-003;3.792105941101909E-003;
2.417166666666667E+009;2.007656395435333E-001;-4.228578507900238E-002;1.474214484915137E-003;3.892649430781603E-003;
2.417333333333334E+009;2.005644291639328E-001;-4.221633821725845E-002;1.584275625646114E-003;3.864051541313529E-003;
2.417500000000000E+009;2.002956718206406E-001;-4.246381670236588E-002;1.759632374159992E-003;3.909219522029162E-003;
2.417666666666667E+009;1.997091472148895E-001;-4.229588434100151E-002;1.880513154901564E-003;3.864972852170467E-003;
2.417833333333334E+009;1.992365866899490E-001;-4.227462410926819E-002;2.135277492925525E-003;3.620383329689503E-003;
2.418000000000000E+009;1.985807567834854E-001;-4.216012731194496E-002;2.269485965371132E-003;3.527058986946940E-003;
2.418166666666667E+009;1.977907568216324E-001;-4.226730391383171E-002;2.532512415200472E-003;3.465386340394616E-003;
2.418333333333334E+009;1.969615668058395E-001;-4.227302595973015E-002;2.556743333116174E-003;3.308566985651851E-003;
2.418500000000000E+009;1.960973292589188E-001;-4.248536378145218E-002;2.754488261416555E-003;3.160668071359396E-003;
2.418666666666667E+009;1.950792968273163E-001;-4.244143143296242E-002;2.761079464107752E-003;2.971923910081387E-003;
2.418833333333334E+009;1.940642893314362E-001;-4.274524003267288E-002;2.813924569636583E-003;2.933479612693191E-003;
2.419000000000000E+009;1.928549706935883E-001;-4.313578829169273E-002;2.938075456768274E-003;2.646873705089092E-003;
2.419166666666667E+009;1.915675997734070E-001;-4.344423487782478E-002;2.912407275289297E-003;2.520101144909859E-003;
2.419333333333334E+009;1.903543919324875E-001;-4.409287497401238E-002;2.943671774119139E-003;2.423664322122932E-003;
2.419500000000000E+009;1.890187114477158E-001;-4.458797723054886E-002;2.936179516837001E-003;2.381159923970699E-003;
2.419666666666667E+009;1.876269131898880E-001;-4.548896849155426E-002;2.807916607707739E-003;2.159511670470238E-003;
2.419833333333334E+009;1.861321777105331E-001;-4.612683132290840E-002;2.735437126830220E-003;2.155004767701030E-003;
2.420000000000000E+009;1.846665889024735E-001;-4.721389338374138E-002;2.719109412282705E-003;2.071844879537821E-003;
2.420166666666667E+009;1.833662539720535E-001;-4.812729731202126E-002;2.746218116953969E-003;2.025173278525472E-003;
2.420333333333334E+009;1.818121522665024E-001;-4.933844879269600E-002;2.671075519174337E-003;1.992488978430629E-003;
2.420500000000000E+009;1.804368346929550E-001;-5.060624331235886E-002;2.839862834662199E-003;2.049206756055355E-003;
2.420666666666667E+009;1.788112670183182E-001;-5.174064263701439E-002;2.737509086728096E-003;2.125628758221865E-003;
2.420833333333334E+009;1.773955672979355E-001;-5.314343050122261E-002;2.864239737391472E-003;2.135779941454530E-003;
2.421000000000000E+009;1.761197000741959E-001;-5.481538921594620E-002;2.985361963510513E-003;2.252913778647780E-003;
2.421166666666667E+009;1.749627292156220E-001;-5.644024536013603E-002;3.072147024795413E-003;2.193212276324630E-003;
2.421333333333334E+009;1.732923090457916E-001;-5.778661370277405E-002;3.199509810656309E-003;2.055567456409335E-003;
2.421500000000000E+009;1.721044778823853E-001;-5.973773449659348E-002;3.247765824198723E-003;1.929544145241380E-003;
2.421666666666667E+009;1.710942983627319E-001;-6.160921603441238E-002;3.432585857808590E-003;1.752314623445272E-003;
2.421833333333334E+009;1.700334995985031E-001;-6.320229172706604E-002;3.392394864931703E-003;1.781937084160745E-003;
2.422000000000000E+009;1.690427064895630E-001;-6.501788645982742E-002;3.521196311339736E-003;1.671529258601368E-003;
2.422166666666667E+009;1.683205813169479E-001;-6.696198880672455E-002;3.595854621380568E-003;1.481226761825383E-003;
2.422333333333334E+009;1.672619581222534E-001;-6.886693090200424E-002;3.649342106655240E-003;1.383787253871560E-003;
2.422500000000000E+009;1.665737032890320E-001;-7.066802680492401E-002;3.642411669716239E-003;1.230263616889715E-003;
2.422666666666667E+009;1.659281551837921E-001;-7.244376838207245E-002;3.749795723706484E-003;9.392310166731477E-004;
2.422833333333334E+009;1.654560565948486E-001;-7.449770718812943E-002;3.773629432544112E-003;8.804464014247060E-004;
2.423000000000000E+009;1.648853272199631E-001;-7.646862417459488E-002;3.712561680004001E-003;7.651463383808732E-004;
2.423166666666667E+009;1.644102483987808E-001;-7.813093066215515E-002;3.692185040563345E-003;5.660484894178808E-004;
2.423333333333334E+009;1.643017828464508E-001;-8.003308624029160E-002;3.726236289367080E-003;6.043106550350785E-004;
2.423500000000000E+009;1.642115861177445E-001;-8.159992098808289E-002;3.764358581975102E-003;4.810558457393199E-004;
2.423666666666667E+009;1.640094071626663E-001;-8.349291235208511E-002;3.696163184940815E-003;4.983630497008562E-004;
2.423833333333334E+009;1.640376150608063E-001;-8.508179336786270E-002;3.618913935497403E-003;2.532575454097241E-004;
2.424000000000000E+009;1.639853119850159E-001;-8.661481738090515E-002;3.687551710754633E-003;2.062795974779874E-004;
2.424166666666667E+009;1.639598309993744E-001;-8.812168985605240E-002;3.677604021504521E-003;2.176288398914039E-004;
2.424333333333334E+009;1.642345786094666E-001;-8.944205939769745E-002;3.596437396481633E-003;-6.753088382538408E-005;
2.424500000000000E+009;1.643645167350769E-001;-9.125824272632599E-002;3.746631555259228E-003;-1.189523536595516E-004;
2.424666666666667E+009;1.644381284713745E-001;-9.236624836921692E-002;3.743510227650404E-003;-2.043723361566663E-004;
2.424833333333334E+009;1.649747788906097E-001;-9.350840747356415E-002;3.800704842433333E-003;-1.814195129554719E-004;
2.425000000000000E+009;1.651371866464615E-001;-9.472492337226868E-002;3.826599335297942E-003;-2.930298214778304E-004;
2.425166666666667E+009;1.653957515954971E-001;-9.572633355855942E-002;3.713104641065002E-003;-3.042875905521214E-004;
2.425333333333334E+009;1.656548231840134E-001;-9.660747647285461E-002;3.685825504362583E-003;-4.823632480110973E-004;
2.425500000000000E+009;1.659472733736038E-001;-9.771947562694550E-002;3.675635671243072E-003;-5.947870085947216E-004;
2.425666666666667E+009;1.663878113031387E-001;-9.827031195163727E-002;3.872825065627694E-003;-7.368471706286073E-004;
2.425833333333334E+009;1.664684116840363E-001;-9.921214729547501E-002;3.914160653948784E-003;-8.640466257929802E-004;
2.426000000000000E+009;1.666843891143799E-001;-9.957013279199600E-002;3.751598531380296E-003;-1.048214733600617E-003;
2.426166666666667E+009;1.668907552957535E-001;-1.002150252461433E-001;3.676904831081629E-003;-1.026722369715571E-003;
2.426333333333334E+009;1.669963449239731E-001;-1.005624234676361E-001;3.873419249430299E-003;-1.092776539735496E-003;
2.426500000000000E+009;1.671905964612961E-001;-1.011073067784309E-001;3.861725563183427E-003;-1.352587714791298E-003;
2.426666666666667E+009;1.673877239227295E-001;-1.013909280300140E-001;3.760155988857150E-003;-1.527705579064786E-003;
2.426833333333334E+009;1.675310432910919E-001;-1.016997769474983E-001;3.729704068973661E-003;-1.528018387034535E-003;
2.427000000000000E+009;1.673457175493240E-001;-1.021121591329575E-001;3.593733068555594E-003;-1.750426483340561E-003;
2.427166666666667E+009;1.674232482910156E-001;-1.022133827209473E-001;3.563882084563375E-003;-1.813778188079596E-003;
2.427333333333334E+009;1.671564131975174E-001;-1.027769818902016E-001;3.526531159877777E-003;-1.999783562496305E-003;
2.427500000000000E+009;1.668900549411774E-001;-1.030474826693535E-001;3.445349866524339E-003;-2.094267169013619E-003;
2.427666666666667E+009;1.665243655443192E-001;-1.031632199883461E-001;3.472395706921816E-003;-2.138915704563260E-003;
2.427833333333334E+009;1.660730689764023E-001;-1.033075153827667E-001;3.337511559948325E-003;-2.284013666212559E-003;
