# Version 1.00
#
freq[Hz];re:Trc1_S11;im:Trc1_S11;re:Trc2_S21;im:Trc2_S21;
2.400000000000000E+009;1.587003320455551E-001;6.292085349559784E-002;-3.222147934138775E-004;1.071814098395407E-003;
2.400166666666667E+009;1.586000621318817E-001;6.129984185099602E-002;-3.538950404617935E-004;1.200212864205241E-003;
2.400333333333334E+009;1.584171205759049E-001;5.948607623577118E-002;-2.061257691821083E-004;1.204394386149943E-003;
2.400500000000000E+009;1.583837121725082E-001;5.754517763853073E-002;-1.320190494880080E-004;1.032434054650366E-003;
2.400666666666667E+009;1.581588536500931E-001;5.557039380073547E-002;8.718696335563436E-006;1.116901868954301E-003;
2.400833333333334E+009;1.581207513809204E-001;5.390747636556625E-002;-2.801046503009275E-005;1.009557978250086E-003;
2.401000000000000E+009;1.582182943820953E-001;5.200362205505371E-002;1.000750271487050E-004;1.087928540073335E-003;
2.401166666666667E+009;1.583341956138611E-001;4.971822723746300E-002;8.608838106738403E-005;1.091872924007475E-003;
2.401333333333334E+009;1.584108620882034E-001;4.785950109362602E-002;1.534919574623928E-004;9.779907995834947E-004;
2.401500000000000E+009;1.586878597736359E-001;4.576585814356804E-002;3.221105434931815E-004;1.027200254611671E-003;
2.401666666666667E+009;1.590857356786728E-001;4.385613277554512E-002;3.836661926470697E-004;1.065973774529994E-003;
2.401833333333334E+009;1.594937592744827E-001;4.167549684643745E-002;4.871224809903652E-004;9.613622096367180E-004;
2.402000000000000E+009;1.596438735723496E-001;3.980185091495514E-002;6.993060233071446E-004;1.027114107273519E-003;
2.402166666666667E+009;1.602180451154709E-001;3.772947192192078E-002;8.236598805524409E-004;8.105264860205352E-004;
2.402333333333334E+009;1.604999005794525E-001;3.590976446866989E-002;9.102407493628562E-004;7.401342154480517E-004;
2.402500000000000E+009;1.613792628049851E-001;3.407771140336990E-002;8.652056567370892E-004;7.294964743778110E-004;
2.402666666666667E+009;1.618972122669220E-001;3.215825557708740E-002;1.099314540624619E-003;5.201704334467650E-004;
2.402833333333334E+009;1.626152247190476E-001;3.041001409292221E-002;1.137339742854238E-003;5.079716793261468E-004;
2.403000000000000E+009;1.635198146104813E-001;2.871661633253098E-002;1.216534059494734E-003;1.762786268955097E-004;
2.403166666666667E+009;1.642091423273087E-001;2.729117684066296E-002;1.147018512710929E-003;4.385935317259282E-004;
2.403333333333334E+009;1.651588529348373E-001;2.568053267896175E-002;1.207510125823319E-003;1.439180487068370E-004;
2.403500000000000E+009;1.659504622220993E-001;2.415217272937298E-002;1.275897608138621E-003;-7.946939149405807E-005;
2.403666666666667E+009;1.668630093336105E-001;2.275183238089085E-002;1.249554799869657E-003;-4.724044629256241E-005;
2.403833333333334E+009;1.678632050752640E-001;2.137046866118908E-002;1.489865942858160E-003;-3.553710703272373E-004;
2.404000000000000E+009;1.689056456089020E-001;2.015536278486252E-002;1.358425943180919E-003;-3.955274587497115E-004;
2.404166666666667E+009;1.699998229742050E-001;1.891921646893024E-002;1.354663982056081E-003;-5.549155175685883E-004;
2.404333333333334E+009;1.707972139120102E-001;1.793986372649670E-002;1.222364488057792E-003;-5.814527976326644E-004;
2.404500000000000E+009;1.718184500932694E-001;1.679278723895550E-002;1.170279923826456E-003;-8.623603498563170E-004;
2.404666666666667E+009;1.727076619863510E-001;1.586349494755268E-002;1.233012648299336E-003;-8.364300592802465E-004;
2.404833333333334E+009;1.737049669027329E-001;1.509810052812100E-002;1.105356961488724E-003;-1.062773284502327E-003;
2.405000000000000E+009;1.746669560670853E-001;1.425159908831120E-002;9.787436574697495E-004;-1.064118696376681E-003;
2.405166666666667E+009;1.754831671714783E-001;1.353077962994576E-002;1.118494896218181E-003;-1.437700586393476E-003;
2.405333333333334E+009;1.762721240520477E-001;1.280230283737183E-002;8.285991498269141E-004;-1.390273333527148E-003;
2.405500000000000E+009;1.770076155662537E-001;1.235008239746094E-002;8.846153505146503E-004;-1.460389001294971E-003;
2.405666666666667E+009;1.777404844760895E-001;1.175759080797434E-002;6.210921565070748E-004;-1.653248094953597E-003;
2.405833333333334E+009;1.782433837652206E-001;1.135975401848555E-002;6.707446300424635E-004;-1.673917984589934E-003;
2.406000000000000E+009;1.789334118366242E-001;1.081200316548348E-002;5.180230364203453E-004;-1.631619757972658E-003;
2.406166666666667E+009;1.791929453611374E-001;1.055595278739929E-002;4.386111104395241E-004;-1.754950731992722E-003;
2.406333333333334E+009;1.799515187740326E-001;1.019249949604273E-002;3.068344958592206E-004;-1.866527250967920E-003;
2.406500000000000E+009;1.802937537431717E-001;9.945073164999485E-003;1.266495237359777E-004;-1.752765965647996E-003;
2.406666666666667E+009;1.803846955299377E-001;9.540433995425701E-003;-6.330254836939275E-005;-1.763332984410226E-003;
2.406833333333334E+009;1.806850731372833E-001;9.158477187156677E-003;-9.597580356057733E-005;-1.867988146841526E-003;
2.407000000000000E+009;1.810375452041626E-001;8.779250085353851E-003;-3.339586837682873E-004;-1.808267203159630E-003;
2.407166666666667E+009;1.811523735523224E-001;8.560619316995144E-003;-3.587397513911128E-004;-1.801598933525384E-003;
2.407333333333334E+009;1.808907389640808E-001;8.100413717329502E-003;-5.574703100137413E-004;-1.793128321878612E-003;
2.407500000000000E+009;1.807760149240494E-001;7.706675678491592E-003;-6.646390538662672E-004;-1.577625749632716E-003;
2.407666666666667E+009;1.807019561529160E-001;7.246665190905333E-003;-7.881467463448644E-004;-1.657021231949329E-003;
2.407833333333334E+009;1.803853809833527E-001;6.649683695286512E-003;-7.872911519370973E-004;-1.434975885786116E-003;
2.408000000000000E+009;1.801153272390366E-001;5.945757962763310E-003;-8.821727242320776E-004;-1.605440746061504E-003;
2.408166666666667E+009;1.797165721654892E-001;5.634773988276720E-003;-1.039057970046997E-003;-1.416105777025223E-003;
2.408333333333334E+009;1.794311553239822E-001;4.778470844030380E-003;-9.106846409849823E-004;-1.458448823541403E-003;
2.408500000000000E+009;1.788934618234634E-001;3.995730541646481E-003;-9.464524919167161E-004;-1.324997516348958E-003;
2.408666666666667E+009;1.783538609743118E-001;3.283624770119786E-003;-1.195558113977313E-003;-1.379750785417855E-003;
2.408833333333334E+009;1.775612086057663E-001;2.189157996326685E-003;-1.172901946119964E-003;-1.334376167505980E-003;
2.409000000000000E+009;1.769762933254242E-001;1.323937787674367E-003;-1.073736231774092E-003;-1.070245052687824E-003;
2.409166666666667E+009;1.763591170310974E-001;1.485972898080945E-004;-1.288187573663890E-003;-1.180998864583671E-003;
2.409333333333334E+009;1.757766157388687E-001;-1.045089215040207E-003;-1.180649502202869E-003;-1.237971009686589E-003;
2.409500000000000E+009;1.749463230371475E-001;-2.287078881636262E-003;-1.326163182966411E-003;-1.070333528332412E-003;
2.409666666666667E+009;1.742335259914398E-001;-3.695049788802862E-003;-1.328904181718826E-003;-1.084655406884849E-003;
2.409833333333334E+009;1.733837276697159E-001;-4.936204291880131E-003;-1.411722972989082E-003;-1.144902664236724E-003;
2.410000000000000E+009;1.730464845895767E-001;-6.382112856954336E-003;-1.410823664627969E-003;-1.142047229222953E-003;
2.410166666666667E+009;1.724241524934769E-001;-7.934625260531902E-003;-1.444835681468248E-003;-9.967981604859233E-004;
2.410333333333334E+009;1.715703010559082E-001;-9.631402790546417E-003;-1.398523454554379E-003;-1.097989268600941E-003;
2.410500000000000E+009;1.711407303810120E-001;-1.119526475667954E-002;-1.469073351472616E-003;-1.114626182243228E-003;
2.410666666666667E+009;1.705253422260284E-001;-1.296447217464447E-002;-1.507098902948201E-003;-1.073502353392541E-003;
2.410833333333334E+009;1.700942516326904E-001;-1.475202757865191E-002;-1.556449802592397E-003;-1.035384018905461E-003;
2.411000000000000E+009;1.696575731039047E-001;-1.639917679131031E-002;-1.675375155173242E-003;-1.092747435905039E-003;
2.411166666666667E+009;1.692796796560288E-001;-1.832097209990025E-002;-1.585678546689451E-003;-1.047090161591768E-003;
2.411333333333334E+009;1.687642633914948E-001;-2.023512497544289E-002;-1.753119169734418E-003;-9.396949899382889E-004;
2.411500000000000E+009;1.685090661048889E-001;-2.212679386138916E-002;-1.711629098281264E-003;-9.337178198620677E-004;
2.411666666666667E+009;1.685029566287994E-001;-2.410051785409451E-002;-1.866292324848473E-003;-9.578124154359102E-004;
2.411833333333334E+009;1.684549003839493E-001;-2.589157596230507E-002;-1.903443364426494E-003;-8.995150565169752E-004;
2.412000000000000E+009;1.683705896139145E-001;-2.791641466319561E-002;-2.118731848895550E-003;-8.320484776049852E-004;
2.412166666666667E+009;1.683077663183212E-001;-2.987522631883621E-002;-2.188941929489374E-003;-8.606022456660867E-004;
2.412333333333334E+009;1.685214191675186E-001;-3.174301981925964E-002;-2.320710802450776E-003;-6.906930939294398E-004;
2.412500000000000E+009;1.686194241046906E-001;-3.358602151274681E-002;-2.318967832252383E-003;-6.883626338094473E-004;
2.412666666666667E+009;1.689708530902863E-001;-3.556183725595474E-002;-2.542885020375252E-003;-6.335504003800452E-004;
2.412833333333334E+009;1.693831980228424E-001;-3.737490996718407E-002;-2.462842734530568E-003;-3.448586212471128E-004;
2.413000000000000E+009;1.695231646299362E-001;-3.925833106040955E-002;-2.596890786662698E-003;-5.136830732226372E-004;
2.413166666666667E+009;1.698533445596695E-001;-4.089194908738136E-002;-2.772407606244087E-003;-2.550647186581045E-004;
2.413333333333334E+009;1.700773388147354E-001;-4.258053377270699E-002;-2.840043744072318E-003;4.753750181407668E-005;
2.413500000000000E+009;1.706851869821549E-001;-4.411283880472183E-002;-2.944675507023931E-003;1.259446726180613E-004;
2.413666666666667E+009;1.712011545896530E-001;-4.579687863588333E-002;-2.842201152816415E-003;2.323928347323090E-004;
2.413833333333334E+009;1.717977970838547E-001;-4.744586348533630E-002;-3.034310415387154E-003;2.901315165217966E-004;
2.414000000000000E+009;1.721587479114533E-001;-4.882626980543137E-002;-2.921050414443016E-003;4.501985968090594E-004;
2.414166666666667E+009;1.728134006261826E-001;-5.007648468017578E-002;-2.944507636129856E-003;7.002016063779593E-004;
2.414333333333334E+009;1.733331233263016E-001;-5.139598250389099E-002;-2.905901288613677E-003;7.778254803270102E-004;
2.414500000000000E+009;1.739548444747925E-001;-5.244724452495575E-002;-2.820805646479130E-003;8.605056791566312E-004;
2.414666666666667E+009;1.742652207612991E-001;-5.356104671955109E-002;-3.009596141055226E-003;1.180350547656417E-003;
2.414833333333334E+009;1.747899204492569E-001;-5.468706786632538E-002;-2.832816215232015E-003;1.397847197949886E-003;
2.415000000000000E+009;1.753596216440201E-001;-5.551018938422203E-002;-3.061241470277309E-003;1.587352482602000E-003;
2.415166666666667E+009;1.758619695901871E-001;-5.627226084470749E-002;-2.841918962076306E-003;1.778178964741528E-003;
2.415333333333334E+009;1.762876212596893E-001;-5.716917291283608E-002;-2.870037686079741E-003;1.867912127636373E-003;
2.415500000000000E+009;1.765076518058777E-001;-5.781803280115128E-002;-2.802141476422548E-003;2.034221310168505E-003;
2.415666666666667E+009;1.769109666347504E-001;-5.842616781592369E-002;-2.574914600700140E-003;2.093486953526735E-003;
2.415833333333334E+009;1.772763580083847E-001;-5.888824909925461E-002;-2.487899735569954E-003;2.324722474440932E-003;
2.416000000000000E+009;1.771695613861084E-001;-5.935168638825417E-002;-2.398480428382754E-003;2.543883863836527E-003;
2.416166666666667E+009;1.775574386119843E-001;-5.988614633679390E-002;-2.426896709948778E-003;2.599041443318129E-003;
2.416333333333334E+009;1.774836480617523E-001;-6.004947796463966E-002;-2.262374619022012E-003;2.780520357191563E-003;
2.416500000000000E+009;1.773945838212967E-001;-6.051931157708168E-002;-2.082882681861520E-003;2.850154181942344E-003;
2.416666666666667E+009;1.772265583276749E-001;-6.069099158048630E-002;-1.957057509571314E-003;3.008199855685234E-003;
2.416833333333334E+009;1.772142946720123E-001;-6.111849099397659E-002;-1.742533524520695E-003;2.961773192510009E-003;
2.417000000000000E+009;1.766840219497681E-001;-6.126489862799645E-002;-1.608349033631384E-003;3.074215492233634E-003;
2.417166666666667E+009;1.763387322425842E-001;-6.152653694152832E-002;-1.532560214400291E-003;3.301111981272697E-003;
2.417333333333334E+009;1.758739501237869E-001;-6.172586977481842E-002;-1.199073041789234E-003;3.308444051072002E-003;
2.417500000000000E+009;1.752736568450928E-001;-6.211885064840317E-002;-1.247144304215908E-003;3.341625677421689E-003;
2.417666666666667E+009;1.747713387012482E-001;-6.220119819045067E-002;-9.900160366669297E-004;3.375104628503323E-003;
2.417833333333334E+009;1.740416437387466E-001;-6.259556859731674E-002;-7.582166581414640E-004;3.456190694123507E-003;
2.418000000000000E+009;1.730601787567139E-001;-6.295713782310486E-002;-6.557505112141371E-004;3.621411276981235E-003;
2.418166666666667E+009;1.722291558980942E-001;-6.298578530550003E-002;-3.848611086141318E-004;3.664672607555986E-003;
2.418333333333334E+009;1.716222316026688E-001;-6.347393989562988E-002;-3.252430469729006E-004;3.535177791491151E-003;
2.418500000000000E+009;1.704182177782059E-001;-6.394689530134201E-002;-1.172978954855353E-004;3.624602919444442E-003;
2.418666666666667E+009;1.696131080389023E-001;-6.444035470485687E-002;5.521476487047039E-005;3.483358537778258E-003;
2.418833333333334E+009;1.682105362415314E-001;-6.496343016624451E-002;2.279956388520077E-004;3.340975381433964E-003;
2.419000000000000E+009;1.670656353235245E-001;-6.551335006952286E-002;2.909968316089362E-004;3.414712147787213E-003;
2.419166666666667E+009;1.660836488008499E-001;-6.619024276733398E-002;7.110197329893708E-004;3.388518933206797E-003;
2.419333333333334E+009;1.646414995193481E-001;-6.670573353767395E-002;5.805602413602173E-004;3.339341841638088E-003;
2.419500000000000E+009;1.635804623365402E-001;-6.777126342058182E-002;8.284701034426689E-004;3.319888608530164E-003;
2.419666666666667E+009;1.624646931886673E-001;-6.866002827882767E-002;1.110544777475298E-003;3.232688410207629E-003;
2.419833333333334E+009;1.611350178718567E-001;-6.950075179338455E-002;1.209175563417375E-003;2.988163148984313E-003;
2.420000000000000E+009;1.601899266242981E-001;-7.038331031799316E-002;1.271729706786573E-003;3.036865964531899E-003;
2.420166666666667E+009;1.589374542236328E-001;-7.153439521789551E-002;1.312247943133116E-003;2.924170345067978E-003;
2.420333333333334E+009;1.580672413110733E-001;-7.273328304290772E-002;1.522197737358511E-003;2.797236200422049E-003;
2.420500000000000E+009;1.569121181964874E-001;-7.382688671350479E-002;1.535014016553760E-003;2.743598772212863E-003;
2.420666666666667E+009;1.558064520359039E-001;-7.510752230882645E-002;1.621991978026927E-003;2.563832094892860E-003;
2.420833333333334E+009;1.550597548484802E-001;-7.635111361742020E-002;1.591991516761482E-003;2.415265422314405E-003;
2.421000000000000E+009;1.540983319282532E-001;-7.801265269517899E-002;1.835269737057388E-003;2.425717888399959E-003;
2.421166666666667E+009;1.532372981309891E-001;-7.950864732265472E-002;1.959249842911959E-003;2.205917611718178E-003;
2.421333333333334E+009;1.525107324123383E-001;-8.101459592580795E-002;1.890697865746915E-003;2.171186730265617E-003;
2.421500000000000E+009;1.518660187721252E-001;-8.243058621883392E-002;1.954394392669201E-003;1.996558159589768E-003;
2.421666666666667E+009;1.513592004776001E-001;-8.399771898984909E-002;2.002240624278784E-003;1.937305554747582E-003;
2.421833333333334E+009;1.509200334548950E-001;-8.586513251066208E-002;2.002863446250558E-003;1.784196239896119E-003;
2.422000000000000E+009;1.504062265157700E-001;-8.744960278272629E-002;2.104285871610045E-003;1.777016906999052E-003;
2.422166666666667E+009;1.500610113143921E-001;-8.915904909372330E-002;2.095599891617894E-003;1.669430988840759E-003;
2.422333333333334E+009;1.499080657958984E-001;-9.078495949506760E-002;2.110277302563191E-003;1.403383794240654E-003;
2.422500000000000E+009;1.495776474475861E-001;-9.240689128637314E-002;2.111343899741769E-003;1.531374058686197E-003;
2.422666666666667E+009;1.494011580944061E-001;-9.421913325786591E-002;2.017231658101082E-003;1.302666147239506E-003;
2.422833333333334E+009;1.495081782341003E-001;-9.596524387598038E-002;2.002849243581295E-003;1.278774579986930E-003;
2.423000000000000E+009;1.496077775955200E-001;-9.759837388992310E-002;2.205018419772387E-003;1.264288090169430E-003;
2.423166666666667E+009;1.497184485197067E-001;-9.942435473203659E-002;2.085889922454953E-003;1.048539648763835E-003;
2.423333333333334E+009;1.500362008810043E-001;-1.005726233124733E-001;2.205001655966044E-003;9.660915820859373E-004;
2.423500000000000E+009;1.502777934074402E-001;-1.024013757705689E-001;2.069510053843260E-003;9.641380747780204E-004;
2.423666666666667E+009;1.504100114107132E-001;-1.038423329591751E-001;2.066079061478376E-003;1.062048482708633E-003;
2.423833333333334E+009;1.508511006832123E-001;-1.053742393851280E-001;1.978026703000069E-003;9.013645467348397E-004;
2.424000000000000E+009;1.512725949287415E-001;-1.065990328788757E-001;2.101770834997296E-003;8.479016250930727E-004;
2.424166666666667E+009;1.516399830579758E-001;-1.079975888133049E-001;2.096090232953429E-003;7.068973500281572E-004;
2.424333333333334E+009;1.521248817443848E-001;-1.091820672154427E-001;2.040577353909612E-003;7.743909372948110E-004;
2.424500000000000E+009;1.526050418615341E-001;-1.104580312967300E-001;2.064966829493642E-003;7.430495461449027E-004;
2.424666666666667E+009;1.530896425247192E-001;-1.112675368785858E-001;2.009646967053413E-003;6.034098332747817E-004;
2.424833333333334E+009;1.534232944250107E-001;-1.124988868832588E-001;2.100542886182666E-003;5.867195432074368E-004;
2.425000000000000E+009;1.538759320974350E-001;-1.134659647941589E-001;1.896608038805425E-003;5.014095804654062E-004;
2.425166666666667E+009;1.542975306510925E-001;-1.142552047967911E-001;2.028631046414375E-003;4.361690953373909E-004;
2.425333333333334E+009;1.546895503997803E-001;-1.150985881686211E-001;2.156875329092145E-003;3.386044118087739E-004;
2.425500000000000E+009;1.551615893840790E-001;-1.159512773156166E-001;2.214755164459348E-003;4.923464730381966E-004;
2.425666666666667E+009;1.553123146295548E-001;-1.164438948035240E-001;1.916716690175235E-003;3.427721967455000E-004;
2.425833333333334E+009;1.556209325790405E-001;-1.169208437204361E-001;2.125886036083102E-003;2.661752514541149E-004;
2.426000000000000E+009;1.558548361063004E-001;-1.175406500697136E-001;2.093218034133315E-003;2.080258273053914E-004;
2.426166666666667E+009;1.562467068433762E-001;-1.179986149072647E-001;2.049289643764496E-003;2.497168607078493E-004;
2.426333333333334E+009;1.561010628938675E-001;-1.182914599776268E-001;1.866320730186999E-003;9.707243589218706E-005;
2.426500000000000E+009;1.561480611562729E-001;-1.185484677553177E-001;2.073351060971618E-003;-6.136282081570244E-006;
2.426666666666667E+009;1.562522351741791E-001;-1.187473833560944E-001;1.995178172364831E-003;1.091442463803105E-004;
2.426833333333334E+009;1.559555977582932E-001;-1.189149171113968E-001;2.047587884590030E-003;-9.150309779215604E-005;
2.427000000000000E+009;1.556880772113800E-001;-1.192070543766022E-001;2.081233542412520E-003;1.832803172874264E-005;
2.427166666666667E+009;1.554461866617203E-001;-1.190987452864647E-001;1.958516193553805E-003;-2.008398587349802E-004;
2.427333333333334E+009;1.549422442913055E-001;-1.192598417401314E-001;2.016592305153608E-003;-2.172315143980086E-004;
2.427500000000000E+009;1.545627713203430E-001;-1.193516179919243E-001;2.072007162496448E-003;-2.011382457567379E-004;
2.427666666666667E+009;1.538840085268021E-001;-1.195155829191208E-001;1.976266503334045E-003;-1.461224601371214E-004;
2.427833333333334E+009;1.530955880880356E-001;-1.196340918540955E-001;1.963993534445763E-003;-3.661671071313322E-004;
