# Hz S RI R 
2400000000.0000000000 0.156691759824752807617187500000 0.105109147727489499191122490629 0.000248716969508677721023559570 -0.002435973146930336952209472656 0 0 0 0 
2400166666.6666665077 0.156705155968666104415731865629 0.102877646684646606445312500000 0.000132443339680321487501421518 -0.002346599008888006210327148438 0 0 0 0 
2400333333.3333334923 0.156739041209220886230468750000 0.100740864872932406326455634371 0.000001662092586229845923606911 -0.002537485910579562187194824219 0 0 0 0 
2400500000.0000000000 0.157042413949966402908486884371 0.098007634282112121582031250000 0.000176259301952086389064788818 -0.002556426217779517173767089844 0 0 0 0 
2400666666.6666665077 0.157177105545997591873330634371 0.095740385353565216064453125000 -0.000009420747119293082505464554 -0.002703820588067173957824707031 0 0 0 0 
2400833333.3333334923 0.157260432839393587967080634371 0.092851042747497558593750000000 -0.000140199830639176097795209341 -0.002676510717719792886021279443 0 0 0 0 
2401000000.0000000000 0.157744973897933987716513115629 0.090228997170925140380859375000 -0.000180718416231684386730194092 -0.002746149431914091110229492188 0 0 0 0 
2401166666.6666665077 0.157916069030761690994424384371 0.087650127708911895751953125000 -0.000215722058783285292700090952 -0.002921761712059379057643271338 0 0 0 0 
2401333333.3333334923 0.158423140645027188400106865629 0.084906302392482757568359375000 -0.000381976424250751679569798602 -0.002824523486196995215175009619 0 0 0 0 
2401500000.0000000000 0.158993229269981412032919365629 0.082402668893337249755859375000 -0.000286292284727096611827296124 -0.002852397272363305091857910156 0 0 0 0 
2401666666.6666665077 0.159253150224685696700888115629 0.079595103859901428222656250000 -0.000468398677185177803039550781 -0.002856726059690117835998535156 0 0 0 0 
2401833333.3333334923 0.159832298755645807464276231258 0.077013261616230010986328125000 -0.000546366267371922731399536133 -0.002992346649989486174342490088 0 0 0 0 
2402000000.0000000000 0.160777896642684908767861884371 0.074460335075855255126953125000 -0.000789271958637982606887817383 -0.002985977800562977790832519531 0 0 0 0 
2402166666.6666665077 0.161488726735115106780682481258 0.072204366326332092285156250000 -0.000755131302867084741592407227 -0.003138854634016751809361123193 0 0 0 0 
2402333333.3333334923 0.162355616688728304763955634371 0.069632768630981445312500000000 -0.000948974920902401208877563477 -0.003131391014903783798217773438 0 0 0 0 
2402500000.0000000000 0.163572430610656710525674384371 0.067389637231826782226562500000 -0.001203143154270946979522705078 -0.003212065203115344047546386719 0 0 0 0 
2402666666.6666665077 0.164418622851371792892294365629 0.065196290612220764160156250000 -0.001349768717773258902906108325 -0.003139247186481953100917197119 0 0 0 0 
2402833333.3333334923 0.165743932127952603439169365629 0.062903277575969696044921875000 -0.001503757783211768107173300635 -0.003059405367821455001831054688 0 0 0 0 
2403000000.0000000000 0.166871383786201504806356865629 0.060846805572509772563893903907 -0.001693670987151562950731586987 -0.003047825768589973016026162256 0 0 0 0 
2403166666.6666665077 0.168569758534431513030682481258 0.058780435472726821899414062500 -0.001853836351074277920963906396 -0.002884770976379514174220419775 0 0 0 0 
2403333333.3333334923 0.169666573405265808105468750000 0.056834500283002853393554687500 -0.002204829128459095954895019531 -0.002859378000721334977390908350 0 0 0 0 
2403500000.0000000000 0.171350166201591491699218750000 0.054850596934556961059570312500 -0.002276458311825991110560751807 -0.002613100456073880195617675781 0 0 0 0 
2403666666.6666665077 0.172985315322876004318075615629 0.053006999194622039794921875000 -0.002367284614592791037318564307 -0.002460691612213850021362304688 0 0 0 0 
2403833333.3333334923 0.174492180347442599197549384371 0.051307473331689841533620466407 -0.002511404454708098931553506006 -0.002409545239061117172241210938 0 0 0 0 
2404000000.0000000000 0.175843149423599187652911268742 0.049584794789552688598632812500 -0.002634363714605569839477539062 -0.002252515871077775955200195312 0 0 0 0 
2404166666.6666665077 0.177461221814155606368856865629 0.048230204731225967407226562500 -0.002619193866848946051356650244 -0.002238398184999824003932333838 0 0 0 0 
2404333333.3333334923 0.178782626986503601074218750000 0.046733297407627112651784528907 -0.002543851500377058982849121094 -0.001903547905385494015337299878 0 0 0 0 
2404500000.0000000000 0.180185317993164090255575615629 0.045302107930183410644531250000 -0.002501056762412190003636025537 -0.001841179211623966910718608325 0 0 0 0 
2404666666.6666665077 0.181631177663803100585937500000 0.044263005256652832031250000000 -0.002734894864261149926426552881 -0.001860157237388194041011191260 0 0 0 0 
2404833333.3333334923 0.183048874139785794357138115629 0.043119609355926506732981096093 -0.002745617646723986105677939307 -0.001862923614680767059326171875 0 0 0 0 
2405000000.0000000000 0.184229388833045987228231865629 0.042537774890661239624023437500 -0.002708811778575181961059570312 -0.001758236205205321095110249097 0 0 0 0 
2405166666.6666665077 0.185502231121063204666299384371 0.041803050786256790161132812500 -0.002822688780725001855137490381 -0.001547431922517717101453471606 0 0 0 0 
2405333333.3333334923 0.186653137207031305511151231258 0.041268855333328247070312500000 -0.002809718949720263914821005713 -0.001491902512498199939727783203 0 0 0 0 
2405500000.0000000000 0.187741383910179110428018134371 0.040736261755228042602539062500 -0.003087466116994618935825966943 -0.001492341398261487917659140479 0 0 0 0 
2405666666.6666665077 0.188900202512741088867187500000 0.040234677493572242046315778907 -0.002958824159577488899230957031 -0.001495456323027610995649028247 0 0 0 0 
2405833333.3333334923 0.190019145607948303222656250000 0.039827153086662292480468750000 -0.002987133339047431945800781250 -0.001243954175151884989497519385 0 0 0 0 
2406000000.0000000000 0.190751552581787109375000000000 0.039547573775053017353098283593 -0.003122984198853373961207724463 -0.001222861115820706107495952075 0 0 0 0 
2406166666.6666665077 0.191635146737098693847656250000 0.039332814514636993408203125000 -0.003187528345733880996704101562 -0.001151409698650240898132324219 0 0 0 0 
2406333333.3333334923 0.192368954420089693924111884371 0.039200898259878158569335937500 -0.003352908650413155989405966650 -0.000712381268385797739028930664 0 0 0 0 
2406500000.0000000000 0.192905828356742886642294365629 0.039142366498708731914479841407 -0.003313171910122036933898925781 -0.000761414819862693548202514648 0 0 0 0 
2406666666.6666665077 0.193556264042854309082031250000 0.039093602448701858520507812500 -0.003385414369404315948486328125 -0.000557337480131536722183227539 0 0 0 0 
2406833333.3333334923 0.193937197327613802810830634371 0.038921747356653206562082658593 -0.003306018654257059097290039062 -0.000427755061537027413218897687 0 0 0 0 
2407000000.0000000000 0.194137945771217401702557481258 0.038922119885683059692382812500 -0.003221614751964807944056845557 -0.000282871566014364415973109113 0 0 0 0 
2407166666.6666665077 0.194545671343803405761718750000 0.038849737495183951641042341407 -0.003281086450442672209498740088 -0.000198878857190720709875383920 0 0 0 0 
2407333333.3333334923 0.194400623440742492675781250000 0.038716848939657211303710937500 -0.003057426307350397109985351562 -0.000057609635405242443084716797 0 0 0 0 
2407500000.0000000000 0.194349139928817804534588731258 0.038605097681283950805664062500 -0.003111513564363121986389160156 -0.000040500850445823737163136141 0 0 0 0 
2407666666.6666665077 0.194512277841567993164062500000 0.038462016731500632549245466407 -0.003126475028693675994873046875 0.000141513955895788994714459830 0 0 0 0 
2407833333.3333334923 0.194060489535331698318643134371 0.038136985152959816669504533593 -0.003067096229642630057093954932 0.000293613818939775174290257587 0 0 0 0 
2408000000.0000000000 0.194042801856994601150674384371 0.037909414619207382202148437500 -0.003095586085692048072814941406 0.000393765163607895374298095703 0 0 0 0 
2408166666.6666665077 0.193563938140869112869424384371 0.037488743662834167480468750000 -0.002896248828619718985316611182 0.000465151504613459110260009766 0 0 0 0 
2408333333.3333334923 0.193226233124732998946981865629 0.036745037883520133281667341407 -0.003037656890228391127345419775 0.000570237345527857542037963867 0 0 0 0 
2408500000.0000000000 0.192668274044990511795205634371 0.036443214863538742065429687500 -0.003005625214427710013148642432 0.000609254464507102966308593750 0 0 0 0 
2408666666.6666665077 0.192134857177734402755575615629 0.035727415233850479125976562500 -0.002895516343414783911464072119 0.000758973124902695417404174805 0 0 0 0 
2408833333.3333334923 0.191499441862106295486611884371 0.034941393882036209106445312500 -0.002685884712263942198512411963 0.000729172839783132076263427734 0 0 0 0 
2409000000.0000000000 0.190901741385459899902343750000 0.033933527767658226703684221093 -0.002652778755873442129847861182 0.000894320080988109111785888672 0 0 0 0 
2409166666.6666665077 0.190187677741050692459268134371 0.032932560890913009643554687500 -0.002704596146941184997558593750 0.000988670159131288528442382812 0 0 0 0 
2409333333.3333334923 0.189494639635086087325888115629 0.031901691108942031860351562500 -0.002698850585147738890406943213 0.000985063728876411914825439453 0 0 0 0 
2409500000.0000000000 0.188592523336410494705361884371 0.030468877404928210866907889454 -0.002529970603063703016993857275 0.000967233034316450357437133789 0 0 0 0 
2409666666.6666665077 0.187768563628196688553018134371 0.029217517003417018545130545704 -0.002528650686144828796386718750 0.001139510655775666020037006909 0 0 0 0 
2409833333.3333334923 0.186856448650360107421875000000 0.027651906013488769531250000000 -0.002454861067235469818115234375 0.001098242937587202028987265479 0 0 0 0 
2410000000.0000000000 0.186274170875549288650674384371 0.026147857308387759817103201954 -0.002355408621951938109156943213 0.000992589979432523250579833984 0 0 0 0 
2410166666.6666665077 0.185521945357322692871093750000 0.024259578436613079416295235546 -0.002414961578324437141418457031 0.001157412654720247008680034106 0 0 0 0 
2410333333.3333334923 0.184545338153839111328125000000 0.022563124075531959533691406250 -0.002328938804566860198974609375 0.001066405093297361893894814600 0 0 0 0 
2410500000.0000000000 0.183887138962745694259481865629 0.020754385739564899099329764454 -0.002271154429763555960414267432 0.001178560894913970990421914209 0 0 0 0 
2410666666.6666665077 0.183200612664222689529580634371 0.018544076010584831237792968750 -0.002404313068836926980259560693 0.001248853281140328104134584741 0 0 0 0 
2410833333.3333334923 0.182670205831527709960937500000 0.016559006646275520324707031250 -0.002311790594831109046936035156 0.001146305119618773894069052588 0 0 0 0 
2411000000.0000000000 0.182294726371765108963174384371 0.014436351135373120743721209180 -0.002393318107351661162135458838 0.001128869946114718914031982422 0 0 0 0 
2411166666.6666665077 0.181593343615531893631143134371 0.012526677921414380509346209180 -0.002439386909827589988708496094 0.001247657928615808920619345557 0 0 0 0 
2411333333.3333334923 0.181474521756172207931356865629 0.009912430308759212493896484375 -0.002339207334443926811218261719 0.001325672841630876064300537109 0 0 0 0 
2411500000.0000000000 0.181147739291191101074218750000 0.007854851894080638885498046875 -0.002383317798376082940342568506 0.001372600672766566059709858472 0 0 0 0 
2411666666.6666665077 0.181017279624938992599325615629 0.005626569036394357681274414062 -0.002449584659188985824584960938 0.001485327375121415095088339697 0 0 0 0 
2411833333.3333334923 0.180975958704948397537393134371 0.003550184657797216935398720850 -0.002483216347172855897190713037 0.001539904507808387062670063550 0 0 0 0 
2412000000.0000000000 0.181108683347701998611611884371 0.000913052237592637538909912109 -0.002264110837131739096400595557 0.001468361471779644922969199072 0 0 0 0 
2412166666.6666665077 0.181193381547927911956463731258 -0.001156990882009268023847270435 -0.002387402812018990950343466650 0.001727655413560569069506001050 0 0 0 0 
2412333333.3333334923 0.181623622775077792068643134371 -0.003427251009270548820495605469 -0.002492748433724046187159872900 0.001564384088851511912104941260 0 0 0 0 
2412500000.0000000000 0.181987404823303194900674384371 -0.005713853053748607635498046875 -0.002333862939849495887756347656 0.001775544835254549980163574219 0 0 0 0 
2412666666.6666665077 0.182448118925094604492187500000 -0.008118638768792152404785156250 -0.002260952955111860795262002100 0.001872471999377012035967182690 0 0 0 0 
2412833333.3333334923 0.183248981833458002288494981258 -0.010362039320170879364013671875 -0.002393954899162054061889648438 0.001980063272640109062194824219 0 0 0 0 
2413000000.0000000000 0.183934181928634588043536268742 -0.012494900263845920562744140625 -0.002336099045351148085353232275 0.002189551712945104079005576025 0 0 0 0 
2413166666.6666665077 0.184708133339881896972656250000 -0.014626168645918369293212890625 -0.002273833379149436950683593750 0.002201796742156147956848144531 0 0 0 0 
2413333333.3333334923 0.185623586177825899978799384371 -0.016640052199363708496093750000 -0.002325262408703566031215048682 0.002444467274472116990330361475 0 0 0 0 
2413500000.0000000000 0.186448931694030789474325615629 -0.018800018355250358581542968750 -0.002059280639514327049255371094 0.002637924859300256209132529150 0 0 0 0 
2413666666.6666665077 0.187609985470771789550781250000 -0.020836768671870231628417968750 -0.002264298964291810989379882812 0.002826263196766376929042197119 0 0 0 0 
2413833333.3333334923 0.188585326075553894042968750000 -0.022715192288160320627232735546 -0.002116316696628928184509277344 0.003012672765180468992946005713 0 0 0 0 
2414000000.0000000000 0.189636215567588806152343750000 -0.024698290973901748657226562500 -0.001907013240270317034480429541 0.003306970233097672896144247900 0 0 0 0 
2414166666.6666665077 0.190772265195846613128338731258 -0.026386022567749019968053048046 -0.001698390347883105061174702222 0.003463455243036150932312011719 0 0 0 0 
2414333333.3333334923 0.191623359918594388107138115629 -0.028158206492662429809570312500 -0.001516388379968703009961772388 0.003455241210758686065673828125 0 0 0 0 
2414500000.0000000000 0.192874729633331298828125000000 -0.029598498716950420034388358204 -0.001415576902218163013458251953 0.003614486427977681159973144531 0 0 0 0 
2414666666.6666665077 0.193821966648101806640625000000 -0.031095253303647041320800781250 -0.001192052732221781990648579175 0.003637307789176702933070517432 0 0 0 0 
2414833333.3333334923 0.194953426718711908538494981258 -0.032493911683559417724609375000 -0.000822510453872382640838623047 0.003685385687276721000671386719 0 0 0 0 
2415000000.0000000000 0.195910990238189697265625000000 -0.033650502562522888183593750000 -0.000682790181599557399749755859 0.003510625334456562995910644531 0 0 0 0 
2415166666.6666665077 0.196904063224792508224325615629 -0.034656252712011337280273437500 -0.000440037809312343597412109375 0.003561158897355198860168457031 0 0 0 0 
2415333333.3333334923 0.197850018739700289627236884371 -0.035791471600532531738281250000 -0.000259285880019888281822204590 0.003630757331848144964930868994 0 0 0 0 
2415500000.0000000000 0.198787853121757507324218750000 -0.036391541361808776855468750000 -0.000083582082879729568958282471 0.003578416071832180023193359375 0 0 0 0 
2415666666.6666665077 0.199633434414863586425781250000 -0.037473574280738830566406250000 -0.000036672721762442961335182190 0.003583014709874988035914755713 0 0 0 0 
2415833333.3333334923 0.200308442115783691406250000000 -0.038040034472942352294921875000 0.000055019554565660662274768217 0.003394775558263062997105263818 0 0 0 0 
2416000000.0000000000 0.200955912470817593673544365629 -0.038805693387985229492187500000 0.000319161335937678813934326172 0.003364247968420385880711220850 0 0 0 0 
2416166666.6666665077 0.201509848237037686446981865629 -0.039488602429628372192382812500 0.000362422113539650982052403583 0.003499209415167570114135742188 0 0 0 0 
2416333333.3333334923 0.202017024159431513030682481258 -0.039821837097406387329101562500 0.000420363532612100189358311786 0.003638176713138819174525595557 0 0 0 0 
2416500000.0000000000 0.202391728758812006194744981258 -0.040188308805227279663085937500 0.000757810601498931646347045898 0.003377350280061364173889160156 0 0 0 0 
2416666666.6666665077 0.202578663825988797286825615629 -0.040644761174917221069335937500 0.000822081929072737693786621094 0.003517746226862072944641113281 0 0 0 0 
2416833333.3333334923 0.202636644244194003006143134371 -0.040900580585002899169921875000 0.000967926345765590667724609375 0.003328881459310650825500488281 0 0 0 0 
2417000000.0000000000 0.202639862895011901855468750000 -0.041020680218935012817382812500 0.001181744970381259918212890625 0.003381962189450860023498535156 0 0 0 0 
2417166666.6666665077 0.202179640531539889236611884371 -0.041214749217033393169362653907 0.001255260431207716898677206885 0.003254599869251250787022256006 0 0 0 0 
2417333333.3333334923 0.201975673437118502517861884371 -0.041215106844902038574218750000 0.001643449068069458007812500000 0.003189366078004240989685058594 0 0 0 0 
2417500000.0000000000 0.201697617769241305252236884371 -0.041295792907476432109792341407 0.001811439055018126964569091797 0.003038370050489902930018759619 0 0 0 0 
2417666666.6666665077 0.201083451509475708007812500000 -0.041348479688167572021484375000 0.001800132449716330008265829932 0.002791178412735462188720703125 0 0 0 0 
2417833333.3333334923 0.200567558407783508300781250000 -0.041437685489654541015625000000 0.001949237077496946074842143481 0.002642109524458647207972861182 0 0 0 0 
2418000000.0000000000 0.200008407235145596603231865629 -0.041254635900259017944335937500 0.002021583728492259979248046875 0.002728609833866357803344726562 0 0 0 0 
2418166666.6666665077 0.199183955788612393478231865629 -0.041363358497619628906250000000 0.002073477720841764970066689600 0.002415196737274527983424521338 0 0 0 0 
2418333333.3333334923 0.198249161243438692947549384371 -0.041321672499179840087890625000 0.002054043114185332818272256006 0.002374141477048397064208984375 0 0 0 0 
2418500000.0000000000 0.197364345192909212967080634371 -0.041637338697910308837890625000 0.002105535240843892097473144531 0.002121664816513658003566122900 0 0 0 0 
2418666666.6666665077 0.196488097310066195388955634371 -0.041691243648529052734375000000 0.002056829864159225983860634912 0.002043613465502858161926269531 0 0 0 0 
2418833333.3333334923 0.195320874452590886871661268742 -0.042221087962388992309570312500 0.002178361173719168143031454932 0.001988994423300027847290039062 0 0 0 0 
2419000000.0000000000 0.194044902920722989181356865629 -0.042304653674364089965820312500 0.002081656828522682189941406250 0.001948070130310953097102499854 0 0 0 0 
2419166666.6666665077 0.192927107214927701095419365629 -0.042989537119865417480468750000 0.002163131721317768096923828125 0.001728702336549758911132812500 0 0 0 0 
2419333333.3333334923 0.191575855016708401779013115629 -0.043516695499420172954518903907 0.002170906635001302199122763525 0.001714386860840022997615195166 0 0 0 0 
2419500000.0000000000 0.190165027976036099532919365629 -0.044072184711694717407226562500 0.002300238003954290910008095850 0.001476438366807997009874653394 0 0 0 0 
2419666666.6666665077 0.188700795173644991775674384371 -0.045048639178276062011718750000 0.002236871980130672888514853369 0.001475516939535737037658691406 0 0 0 0 
2419833333.3333334923 0.187274366617202786544638115629 -0.045692630112171173095703125000 0.002345871180295944213867187500 0.001372576341964304013493203271 0 0 0 0 
