# Version 1.00
#
freq[Hz];re:Trc1_S11;im:Trc1_S11;re:Trc2_S21;im:Trc2_S21;
2.400000000000000E+009;1.586790680885315E-001;6.301878392696381E-002;-2.876254729926586E-003;-1.219913363456726E-003;
2.400166666666667E+009;1.587134599685669E-001;6.157126277685165E-002;-3.024321049451828E-003;-1.164206070825458E-003;
2.400333333333334E+009;1.584293097257614E-001;5.979639664292336E-002;-2.967052627354860E-003;-1.016544643789530E-003;
2.400500000000000E+009;1.584364324808121E-001;5.772007629275322E-002;-2.968304557725787E-003;-9.779273532330990E-004;
2.400666666666667E+009;1.582660377025604E-001;5.584802478551865E-002;-2.994410460814834E-003;-1.142321503721178E-003;
2.400833333333334E+009;1.583566665649414E-001;5.408227071166039E-002;-3.071280196309090E-003;-9.560834732837975E-004;
2.401000000000000E+009;1.585033684968948E-001;5.180563405156136E-002;-3.176350146532059E-003;-9.931037202477455E-004;
2.401166666666667E+009;1.585374772548676E-001;4.995552077889442E-002;-3.109980141744018E-003;-8.318226318806410E-004;
2.401333333333334E+009;1.587405502796173E-001;4.800934344530106E-002;-3.181972773745656E-003;-9.501271415501833E-004;
2.401500000000000E+009;1.591735780239105E-001;4.568719863891602E-002;-3.222569590434432E-003;-6.526914658024907E-004;
2.401666666666667E+009;1.593686044216156E-001;4.391417652368546E-002;-3.107548924162984E-003;-7.545760017819703E-004;
2.401833333333334E+009;1.596033275127411E-001;4.173921048641205E-002;-3.320694435387850E-003;-6.849693018011749E-004;
2.402000000000000E+009;1.597664803266525E-001;3.977196291089058E-002;-3.202014835551381E-003;-4.913781303912401E-004;
2.402166666666667E+009;1.604476720094681E-001;3.781337291002274E-002;-3.313836408779025E-003;-7.671844214200974E-004;
2.402333333333334E+009;1.609665602445602E-001;3.603373467922211E-002;-3.280319739133120E-003;-4.843896313104779E-004;
2.402500000000000E+009;1.616750359535217E-001;3.396668285131455E-002;-3.540999954566360E-003;-5.482382839545608E-004;
2.402666666666667E+009;1.622851639986038E-001;3.227376192808151E-002;-3.464634297415614E-003;-4.959898651577532E-004;
2.402833333333334E+009;1.629299223423004E-001;3.056466206908226E-002;-3.603687044233084E-003;-2.851854951586574E-004;
2.403000000000000E+009;1.637883633375168E-001;2.879089862108231E-002;-3.543595317751169E-003;-2.305106027051806E-004;
2.403166666666667E+009;1.646973043680191E-001;2.727847918868065E-002;-3.789377165958285E-003;-2.974099770653993E-004;
2.403333333333334E+009;1.654353737831116E-001;2.579125948250294E-002;-3.780007362365723E-003;-1.376237196382135E-004;
2.403500000000000E+009;1.662296801805496E-001;2.414315007627010E-002;-3.784026019275188E-003;2.983163722092286E-005;
2.403666666666667E+009;1.670855432748795E-001;2.267123386263847E-002;-3.889634739607573E-003;1.941071823239327E-004;
2.403833333333334E+009;1.683380901813507E-001;2.140422165393829E-002;-3.937869332730770E-003;2.623059554025531E-004;
2.404000000000000E+009;1.692896783351898E-001;2.018011547625065E-002;-3.989179152995348E-003;4.422651254571974E-004;
2.404166666666667E+009;1.701020598411560E-001;1.900275237858295E-002;-3.948338795453310E-003;5.383214447647333E-004;
2.404333333333334E+009;1.710904687643051E-001;1.782935671508312E-002;-3.942234907299280E-003;7.542662206105888E-004;
2.404500000000000E+009;1.718074828386307E-001;1.679929904639721E-002;-4.032853525131941E-003;9.972677798941732E-004;
2.404666666666667E+009;1.731214374303818E-001;1.582174934446812E-002;-4.158921539783478E-003;1.090675825253129E-003;
2.404833333333334E+009;1.737663894891739E-001;1.489925011992455E-002;-4.145638085901737E-003;1.355751766823232E-003;
2.405000000000000E+009;1.748043894767761E-001;1.411333680152893E-002;-4.017263650894165E-003;1.443607849068940E-003;
2.405166666666667E+009;1.757143735885620E-001;1.348894182592630E-002;-4.006118513643742E-003;1.660042791627348E-003;
2.405333333333334E+009;1.763902306556702E-001;1.266611367464066E-002;-3.919907845556736E-003;1.773313852027059E-003;
2.405500000000000E+009;1.772245764732361E-001;1.219014544039965E-002;-4.063989501446486E-003;2.015786478295922E-003;
2.405666666666667E+009;1.779499351978302E-001;1.175810303539038E-002;-3.805722109973431E-003;2.119730226695538E-003;
2.405833333333334E+009;1.785499453544617E-001;1.137609127908945E-002;-3.675182582810521E-003;2.250132150948048E-003;
2.406000000000000E+009;1.791702806949616E-001;1.059879269450903E-002;-3.579783719033003E-003;2.599160652607679E-003;
2.406166666666667E+009;1.796254068613052E-001;1.050702761858702E-002;-3.349440870806575E-003;2.671368187293410E-003;
2.406333333333334E+009;1.802330315113068E-001;1.006057020276785E-002;-3.398162312805653E-003;2.911312272772193E-003;
2.406500000000000E+009;1.805699616670609E-001;9.673881344497204E-003;-3.262395504862070E-003;2.864029491320252E-003;
2.406666666666667E+009;1.806430518627167E-001;9.315925650298595E-003;-3.070055507123470E-003;3.069099271669984E-003;
2.406833333333334E+009;1.811359673738480E-001;8.939118124544621E-003;-2.897561993449926E-003;3.119435859844089E-003;
2.407000000000000E+009;1.811721771955490E-001;8.565284311771393E-003;-2.904981607571244E-003;3.182314103469253E-003;
2.407166666666667E+009;1.813714504241943E-001;8.396422490477562E-003;-2.535037463530898E-003;3.347179619595408E-003;
2.407333333333334E+009;1.811798512935638E-001;7.832743227481842E-003;-2.541935304179788E-003;3.576166927814484E-003;
2.407500000000000E+009;1.811851263046265E-001;7.513748481869698E-003;-2.446859143674374E-003;3.516597906127572E-003;
2.407666666666667E+009;1.809564977884293E-001;7.016499992460012E-003;-2.346502849832177E-003;3.481695661321282E-003;
2.407833333333334E+009;1.805659383535385E-001;6.395326927304268E-003;-2.157454378902912E-003;3.586692735552788E-003;
2.408000000000000E+009;1.802241802215576E-001;5.815890152007341E-003;-2.131172223016620E-003;3.701493842527270E-003;
2.408166666666667E+009;1.798492521047592E-001;5.300968885421753E-003;-1.752345706336200E-003;3.548648674041033E-003;
2.408333333333334E+009;1.795003861188889E-001;4.594804719090462E-003;-1.763099920935929E-003;3.583619836717844E-003;
2.408500000000000E+009;1.790103912353516E-001;3.725902410224080E-003;-1.539278309792280E-003;3.455284982919693E-003;
2.408666666666667E+009;1.784099042415619E-001;2.800041576847434E-003;-1.373691833578050E-003;3.730685682967305E-003;
2.408833333333334E+009;1.777060329914093E-001;1.972836675122380E-003;-1.280831056647003E-003;3.618738381192088E-003;
2.409000000000000E+009;1.769406348466873E-001;9.503789478912950E-004;-1.254718168638647E-003;3.825704101473093E-003;
2.409166666666667E+009;1.764996796846390E-001;3.216723416699097E-005;-1.015625311993063E-003;3.659005975350738E-003;
2.409333333333334E+009;1.758807450532913E-001;-1.357743982225657E-003;-9.672056767158210E-004;3.786599729210138E-003;
2.409500000000000E+009;1.750702857971191E-001;-2.589124487712979E-003;-9.001099388115108E-004;3.701639361679554E-003;
2.409666666666667E+009;1.742521077394486E-001;-3.944794181734324E-003;-7.108835270628333E-004;3.615548834204674E-003;
2.409833333333334E+009;1.735105812549591E-001;-5.318467039614916E-003;-7.389029487967491E-004;3.688736585900188E-003;
2.410000000000000E+009;1.730083376169205E-001;-6.693115923553705E-003;-5.961650167591870E-004;3.733358578756452E-003;
2.410166666666667E+009;1.725303083658218E-001;-8.239297196269035E-003;-3.104710485786200E-004;3.675257321447134E-003;
2.410333333333334E+009;1.716156154870987E-001;-9.768046438694000E-003;-2.263167261844501E-004;3.618639660999179E-003;
2.410500000000000E+009;1.711133271455765E-001;-1.150436140596867E-002;-2.489611688361038E-005;3.667748300358653E-003;
2.410666666666667E+009;1.705684661865234E-001;-1.317370310425758E-002;-6.536669388879091E-005;3.678707405924797E-003;
2.410833333333334E+009;1.699288338422775E-001;-1.494705490767956E-002;-1.110465454985388E-004;3.630277467891574E-003;
2.411000000000000E+009;1.696452498435974E-001;-1.665888912975788E-002;1.515252661192790E-004;3.582769772037864E-003;
2.411166666666667E+009;1.691757440567017E-001;-1.872906461358070E-002;4.038772603962570E-004;3.635116619989276E-003;
2.411333333333334E+009;1.688850820064545E-001;-2.042588591575623E-002;4.711656365543604E-004;3.693653969094157E-003;
2.411500000000000E+009;1.685257256031036E-001;-2.247109264135361E-002;5.692261620424688E-004;3.571563167497516E-003;
2.411666666666667E+009;1.685437709093094E-001;-2.432377822697163E-002;6.148974644020200E-004;3.685949603095651E-003;
2.411833333333334E+009;1.684218794107437E-001;-2.615921758115292E-002;6.633337470702827E-004;3.472349839285016E-003;
2.412000000000000E+009;1.682659983634949E-001;-2.816221304237843E-002;7.818649173714221E-004;3.484707325696945E-003;
2.412166666666667E+009;1.683584600687027E-001;-3.020670637488365E-002;1.020640484057367E-003;3.443664638325572E-003;
2.412333333333334E+009;1.684647798538208E-001;-3.193413838744164E-002;9.233316523022950E-004;3.451730590313673E-003;
2.412500000000000E+009;1.683758944272995E-001;-3.375222906470299E-002;1.057481742464006E-003;3.363827476277947E-003;
2.412666666666667E+009;1.688049286603928E-001;-3.566559776663780E-002;1.239831908605993E-003;3.333690576255322E-003;
2.412833333333334E+009;1.692140549421310E-001;-3.763208910822868E-002;1.478476333431900E-003;3.464875044301152E-003;
2.413000000000000E+009;1.694580465555191E-001;-3.930703550577164E-002;1.669800374656916E-003;3.245271975174546E-003;
2.413166666666667E+009;1.696683317422867E-001;-4.123034328222275E-002;1.738803694024682E-003;3.417766187340021E-003;
2.413333333333334E+009;1.700389832258225E-001;-4.274823516607285E-002;1.833410002291203E-003;3.069111146032810E-003;
2.413500000000000E+009;1.706741601228714E-001;-4.432317242026329E-002;1.891500898636878E-003;3.125638701021671E-003;
2.413666666666667E+009;1.711565256118774E-001;-4.608976840972900E-002;2.159676514565945E-003;3.023307304829359E-003;
2.413833333333334E+009;1.716122776269913E-001;-4.756266623735428E-002;2.173643559217453E-003;2.931384602561593E-003;
2.414000000000000E+009;1.720097661018372E-001;-4.894986376166344E-002;2.292271936312318E-003;2.738947980105877E-003;
2.414166666666667E+009;1.726185232400894E-001;-5.016764625906944E-002;2.589254174381495E-003;2.791608218103647E-003;
2.414333333333334E+009;1.731958687305450E-001;-5.155846849083901E-002;2.714692149311304E-003;2.606985392048955E-003;
2.414500000000000E+009;1.739870756864548E-001;-5.253996700048447E-002;2.793244319036603E-003;2.371782436966896E-003;
2.414666666666667E+009;1.742754727602005E-001;-5.382703989744186E-002;2.969721797853708E-003;2.379404380917549E-003;
2.414833333333334E+009;1.747610569000244E-001;-5.473478138446808E-002;2.849734621122479E-003;2.199432114139199E-003;
2.415000000000000E+009;1.751917898654938E-001;-5.559336766600609E-002;3.044489538297057E-003;1.937455614097416E-003;
2.415166666666667E+009;1.756254136562347E-001;-5.641818791627884E-002;3.055571578443050E-003;1.787942368537188E-003;
2.415333333333334E+009;1.761807203292847E-001;-5.734856054186821E-002;3.309134393930435E-003;1.595831708982587E-003;
2.415500000000000E+009;1.763303577899933E-001;-5.793988332152367E-002;3.083050251007080E-003;1.440260326489806E-003;
2.415666666666667E+009;1.767165064811707E-001;-5.836560577154160E-002;3.103705123066902E-003;1.226515043526888E-003;
2.415833333333334E+009;1.770674884319305E-001;-5.902165547013283E-002;3.220811020582914E-003;9.557941230013967E-004;
2.416000000000000E+009;1.771205663681030E-001;-5.957905948162079E-002;3.143537556752563E-003;9.001989965327084E-004;
2.416166666666667E+009;1.773819476366043E-001;-5.994793400168419E-002;3.081493778154254E-003;6.918464205227792E-004;
2.416333333333334E+009;1.772987693548203E-001;-6.026561930775642E-002;3.025719197466970E-003;6.367230671457946E-004;
2.416500000000000E+009;1.772447079420090E-001;-6.051978841423988E-002;3.114878665655851E-003;3.332696505822241E-004;
2.416666666666667E+009;1.772307604551315E-001;-6.087436154484749E-002;3.060476388782263E-003;2.417144860373810E-004;
2.416833333333334E+009;1.771427094936371E-001;-6.127858906984329E-002;2.746870042756200E-003;5.386108387028799E-005;
2.417000000000000E+009;1.766197383403778E-001;-6.149909645318985E-002;2.857718849554658E-003;-1.326320925727487E-004;
2.417166666666667E+009;1.761280596256256E-001;-6.165096163749695E-002;2.742383396252990E-003;-1.542236714158207E-004;
2.417333333333334E+009;1.757915169000626E-001;-6.180335581302643E-002;2.675752621144056E-003;-4.220024566166103E-004;
2.417500000000000E+009;1.751682609319687E-001;-6.217006966471672E-002;2.487536985427141E-003;-3.671059384942055E-004;
2.417666666666667E+009;1.746131926774979E-001;-6.229714676737785E-002;2.448799787089229E-003;-5.470735486596823E-004;
2.417833333333334E+009;1.737885177135468E-001;-6.248413771390915E-002;2.239353954792023E-003;-4.609152965713292E-004;
2.418000000000000E+009;1.729104369878769E-001;-6.300395727157593E-002;2.061149571090937E-003;-6.116424337960780E-004;
2.418166666666667E+009;1.720729172229767E-001;-6.312169134616852E-002;2.124875318259001E-003;-7.452967111021280E-004;
2.418333333333334E+009;1.713690757751465E-001;-6.364940851926804E-002;1.866458915174007E-003;-6.881360895931721E-004;
2.418500000000000E+009;1.703275740146637E-001;-6.401822715997696E-002;1.929677324369550E-003;-6.255199550651014E-004;
2.418666666666667E+009;1.694232523441315E-001;-6.437297165393829E-002;1.856659422628582E-003;-6.669941940344870E-004;
2.418833333333334E+009;1.681135743856430E-001;-6.490860879421234E-002;1.710286946035922E-003;-7.315861876122654E-004;
2.419000000000000E+009;1.669360250234604E-001;-6.559231877326965E-002;1.612547668628395E-003;-7.234813529066742E-004;
2.419166666666667E+009;1.658690571784973E-001;-6.615287810564041E-002;1.724094385281205E-003;-7.062411168590188E-004;
2.419333333333334E+009;1.646120250225067E-001;-6.670502573251724E-002;1.464826986193657E-003;-6.738128140568733E-004;
2.419500000000000E+009;1.635690033435822E-001;-6.746841222047806E-002;1.438540522940457E-003;-7.344129844568670E-004;
2.419666666666667E+009;1.623871475458145E-001;-6.860560923814774E-002;1.484377426095307E-003;-6.079930462874472E-004;
2.419833333333334E+009;1.610763221979141E-001;-6.946195662021637E-002;1.391753321513534E-003;-6.398709956556559E-004;
2.420000000000000E+009;1.600452810525894E-001;-7.036879658699036E-002;1.390903489664197E-003;-5.613696412183344E-004;
2.420166666666667E+009;1.588044166564941E-001;-7.137138396501541E-002;1.326636062003672E-003;-6.050986703485251E-004;
2.420333333333334E+009;1.580011695623398E-001;-7.253047078847885E-002;1.266311854124069E-003;-5.482732085511088E-004;
2.420500000000000E+009;1.569319814443588E-001;-7.384210079908371E-002;1.200126833282411E-003;-5.834389012306929E-004;
2.420666666666667E+009;1.557756364345551E-001;-7.499954849481583E-002;1.079436973668635E-003;-6.497832946479321E-004;
2.420833333333334E+009;1.549430489540100E-001;-7.641654461622238E-002;1.034313230775297E-003;-6.823361036367714E-004;
2.421000000000000E+009;1.540529131889343E-001;-7.787902653217316E-002;1.137648243457079E-003;-5.804838729090989E-004;
2.421166666666667E+009;1.533152908086777E-001;-7.942631840705872E-002;1.149298390373588E-003;-5.179521976970136E-004;
2.421333333333334E+009;1.526617854833603E-001;-8.073475211858749E-002;1.055385335348547E-003;-6.158788455650210E-004;
2.421500000000000E+009;1.518944203853607E-001;-8.247020840644836E-002;1.163254608400166E-003;-4.258110711816698E-004;
2.421666666666667E+009;1.513136178255081E-001;-8.409775793552399E-002;1.259063021279872E-003;-5.968019831925631E-004;
2.421833333333334E+009;1.509730964899063E-001;-8.565972000360489E-002;1.137314247898758E-003;-5.593656096607447E-004;
2.422000000000000E+009;1.504830420017242E-001;-8.734785765409470E-002;1.114486716687679E-003;-6.221113726496697E-004;
2.422166666666667E+009;1.501216739416122E-001;-8.910540491342545E-002;1.098925247788429E-003;-4.941588849760592E-004;
2.422333333333334E+009;1.500217318534851E-001;-9.064426273107529E-002;8.761501521803439E-004;-5.369642167352140E-004;
2.422500000000000E+009;1.497448384761810E-001;-9.234619140625000E-002;1.021650270558894E-003;-5.646242643706501E-004;
2.422666666666667E+009;1.496738344430924E-001;-9.417132288217545E-002;9.754787897691131E-004;-6.147873355075717E-004;
2.422833333333334E+009;1.496477276086807E-001;-9.590537846088409E-002;1.034986809827387E-003;-6.501281168311834E-004;
2.423000000000000E+009;1.496042758226395E-001;-9.753802418708801E-002;9.961919859051704E-004;-7.157673244364560E-004;
2.423166666666667E+009;1.499231159687042E-001;-9.925991296768189E-002;1.058550085872412E-003;-5.902675329707563E-004;
2.423333333333334E+009;1.502257585525513E-001;-1.006474271416664E-001;9.110553655773401E-004;-7.118202629499137E-004;
2.423500000000000E+009;1.503419578075409E-001;-1.023367345333099E-001;1.120194676332176E-003;-7.199600804597139E-004;
2.423666666666667E+009;1.506101489067078E-001;-1.039303243160248E-001;1.005860976874828E-003;-8.526574820280075E-004;
2.423833333333334E+009;1.510396897792816E-001;-1.054126471281052E-001;9.659745846875012E-004;-7.589311571791768E-004;
2.424000000000000E+009;1.514322906732559E-001;-1.066268235445023E-001;9.347659070044756E-004;-7.548049325123429E-004;
2.424166666666667E+009;1.517435759305954E-001;-1.081194505095482E-001;8.174341637641192E-004;-7.083765231072903E-004;
2.424333333333334E+009;1.523337811231613E-001;-1.093362346291542E-001;1.033457927405834E-003;-7.317122654058039E-004;
2.424500000000000E+009;1.526911109685898E-001;-1.105065345764160E-001;7.191963377408683E-004;-8.199618314392865E-004;
2.424666666666667E+009;1.533464193344116E-001;-1.113813668489456E-001;7.559465593658388E-004;-7.875763112679124E-004;
2.424833333333334E+009;1.536305248737335E-001;-1.125923320651054E-001;7.452373392879963E-004;-9.294650517404079E-004;
2.425000000000000E+009;1.540841758251190E-001;-1.136659160256386E-001;8.437727810814977E-004;-9.587389649823308E-004;
2.425166666666667E+009;1.543406099081039E-001;-1.143123954534531E-001;7.922549266368151E-004;-9.081272291950882E-004;
2.425333333333334E+009;1.547988355159760E-001;-1.152775660157204E-001;6.385015440173447E-004;-9.627551189623773E-004;
2.425500000000000E+009;1.552475988864899E-001;-1.160623282194138E-001;7.448391406796873E-004;-7.171135512180626E-004;
2.425666666666667E+009;1.554930806159973E-001;-1.165650188922882E-001;6.268551223911345E-004;-8.031463949009776E-004;
2.425833333333334E+009;1.557656228542328E-001;-1.171885579824448E-001;5.930855986662209E-004;-7.876574527472258E-004;
2.426000000000000E+009;1.558772921562195E-001;-1.176618561148644E-001;6.023020832799375E-004;-8.558384724892676E-004;
2.426166666666667E+009;1.562216579914093E-001;-1.181429475545883E-001;4.555008490569890E-004;-8.921438129618764E-004;
2.426333333333334E+009;1.561699956655502E-001;-1.185013800859451E-001;5.498668178915978E-004;-9.911821689456701E-004;
2.426500000000000E+009;1.562738120555878E-001;-1.187481433153153E-001;3.866781480610371E-004;-8.123085135594010E-004;
2.426666666666667E+009;1.563127189874649E-001;-1.188577786087990E-001;4.500568320509046E-004;-8.723570499569178E-004;
2.426833333333334E+009;1.560737341642380E-001;-1.190631613135338E-001;4.089182475581765E-004;-7.804447668604553E-004;
2.427000000000000E+009;1.557508409023285E-001;-1.192804723978043E-001;3.832301008515060E-004;-8.071732008829713E-004;
2.427166666666667E+009;1.554214656352997E-001;-1.193301156163216E-001;3.605824022088200E-004;-7.459176704287529E-004;
2.427333333333334E+009;1.549111306667328E-001;-1.193851083517075E-001;2.219706220785156E-004;-6.245928816497326E-004;
2.427500000000000E+009;1.544534564018250E-001;-1.194594576954842E-001;2.833740727510303E-004;-6.116601289249957E-004;
2.427666666666667E+009;1.539271473884583E-001;-1.196257919073105E-001;3.660188231151551E-004;-5.969387129880488E-004;
2.427833333333334E+009;1.530998349189758E-001;-1.196534782648087E-001;2.687453234102577E-004;-4.404402861837298E-004;
