# Version 1.00
#
freq[Hz];re:Trc1_S11;im:Trc1_S11;re:Trc2_S21;im:Trc2_S21;
2.400000000000000E+009;1.587581187486649E-001;6.312818825244904E-002;-2.613172400742769E-003;-1.075207255780697E-003;
2.400166666666667E+009;1.586779803037643E-001;6.171682849526405E-002;-2.845727838575840E-003;-1.178540056571364E-003;
2.400333333333334E+009;1.584936678409576E-001;5.980626493692398E-002;-2.835280261933804E-003;-1.096120686270297E-003;
2.400500000000000E+009;1.584187299013138E-001;5.793410912156105E-002;-2.690681256353855E-003;-9.177807369269431E-004;
2.400666666666667E+009;1.584311723709106E-001;5.597365647554398E-002;-2.990017645061016E-003;-1.186917303130031E-003;
2.400833333333334E+009;1.583883017301559E-001;5.419562757015228E-002;-2.696498995646834E-003;-1.115614781156182E-003;
2.401000000000000E+009;1.583883166313171E-001;5.212575197219849E-002;-2.823980059474707E-003;-1.084218034520745E-003;
2.401166666666667E+009;1.586198061704636E-001;5.000362917780876E-002;-2.914183074608445E-003;-8.908994495868683E-004;
2.401333333333334E+009;1.584476083517075E-001;4.800051078200340E-002;-2.931125694885850E-003;-9.791866177693009E-004;
2.401500000000000E+009;1.589332222938538E-001;4.599108919501305E-002;-3.063380252569914E-003;-9.614492882974446E-004;
2.401666666666667E+009;1.592814028263092E-001;4.394334927201271E-002;-2.962880069389939E-003;-8.886340656317771E-004;
2.401833333333334E+009;1.595814377069473E-001;4.192665591835976E-002;-3.015243448317051E-003;-9.096466819755733E-004;
2.402000000000000E+009;1.598876863718033E-001;3.995307162404060E-002;-3.013428999111056E-003;-7.474719313904643E-004;
2.402166666666667E+009;1.605473905801773E-001;3.787666186690331E-002;-3.163859248161316E-003;-6.547089433297515E-004;
2.402333333333334E+009;1.608799844980240E-001;3.588826954364777E-002;-3.268609289079905E-003;-7.443241775035858E-004;
2.402500000000000E+009;1.616642475128174E-001;3.410593047738075E-002;-3.317912109196186E-003;-4.903986700810492E-004;
2.402666666666667E+009;1.622710078954697E-001;3.225127980113030E-002;-3.375157713890076E-003;-6.482140743173659E-004;
2.402833333333334E+009;1.629935950040817E-001;3.048621863126755E-002;-3.436411032453179E-003;-5.719846813008189E-004;
2.403000000000000E+009;1.637154370546341E-001;2.876550704240799E-002;-3.376582870259881E-003;-4.170564643573016E-004;
2.403166666666667E+009;1.645757257938385E-001;2.729100175201893E-002;-3.517331322655082E-003;-3.668848366942257E-004;
2.403333333333334E+009;1.656722575426102E-001;2.577576041221619E-002;-3.695077495649457E-003;-2.513120125513524E-004;
2.403500000000000E+009;1.662334054708481E-001;2.418554015457630E-002;-3.695451654493809E-003;-1.081860755220987E-004;
2.403666666666667E+009;1.672845631837845E-001;2.251366339623928E-002;-3.782786428928375E-003;9.742940892465413E-005;
2.403833333333334E+009;1.683407127857208E-001;2.131593786180019E-002;-3.958785440772772E-003;2.457169757690281E-004;
2.404000000000000E+009;1.693046689033508E-001;2.000310458242893E-002;-4.035601392388344E-003;2.364941756241024E-004;
2.404166666666667E+009;1.703252792358398E-001;1.884924434125423E-002;-4.077846650034189E-003;4.323912726249546E-004;
2.404333333333334E+009;1.710696816444397E-001;1.779989898204804E-002;-3.993070684373379E-003;5.712230340577662E-004;
2.404500000000000E+009;1.719353646039963E-001;1.667863875627518E-002;-4.135431721806526E-003;8.395686163567007E-004;
2.404666666666667E+009;1.729458123445511E-001;1.576714403927326E-002;-3.915966022759676E-003;1.006190315820277E-003;
2.404833333333334E+009;1.739094555377960E-001;1.492300629615784E-002;-3.970440477132797E-003;1.284527010284364E-003;
2.405000000000000E+009;1.747243106365204E-001;1.409245841205120E-002;-3.961972892284393E-003;1.441545784473419E-003;
2.405166666666667E+009;1.756350696086884E-001;1.339133456349373E-002;-3.995853010565043E-003;1.573158777318895E-003;
2.405333333333334E+009;1.766297072172165E-001;1.271484699100256E-002;-3.820940386503935E-003;1.717207487672567E-003;
2.405500000000000E+009;1.772120594978333E-001;1.223027147352696E-002;-3.838059725239873E-003;1.947148237377405E-003;
2.405666666666667E+009;1.778812855482101E-001;1.158891618251801E-002;-3.708221949636936E-003;2.185435965657234E-003;
2.405833333333334E+009;1.785034090280533E-001;1.131958886981010E-002;-3.537465119734407E-003;2.141028176993132E-003;
2.406000000000000E+009;1.792962998151779E-001;1.060275360941887E-002;-3.432624274864793E-003;2.224906114861369E-003;
2.406166666666667E+009;1.796104013919830E-001;1.039872877299786E-002;-3.437640378251672E-003;2.676645061001182E-003;
2.406333333333334E+009;1.801225841045380E-001;1.012786664068699E-002;-3.230934496968985E-003;2.741449046880007E-003;
2.406500000000000E+009;1.804929822683334E-001;9.780406951904297E-003;-3.129787277430296E-003;2.924987347796559E-003;
2.406666666666667E+009;1.806964278221130E-001;9.444043971598148E-003;-3.017593408003449E-003;2.971954178065062E-003;
2.406833333333334E+009;1.808439344167709E-001;9.088674560189247E-003;-2.888752613216639E-003;3.077974077314138E-003;
2.407000000000000E+009;1.810721307992935E-001;8.509740233421326E-003;-2.690326888114214E-003;3.061828901991248E-003;
2.407166666666667E+009;1.812244057655335E-001;8.296139538288117E-003;-2.589733805507422E-003;3.182906191796064E-003;
2.407333333333334E+009;1.811170279979706E-001;7.927816361188889E-003;-2.308091148734093E-003;3.265369916334748E-003;
2.407500000000000E+009;1.809318214654923E-001;7.533121854066849E-003;-2.280065091326833E-003;3.325740573927760E-003;
2.407666666666667E+009;1.808874905109406E-001;7.061482872813940E-003;-2.212285529822111E-003;3.349188715219498E-003;
2.407833333333334E+009;1.804004907608032E-001;6.533435080200434E-003;-1.936026383191347E-003;3.381567308679223E-003;
2.408000000000000E+009;1.801842153072357E-001;5.900809075683355E-003;-1.884426106698811E-003;3.408471355214715E-003;
2.408166666666667E+009;1.796446293592453E-001;5.466361064463854E-003;-1.818500109948218E-003;3.448719857260585E-003;
2.408333333333334E+009;1.795462965965271E-001;4.749753978103399E-003;-1.633705804124475E-003;3.308476647362113E-003;
2.408500000000000E+009;1.789382994174957E-001;3.829928115010262E-003;-1.412475015968084E-003;3.441614564508200E-003;
2.408666666666667E+009;1.783697903156281E-001;3.049973165616393E-003;-1.403655740432441E-003;3.528152126818895E-003;
2.408833333333334E+009;1.776541620492935E-001;2.125951228663325E-003;-1.192586729303002E-003;3.469285322353244E-003;
2.409000000000000E+009;1.770566403865814E-001;1.068591605871916E-003;-1.159705803729594E-003;3.483342705294490E-003;
2.409166666666667E+009;1.764153689146042E-001;-7.007255044300109E-005;-1.095209037885070E-003;3.560314886271954E-003;
2.409333333333334E+009;1.758311539888382E-001;-1.227885368280113E-003;-8.656749268993735E-004;3.519887570291758E-003;
2.409500000000000E+009;1.750937104225159E-001;-2.565680071711540E-003;-8.610770455561578E-004;3.598187351599336E-003;
2.409666666666667E+009;1.743476986885071E-001;-3.878463990986347E-003;-8.087913156487048E-004;3.453033510595560E-003;
2.409833333333334E+009;1.735484600067139E-001;-5.116699729114771E-003;-6.718747899867594E-004;3.434506943449378E-003;
2.410000000000000E+009;1.729005128145218E-001;-6.595749408006668E-003;-5.196248530410230E-004;3.425573231652379E-003;
2.410166666666667E+009;1.723202019929886E-001;-8.105393499135971E-003;-3.232340677641332E-004;3.469244111329317E-003;
2.410333333333334E+009;1.716801673173904E-001;-9.708723053336144E-003;-3.017195267602801E-004;3.529046662151814E-003;
2.410500000000000E+009;1.711475253105164E-001;-1.136941090226173E-002;-1.995390048250556E-004;3.645950928330421E-003;
2.410666666666667E+009;1.705853939056397E-001;-1.328523270785809E-002;-3.455925980233587E-005;3.478867234662175E-003;
2.410833333333334E+009;1.699386537075043E-001;-1.475269999355078E-002;8.619412255939096E-005;3.514657728374004E-003;
2.411000000000000E+009;1.694683134555817E-001;-1.660563610494137E-002;-2.773159030766692E-005;3.570753382518888E-003;
2.411166666666667E+009;1.692065000534058E-001;-1.847581006586552E-002;2.535935491323471E-004;3.407679963856936E-003;
2.411333333333334E+009;1.688707470893860E-001;-2.032010816037655E-002;2.988447376992554E-004;3.516461700201035E-003;
2.411500000000000E+009;1.684801578521729E-001;-2.248515374958515E-002;4.530860751401633E-004;3.576765768229961E-003;
2.411666666666667E+009;1.684208363294601E-001;-2.427170239388943E-002;3.902573080267757E-004;3.400372806936503E-003;
2.411833333333334E+009;1.682742387056351E-001;-2.610184065997601E-002;6.002832669764757E-004;3.478845115751028E-003;
2.412000000000000E+009;1.682603359222412E-001;-2.813800424337387E-002;6.181154749356210E-004;3.391588572412729E-003;
2.412166666666667E+009;1.680824309587479E-001;-3.003478609025478E-002;8.835362386889756E-004;3.438445040956140E-003;
2.412333333333334E+009;1.686441451311112E-001;-3.195768967270851E-002;9.657030459493399E-004;3.319393377751112E-003;
2.412500000000000E+009;1.685951203107834E-001;-3.379230946302414E-002;1.059553585946560E-003;3.455036552622914E-003;
2.412666666666667E+009;1.687892079353333E-001;-3.565127030014992E-002;1.039666472934187E-003;3.335079643875361E-003;
2.412833333333334E+009;1.692258417606354E-001;-3.758117556571960E-002;1.276928116567433E-003;3.257776144891977E-003;
2.413000000000000E+009;1.694503873586655E-001;-3.926058858633041E-002;1.494245603680611E-003;3.178437007591128E-003;
2.413166666666667E+009;1.697636246681213E-001;-4.106588661670685E-002;1.505517866462469E-003;3.314647590741515E-003;
2.413333333333334E+009;1.699341684579849E-001;-4.272039979696274E-002;1.632692059502006E-003;3.297551767900586E-003;
2.413500000000000E+009;1.705056428909302E-001;-4.429227113723755E-002;1.812050351873040E-003;3.177897538989782E-003;
2.413666666666667E+009;1.711114794015884E-001;-4.610895365476608E-002;1.998211024329066E-003;3.103258786723018E-003;
2.413833333333334E+009;1.714997887611389E-001;-4.742259532213211E-002;2.073734533041716E-003;3.087872639298439E-003;
2.414000000000000E+009;1.718197911977768E-001;-4.894199967384338E-002;2.202327828854322E-003;2.706943778321147E-003;
2.414166666666667E+009;1.726785153150559E-001;-5.021202936768532E-002;2.606955124065280E-003;2.792099490761757E-003;
2.414333333333334E+009;1.731127947568893E-001;-5.140613764524460E-002;2.331802388653159E-003;2.577471779659390E-003;
2.414500000000000E+009;1.738304197788239E-001;-5.261106416583061E-002;2.650035545229912E-003;2.416344592347741E-003;
2.414666666666667E+009;1.741673350334168E-001;-5.362851545214653E-002;2.630657283589244E-003;2.344752196222544E-003;
2.414833333333334E+009;1.747236847877502E-001;-5.479652807116509E-002;2.819262910634279E-003;2.087987959384918E-003;
2.415000000000000E+009;1.751295626163483E-001;-5.542212724685669E-002;2.761754207313061E-003;2.052055904641748E-003;
2.415166666666667E+009;1.756520867347717E-001;-5.643482133746147E-002;2.976133255288005E-003;1.924586598761380E-003;
2.415333333333334E+009;1.761780828237534E-001;-5.725288763642311E-002;3.135954961180687E-003;1.646029180847108E-003;
2.415500000000000E+009;1.763888597488403E-001;-5.783744901418686E-002;2.966944361105561E-003;1.506884233094752E-003;
2.415666666666667E+009;1.766780316829681E-001;-5.832302197813988E-002;3.158132312819362E-003;1.489513902924955E-003;
2.415833333333334E+009;1.771215200424194E-001;-5.887591093778610E-002;3.124377224594355E-003;1.254608388990164E-003;
2.416000000000000E+009;1.771437674760819E-001;-5.941672995686531E-002;3.040962154045701E-003;9.467321215197444E-004;
2.416166666666667E+009;1.774060726165772E-001;-5.978881195187569E-002;3.043146571144462E-003;9.156495216302574E-004;
2.416333333333334E+009;1.773202717304230E-001;-6.018111482262611E-002;3.016631118953228E-003;8.344010566361249E-004;
2.416500000000000E+009;1.773364990949631E-001;-6.043228134512901E-002;3.037582151591778E-003;4.800888127647340E-004;
2.416666666666667E+009;1.771768033504486E-001;-6.070313975214958E-002;2.997385803610086E-003;3.339278919156641E-004;
2.416833333333334E+009;1.769871860742569E-001;-6.113936379551888E-002;2.919199876487255E-003;2.518827095627785E-004;
2.417000000000000E+009;1.766692101955414E-001;-6.132823973894119E-002;2.749441890046001E-003;6.140312325442210E-005;
2.417166666666667E+009;1.762371361255646E-001;-6.150195747613907E-002;2.715046750381589E-003;4.134094069740968E-006;
2.417333333333334E+009;1.757998317480087E-001;-6.171784922480583E-002;2.695792121812701E-003;-1.019568844640162E-005;
2.417500000000000E+009;1.750905662775040E-001;-6.212970614433289E-002;2.494505373761058E-003;-2.545154420658946E-004;
2.417666666666667E+009;1.746287941932678E-001;-6.217914819717407E-002;2.433900954201818E-003;-3.581079654395580E-004;
2.417833333333334E+009;1.738567799329758E-001;-6.251695007085800E-002;2.342489082366228E-003;-4.450764390639961E-004;
2.418000000000000E+009;1.730341315269470E-001;-6.294894218444824E-002;2.172513166442514E-003;-3.668119607027620E-004;
2.418166666666667E+009;1.720891445875168E-001;-6.312722712755203E-002;2.154426416382194E-003;-3.870599612127990E-004;
2.418333333333334E+009;1.714482754468918E-001;-6.350262463092804E-002;2.087194938212633E-003;-4.333168617449701E-004;
2.418500000000000E+009;1.702001541852951E-001;-6.385788321495056E-002;1.981712412089109E-003;-5.802012165077031E-004;
2.418666666666667E+009;1.692826896905899E-001;-6.443805992603302E-002;1.876377384178340E-003;-5.948078469373286E-004;
2.418833333333334E+009;1.681300550699234E-001;-6.498394906520844E-002;1.834783004596829E-003;-6.048959330655634E-004;
2.419000000000000E+009;1.669403910636902E-001;-6.532973051071167E-002;1.811770256608725E-003;-4.562122339848429E-004;
2.419166666666667E+009;1.658616065979004E-001;-6.605786830186844E-002;1.607496873475611E-003;-4.730005748569965E-004;
2.419333333333334E+009;1.646583527326584E-001;-6.658323854207993E-002;1.723098335787654E-003;-5.252795526757836E-004;
2.419500000000000E+009;1.634147018194199E-001;-6.765127927064896E-002;1.483125495724380E-003;-5.623264587484300E-004;
2.419666666666667E+009;1.623805165290833E-001;-6.851086765527725E-002;1.460251864045858E-003;-5.212951218709350E-004;
2.419833333333334E+009;1.609970629215241E-001;-6.926770508289337E-002;1.313327928073704E-003;-5.940688424743712E-004;
2.420000000000000E+009;1.600157022476196E-001;-7.023346424102783E-002;1.365778385661542E-003;-3.940606839023531E-004;
2.420166666666667E+009;1.588553041219711E-001;-7.131948322057724E-002;1.331314328126609E-003;-4.446934617590159E-004;
2.420333333333334E+009;1.579249501228333E-001;-7.253456860780716E-002;1.405772054567933E-003;-4.230935592204332E-004;
2.420500000000000E+009;1.568931788206101E-001;-7.358482480049133E-002;1.251733978278935E-003;-4.645019071176648E-004;
2.420666666666667E+009;1.557386517524719E-001;-7.485390454530716E-002;1.320590847171843E-003;-3.530226531438530E-004;
2.420833333333334E+009;1.548410058021545E-001;-7.648718357086182E-002;1.207720255479217E-003;-4.733644018415362E-004;
2.421000000000000E+009;1.539793908596039E-001;-7.784070074558258E-002;1.252775662578642E-003;-2.836487838067114E-004;
2.421166666666667E+009;1.532435566186905E-001;-7.943543791770935E-002;1.091261976398528E-003;-2.855761267710477E-004;
2.421333333333334E+009;1.526406705379486E-001;-8.080719411373138E-002;1.326901488937438E-003;-4.034643061459065E-004;
2.421500000000000E+009;1.517905145883560E-001;-8.231133222579956E-002;1.175026176497340E-003;-2.170601655961946E-004;
2.421666666666667E+009;1.512779742479324E-001;-8.396626263856888E-002;1.219173427671194E-003;-4.107910499442369E-004;
2.421833333333334E+009;1.507730931043625E-001;-8.550043404102325E-002;1.243813545443118E-003;-4.140888631809503E-004;
2.422000000000000E+009;1.503094583749771E-001;-8.719477057456970E-002;1.412355457432568E-003;-1.865510130301118E-004;
2.422166666666667E+009;1.498196870088577E-001;-8.909167349338532E-002;1.252056215889752E-003;-3.022466844413430E-004;
2.422333333333334E+009;1.498434245586395E-001;-9.079291671514511E-002;1.258469186723232E-003;-4.378229787107557E-004;
2.422500000000000E+009;1.496430188417435E-001;-9.237723797559738E-002;1.318226219154894E-003;-5.703945062123239E-004;
2.422666666666667E+009;1.492757797241211E-001;-9.412673115730286E-002;1.241936115548015E-003;-5.790026625618339E-004;
2.422833333333334E+009;1.496100574731827E-001;-9.586938470602036E-002;1.197621226310730E-003;-4.020023043267429E-004;
2.423000000000000E+009;1.496379971504211E-001;-9.736796468496323E-002;1.331213978119195E-003;-5.338868941180408E-004;
2.423166666666667E+009;1.498540639877319E-001;-9.922269731760025E-002;1.176470541395247E-003;-5.082476418465376E-004;
2.423333333333334E+009;1.503127068281174E-001;-1.006040275096893E-001;1.343859010376036E-003;-5.403518443927169E-004;
2.423500000000000E+009;1.503664106130600E-001;-1.022857502102852E-001;1.318649039603770E-003;-6.806277087889612E-004;
2.423666666666667E+009;1.505215018987656E-001;-1.038182303309441E-001;1.189639093354344E-003;-7.092837477102876E-004;
2.423833333333334E+009;1.511053144931793E-001;-1.052965596318245E-001;1.051841420121491E-003;-7.093721069395542E-004;
2.424000000000000E+009;1.512659341096878E-001;-1.065682619810104E-001;1.188755384646356E-003;-7.413770072162151E-004;
2.424166666666667E+009;1.516353338956833E-001;-1.079801097512245E-001;1.228686887770891E-003;-8.256268920376897E-004;
2.424333333333334E+009;1.522880196571350E-001;-1.091265529394150E-001;9.778663516044617E-004;-7.678088149987161E-004;
2.424500000000000E+009;1.527515053749085E-001;-1.103957146406174E-001;9.489505901001394E-004;-8.101548883132637E-004;
2.424666666666667E+009;1.533040851354599E-001;-1.114724278450012E-001;1.032074796967208E-003;-7.399601163342595E-004;
2.424833333333334E+009;1.535293310880661E-001;-1.125116944313049E-001;9.855257812887430E-004;-1.002428354695439E-003;
2.425000000000000E+009;1.541713476181030E-001;-1.134510114789009E-001;1.031886669807136E-003;-8.559171692468226E-004;
2.425166666666667E+009;1.544007211923599E-001;-1.142816767096520E-001;1.038957852870226E-003;-9.022944141179323E-004;
2.425333333333334E+009;1.548108756542206E-001;-1.150329634547234E-001;6.962579791434109E-004;-9.910857770591974E-004;
2.425500000000000E+009;1.552180051803589E-001;-1.158765777945519E-001;9.389369515702128E-004;-8.848187280818820E-004;
2.425666666666667E+009;1.554626077413559E-001;-1.165791302919388E-001;8.525263401679695E-004;-1.004029763862491E-003;
2.425833333333334E+009;1.557802855968475E-001;-1.170260682702065E-001;5.644923658110201E-004;-1.044932287186384E-003;
2.426000000000000E+009;1.559601575136185E-001;-1.176165863871574E-001;7.038172916509211E-004;-1.034039887599647E-003;
2.426166666666667E+009;1.561664044857025E-001;-1.180696561932564E-001;7.049118285067380E-004;-1.001702854409814E-003;
2.426333333333334E+009;1.561410576105118E-001;-1.184209361672401E-001;5.792409647256136E-004;-1.058466266840696E-003;
2.426500000000000E+009;1.562930941581726E-001;-1.185851171612740E-001;7.010631379671395E-004;-9.826882742345333E-004;
2.426666666666667E+009;1.562357395887375E-001;-1.187991425395012E-001;3.998635802417994E-004;-9.172962745651603E-004;
2.426833333333334E+009;1.561425030231476E-001;-1.189866438508034E-001;5.478746606968343E-004;-8.451854228042066E-004;
2.427000000000000E+009;1.558665931224823E-001;-1.192781180143356E-001;4.561636596918106E-004;-9.761647670529783E-004;
2.427166666666667E+009;1.555138081312180E-001;-1.193532720208168E-001;5.074089858680964E-004;-9.686654666438699E-004;
2.427333333333334E+009;1.550043672323227E-001;-1.193958297371864E-001;2.515082305762917E-004;-8.900936227291822E-004;
2.427500000000000E+009;1.546035259962082E-001;-1.194753572344780E-001;3.710230521392077E-004;-8.883384289219976E-004;
2.427666666666667E+009;1.539495140314102E-001;-1.196915805339813E-001;2.465371508151293E-004;-7.192881894297898E-004;
2.427833333333334E+009;1.531354337930679E-001;-1.197031736373901E-001;2.351799048483372E-004;-5.587318446487188E-004;
