# Hz S RI R 
2400000000.0000000000 0.155763208866119412521200615629 0.106424488127231597900390625000 -0.005326512269675731658935546875 0.003984310198575258255004882812 0 0 0 0 
2400166666.6666665077 0.155295774340629605392294365629 0.103995479643344906905966240629 -0.005336592439562082290649414062 0.004003527108579874038696289062 0 0 0 0 
2400333333.3333334923 0.155355393886566189864950615629 0.101591251790523501297158759371 -0.005210745148360729217529296875 0.004393457435071468353271484375 0 0 0 0 
2400500000.0000000000 0.155329242348670987228231865629 0.098821826279163360595703125000 -0.005421802401542663574218750000 0.004573205020278692245483398438 0 0 0 0 
2400666666.6666665077 0.155394762754440307617187500000 0.096187472343444824218750000000 -0.005320974625647068023681640625 0.004797106143087148666381835938 0 0 0 0 
2400833333.3333334923 0.155356973409652709960937500000 0.093259677290916442871093750000 -0.005239471327513456344604492188 0.005200556945055723190307617188 0 0 0 0 
2401000000.0000000000 0.155622869729995699783486884371 0.090447895228862762451171875000 -0.005271065514534711837768554688 0.005505559965968132019042968750 0 0 0 0 
2401166666.6666665077 0.155661508440971402267294365629 0.087672263383865356445312500000 -0.004995202179998159408569335938 0.005701375193893910321707441113 0 0 0 0 
2401333333.3333334923 0.155958086252212496658486884371 0.084712691605091094970703125000 -0.004953634925186634063720703125 0.005945542361587285995483398438 0 0 0 0 
2401500000.0000000000 0.156345918774604797363281250000 0.081856027245521545410156250000 -0.004710109904408454895019531250 0.006322340574115514755249023438 0 0 0 0 
2401666666.6666665077 0.156784832477569607833700615629 0.078929632902145385742187500000 -0.004577323794364929199218750000 0.006746660452336072921752929688 0 0 0 0 
2401833333.3333334923 0.157181352376937893966513115629 0.076017901301383972167968750000 -0.004348481539636850357055664062 0.006764891557395458221435546875 0 0 0 0 
2402000000.0000000000 0.158032715320587213714276231258 0.073336191475391387939453125000 -0.004190657753497362136840820312 0.007041628938168287277221679688 0 0 0 0 
2402166666.6666665077 0.158694803714752197265625000000 0.070783384144306182861328125000 -0.003948784433305264386648847363 0.007374081294983625411987304688 0 0 0 0 
2402333333.3333334923 0.159678176045417813400106865629 0.067838378250598907470703125000 -0.003545248880982398986816406250 0.007651101332157850265502929688 0 0 0 0 
2402500000.0000000000 0.160879805684089688400106865629 0.065326444804668426513671875000 -0.003200510749593377113342285156 0.007788088172674179077148437500 0 0 0 0 
2402666666.6666665077 0.161981284618377713302450615629 0.063036791980266571044921875000 -0.002945046406239271163940429688 0.007952562533318996429443359375 0 0 0 0 
2402833333.3333334923 0.163073435425758389571981865629 0.060435626655817031860351562500 -0.002566372742876410917994833838 0.008185686543583869934082031250 0 0 0 0 
2403000000.0000000000 0.164680138230323791503906250000 0.057832222431898117065429687500 -0.002228443277999759154078818213 0.008346516638994216918945312500 0 0 0 0 
2403166666.6666665077 0.166274428367614801604901231258 0.055880930274724960327148437500 -0.001877066446468234062194824219 0.008635826408863067626953125000 0 0 0 0 
2403333333.3333334923 0.167645052075386102874432481258 0.053548868745565407489817033593 -0.001355773303657769940019917065 0.008639820851385593414306640625 0 0 0 0 
2403500000.0000000000 0.169372066855430603027343750000 0.051472317427396767353098283593 -0.001022471580654382922528911060 0.008697548881173133850097656250 0 0 0 0 
2403666666.6666665077 0.171028941869735690017861884371 0.049758862704038619995117187500 -0.000704333826433867216110229492 0.008835930377244949340820312500 0 0 0 0 
2403833333.3333334923 0.172518923878669711013955634371 0.047644440084695822978932966407 -0.000218537345062941312789916992 0.008866640739142894744873046875 0 0 0 0 
2404000000.0000000000 0.174007058143615694900674384371 0.045984182506799697875976562500 0.000180985050974413806765955792 0.008564320392906665802001953125 0 0 0 0 
2404166666.6666665077 0.175790950655937194824218750000 0.044453773647546768188476562500 0.000693837762810289859771728516 0.008497224189341068267822265625 0 0 0 0 
2404333333.3333334923 0.177148342132568387130575615629 0.043057013303041458129882812500 0.001129472278989851908442831885 0.008413256146013736724853515625 0 0 0 0 
2404500000.0000000000 0.178844079375267001053018134371 0.041647665202617652202565778907 0.001452834694646299102185893481 0.008400646969676017761230468750 0 0 0 0 
2404666666.6666665077 0.180453076958656311035156250000 0.040544640272855758666992187500 0.001710883225314318916918110425 0.008111862465739250183105468750 0 0 0 0 
2404833333.3333334923 0.182084962725639287750567518742 0.039411034435033798217773437500 0.002061972627416253089904785156 0.007929674349725246429443359375 0 0 0 0 
2405000000.0000000000 0.183340489864349392989950615629 0.038803979754447937011718750000 0.002241069916635752157924033057 0.007704447023570537567138671875 0 0 0 0 
2405166666.6666665077 0.184784442186355590820312500000 0.038099192082881927490234375000 0.002565056784078478813171386719 0.007658225018531084060668945312 0 0 0 0 
2405333333.3333334923 0.186146691441536005218182481258 0.037659943103790283203125000000 0.002828563563525677160975790869 0.007297343108803033828735351562 0 0 0 0 
2405500000.0000000000 0.187498852610588101486044365629 0.037253372371196746826171875000 0.003126486670225859122035361182 0.007055976428091526031494140625 0 0 0 0 
2405666666.6666665077 0.188608869910240201095419365629 0.037008993327617652202565778907 0.003130017546936870054957724463 0.006986601278185844421386718750 0 0 0 0 
2405833333.3333334923 0.189794361591339111328125000000 0.036918126046657562255859375000 0.003324595047160983085632324219 0.006690860725939273834228515625 0 0 0 0 
2406000000.0000000000 0.190793961286544799804687500000 0.036710888147354132915456403907 0.003579548327252268791198730469 0.006625970359891653060913085938 0 0 0 0 
2406166666.6666665077 0.191751733422279413421307481258 0.036518275737762451171875000000 0.003816179232671856880187988281 0.006226057652384042739868164062 0 0 0 0 
2406333333.3333334923 0.192715167999267605880575615629 0.036849386990070343017578125000 0.003950459416955710324759198926 0.006059149745851755142211914062 0 0 0 0 
2406500000.0000000000 0.193262517452239990234375000000 0.036811862140893943096120466407 0.004162018187344074249267578125 0.005754745565354824066162109375 0 0 0 0 
2406666666.6666665077 0.194023892283439608474893134371 0.036981258541345603252370466407 0.004237179644405841827392578125 0.005668336991220712661743164062 0 0 0 0 
2406833333.3333334923 0.194402307271957397460937500000 0.036979407072067260742187500000 0.004330740310251712799072265625 0.005429544951766729354858398438 0 0 0 0 
2407000000.0000000000 0.194619610905647305587606865629 0.037374708801507949829101562500 0.004354195669293403625488281250 0.005174992140382528305053710938 0 0 0 0 
2407166666.6666665077 0.195053741335868807693643134371 0.037290848791599266742746721093 0.004551554098725318908691406250 0.005156992468982934951782226562 0 0 0 0 
2407333333.3333334923 0.194940507411956787109375000000 0.037445113062858581542968750000 0.004502741619944571581368730762 0.004918039310723543167114257812 0 0 0 0 
2407500000.0000000000 0.194828584790229797363281250000 0.037663806229829788208007812500 0.004542357288300991058349609375 0.004654258489608764648437500000 0 0 0 0 
2407666666.6666665077 0.194907620549201993087606865629 0.037610825151205062866210937500 0.004577448591589927673339843750 0.004542677663266658782958984375 0 0 0 0 
2407833333.3333334923 0.194465190172195406814736884371 0.037698470056056983257253278907 0.004569328390061855316162109375 0.004334192257374525070190429688 0 0 0 0 
2408000000.0000000000 0.194495841860771206954794365629 0.037535879760980613017995466407 0.004850594792515038576607988574 0.003967423457652330398559570312 0 0 0 0 
2408166666.6666665077 0.193768918514251708984375000000 0.037273261696100241924245466407 0.004742306191474199295043945312 0.003962187562137842178344726562 0 0 0 0 
2408333333.3333334923 0.193377062678337097167968750000 0.036905523389577872539479841407 0.004842686001211404800415039062 0.003781863255426288084742880713 0 0 0 0 
2408500000.0000000000 0.192717254161834689041299384371 0.036645907908678061748464216407 0.004678528755903244018554687500 0.003524392610415815873387002100 0 0 0 0 
2408666666.6666665077 0.191994309425354003906250000000 0.036140210926532752300222028907 0.004688701592385768890380859375 0.003348762867972255186793661963 0 0 0 0 
2408833333.3333334923 0.191387102007865905761718750000 0.035518862307071692729909528907 0.004642480518668889999389648438 0.003350949380546807809116982568 0 0 0 0 
2409000000.0000000000 0.190473407506942804534588731258 0.034733090549707412719726562500 0.004619923885911703109741210938 0.003114559687674045996425009619 0 0 0 0 
2409166666.6666665077 0.189605206251144409179687500000 0.033787168562412261962890625000 0.004689817316830158233642578125 0.002934696851298213005065917969 0 0 0 0 
2409333333.3333334923 0.188689514994621304611044365629 0.032907251268625259399414062500 0.004480391275137662887573242188 0.002846528077498077912571572412 0 0 0 0 
2409500000.0000000000 0.187554225325584411621093750000 0.031519446521997451782226562500 0.004547180142253637313842773438 0.002868289593607186837437295068 0 0 0 0 
2409666666.6666665077 0.186676427721977206131143134371 0.030242893844842910766601562500 0.004540195222944021224975585938 0.002819135319441556930541992188 0 0 0 0 
2409833333.3333334923 0.185612678527832003494424384371 0.028618123382329940795898437500 0.004442801699042320251464843750 0.002697974676266313032862997900 0 0 0 0 
2410000000.0000000000 0.184708654880523709396200615629 0.027072152122855189931849295704 0.004577859770506620407104492188 0.002683185040950775146484375000 0 0 0 0 
2410166666.6666665077 0.183682292699813787262286268742 0.025216434150934219360351562500 0.004311113152652978897094726562 0.002631572075188159942626953125 0 0 0 0 
2410333333.3333334923 0.182781159877777099609375000000 0.023497147485613819467564766796 0.004331521689891815185546875000 0.002609104383736848831176757812 0 0 0 0 
2410500000.0000000000 0.181711494922637911697549384371 0.021547982469201091421107108204 0.004508447833359242352957441113 0.002681958721950650215148925781 0 0 0 0 
2410666666.6666665077 0.181004375219345092773437500000 0.019299674779176708566685860546 0.004474597051739692687988281250 0.002639169106259942054748535156 0 0 0 0 
2410833333.3333334923 0.180288195610046386718750000000 0.017061676830053329467773437500 0.004492937121540307998657226562 0.002519145142287015914916992188 0 0 0 0 
2411000000.0000000000 0.179471939802169799804687500000 0.014875505119562150782575038477 0.004414869472384452819824218750 0.002412207424640655951258993994 0 0 0 0 
2411166666.6666665077 0.178947865962982205489950615629 0.012647652067244049417515938671 0.004688421264290809631347656250 0.002439830452203751044032431494 0 0 0 0 
2411333333.3333334923 0.178218260407447787185830634371 0.010130641981959339487096016796 0.004637242294847965240478515625 0.002347635570913552804234170068 0 0 0 0 
2411500000.0000000000 0.178104370832443209549111884371 0.007727304473519325256347656250 0.004694017115980386734008789062 0.002237460808828473091125488281 0 0 0 0 
2411666666.6666665077 0.177711412310600308517294365629 0.005407876800745725631713867188 0.004792910534888505935668945312 0.002235136227682232856750488281 0 0 0 0 
2411833333.3333334923 0.177569732069969205001669365629 0.002989219734445213837864541162 0.004716988187283278378958417676 0.002109107561409472985508584131 0 0 0 0 
2412000000.0000000000 0.177655711770057705978231865629 0.000440933596109971404075622559 0.004765963181853294372558593750 0.002196585992351173920872353662 0 0 0 0 
2412166666.6666665077 0.177894562482833890060263115629 -0.001859967946074903011322021484 0.004873037803918123245239257812 0.001930897124111651940586709131 0 0 0 0 
2412333333.3333334923 0.178006500005722101409588731258 -0.004435664508491755399222089551 0.004933468997478485107421875000 0.002003111410886048836949013818 0 0 0 0 
2412500000.0000000000 0.178540229797363309005575615629 -0.006851219572126865386962890625 0.005031693261116743087768554688 0.001888171536847949028015136719 0 0 0 0 
2412666666.6666665077 0.178970873355865506271200615629 -0.009432396851480007171630859375 0.005128591321408748626708984375 0.001897605601698159954668354565 0 0 0 0 
2412833333.3333334923 0.179643392562866210937500000000 -0.011906189844012260437011718750 0.005156630650162696838378906250 0.001780997612513601996778178638 0 0 0 0 
2413000000.0000000000 0.180573880672454806228799384371 -0.014065782539546489715576171875 0.005282274913042783737182617188 0.001981754088774323897120810400 0 0 0 0 
2413166666.6666665077 0.181231096386909512618856865629 -0.016287557780742648733118826954 0.005149879492819309234619140625 0.001708207069896161989924765479 0 0 0 0 
2413333333.3333334923 0.182524323463439913650674384371 -0.018718743696808818471888358204 0.005458944011479616165161132812 0.001587063074111938910243368994 0 0 0 0 
2413500000.0000000000 0.183379590511321993728799384371 -0.020887468010187149047851562500 0.005512249656021595001220703125 0.001503363368101418018341064453 0 0 0 0 
2413666666.6666665077 0.184609726071357699295205634371 -0.023082023486495021474818045704 0.005731458310037851333618164062 0.001519326353445648930193256909 0 0 0 0 
2413833333.3333334923 0.185637131333351107498330634371 -0.025100110098719600332239920704 0.005740623921155930432791425488 0.001280444557778537056566547925 0 0 0 0 
2414000000.0000000000 0.186718210577964810470419365629 -0.027083346620202071453054060157 0.005753371864557266235351562500 0.001021023956127464988111186450 0 0 0 0 
2414166666.6666665077 0.188150614500045804122763115629 -0.028911435976624488830566406250 0.006040989886969327926635742188 0.000972923531662672758102416992 0 0 0 0 
2414333333.3333334923 0.189224168658256503006143134371 -0.030821876600384708749791329296 0.005999999120831490430350019238 0.000867121503688395023345947266 0 0 0 0 
2414500000.0000000000 0.190637052059173611739950615629 -0.032399587333202362060546875000 0.006125320680439472198486328125 0.000684354046825319528579711914 0 0 0 0 
2414666666.6666665077 0.191807508468627901931924384371 -0.033810235559940338134765625000 0.005999198649078608426565839551 0.000324919528793543577194213867 0 0 0 0 
2414833333.3333334923 0.192973345518112210372763115629 -0.035168465226888656616210937500 0.006169119384139776229858398438 0.000143334807944484109252375470 0 0 0 0 
2415000000.0000000000 0.194017529487609891036825615629 -0.036425471305847167968750000000 0.006204602308571338653564453125 -0.000041087478166446089744567871 0 0 0 0 
2415166666.6666665077 0.195221155881881713867187500000 -0.037641201168298721313476562500 0.006285652518272399902343750000 -0.000123149671708233708709162579 0 0 0 0 
2415333333.3333334923 0.196484491229057312011718750000 -0.038417421281337738037109375000 0.006124775391072034835815429688 -0.000413734815083444118499755859 0 0 0 0 
2415500000.0000000000 0.197540342807769803146200615629 -0.039235454052686691284179687500 0.006257591303437948226928710938 -0.000528705888427793979644775391 0 0 0 0 
2415666666.6666665077 0.198495477437972994705361884371 -0.040025431662797927856445312500 0.006518447306007146835327148438 -0.000600838393438607454299926758 0 0 0 0 
2415833333.3333334923 0.199502989649772588531817518742 -0.040698733180761337280273437500 0.006319842766970396041870117188 -0.000799136119894683361053466797 0 0 0 0 
2416000000.0000000000 0.200247764587402288238848768742 -0.041162796318531043315847028907 0.006556709297001361846923828125 -0.000907203473616391420364379883 0 0 0 0 
2416166666.6666665077 0.200929775834083612640057481258 -0.041718456894159317016601562500 0.006638997234404087066650390625 -0.001045372802764177105547260815 0 0 0 0 
2416333333.3333334923 0.201588183641433688064736884371 -0.041967857629060752178151716407 0.006599797867238521575927734375 -0.001305868150666356086730957031 0 0 0 0 
2416500000.0000000000 0.202131599187851007659588731258 -0.042204711586236946796457658593 0.006673262920230627059936523438 -0.001544654718600213961360312354 0 0 0 0 
2416666666.6666665077 0.202360197901725796798544365629 -0.042442109435796737670898437500 0.006627148948609828948974609375 -0.001940966816619039015529013525 0 0 0 0 
2416833333.3333334923 0.202474892139434786697549384371 -0.042530916631221771240234375000 0.006618186831474304199218750000 -0.002078432356938720183131552588 0 0 0 0 
2417000000.0000000000 0.202606856822967501541299384371 -0.042559433728456497192382812500 0.006694423500448465347290039062 -0.002469071187078952789306640625 0 0 0 0 
2417166666.6666665077 0.202426373958587701995526231258 -0.042464964091777801513671875000 0.006688809487968683242797851562 -0.002657633041962980790379189600 0 0 0 0 
2417333333.3333334923 0.202183127403259305099325615629 -0.042228084057569496845285783593 0.006398183759301900863647460938 -0.002924327738583087921142578125 0 0 0 0 
2417500000.0000000000 0.201954394578933688064736884371 -0.042152479290962219238281250000 0.006368798203766345977783203125 -0.003188630566000937981846474756 0 0 0 0 
2417666666.6666665077 0.201426520943641690353231865629 -0.041917692869901657104492187500 0.006374832242727279663085937500 -0.003333015833050013022181845557 0 0 0 0 
2417833333.3333334923 0.201065063476562500000000000000 -0.041720531880855560302734375000 0.006241499446332454681396484375 -0.003688321216031908988952636719 0 0 0 0 
2418000000.0000000000 0.200355917215347290039062500000 -0.041568290442228317260742187500 0.006132194772362709045410156250 -0.003983955830335617065429687500 0 0 0 0 
2418166666.6666665077 0.199658229947090204436932481258 -0.041396439075469970703125000000 0.005996450316160917282104492188 -0.004129133187234401702880859375 0 0 0 0 
2418333333.3333334923 0.198765352368354797363281250000 -0.041219513863325119018554687500 0.005715302657335996627807617188 -0.004518533591181039810180664062 0 0 0 0 
2418500000.0000000000 0.197834655642509488204794365629 -0.041273031383752822875976562500 0.005693890154361724853515625000 -0.004736810456961393356323242188 0 0 0 0 
2418666666.6666665077 0.196787789463996887207031250000 -0.041162081062793731689453125000 0.005435200408101081848144531250 -0.004696404561400414380545331738 0 0 0 0 
2418833333.3333334923 0.195520192384719904143963731258 -0.041247412562370300292968750000 0.005309725645929574966430664062 -0.005094960797578096389770507812 0 0 0 0 
2419000000.0000000000 0.194259539246559087555255018742 -0.041516143828630447387695312500 0.005098477005958557128906250000 -0.005161913111805915832519531250 0 0 0 0 
2419166666.6666665077 0.193227365612983703613281250000 -0.041775714606046676635742187500 0.005023653618991374969482421875 -0.005278056021779775619506835938 0 0 0 0 
2419333333.3333334923 0.191694959998130798339843750000 -0.042323883622884750366210937500 0.004655600525438786420340253613 -0.005509651266038417816162109375 0 0 0 0 
2419500000.0000000000 0.190204858779907198806924384371 -0.042680818587541580200195312500 0.004561678506433963775634765625 -0.005616162903606891632080078125 0 0 0 0 
2419666666.6666665077 0.188546821475028991699218750000 -0.043559502810239791870117187500 0.004273355007171630859375000000 -0.005706234835088253021240234375 0 0 0 0 
2419833333.3333334923 0.187003493309020996093750000000 -0.044348429888486862182617187500 0.004069597925990819931030273438 -0.005844684317708014574532793262 0 0 0 0 
2420000000.0000000000 0.185487329959869412521200615629 -0.045317605137825012207031250000 0.003936125431209802627563476562 -0.005962415132671594619750976562 0 0 0 0 
