# Version 1.00
#
freq[Hz];re:Trc1_S11;im:Trc1_S11;re:Trc2_S21;im:Trc2_S21;
2.400000000000000E+009;1.575100868940353E-001;6.009680777788162E-002;-3.158170031383634E-003;3.457508573774248E-004;
2.400166666666667E+009;1.576852202415466E-001;5.851652473211289E-002;-2.881790278479457E-003;2.721894707065076E-004;
2.400333333333334E+009;1.575058400630951E-001;5.653318762779236E-002;-2.562870271503925E-003;5.159940337762237E-004;
2.400500000000000E+009;1.578256785869598E-001;5.473108217120171E-002;-2.332539297640324E-003;1.274605601793155E-004;
2.400666666666667E+009;1.579332053661346E-001;5.245416983962059E-002;-2.532893558964133E-003;5.980661371722817E-004;
2.400833333333334E+009;1.584028750658035E-001;5.059935152530670E-002;-2.440998796373606E-003;5.662321927957237E-004;
2.401000000000000E+009;1.587567180395126E-001;4.876986518502235E-002;-2.371666021645069E-003;7.104407995939255E-004;
2.401166666666667E+009;1.589354425668716E-001;4.660453274846077E-002;-2.315190853551030E-003;6.496947607956827E-004;
2.401333333333334E+009;1.592689901590347E-001;4.461230710148811E-002;-2.583612222224474E-003;8.377971244044602E-004;
2.401500000000000E+009;1.598784923553467E-001;4.266967996954918E-002;-2.253102138638496E-003;9.595284354873002E-004;
2.401666666666667E+009;1.605144590139389E-001;4.071778059005737E-002;-2.362021943554282E-003;1.395736471749842E-003;
2.401833333333334E+009;1.608480513095856E-001;3.860952332615852E-002;-2.145878737792373E-003;1.082691131159663E-003;
2.402000000000000E+009;1.613325029611588E-001;3.712442517280579E-002;-2.252131467685103E-003;8.181555313058198E-004;
2.402166666666667E+009;1.619149148464203E-001;3.513281792402268E-002;-2.188391052186489E-003;8.714046562090516E-004;
2.402333333333334E+009;1.625739485025406E-001;3.340405225753784E-002;-2.197268186137080E-003;1.033919746987522E-003;
2.402500000000000E+009;1.636345982551575E-001;3.177424147725105E-002;-2.075935946777463E-003;9.036123519763351E-004;
2.402666666666667E+009;1.642290949821472E-001;2.999929152429104E-002;-1.883800490759313E-003;9.785480797290802E-004;
2.402833333333334E+009;1.649848967790604E-001;2.866629697382450E-002;-2.143149496987462E-003;1.091651618480682E-003;
2.403000000000000E+009;1.658211648464203E-001;2.714214660227299E-002;-2.058878308162093E-003;1.115838065743446E-003;
2.403166666666667E+009;1.666613072156906E-001;2.588350698351860E-002;-2.103831386193633E-003;1.088031684048474E-003;
2.403333333333334E+009;1.676040440797806E-001;2.453123778104782E-002;-1.883606426417828E-003;1.149754389189184E-003;
2.403500000000000E+009;1.683905124664307E-001;2.347575314342976E-002;-2.008843468502164E-003;1.288983505219221E-003;
2.403666666666667E+009;1.693177074193955E-001;2.209429815411568E-002;-1.872828695923090E-003;1.334954635240138E-003;
2.403833333333334E+009;1.703150123357773E-001;2.113961800932884E-002;-1.870934036560357E-003;1.230399589985609E-003;
2.404000000000000E+009;1.709624677896500E-001;2.029232308268547E-002;-1.892242114990950E-003;1.351654878817499E-003;
2.404166666666667E+009;1.719894558191299E-001;1.915700547397137E-002;-1.856044167652726E-003;1.433232449926436E-003;
2.404333333333334E+009;1.727163344621658E-001;1.853045634925365E-002;-1.927303732372820E-003;1.411612960509956E-003;
2.404500000000000E+009;1.734803318977356E-001;1.749745942652226E-002;-1.755348755978048E-003;1.498485915362835E-003;
2.404666666666667E+009;1.742709130048752E-001;1.696469634771347E-002;-1.763936597853899E-003;1.641453593038023E-003;
2.404833333333334E+009;1.750476658344269E-001;1.623353362083435E-002;-1.810005982406437E-003;1.701727858744562E-003;
2.405000000000000E+009;1.757295578718185E-001;1.569629088044167E-002;-1.629023696295917E-003;1.737819518893957E-003;
2.405166666666667E+009;1.763677000999451E-001;1.523150783032179E-002;-1.456062193028629E-003;1.673299935646355E-003;
2.405333333333334E+009;1.770124584436417E-001;1.458450593054295E-002;-1.534247188828886E-003;1.729831798002124E-003;
2.405500000000000E+009;1.773680150508881E-001;1.429744623601437E-002;-1.431892276741564E-003;1.834405120462179E-003;
2.405666666666667E+009;1.779679805040360E-001;1.385051570832729E-002;-1.335203880444169E-003;1.934224041178823E-003;
2.405833333333334E+009;1.781733334064484E-001;1.365550886839628E-002;-1.274747890420258E-003;1.825810642912984E-003;
2.406000000000000E+009;1.785720884799957E-001;1.297985948622227E-002;-1.217638375237584E-003;1.889991341158748E-003;
2.406166666666667E+009;1.787403225898743E-001;1.288177352398634E-002;-1.124929171055555E-003;2.017919672653079E-003;
2.406333333333334E+009;1.791979223489761E-001;1.255039032548666E-002;-9.641890064813197E-004;1.988583011552692E-003;
2.406500000000000E+009;1.790787428617477E-001;1.213947776705027E-002;-9.310980676673353E-004;1.933783409185708E-003;
2.406666666666667E+009;1.790804713964462E-001;1.164946705102921E-002;-8.165485924109817E-004;1.999835949391127E-003;
2.406833333333334E+009;1.790666431188583E-001;1.127320062369108E-002;-8.459205855615437E-004;1.932059996761382E-003;
2.407000000000000E+009;1.790368109941483E-001;1.092498563230038E-002;-6.614205194637179E-004;1.974641578271985E-003;
2.407166666666667E+009;1.790776252746582E-001;1.049420610070229E-002;-6.300526438280940E-004;1.934669562615454E-003;
2.407333333333334E+009;1.786604225635529E-001;9.919836185872555E-003;-5.861222743988037E-004;1.699672895483673E-003;
2.407500000000000E+009;1.784551143646240E-001;9.368779137730598E-003;-6.227619014680386E-004;1.772429095581174E-003;
2.407666666666667E+009;1.780601590871811E-001;8.773473091423512E-003;-5.249659297987819E-004;1.870890730060637E-003;
2.407833333333334E+009;1.774571835994721E-001;8.042080327868462E-003;-3.634862659964711E-004;1.747720642015338E-003;
2.408000000000000E+009;1.770936995744705E-001;7.217055186629295E-003;-3.230503061786294E-004;1.808020402677357E-003;
2.408166666666667E+009;1.766234636306763E-001;6.635762285441160E-003;-5.366429104469717E-004;1.697784289717674E-003;
2.408333333333334E+009;1.762820035219193E-001;5.515372846275568E-003;-3.501607279758900E-004;1.844388665631414E-003;
2.408500000000000E+009;1.757230758666992E-001;4.598285071551800E-003;-3.927940269932151E-004;1.693709171377122E-003;
2.408666666666667E+009;1.750871390104294E-001;3.487419104203582E-003;-3.647278936114162E-004;1.707720453850925E-003;
2.408833333333334E+009;1.743411570787430E-001;2.199523383751512E-003;-3.010610234923661E-004;1.675964333117008E-003;
2.409000000000000E+009;1.737609803676605E-001;1.055787666700780E-003;-2.664492931216955E-004;1.769563532434404E-003;
2.409166666666667E+009;1.732209324836731E-001;-2.317510807188228E-004;-3.963817434851080E-004;1.760692801326513E-003;
2.409333333333334E+009;1.727180033922195E-001;-1.595550333149731E-003;-3.083616902586073E-004;1.578375231474638E-003;
2.409500000000000E+009;1.721688061952591E-001;-3.308478510007262E-003;-3.068296064157039E-004;1.777125522494316E-003;
2.409666666666667E+009;1.715454757213593E-001;-4.611101932823658E-003;-1.455981982871890E-004;1.551441615447402E-003;
2.409833333333334E+009;1.709813624620438E-001;-6.301838904619217E-003;-1.690310309641063E-004;1.720037427730858E-003;
2.410000000000000E+009;1.704433113336563E-001;-7.769565097987652E-003;-9.515071724308655E-005;1.685615745373070E-003;
2.410166666666667E+009;1.701582223176956E-001;-9.485569782555103E-003;-1.945439580595121E-004;1.597244990989566E-003;
2.410333333333334E+009;1.696376800537109E-001;-1.122876256704330E-002;-6.851782382000238E-005;1.434846781194210E-003;
2.410500000000000E+009;1.691221743822098E-001;-1.306761801242828E-002;-1.227270986419171E-004;1.505070133134723E-003;
2.410666666666667E+009;1.689044684171677E-001;-1.507676765322685E-002;-7.447355892509222E-005;1.552127650938928E-003;
2.410833333333334E+009;1.687474250793457E-001;-1.687844470143318E-002;-1.822100020945072E-004;1.521670375950635E-003;
2.411000000000000E+009;1.685084998607636E-001;-1.852808706462383E-002;-1.832088164519519E-004;1.529311295598745E-003;
2.411166666666667E+009;1.684982776641846E-001;-2.053814567625523E-002;-1.458812184864655E-004;1.472324831411243E-003;
2.411333333333334E+009;1.684265285730362E-001;-2.237065695226193E-002;-1.373110135318711E-004;1.532546360976994E-003;
2.411500000000000E+009;1.684833317995071E-001;-2.435000427067280E-002;-7.600292883580551E-005;1.662731985561550E-003;
2.411666666666667E+009;1.685639023780823E-001;-2.636194601655006E-002;-1.065752221620642E-004;1.544059370644391E-003;
2.411833333333334E+009;1.687297821044922E-001;-2.808450534939766E-002;2.917350138886832E-005;1.525345141999424E-003;
2.412000000000000E+009;1.690408885478973E-001;-3.007860854268074E-002;-2.408825821476057E-006;1.592571381479502E-003;
2.412166666666667E+009;1.689573973417282E-001;-3.194050863385201E-002;7.743635796941817E-005;1.628221245482564E-003;
2.412333333333334E+009;1.696622222661972E-001;-3.352622315287590E-002;-7.075624307617545E-005;1.850407803431153E-003;
2.412500000000000E+009;1.697100847959518E-001;-3.531886264681816E-002;1.899593626148999E-004;1.732168137095869E-003;
2.412666666666667E+009;1.703080683946610E-001;-3.721213713288307E-002;1.652729843044654E-004;1.782093546353281E-003;
2.412833333333334E+009;1.707460582256317E-001;-3.893365710973740E-002;3.708333315444179E-005;1.553662819787860E-003;
2.413000000000000E+009;1.713940054178238E-001;-4.036571830511093E-002;1.590778556419537E-004;1.707877847366035E-003;
2.413166666666667E+009;1.718282848596573E-001;-4.202283918857575E-002;1.386053190799430E-004;1.825892133638263E-003;
2.413333333333334E+009;1.724092513322830E-001;-4.367609694600105E-002;2.751861757133156E-004;2.002456458285451E-003;
2.413500000000000E+009;1.727873235940933E-001;-4.512054845690727E-002;3.465854097157717E-004;1.759813516400755E-003;
2.413666666666667E+009;1.734415888786316E-001;-4.642888903617859E-002;4.767493810504675E-004;1.811711466871202E-003;
2.413833333333334E+009;1.737738549709320E-001;-4.777916148304939E-002;2.694846771191806E-004;1.877522328868508E-003;
2.414000000000000E+009;1.743414103984833E-001;-4.916780441999435E-002;4.223469295538962E-004;1.925244694575667E-003;
2.414166666666667E+009;1.749448180198669E-001;-5.004008114337921E-002;7.461091736331582E-004;1.769385533407331E-003;
2.414333333333334E+009;1.754470467567444E-001;-5.118153989315033E-002;7.380399620160461E-004;1.870116451755166E-003;
2.414500000000000E+009;1.761279702186585E-001;-5.229175835847855E-002;9.063819306902587E-004;1.717269653454423E-003;
2.414666666666667E+009;1.764881908893585E-001;-5.308371782302856E-002;9.010857320390642E-004;1.652972772717476E-003;
2.414833333333334E+009;1.767484247684479E-001;-5.384011939167976E-002;9.459612774662674E-004;1.675597392022610E-003;
2.415000000000000E+009;1.771617382764816E-001;-5.458659306168556E-002;9.942143224179745E-004;1.530069508589804E-003;
2.415166666666667E+009;1.774960160255432E-001;-5.537654459476471E-002;1.031513325870037E-003;1.633175183087587E-003;
2.415333333333334E+009;1.776625365018845E-001;-5.600573495030403E-002;1.055852393619716E-003;1.588255865499377E-003;
2.415500000000000E+009;1.779258996248245E-001;-5.648920685052872E-002;9.542907355353236E-004;1.548981876112521E-003;
2.415666666666667E+009;1.780130714178085E-001;-5.680302530527115E-002;1.319392002187669E-003;1.497669029049575E-003;
2.415833333333334E+009;1.780296564102173E-001;-5.734078958630562E-002;1.150605268776417E-003;1.442956621758640E-003;
2.416000000000000E+009;1.779137253761292E-001;-5.773010477423668E-002;1.212192699313164E-003;1.382777700200677E-003;
2.416166666666667E+009;1.779308766126633E-001;-5.799495056271553E-002;1.405684393830597E-003;1.177324680611491E-003;
2.416333333333334E+009;1.776660233736038E-001;-5.836100876331329E-002;1.264025107957423E-003;1.072678016498685E-003;
2.416500000000000E+009;1.773161888122559E-001;-5.869312584400177E-002;1.391391968354583E-003;1.122523797675967E-003;
2.416666666666667E+009;1.770016551017761E-001;-5.882280692458153E-002;1.346775679849088E-003;1.014243927784264E-003;
2.416833333333334E+009;1.766488999128342E-001;-5.926079303026199E-002;1.386180752888322E-003;8.717895252630115E-004;
2.417000000000000E+009;1.758356690406799E-001;-5.948376655578613E-002;1.469130627810955E-003;1.000815071165562E-003;
2.417166666666667E+009;1.752324700355530E-001;-5.979459732770920E-002;1.366229960694909E-003;8.004223345778883E-004;
2.417333333333334E+009;1.745669096708298E-001;-5.989412218332291E-002;1.276676077395678E-003;7.212087512016296E-004;
2.417500000000000E+009;1.738669723272324E-001;-6.046863645315170E-002;1.316158915869892E-003;6.762851844541729E-004;
2.417666666666667E+009;1.730112880468369E-001;-6.064020842313767E-002;1.187306712381542E-003;6.798922549933195E-004;
2.417833333333334E+009;1.722206622362137E-001;-6.098192185163498E-002;1.260065706446767E-003;4.893310251645744E-004;
2.418000000000000E+009;1.711574345827103E-001;-6.151418760418892E-002;1.237910706549883E-003;6.173630245029926E-004;
2.418166666666667E+009;1.701432913541794E-001;-6.192586198449135E-002;1.088066608645022E-003;4.834565916098654E-004;
2.418333333333334E+009;1.692267954349518E-001;-6.249578297138214E-002;1.197984209284186E-003;4.637899692170322E-004;
2.418500000000000E+009;1.680408567190170E-001;-6.304346024990082E-002;1.135917962528765E-003;5.293697468005121E-004;
2.418666666666667E+009;1.668882220983505E-001;-6.376335024833679E-002;1.015672343783081E-003;5.740749766118825E-004;
2.418833333333334E+009;1.656692177057266E-001;-6.438075751066208E-002;1.027354970574379E-003;4.530580481514335E-004;
2.419000000000000E+009;1.644160598516464E-001;-6.517685204744339E-002;9.157751919701695E-004;7.023811340332031E-004;
2.419166666666667E+009;1.634249240159988E-001;-6.610475480556488E-002;1.090726815164089E-003;5.340797943063080E-004;
2.419333333333334E+009;1.620380729436874E-001;-6.670117378234863E-002;9.840178536251187E-004;4.889052943326533E-004;
2.419500000000000E+009;1.609271615743637E-001;-6.795470416545868E-002;1.132445060648024E-003;5.294536240398884E-004;
2.419666666666667E+009;1.599018573760986E-001;-6.898820400238037E-002;9.035789407789707E-004;4.079593054484576E-004;
2.419833333333334E+009;1.586454957723618E-001;-6.986873596906662E-002;9.346417500637472E-004;5.136418621987104E-004;
2.420000000000000E+009;1.577142030000687E-001;-7.114252448081970E-002;7.938189664855599E-004;5.164973554201424E-004;
2.420166666666667E+009;1.568830013275147E-001;-7.249824702739716E-002;8.917597006075084E-004;4.400495963636786E-004;
2.420333333333334E+009;1.560278832912445E-001;-7.374271005392075E-002;9.794620564207435E-004;6.263775867410004E-004;
2.420500000000000E+009;1.550352871417999E-001;-7.486452907323837E-002;8.488791063427925E-004;5.036777001805604E-004;
2.420666666666667E+009;1.541196703910828E-001;-7.634189724922180E-002;8.580910507589579E-004;6.863416056148708E-004;
2.420833333333334E+009;1.534003764390945E-001;-7.786940783262253E-002;9.832208743318915E-004;6.677103810943663E-004;
2.421000000000000E+009;1.526944935321808E-001;-7.943154871463776E-002;8.480901597067714E-004;6.633428856730461E-004;
2.421166666666667E+009;1.520477980375290E-001;-8.099758625030518E-002;9.274631738662720E-004;6.102769402787089E-004;
2.421333333333334E+009;1.516728848218918E-001;-8.262301981449127E-002;1.009360537864268E-003;4.805734497494996E-004;
2.421500000000000E+009;1.510921120643616E-001;-8.401834964752197E-002;9.483445319347084E-004;6.082293693907559E-004;
2.421666666666667E+009;1.508879065513611E-001;-8.574742078781128E-002;9.692093590274453E-004;6.981710903346539E-004;
2.421833333333334E+009;1.505000591278076E-001;-8.748785406351090E-002;1.032138476148248E-003;7.465847302228212E-004;
2.422000000000000E+009;1.502837240695953E-001;-8.899280428886414E-002;1.031778287142515E-003;7.494160672649741E-004;
2.422166666666667E+009;1.498992592096329E-001;-9.086143225431442E-002;1.146103139035404E-003;6.487014470621944E-004;
2.422333333333334E+009;1.499901711940765E-001;-9.240607917308807E-002;1.028279541060329E-003;5.864832783117890E-004;
2.422500000000000E+009;1.498850136995316E-001;-9.395822137594223E-002;1.226105145178735E-003;6.257655331864953E-004;
2.422666666666667E+009;1.500412970781326E-001;-9.562386572360992E-002;1.076142420060933E-003;4.995266790501773E-004;
2.422833333333334E+009;1.503160148859024E-001;-9.717937558889389E-002;1.236178446561098E-003;5.131720681674779E-004;
2.423000000000000E+009;1.503181904554367E-001;-9.866525977849960E-002;1.275302027352154E-003;4.498071793932468E-004;
2.423166666666667E+009;1.509090512990952E-001;-1.000639572739601E-001;1.212180359289050E-003;5.930971237830818E-004;
2.423333333333334E+009;1.511603593826294E-001;-1.015140414237976E-001;1.366675016470254E-003;3.972412960138172E-004;
2.423500000000000E+009;1.514247655868530E-001;-1.029633358120918E-001;1.336945453658700E-003;5.929318722337484E-004;
2.423666666666667E+009;1.516626775264740E-001;-1.044644042849541E-001;1.283136778511107E-003;4.811267426703125E-004;
2.423833333333334E+009;1.522522121667862E-001;-1.056462302803993E-001;1.502431114204228E-003;6.040907464921475E-004;
2.424000000000000E+009;1.525888293981552E-001;-1.066942960023880E-001;1.614254433661699E-003;4.202072741463780E-004;
2.424166666666667E+009;1.530190855264664E-001;-1.078986376523972E-001;1.609916565939784E-003;4.118589276913554E-004;
2.424333333333334E+009;1.535168141126633E-001;-1.087917089462280E-001;1.577239600010216E-003;3.089678066316992E-004;
2.424500000000000E+009;1.539587080478668E-001;-1.100011244416237E-001;1.608072780072689E-003;3.716950595844537E-004;
2.424666666666667E+009;1.545024365186691E-001;-1.107867136597633E-001;1.755187171511352E-003;1.902113290270791E-004;
2.424833333333334E+009;1.547789573669434E-001;-1.115687265992165E-001;1.504212617874146E-003;2.977361727971584E-004;
2.425000000000000E+009;1.551624983549118E-001;-1.124311164021492E-001;1.639478025026619E-003;2.302461798535660E-004;
2.425166666666667E+009;1.554881930351257E-001;-1.131297945976257E-001;1.665204763412476E-003;1.771585812093690E-004;
2.425333333333334E+009;1.557551026344299E-001;-1.136751025915146E-001;1.799079356715083E-003;1.027181224344531E-005;
2.425500000000000E+009;1.561367660760880E-001;-1.143145412206650E-001;1.647027675062418E-003;-1.237928663613275E-004;
2.425666666666667E+009;1.561254113912582E-001;-1.148188337683678E-001;1.859182724729180E-003;-8.775095921009779E-005;
2.425833333333334E+009;1.563597768545151E-001;-1.152321323752403E-001;1.725063077174127E-003;-8.566033648094162E-005;
2.426000000000000E+009;1.564181447029114E-001;-1.157678663730621E-001;1.710652140900493E-003;-7.247055327752605E-005;
2.426166666666667E+009;1.565380096435547E-001;-1.161055266857147E-001;1.802253071218729E-003;-2.917798701673746E-004;
2.426333333333334E+009;1.563756316900253E-001;-1.163382977247238E-001;1.684337272308767E-003;-1.337212306680158E-004;
2.426500000000000E+009;1.562102586030960E-001;-1.165435090661049E-001;1.652757171541452E-003;-1.046994948410429E-004;
2.426666666666667E+009;1.561623960733414E-001;-1.166791543364525E-001;1.574683934450150E-003;-3.549446410033852E-004;
2.426833333333334E+009;1.558033823966980E-001;-1.170533969998360E-001;1.569901243783534E-003;-3.635068424046040E-004;
2.427000000000000E+009;1.552710384130478E-001;-1.171764358878136E-001;1.724369125440717E-003;-3.240694932173938E-004;
2.427166666666667E+009;1.547470390796661E-001;-1.172705739736557E-001;1.664810697548091E-003;-3.306066791992635E-004;
2.427333333333334E+009;1.541298478841782E-001;-1.174694299697876E-001;1.509652123786509E-003;-4.510074213612825E-004;
2.427500000000000E+009;1.535515487194061E-001;-1.177410781383514E-001;1.626189914532006E-003;-3.227443667128682E-004;
2.427666666666667E+009;1.526198387145996E-001;-1.179965585470200E-001;1.478945720009506E-003;-4.011726705357432E-004;
2.427833333333334E+009;1.517472416162491E-001;-1.180807203054428E-001;1.432035118341446E-003;-3.264288825448602E-004;
