# Version 1.00
#
freq[Hz];re:Trc1_S11;im:Trc1_S11;re:Trc2_S21;im:Trc2_S21;
2.400000000000000E+009;1.583593934774399E-001;6.269026547670364E-002;1.022804528474808E-003;2.531402511522174E-003;
2.400166666666667E+009;1.583741903305054E-001;6.120883300900459E-002;1.209462410770357E-003;2.572713419795036E-003;
2.400333333333334E+009;1.581358015537262E-001;5.936847254633904E-002;1.250888686627150E-003;2.613744232803583E-003;
2.400500000000000E+009;1.580350846052170E-001;5.758408829569817E-002;1.322663389146328E-003;2.520682755857706E-003;
2.400666666666667E+009;1.578519493341446E-001;5.554353073239327E-002;1.450142357498407E-003;2.356275683268905E-003;
2.400833333333334E+009;1.578712165355682E-001;5.371986329555512E-002;1.440870575606823E-003;2.361274790018797E-003;
2.401000000000000E+009;1.579063981771469E-001;5.165472254157066E-002;1.522112870588899E-003;2.286308445036411E-003;
2.401166666666667E+009;1.580036282539368E-001;4.942799359560013E-002;1.827009138651192E-003;2.262896159663796E-003;
2.401333333333334E+009;1.580195128917694E-001;4.745097458362579E-002;1.732996897771955E-003;2.197456313297153E-003;
2.401500000000000E+009;1.583382934331894E-001;4.521058499813080E-002;2.014644443988800E-003;2.076717326417565E-003;
2.401666666666667E+009;1.586042046546936E-001;4.354005306959152E-002;1.946302247233689E-003;1.909176236949861E-003;
2.401833333333334E+009;1.590121984481812E-001;4.149060696363449E-002;2.145688747987151E-003;1.929308054968715E-003;
2.402000000000000E+009;1.592352092266083E-001;3.932239115238190E-002;2.065067179501057E-003;1.786120352335274E-003;
2.402166666666667E+009;1.598118692636490E-001;3.719525039196014E-002;2.220619237050414E-003;1.853681402280927E-003;
2.402333333333334E+009;1.602386236190796E-001;3.518477082252502E-002;2.210377249866724E-003;1.780876074917615E-003;
2.402500000000000E+009;1.610448807477951E-001;3.357483819127083E-002;2.348211826756597E-003;1.663533388637006E-003;
2.402666666666667E+009;1.615823507308960E-001;3.182547539472580E-002;2.320150611922145E-003;1.666833763010800E-003;
2.402833333333334E+009;1.624349653720856E-001;3.024353459477425E-002;2.251918427646160E-003;1.517837052233517E-003;
2.403000000000000E+009;1.632491499185562E-001;2.837880514562130E-002;2.378327772021294E-003;1.354999723844230E-003;
2.403166666666667E+009;1.640152484178543E-001;2.675905637443066E-002;2.398143988102675E-003;1.308354316279292E-003;
2.403333333333334E+009;1.650637090206146E-001;2.561572007834911E-002;2.163767348974943E-003;1.198805053718388E-003;
2.403500000000000E+009;1.657389849424362E-001;2.384842559695244E-002;2.528679091483355E-003;1.014744862914085E-003;
2.403666666666667E+009;1.666139513254166E-001;2.225936390459538E-002;2.631053328514099E-003;8.984158048406243E-004;
2.403833333333334E+009;1.679154485464096E-001;2.101096324622631E-002;2.546803327277303E-003;1.010081148706377E-003;
2.404000000000000E+009;1.686495542526245E-001;1.969329640269280E-002;2.476797671988607E-003;9.331112378276885E-004;
2.404166666666667E+009;1.696245074272156E-001;1.862331293523312E-002;2.491371007636190E-003;8.833836182020605E-004;
2.404333333333334E+009;1.708263456821442E-001;1.766039244830608E-002;2.597651444375515E-003;7.673380314372480E-004;
2.404500000000000E+009;1.715982109308243E-001;1.658893004059792E-002;2.454327186569572E-003;6.744604324921966E-004;
2.404666666666667E+009;1.727118492126465E-001;1.567632704973221E-002;2.459766110405326E-003;5.168416537344456E-004;
2.404833333333334E+009;1.736409217119217E-001;1.488246209919453E-002;2.489493694156408E-003;6.491807871498168E-004;
2.405000000000000E+009;1.746518611907959E-001;1.412697508931160E-002;2.506134333088994E-003;4.371578106656671E-004;
2.405166666666667E+009;1.755239516496658E-001;1.340587530285120E-002;2.491046441718936E-003;4.229117184877396E-004;
2.405333333333334E+009;1.764532625675201E-001;1.248500123620033E-002;2.716890303418040E-003;5.251955590210855E-004;
2.405500000000000E+009;1.772671490907669E-001;1.222379598766565E-002;2.573734614998102E-003;2.567995106801391E-004;
2.405666666666667E+009;1.778899133205414E-001;1.186713669449091E-002;2.469941740855575E-003;1.871033164206892E-004;
2.405833333333334E+009;1.784870475530624E-001;1.133517082780600E-002;2.498243469744921E-003;2.681224141269922E-004;
2.406000000000000E+009;1.792788356542587E-001;1.069365628063679E-002;2.519714878872037E-003;2.692896523512900E-004;
2.406166666666667E+009;1.795937269926071E-001;1.060398109257221E-002;2.549257595092058E-003;7.094825559761375E-005;
2.406333333333334E+009;1.801658123731613E-001;1.016960106790066E-002;2.626938046887517E-003;8.954604709288105E-005;
2.406500000000000E+009;1.804952472448349E-001;9.715681895613670E-003;2.598817460238934E-003;1.858702603385609E-006;
2.406666666666667E+009;1.806225925683975E-001;9.577522054314613E-003;2.696352545171976E-003;-1.320416777161881E-004;
2.406833333333334E+009;1.808542013168335E-001;9.277815930545330E-003;2.714609727263451E-003;-2.678626624401659E-004;
2.407000000000000E+009;1.810707300901413E-001;8.947450667619705E-003;2.600919222459197E-003;-2.365119580645114E-004;
2.407166666666667E+009;1.812761276960373E-001;8.591718040406704E-003;2.668081782758236E-003;-3.977276501245797E-004;
2.407333333333334E+009;1.810909509658814E-001;8.117543533444405E-003;2.737171249464154E-003;-2.884812129195780E-004;
2.407500000000000E+009;1.809052824974060E-001;7.782757747918367E-003;2.545413095504046E-003;-4.773403052240610E-004;
2.407666666666667E+009;1.807550638914108E-001;7.449493743479252E-003;2.754182554781437E-003;-5.827486165799201E-004;
2.407833333333334E+009;1.803720891475678E-001;6.756814662367106E-003;2.612782875075936E-003;-6.672976887784898E-004;
2.408000000000000E+009;1.800814270973206E-001;6.134309805929661E-003;2.621717751026154E-003;-7.799838203936815E-004;
2.408166666666667E+009;1.796274185180664E-001;5.642114672809839E-003;2.631877548992634E-003;-7.019452750682831E-004;
2.408333333333334E+009;1.792916059494019E-001;4.997655749320984E-003;2.724978141486645E-003;-1.028721220791340E-003;
2.408500000000000E+009;1.787941008806229E-001;4.081373102962971E-003;2.556075341999531E-003;-1.035301829688251E-003;
2.408666666666667E+009;1.781316399574280E-001;3.336770227178931E-003;2.612357493489981E-003;-1.284274272620678E-003;
2.408833333333334E+009;1.773934513330460E-001;2.610633615404367E-003;2.564878901466727E-003;-1.321605057455599E-003;
2.409000000000000E+009;1.767071634531021E-001;1.508490648120642E-003;2.550708362832665E-003;-1.358849112875760E-003;
2.409166666666667E+009;1.761344671249390E-001;3.622610238380730E-004;2.480052411556244E-003;-1.401504734531045E-003;
2.409333333333334E+009;1.756135523319244E-001;-7.385318167507649E-004;2.441869815811515E-003;-1.684386283159256E-003;
2.409500000000000E+009;1.748130470514298E-001;-2.173691987991333E-003;2.436083741486073E-003;-1.788328285329044E-003;
2.409666666666667E+009;1.738924831151962E-001;-3.382305847480893E-003;2.215692307800055E-003;-1.736834645271301E-003;
2.409833333333334E+009;1.731775254011154E-001;-4.949030932039022E-003;2.168427454307675E-003;-1.755431992933154E-003;
2.410000000000000E+009;1.727164238691330E-001;-6.147246807813644E-003;2.265415852889419E-003;-1.985201844945550E-003;
2.410166666666667E+009;1.720049828290939E-001;-7.744160480797291E-003;2.196840476244688E-003;-2.155982190743089E-003;
2.410333333333334E+009;1.714319288730621E-001;-9.334878064692020E-003;2.019802574068308E-003;-2.138237934559584E-003;
2.410500000000000E+009;1.709921061992645E-001;-1.106983609497547E-002;2.023073611781001E-003;-2.267444739118218E-003;
2.410666666666667E+009;1.700864881277084E-001;-1.281929016113281E-002;1.762056141160429E-003;-2.294268226251006E-003;
2.410833333333334E+009;1.697518080472946E-001;-1.443890389055014E-002;1.797185628674924E-003;-2.465832512825728E-003;
2.411000000000000E+009;1.692102104425430E-001;-1.636638492345810E-002;1.474167103879154E-003;-2.502741292119026E-003;
2.411166666666667E+009;1.689101606607437E-001;-1.836418360471726E-002;1.459872932173312E-003;-2.542822621762753E-003;
2.411333333333334E+009;1.685148179531097E-001;-2.015470713376999E-002;1.422492903657258E-003;-2.542462898418307E-003;
2.411500000000000E+009;1.682587563991547E-001;-2.210327796638012E-002;1.368556520901620E-003;-2.670975401997566E-003;
2.411666666666667E+009;1.682842522859573E-001;-2.411288768053055E-002;1.230042427778244E-003;-2.699615666642785E-003;
2.411833333333334E+009;1.682958155870438E-001;-2.599459141492844E-002;1.022349460981786E-003;-2.738424343988299E-003;
2.412000000000000E+009;1.681924313306809E-001;-2.791944518685341E-002;9.146452648565173E-004;-2.688640728592873E-003;
2.412166666666667E+009;1.681317090988159E-001;-3.005618974566460E-002;7.481369539164007E-004;-2.721322467550635E-003;
2.412333333333334E+009;1.685169190168381E-001;-3.184209391474724E-002;6.041601300239563E-004;-2.754263347014785E-003;
2.412500000000000E+009;1.684037148952484E-001;-3.386288508772850E-002;3.583060461096466E-004;-2.715364797040820E-003;
2.412666666666667E+009;1.686934828758240E-001;-3.567007556557655E-002;2.569132484495640E-004;-2.682036254554987E-003;
2.412833333333334E+009;1.691986471414566E-001;-3.753092885017395E-002;2.626715286169201E-004;-2.611114643514156E-003;
2.413000000000000E+009;1.694260239601135E-001;-3.932883590459824E-002;1.480506034567952E-004;-2.593021607026458E-003;
2.413166666666667E+009;1.697346270084381E-001;-4.109873995184898E-002;-6.537384615512565E-005;-2.432128181681037E-003;
2.413333333333334E+009;1.700948327779770E-001;-4.287642985582352E-002;-1.742079039104283E-004;-2.508020261302590E-003;
2.413500000000000E+009;1.706712394952774E-001;-4.453187435865402E-002;-1.525598199805245E-004;-2.573218196630478E-003;
2.413666666666667E+009;1.713061034679413E-001;-4.630353674292564E-002;-2.157990093110129E-004;-2.417768584564328E-003;
2.413833333333334E+009;1.717319935560226E-001;-4.771158844232559E-002;-3.725219285115600E-004;-2.235805150121450E-003;
2.414000000000000E+009;1.721411049365997E-001;-4.912895709276199E-002;-4.958348581567407E-004;-2.317571779713035E-003;
2.414166666666667E+009;1.728003025054932E-001;-5.047779157757759E-002;-5.726359668187797E-004;-2.094910014420748E-003;
2.414333333333334E+009;1.733734309673309E-001;-5.179236456751823E-002;-5.671883700415492E-004;-2.165158977732062E-003;
2.414500000000000E+009;1.738542616367340E-001;-5.295551568269730E-002;-5.511051276698709E-004;-1.912627485580742E-003;
2.414666666666667E+009;1.744529455900192E-001;-5.392900481820107E-002;-7.165331044234335E-004;-1.943531329743564E-003;
2.414833333333334E+009;1.749110072851181E-001;-5.508340522646904E-002;-6.520766182802618E-004;-1.992714591324329E-003;
2.415000000000000E+009;1.752926409244537E-001;-5.584651976823807E-002;-8.356538601219654E-004;-1.935201697051525E-003;
2.415166666666667E+009;1.756954640150070E-001;-5.669637024402618E-002;-7.612521294504404E-004;-1.949859317392111E-003;
2.415333333333334E+009;1.762583404779434E-001;-5.750258266925812E-002;-8.126546745188534E-004;-1.636071479879320E-003;
2.415500000000000E+009;1.766055375337601E-001;-5.810981243848801E-002;-8.544401498511434E-004;-1.688083284534514E-003;
2.415666666666667E+009;1.767723858356476E-001;-5.867551639676094E-002;-7.474491721950471E-004;-1.755358069203794E-003;
2.415833333333334E+009;1.770827472209930E-001;-5.927232652902603E-002;-8.313601138070226E-004;-1.427099108695984E-003;
2.416000000000000E+009;1.771923452615738E-001;-5.971490964293480E-002;-7.481724605895579E-004;-1.487606787122786E-003;
2.416166666666667E+009;1.773851662874222E-001;-6.017387285828590E-002;-9.809135226532817E-004;-1.587040838785470E-003;
2.416333333333334E+009;1.774337738752365E-001;-6.031565368175507E-002;-9.368144674226642E-004;-1.494916621595621E-003;
2.416500000000000E+009;1.773996949195862E-001;-6.078102439641953E-002;-9.098570444621146E-004;-1.408856944181025E-003;
2.416666666666667E+009;1.771629452705383E-001;-6.090702861547470E-002;-9.129624231718481E-004;-1.396657782606781E-003;
2.416833333333334E+009;1.769967973232269E-001;-6.134564056992531E-002;-9.820683626458049E-004;-1.325349556282163E-003;
2.417000000000000E+009;1.764679998159409E-001;-6.152608618140221E-002;-9.170637931674719E-004;-1.339638256467879E-003;
2.417166666666667E+009;1.761157065629959E-001;-6.165245920419693E-002;-8.599265711382031E-004;-1.091517740860581E-003;
2.417333333333334E+009;1.756913512945175E-001;-6.167324632406235E-002;-9.397005196660757E-004;-1.136556151323021E-003;
2.417500000000000E+009;1.751879602670670E-001;-6.223737448453903E-002;-9.054382098838687E-004;-1.082775765098631E-003;
2.417666666666667E+009;1.745120584964752E-001;-6.219908222556114E-002;-8.711880655027926E-004;-9.931868407875300E-004;
2.417833333333334E+009;1.736899465322495E-001;-6.259229034185410E-002;-8.698113379068673E-004;-1.146428403444588E-003;
2.418000000000000E+009;1.729507297277451E-001;-6.289405375719070E-002;-7.760187727399170E-004;-1.075807726010680E-003;
2.418166666666667E+009;1.720438599586487E-001;-6.297934800386429E-002;-8.891163743101060E-004;-1.075159641914070E-003;
2.418333333333334E+009;1.712241619825363E-001;-6.351200491189957E-002;-9.725906420499086E-004;-1.010154490359128E-003;
2.418500000000000E+009;1.701420396566391E-001;-6.383909285068512E-002;-8.721872000023723E-004;-1.105887815356255E-003;
2.418666666666667E+009;1.691570430994034E-001;-6.424628198146820E-002;-8.705299114808440E-004;-1.088765566237271E-003;
2.418833333333334E+009;1.678179502487183E-001;-6.475745141506195E-002;-8.506436133757234E-004;-8.752477006055415E-004;
2.419000000000000E+009;1.666998267173767E-001;-6.547020375728607E-002;-8.999318815767765E-004;-9.179735206998885E-004;
2.419166666666667E+009;1.656385511159897E-001;-6.605699658393860E-002;-7.645526784472168E-004;-9.695643093436956E-004;
2.419333333333334E+009;1.643155217170715E-001;-6.646660715341568E-002;-6.819975096732378E-004;-1.024318858981133E-003;
2.419500000000000E+009;1.632437407970429E-001;-6.752659380435944E-002;-8.480240358039737E-004;-9.738439694046974E-004;
2.419666666666667E+009;1.621017754077911E-001;-6.835760176181793E-002;-8.041184046305716E-004;-8.929871837608516E-004;
2.419833333333334E+009;1.608180850744247E-001;-6.920288503170013E-002;-9.197865147143602E-004;-9.787498274818063E-004;
2.420000000000000E+009;1.597848534584045E-001;-7.025878876447678E-002;-9.502093307673931E-004;-9.961467003449798E-004;
2.420166666666667E+009;1.586439162492752E-001;-7.128492742776871E-002;-8.062120759859681E-004;-1.038629794493318E-003;
2.420333333333334E+009;1.578509211540222E-001;-7.247502356767654E-002;-8.901473484002054E-004;-1.197987934574485E-003;
2.420500000000000E+009;1.565398871898651E-001;-7.357252389192581E-002;-7.656957022845745E-004;-1.013607834465802E-003;
2.420666666666667E+009;1.555566936731339E-001;-7.475461065769196E-002;-8.936104131862521E-004;-1.087294775061309E-003;
2.420833333333334E+009;1.546589583158493E-001;-7.628669589757919E-002;-9.977099252864718E-004;-1.103567425161600E-003;
2.421000000000000E+009;1.537169963121414E-001;-7.789487391710281E-002;-8.828843710944057E-004;-9.452652884647250E-004;
2.421166666666667E+009;1.529196053743362E-001;-7.914175093173981E-002;-9.030101937241852E-004;-9.656249312683940E-004;
2.421333333333334E+009;1.523284167051315E-001;-8.075058460235596E-002;-9.715157211758196E-004;-1.101527828723192E-003;
2.421500000000000E+009;1.513918191194534E-001;-8.232144266366959E-002;-9.105637436732650E-004;-1.026348327286542E-003;
2.421666666666667E+009;1.509519219398499E-001;-8.385356515645981E-002;-1.018304843455553E-003;-1.028823899105191E-003;
2.421833333333334E+009;1.506032496690750E-001;-8.555937558412552E-002;-1.041655661538243E-003;-9.095382993109524E-004;
2.422000000000000E+009;1.500382870435715E-001;-8.722362667322159E-002;-1.204765751026571E-003;-8.990245405584574E-004;
2.422166666666667E+009;1.497744321823120E-001;-8.901610970497131E-002;-1.210369518958032E-003;-1.016482361592352E-003;
2.422333333333334E+009;1.496638953685761E-001;-9.044353663921356E-002;-1.299608731642366E-003;-9.230281575582922E-004;
2.422500000000000E+009;1.493616402149200E-001;-9.228623658418655E-002;-1.266534673050046E-003;-1.037536421790719E-003;
2.422666666666667E+009;1.492881774902344E-001;-9.396966546773911E-002;-1.229417044669390E-003;-9.403143194504082E-004;
2.422833333333334E+009;1.493865549564362E-001;-9.580728411674500E-002;-1.375993713736534E-003;-1.008156337775290E-003;
2.423000000000000E+009;1.495973765850067E-001;-9.739002585411072E-002;-1.427316688932478E-003;-9.162512724287808E-004;
2.423166666666667E+009;1.497429013252258E-001;-9.901805222034454E-002;-1.533629721961916E-003;-8.394707692787051E-004;
2.423333333333334E+009;1.500002890825272E-001;-1.005797013640404E-001;-1.546316780149937E-003;-8.574441308155656E-004;
2.423500000000000E+009;1.501263678073883E-001;-1.022118404507637E-001;-1.630685175769031E-003;-9.078744915314019E-004;
2.423666666666667E+009;1.503422707319260E-001;-1.038189381361008E-001;-1.611033105291426E-003;-8.157686679624021E-004;
2.423833333333334E+009;1.510011404752731E-001;-1.053220033645630E-001;-1.652227016165853E-003;-8.396222838200629E-004;
2.424000000000000E+009;1.513034701347351E-001;-1.064485386013985E-001;-1.769158639945090E-003;-8.496523369103670E-004;
2.424166666666667E+009;1.517085283994675E-001;-1.078872233629227E-001;-1.706024166196585E-003;-5.600861040875316E-004;
2.424333333333334E+009;1.522521525621414E-001;-1.090655028820038E-001;-1.800466445274651E-003;-5.909551982767880E-004;
2.424500000000000E+009;1.527342051267624E-001;-1.102091670036316E-001;-1.793083734810352E-003;-3.057830617763102E-004;
2.424666666666667E+009;1.533673107624054E-001;-1.113602668046951E-001;-1.826502033509314E-003;-4.802278999704868E-004;
2.424833333333334E+009;1.537559032440186E-001;-1.124396547675133E-001;-1.821252983063459E-003;-2.139984717359766E-004;
2.425000000000000E+009;1.541482359170914E-001;-1.133833900094032E-001;-1.784825813956559E-003;-2.971099747810513E-004;
2.425166666666667E+009;1.543829739093781E-001;-1.143379360437393E-001;-1.877975533716381E-003;-1.449602859793231E-004;
2.425333333333334E+009;1.549861878156662E-001;-1.150684133172035E-001;-1.893456326797605E-003;-3.021137672476471E-004;
2.425500000000000E+009;1.552990227937698E-001;-1.159389615058899E-001;-1.785733853466809E-003;-2.644211781444028E-005;
2.425666666666667E+009;1.555596441030502E-001;-1.165503337979317E-001;-1.754311844706535E-003;1.450158888474107E-004;
2.425833333333334E+009;1.558796614408493E-001;-1.170160844922066E-001;-1.909750746563077E-003;2.500599657651037E-004;
2.426000000000000E+009;1.559604853391647E-001;-1.175713092088699E-001;-1.874672831036151E-003;1.583482662681490E-004;
2.426166666666667E+009;1.563570946455002E-001;-1.180488020181656E-001;-1.737716607749462E-003;2.289071562699974E-004;
2.426333333333334E+009;1.563547849655151E-001;-1.183659732341766E-001;-1.748910290189087E-003;3.068858932238072E-004;
2.426500000000000E+009;1.563958376646042E-001;-1.185544803738594E-001;-1.680267625488341E-003;3.850132925435901E-004;
2.426666666666667E+009;1.563979387283325E-001;-1.187660023570061E-001;-1.600208110176027E-003;3.463282191660255E-004;
2.426833333333334E+009;1.561958193778992E-001;-1.189911887049675E-001;-1.586120459251106E-003;3.741697291843593E-004;
2.427000000000000E+009;1.559797823429108E-001;-1.192190572619438E-001;-1.752983778715134E-003;6.328261224552989E-004;
2.427166666666667E+009;1.555998027324677E-001;-1.193446964025497E-001;-1.608040649443865E-003;3.705785493366420E-004;
2.427333333333334E+009;1.551135927438736E-001;-1.193982362747192E-001;-1.450842246413231E-003;7.524677785113454E-004;
2.427500000000000E+009;1.546319127082825E-001;-1.195300072431564E-001;-1.520372694358230E-003;7.740619475953281E-004;
2.427666666666667E+009;1.539325267076492E-001;-1.195909976959229E-001;-1.501705031841993E-003;7.318235584534705E-004;
