# Hz S RI R 50
2400000000.0000000000 0.155246749520301791092080634371 0.106702037155628204345703125000 0.002175915986299515204188681494 -0.001913335407152771949768066406 0 0 0 0 
2400166666.6666665077 0.155029118061065701583700615629 0.104329265654087094405966240629 0.002149785868823527856114052881 -0.001811879104934632995008159106 0 0 0 0 
2400333333.3333334923 0.155224382877349909026776231258 0.101915009319782298713441548443 0.002117570955306292013881064307 -0.001860587275587022087694477612 0 0 0 0 
2400500000.0000000000 0.155279412865638705154580634371 0.099185064435005187988281250000 0.002129536820575594902038574219 -0.001930228783749043941497802734 0 0 0 0 
2400666666.6666665077 0.155238464474678011795205634371 0.096814163029193878173828125000 0.002268377691507339911219931494 -0.001889635575935244993922568213 0 0 0 0 
2400833333.3333334923 0.155396983027458190917968750000 0.093954801559448242187500000000 0.002054332057014108137843466650 -0.001900821807794272899627685547 0 0 0 0 
2401000000.0000000000 0.155501142144203213790731865629 0.091215215623378753662109375000 0.002120472490787506103515625000 -0.001949114375747740051866840894 0 0 0 0 
2401166666.6666665077 0.155576914548873901367187500000 0.088327169418334960937500000000 0.002185432938858867125270224463 -0.002142105018720030784606933594 0 0 0 0 
2401333333.3333334923 0.156106069684028597732705634371 0.085658967494964599609375000000 0.002083580708131194114685058594 -0.002020249841734766960144042969 0 0 0 0 
2401500000.0000000000 0.156564787030220003982705634371 0.082689628005027770996093750000 0.002323265653103590011596679688 -0.002064559375867248015162802588 0 0 0 0 
2401666666.6666665077 0.156919702887535095214843750000 0.079753935337066650390625000000 0.002087515313178300857543945312 -0.002155187772586942152736044775 0 0 0 0 
2401833333.3333334923 0.157575264573097201248330634371 0.077140986919403076171875000000 0.002066883491352200941798544775 -0.002203817246481775803806923975 0 0 0 0 
2402000000.0000000000 0.158535271883010892013388115629 0.074501730501651763916015625000 0.002110396977514028982875204932 -0.002437434159219264984130859375 0 0 0 0 
2402166666.6666665077 0.159194648265838595291299384371 0.071904346346855163574218750000 0.002188458573073149161097861182 -0.002378271194174886183497763525 0 0 0 0 
2402333333.3333334923 0.160045757889747591873330634371 0.069210246205329895019531250000 0.001875374931842088916181254810 -0.002523330738767981962916708838 0 0 0 0 
2402500000.0000000000 0.161309137940406799316406250000 0.066819280385971069335937500000 0.001711705117486417076708149487 -0.002438911702483892007115029443 0 0 0 0 
2402666666.6666665077 0.162472188472747802734375000000 0.064412929117679595947265625000 0.001712531084194778962376259912 -0.002783040748909115791320800781 0 0 0 0 
2402833333.3333334923 0.163824811577796908279580634371 0.062187582254409790039062500000 0.001640644390136003927943564307 -0.002683490514755249023437500000 0 0 0 0 
2403000000.0000000000 0.165282741189002990722656250000 0.059701658785343170166015625000 0.001459512626752256913426064600 -0.002622331725433468818664550781 0 0 0 0 
2403166666.6666665077 0.167065531015396090408486884371 0.057574577629566192626953125000 0.001346087548881768963457417065 -0.002757625421509147124049521338 0 0 0 0 
2403333333.3333334923 0.168323978781700106521768134371 0.055372972041368477558176408593 0.001110647572204471068141318213 -0.002635231707245111899134970557 0 0 0 0 
2403500000.0000000000 0.170152932405471801757812500000 0.053274702280759811401367187500 0.001088309916667639992357563550 -0.002605464309453963799717568506 0 0 0 0 
2403666666.6666665077 0.171853244304657010177450615629 0.051461547613143920898437500000 0.000879801809787750244140625000 -0.002554442500695586204528808594 0 0 0 0 
2403833333.3333334923 0.173455655574798611739950615629 0.049547176808118820190429687500 0.000953252310864627361297607422 -0.002479597460478543801548623193 0 0 0 0 
2404000000.0000000000 0.175054475665092496017294365629 0.047869142144918441772460937500 0.000861038744915276765823364258 -0.002292761113494635061976767432 0 0 0 0 
2404166666.6666665077 0.176744684576988192459268134371 0.046340137720108032226562500000 0.000897196645382791757583618164 -0.002129819476976991133448935400 0 0 0 0 
2404333333.3333334923 0.178333014249801607986611884371 0.044817350804805762554128278907 0.001002031029202044010162353516 -0.002216411055997014045715332031 0 0 0 0 
2404500000.0000000000 0.180123686790466308593750000000 0.043401781469583511352539062500 0.001169849769212305979487753760 -0.002131694694980978965759277344 0 0 0 0 
2404666666.6666665077 0.181531950831413296798544365629 0.042304262518882751464843750000 0.001124619157053529999376606519 -0.002163754543289542198181152344 0 0 0 0 
2404833333.3333334923 0.183296412229537991622763115629 0.041189391165971762920339216407 0.001169872819446027062059711987 -0.002183604985475540161132812500 0 0 0 0 
2405000000.0000000000 0.184437364339828491210937500000 0.040686435997486121440847028907 0.001241982332430779933929443359 -0.002407550346106290817260742188 0 0 0 0 
2405166666.6666665077 0.185960605740547207931356865629 0.040018916130065917968750000000 0.001292048487812281088588095557 -0.002326749963685870170593261719 0 0 0 0 
2405333333.3333334923 0.187389060854911804199218750000 0.039364147931337356567382812500 0.001144881010986865000483847510 -0.002416468691080809073207236182 0 0 0 0 
2405500000.0000000000 0.188732117414474487304687500000 0.038902107626199722290039062500 0.001331576961092651107190776294 -0.002646161941811441941502236475 0 0 0 0 
2405666666.6666665077 0.189921289682388305664062500000 0.038578480482101440429687500000 0.001238127355463803031324077075 -0.002463857177644968032836914062 0 0 0 0 
2405833333.3333334923 0.191087871789932306487713731258 0.038305692374706268310546875000 0.001137063372880219979527138818 -0.002725240774452685876133584131 0 0 0 0 
2406000000.0000000000 0.192047178745269803146200615629 0.038001958280801773071289062500 0.000916234042961150407791137695 -0.002767902798950672149658203125 0 0 0 0 
2406166666.6666665077 0.192992717027664212325888115629 0.037858188152313232421875000000 0.000858991697896271944046020508 -0.002923579886555672125575400244 0 0 0 0 
2406333333.3333334923 0.193943589925765991210937500000 0.037897039204835891723632812500 0.000789355777669697999954223633 -0.002935608383268117904663085938 0 0 0 0 
2406500000.0000000000 0.194532915949821499923544365629 0.037870809435844421386718750000 0.000675049202982336282730102539 -0.002971318550407886938807822119 0 0 0 0 
2406666666.6666665077 0.195171833038330105880575615629 0.037893541157245642925222028907 0.000641425023786723613739013672 -0.002886910457164049148559570312 0 0 0 0 
2406833333.3333334923 0.195720851421356201171875000000 0.037815287709236151958425153907 0.000456358946394175291061401367 -0.002889355644583702087402343750 0 0 0 0 
2407000000.0000000000 0.195940747857093811035156250000 0.038015548139810562133789062500 0.000563768728170543909072875977 -0.002809607191011310057399130713 0 0 0 0 
2407166666.6666665077 0.196278616786003112792968750000 0.037718329578638076782226562500 0.000566148897632956504821777344 -0.002874408382922410964965820312 0 0 0 0 
2407333333.3333334923 0.196270525455474909026776231258 0.037866897881031043315847028907 0.000470572267659008502960205078 -0.002975734649226069884059286963 0 0 0 0 
2407500000.0000000000 0.196269422769546508789062500000 0.037896003574132919311523437500 0.000558600877411663532257080078 -0.003075751243159174919128417969 0 0 0 0 
2407666666.6666665077 0.196197733283042907714843750000 0.037802934646606452251393903907 0.000548175652511417865753173828 -0.002901633502915502028224326025 0 0 0 0 
2407833333.3333334923 0.195738285779953002929687500000 0.037572052329778671264648437500 0.000523303286172449588775634766 -0.003025088924914598898646689307 0 0 0 0 
2408000000.0000000000 0.195537209510803194900674384371 0.037351261824369430541992187500 0.000560783257242292165756225586 -0.003173271892592310905456542969 0 0 0 0 
2408166666.6666665077 0.195025801658630398849325615629 0.037074387073516852642018903907 0.000540628912858664989471435547 -0.003221043152734636826756142725 0 0 0 0 
2408333333.3333334923 0.194450080394744900802450615629 0.036505691707134246826171875000 0.000500711670611053705215454102 -0.003398576052859425978419638525 0 0 0 0 
2408500000.0000000000 0.193822294473648099044638115629 0.036176264286041259765625000000 0.000622065039351582527160644531 -0.003502751234918833212611533057 0 0 0 0 
2408666666.6666665077 0.193074971437454195877236884371 0.035504467785358428955078125000 0.000371853500837460214465540753 -0.003755085635930300192592001807 0 0 0 0 
2408833333.3333334923 0.192522317171096801757812500000 0.034574616700410842895507812500 0.000413433182984590476185399188 -0.003726444672793149948120117188 0 0 0 0 
2409000000.0000000000 0.191490158438682611663494981258 0.033847570419311523437500000000 0.000173341002664528787136077881 -0.003823281498625874953029013525 0 0 0 0 
2409166666.6666665077 0.190528005361557006835937500000 0.032701835036277770996093750000 0.000063595434767194092273712158 -0.004043570719659329328055097363 0 0 0 0 
2409333333.3333334923 0.189709872007369995117187500000 0.031727015972137451171875000000 -0.000036066467146156362514903410 -0.004284244030714035034179687500 0 0 0 0 
2409500000.0000000000 0.188523173332214410979901231258 0.030300928279757499694824218750 -0.000127541425172239487797337665 -0.004269212950021029386038495801 0 0 0 0 
2409666666.6666665077 0.187567517161369295974893134371 0.028863400220870971679687500000 -0.000449446815764531493186950684 -0.004374359268695116043090820312 0 0 0 0 
2409833333.3333334923 0.186531856656074496170205634371 0.027397923171520229684849923046 -0.000585496134590357542037963867 -0.004555803723633289337158203125 0 0 0 0 
2410000000.0000000000 0.185554817318916293045205634371 0.025850197300314899789830391796 -0.001029879436828196048736572266 -0.004614037461578845977783203125 0 0 0 0 
2410166666.6666665077 0.184530019760131808181924384371 0.023940341547131538391113281250 -0.001082705450244247913360595703 -0.004625986330211162567138671875 0 0 0 0 
2410333333.3333334923 0.183520808815956087967080634371 0.022224126383662220346471016796 -0.001240358920767902894261025537 -0.004645635373890399932861328125 0 0 0 0 
2410500000.0000000000 0.182679519057273892501669365629 0.020327262580394748342493826954 -0.001538226963020860931993794019 -0.004597848746925592422485351562 0 0 0 0 
2410666666.6666665077 0.181907758116722106933593750000 0.018058478832244869577428048046 -0.001760345185175538063049316406 -0.004503904376178979873657226562 0 0 0 0 
2410833333.3333334923 0.181272119283676202972088731258 0.015913702547550201416015625000 -0.001839454751461744091631245190 -0.004547159187495709332937909863 0 0 0 0 
2411000000.0000000000 0.180576920509338406661825615629 0.013699516654014589137067225977 -0.002031495794653892950770712744 -0.004461864009499549865722656250 0 0 0 0 
2411166666.6666665077 0.179832458496093805511151231258 0.011378184892237189901331717579 -0.002191362902522087097167968750 -0.004444710910320281982421875000 0 0 0 0 
2411333333.3333334923 0.179413124918937710861044365629 0.008872974663972854614257812500 -0.002481208881363273100612021338 -0.004242884460836648941040039062 0 0 0 0 
2411500000.0000000000 0.179136499762535095214843750000 0.006687727291136980056762695312 -0.002608402399346231980564736475 -0.004326224792748689651489257812 0 0 0 0 
2411666666.6666665077 0.178842023015022305587606865629 0.004359516780823469161987304688 -0.002639543963596224784851074219 -0.004199279006570577621459960938 0 0 0 0 
2411833333.3333334923 0.178538814187049893478231865629 0.001874794950708746910095214844 -0.002944950014352798895594931494 -0.004128078464418649673461914062 0 0 0 0 
2412000000.0000000000 0.178591638803482111175213731258 -0.000726689759176224470138549805 -0.003013763809576631026027060400 -0.004129506647586823377127362988 0 0 0 0 
2412166666.6666665077 0.178683266043662997146768134371 -0.002982640406116842789890908350 -0.003501422703266143798828125000 -0.004054145887494087219238281250 0 0 0 0 
2412333333.3333334923 0.178961694240570096114950615629 -0.005429069045931100845336914062 -0.003387642791494727134704589844 -0.003850208828225731849670410156 0 0 0 0 
2412500000.0000000000 0.179338499903678894042968750000 -0.007751216180622577667236328125 -0.003926601260900496569161699512 -0.003813142422586679892299033057 0 0 0 0 
2412666666.6666665077 0.179711773991584805587606865629 -0.010260423645377160853375819727 -0.004018653184175491333007812500 -0.003629872109740972952601767432 0 0 0 0 
2412833333.3333334923 0.180490806698799105545205634371 -0.012710283510386940347691719921 -0.004242616705596446990966796875 -0.003789398586377501921412802588 0 0 0 0 
2413000000.0000000000 0.181197270750999506194744981258 -0.014974916353821749251395978320 -0.004336630925536155700683593750 -0.003442500252276659011840820312 0 0 0 0 
2413166666.6666665077 0.181946799159049987792968750000 -0.017303600907325751567800153907 -0.004672362469136714935302734375 -0.003181753214448689980747841943 0 0 0 0 
2413333333.3333334923 0.182879656553268404861611884371 -0.019379178062081340444544608204 -0.004830864723771811398977948926 -0.002930863294750452041625976562 0 0 0 0 
2413500000.0000000000 0.183759614825248690506143134371 -0.021650733426213260995885079296 -0.005177160724997519579415605762 -0.002787268720567225976231240381 0 0 0 0 
2413666666.6666665077 0.184900939464569091796875000000 -0.023919083178043368947962576954 -0.005269530694931746396536542676 -0.002407061634585260911228798975 0 0 0 0 
2413833333.3333334923 0.186027780175209100921307481258 -0.025746999308466911315917968750 -0.005419821944087743759155273438 -0.001969181699678301811218261719 0 0 0 0 
2414000000.0000000000 0.186983123421669006347656250000 -0.027733337134122848510742187500 -0.005398306995630264282226562500 -0.001722203800454735972760844653 0 0 0 0 
2414166666.6666665077 0.188375741243362399002236884371 -0.029389357194304469717005545704 -0.005578848998993635177612304688 -0.001334866741672158024431538159 0 0 0 0 
2414333333.3333334923 0.189298138022422790527343750000 -0.031289521604776382446289062500 -0.005375911016017199429983808301 -0.001043348922394216060638427734 0 0 0 0 
2414500000.0000000000 0.190620124340057400802450615629 -0.032725244760513312602956403907 -0.005438586696982383728027343750 -0.000527639873325824737548828125 0 0 0 0 
2414666666.6666665077 0.191660657525062588790731865629 -0.034177295863628387451171875000 -0.005325131118297576904296875000 -0.000469680147944018190533238544 0 0 0 0 
2414833333.3333334923 0.193060055375099209884481865629 -0.035540405660867691040039062500 -0.005348922684788703918457031250 -0.000015260478903655890712534257 0 0 0 0 
2415000000.0000000000 0.193938791751861600021200615629 -0.036736864596605300903320312500 -0.005212096497416496276855468750 0.000126256927615031599998474121 0 0 0 0 
2415166666.6666665077 0.195182874798774691482705634371 -0.037876874208450317382812500000 -0.005271214060485363006591796875 0.000488700985442847013473510742 0 0 0 0 
2415333333.3333334923 0.196229517459869412521200615629 -0.038795493543148040771484375000 -0.005070796236395835876464843750 0.000670010631438344717025756836 0 0 0 0 
2415500000.0000000000 0.197370782494545010665731865629 -0.039360906928777701641042341407 -0.004967646207660436630249023438 0.000952591421082615852355957031 0 0 0 0 
2415666666.6666665077 0.198332890868187006194744981258 -0.040168557316064841533620466407 -0.004816848319023847579956054688 0.001028341706842184066772460938 0 0 0 0 
2415833333.3333334923 0.199102386832237188141192518742 -0.040759585797786712646484375000 -0.004664449952542781829833984375 0.001226900028996170000789023291 0 0 0 0 
2416000000.0000000000 0.199896171689033508300781250000 -0.041308455169200897216796875000 -0.004602579865604639053344726562 0.001318363007158041000366210938 0 0 0 0 
2416166666.6666665077 0.200501218438148498535156250000 -0.041893161833286292339284528907 -0.004450151231139898300170898438 0.001690559322014451026916503906 0 0 0 0 
2416333333.3333334923 0.201175287365913391113281250000 -0.042185574769973761821706403907 -0.004007401410490274429321289062 0.001815572031773627021192241138 0 0 0 0 
2416500000.0000000000 0.201623708009719904143963731258 -0.042376745492219931865651716407 -0.003957821056246758374685956738 0.002153286011889576911926269531 0 0 0 0 
2416666666.6666665077 0.201823860406875610351562500000 -0.042663738131523132324218750000 -0.003666426986455916924717568506 0.002135317074134945869445800781 0 0 0 0 
2416833333.3333334923 0.201920896768570001800213731258 -0.042629301548004150390625000000 -0.003621317911893128915074013818 0.002283904235810040993931435693 0 0 0 0 
2417000000.0000000000 0.202111497521400507171307481258 -0.042847372591495506977121721093 -0.003182574408128858046290732275 0.002262917812913655801060341943 0 0 0 0 
2417166666.6666665077 0.201873168349266107757244981258 -0.042797632515430450439453125000 -0.003055071458220481872558593750 0.002365855732932686805725097656 0 0 0 0 
2417333333.3333334923 0.201548725366592407226562500000 -0.042621176689863211894948591407 -0.002811844693496822877171181787 0.002454121829941869215724326025 0 0 0 0 
2417500000.0000000000 0.201225414872169494628906250000 -0.042576484382152557373046875000 -0.002570545999333262009861611475 0.002217941684648395018336630713 0 0 0 0 
2417666666.6666665077 0.200658082962036105056924384371 -0.042423248291015631938893903907 -0.002334665972739458084106445312 0.002293376019224524931666708838 0 0 0 0 
2417833333.3333334923 0.200215533375740106780682481258 -0.042208138853311538696289062500 -0.002195729641243814988377236475 0.002056367695331573920008993994 0 0 0 0 
2418000000.0000000000 0.199494719505310086349325615629 -0.041998602449893951416015625000 -0.002026192378252745108363486182 0.001892803004011512019513774341 0 0 0 0 
2418166666.6666665077 0.198808461427688598632812500000 -0.041959166526794426654856096093 -0.001946289674378931956050253760 0.001952475635334848923924111475 0 0 0 0 
2418333333.3333334923 0.197867780923843411544638115629 -0.041811302304267883300781250000 -0.001878778450191020965576171875 0.001828274107538164095637656104 0 0 0 0 
2418500000.0000000000 0.196882218122482299804687500000 -0.041868623346090316772460937500 -0.001871232641860842921613383716 0.001667341566644608974456787109 0 0 0 0 
2418666666.6666665077 0.195889681577682495117187500000 -0.041868139058351516723632812500 -0.001864413614384829998016357422 0.001568583422340453104731894385 0 0 0 0 
2418833333.3333334923 0.194681420922279413421307481258 -0.041894521564245217060129533593 -0.001818404765799642042872763525 0.001498906291089951992034912109 0 0 0 0 
2419000000.0000000000 0.193326368927955599685830634371 -0.042181838303804397583007812500 -0.001825057901442050933837890625 0.001360173919238149902941059644 0 0 0 0 
2419166666.6666665077 0.192093133926391601562500000000 -0.042497683316469192504882812500 -0.001787931076250969929936074365 0.001155222649686038927790976416 0 0 0 0 
2419333333.3333334923 0.190655514597892788986044365629 -0.043069060891866677021067033593 -0.001743049360811709923985146631 0.001228175591677427075029682690 0 0 0 0 
2419500000.0000000000 0.189266860485076904296875000000 -0.043445151299238211894948591407 -0.001907622558064758994458842700 0.001198426238261163017870258862 0 0 0 0 
2419666666.6666665077 0.187584117054939297775106865629 -0.044234964996576309204101562500 -0.002010240219533443884608603369 0.001075436593964695930480957031 0 0 0 0 
2419833333.3333334923 0.186027079820632906814736884371 -0.044950719922780990600585937500 -0.001986198592931032180786132812 0.001066362601704895930049277197 0 0 0 0 
