# Hz S RI R 50
2400000000.0000000000 0.167984351515769986251669365629 0.047173466533422470092773437500 -0.005479328799992799758911132812 0.000024503724489477459678446122 0 0 0 0 
2400166666.6666665077 0.168824791908264187911825615629 0.046051427721977226947824846093 -0.005540408659726381301879882812 0.000283464760286733508110046387 0 0 0 0 
2400333333.3333334923 0.169806197285652188400106865629 0.044915813952684402465820312500 -0.005603732541203498840332031250 0.000320447317790240103572291241 0 0 0 0 
2400500000.0000000000 0.170683264732360812088174384371 0.043765366077423102642018903907 -0.005501389503479003906250000000 0.000476154091302305514186304913 0 0 0 0 
2400666666.6666665077 0.171747222542762811858807481258 0.042704850435256958007812500000 -0.005682948976755142211914062500 0.000870786432642489671707153320 0 0 0 0 
2400833333.3333334923 0.172556474804878207107705634371 0.041885726153850562358815778907 -0.005723889917135238647460937500 0.000969806103967130184173583984 0 0 0 0 
2401000000.0000000000 0.173348426818847711761151231258 0.041026994585990912700612653907 -0.005777369718998670578002929688 0.001157589489594101905822753906 0 0 0 0 
2401166666.6666665077 0.174037858843803405761718750000 0.040164601057767868041992187500 -0.005649575497955083847045898438 0.001584451529197395064710307544 0 0 0 0 
2401333333.3333334923 0.174758896231651306152343750000 0.039380803704261779785156250000 -0.005733903963118791580200195312 0.001747814239934087016462016528 0 0 0 0 
2401500000.0000000000 0.175620421767234802246093750000 0.038776233792304992675781250000 -0.005822591483592987060546875000 0.001980419270694255828857421875 0 0 0 0 
2401666666.6666665077 0.176237419247627313811932481258 0.038207083940505981445312500000 -0.005597874987870454788208007812 0.002087755128741263909580849756 0 0 0 0 
2401833333.3333334923 0.176681324839592007736044365629 0.037311933934688568115234375000 -0.005519351456314325332641601562 0.002526770811527967886683798682 0 0 0 0 
2402000000.0000000000 0.176928237080574007888955634371 0.036778785288333892822265625000 -0.005604493897408246994018554688 0.002879459410905838012695312500 0 0 0 0 
2402166666.6666665077 0.177790656685829190353231865629 0.035967633128166198730468750000 -0.005366502329707145690917968750 0.003142084460705519156215048682 0 0 0 0 
2402333333.3333334923 0.178153067827224703689736884371 0.035458967089653022075612653907 -0.005369042512029409408569335938 0.003357706591486930847167968750 0 0 0 0 
2402500000.0000000000 0.178658694028854397872763115629 0.034588493406772606586496721093 -0.005102940835058689117431640625 0.003645960940048098997828818213 0 0 0 0 
2402666666.6666665077 0.178833261132240295410156250000 0.034067209810018539428710937500 -0.005017104558646678924560546875 0.003818139666691422896144247900 0 0 0 0 
2402833333.3333334923 0.178999081254005404373330634371 0.033262565732002258300781250000 -0.004715892951935529708862304688 0.004030973184853792190551757812 0 0 0 0 
2403000000.0000000000 0.179093182086944607833700615629 0.032546091824769966815988908593 -0.004451334942132234573364257812 0.004274279810488224029541015625 0 0 0 0 
2403166666.6666665077 0.179198592901229886154013115629 0.031744800508022308349609375000 -0.004172538872808218002319335938 0.004600125830620527267456054688 0 0 0 0 
2403333333.3333334923 0.179065644741058405120526231258 0.031068190932273871684987653907 -0.003942235372960568341726972363 0.004752466920763254165649414062 0 0 0 0 
2403500000.0000000000 0.179058954119682312011718750000 0.029819816350936889648437500000 -0.003873527282848954200744628906 0.004854960367083550366873456738 0 0 0 0 
2403666666.6666665077 0.178986802697181701660156250000 0.028833882883191108703613281250 -0.003526112064719200134277343750 0.004780068527907133102416992188 0 0 0 0 
2403833333.3333334923 0.178683266043662997146768134371 0.027885459363460540771484375000 -0.003264647210016847090480185400 0.004932392388582229614257812500 0 0 0 0 
2404000000.0000000000 0.178578779101371792892294365629 0.026805166155099868774414062500 -0.002960812533274292945861816406 0.005195063073188067349905683301 0 0 0 0 
2404166666.6666665077 0.178204372525215204436932481258 0.025637220591306689870814139454 -0.002659531543031334877014160156 0.005354825872927904129028320312 0 0 0 0 
2404333333.3333334923 0.177763223648071289062500000000 0.024476699531078338623046875000 -0.002441093558445572853088378906 0.005074551329016686353201581738 0 0 0 0 
2404500000.0000000000 0.177232995629310607910156250000 0.022904833778738978994349295704 -0.002195135224610567092895507812 0.005236600060015916824340820312 0 0 0 0 
2404666666.6666665077 0.176958009600639287750567518742 0.021691801026463508605957031250 -0.001908092061057687022565532153 0.005285248160362243652343750000 0 0 0 0 
2404833333.3333334923 0.176493659615516690353231865629 0.020239299163222309457799141796 -0.001627610297873616001726460034 0.005172764416784048080444335938 0 0 0 0 
2405000000.0000000000 0.175922155380248995681924384371 0.018823858350515369070032889454 -0.001490698312409221909166645581 0.005099279340356588363647460938 0 0 0 0 
2405166666.6666665077 0.175588726997375488281250000000 0.017322484403848651540736014454 -0.001204568427056073925615620190 0.005245212931185960769653320312 0 0 0 0 
2405333333.3333334923 0.175169616937637301345986884371 0.015531639568507669621477695898 -0.001149088377133012034772563403 0.005063898395746946334838867188 0 0 0 0 
2405500000.0000000000 0.174824193120002802093182481258 0.014022182673215869558314139454 -0.000892013777047395706176757812 0.004992895293980836868286132812 0 0 0 0 
2405666666.6666665077 0.174442559480667086502236884371 0.012292017228901389730433280079 -0.000694686546921730041503906250 0.005000081844627857208251953125 0 0 0 0 
2405833333.3333334923 0.173872321844101007659588731258 0.010747724212706090754498866602 -0.000532645382918417453765869141 0.004929966758936643600463867188 0 0 0 0 
2406000000.0000000000 0.173873677849769592285156250000 0.008790654130280017852783203125 -0.000244453112827614003985804425 0.004736742936074733734130859375 0 0 0 0 
2406166666.6666665077 0.173424690961837796310263115629 0.007126778829842805862426757812 -0.000260599772445857524871826172 0.004586698953062295913696289062 0 0 0 0 
2406333333.3333334923 0.173450618982315091232138115629 0.005157337523996829986572265625 -0.000251180434133857488632202148 0.004529159516096115112304687500 0 0 0 0 
2406500000.0000000000 0.173243299126625088790731865629 0.003199789673089981079101562500 -0.000120129356218967600308279720 0.004574749618768692016601562500 0 0 0 0 
2406666666.6666665077 0.173074901103973388671875000000 0.001364212366752326922175742041 0.000041632087231846533041407926 0.004482054617255926132202148438 0 0 0 0 
2406833333.3333334923 0.173035219311714200118856865629 -0.000728604267351329326629638672 0.000196024426259100410059252328 0.004461986478418111801147460938 0 0 0 0 
2407000000.0000000000 0.173156782984733609298544365629 -0.002764753997325897216796875000 0.000134186411742121008321484976 0.004381668288260698318481445312 0 0 0 0 
2407166666.6666665077 0.173354327678680392166299384371 -0.004671141039580106735229492188 0.000268544274149462580680847168 0.004192042164504528045654296875 0 0 0 0 
2407333333.3333334923 0.173435747623443603515625000000 -0.006886465474963188171386718750 0.000270111864665523225634974347 0.004273865371942520141601562500 0 0 0 0 
2407500000.0000000000 0.173679247498512295821981865629 -0.008783934637904167175292968750 0.000416474620578810626834315167 0.004173536784946919354910566113 0 0 0 0 
2407666666.6666665077 0.173831611871719388107138115629 -0.010860803537070749455462070898 0.000360159552656114101409912109 0.004241550341248512268066406250 0 0 0 0 
2407833333.3333334923 0.174080684781074496170205634371 -0.012946204282343389338483241602 0.000631526811048388481140136719 0.004282775335013866424560546875 0 0 0 0 
2408000000.0000000000 0.174460902810096712967080634371 -0.015072583220899110276191912305 0.000699154334142804145812988281 0.004178356379270553588867187500 0 0 0 0 
2408166666.6666665077 0.174564942717552212814169365629 -0.016809418797492980957031250000 0.000711705069988965988159179688 0.004138121381402015686035156250 0 0 0 0 
2408333333.3333334923 0.175279214978218106368856865629 -0.018858447670936581003209298046 0.000730704574380069971084594727 0.004070859868079423904418945312 0 0 0 0 
2408500000.0000000000 0.175483942031860407073651231258 -0.020795974880456920969029610546 0.000760540307965129613876342773 0.004039339255541563034057617188 0 0 0 0 
2408666666.6666665077 0.175889939069747897049111884371 -0.022639542818069461477259451954 0.000953288224991410970687866211 0.004025867208838462829589843750 0 0 0 0 
2408833333.3333334923 0.176164031028747586349325615629 -0.024343384429812431335449218750 0.000908560701645910739898681641 0.004028723109513521194458007812 0 0 0 0 
2409000000.0000000000 0.176548555493354797363281250000 -0.025906043127179149282435233204 0.001102831796742975928662944263 0.003970527555793523788452148438 0 0 0 0 
2409166666.6666665077 0.176865562796592712402343750000 -0.027557151392102241516113281250 0.001136125065386295101763081128 0.004003717098385095596313476562 0 0 0 0 
2409333333.3333334923 0.177309408783912686446981865629 -0.029027149081230160104771798046 0.001077863737009465911267924731 0.004019723739475011825561523438 0 0 0 0 
2409500000.0000000000 0.177700802683830288986044365629 -0.030422547832131389272669608204 0.001373884384520352103589702075 0.004040361382067204389090253613 0 0 0 0 
2409666666.6666665077 0.178047016263008089920205634371 -0.031470760703086853027343750000 0.001258167903870343945146870190 0.004073317162692546844482421875 0 0 0 0 
2409833333.3333334923 0.178436309099197387695312500000 -0.032707434147596359252929687500 0.001395472907461225986480712891 0.004084814339876174926757812500 0 0 0 0 
2410000000.0000000000 0.178936496376991299728231865629 -0.033557049930095672607421875000 0.001521347207017242908477783203 0.004032770637422800064086914062 0 0 0 0 
2410166666.6666665077 0.179384604096412686446981865629 -0.034543223679065697406809221093 0.001719699823297559998155903394 0.004068463575094938278198242188 0 0 0 0 
2410333333.3333334923 0.179815292358398409744424384371 -0.035397469997406012798268903907 0.001860097399912774996516562354 0.004055953584611415863037109375 0 0 0 0 
2410500000.0000000000 0.180256202816963195800781250000 -0.036266099661588668823242187500 0.001967798685654997825622558594 0.004115364979952573776245117188 0 0 0 0 
2410666666.6666665077 0.180375441908836392501669365629 -0.037127863615751273418386091407 0.002042894484475255012512207031 0.004131951835006474581246660449 0 0 0 0 
2410833333.3333334923 0.180973991751670809646768134371 -0.037627656012773506855051408593 0.002232148777693510055541992188 0.004089530091732740402221679688 0 0 0 0 
2411000000.0000000000 0.180971369147300692459268134371 -0.038337368518114089965820312500 0.002428810112178326086757040869 0.003969510551542043685913085938 0 0 0 0 
2411166666.6666665077 0.181385368108749389648437500000 -0.038718461990356452251393903907 0.002635059179738163948059082031 0.003890786552801727814915322412 0 0 0 0 
2411333333.3333334923 0.181421980261802701095419365629 -0.039402730762958526611328125000 0.002739088609814643859863281250 0.003951526246964932355398847363 0 0 0 0 
2411500000.0000000000 0.181420743465423611739950615629 -0.040024537593126296997070312500 0.002715178998187183900120400537 0.003934115171432495117187500000 0 0 0 0 
2411666666.6666665077 0.181569352746009798904580634371 -0.040513698011636727069895158593 0.003050887491554021835327148438 0.003802637569606304168701171875 0 0 0 0 
2411833333.3333334923 0.181636303663253811935263115629 -0.040798064321279532695729841407 0.003343477379530667824986123193 0.003695485647767782211303710938 0 0 0 0 
2412000000.0000000000 0.181344792246818486969317518742 -0.041204933077096939086914062500 0.003390851430594921112060546875 0.003535298863425850868225097656 0 0 0 0 
2412166666.6666665077 0.181082084774971008300781250000 -0.041747424751520156860351562500 0.003614961169660090966465615381 0.003459121333435177803039550781 0 0 0 0 
2412333333.3333334923 0.180863901972770690917968750000 -0.041863132268190376972238908593 0.003711350262165070013758993994 0.003262305865064262910130166162 0 0 0 0 
2412500000.0000000000 0.180185303092002896407919365629 -0.042326793074607849121093750000 0.003747666487470269203186035156 0.003111173398792744116542197119 0 0 0 0 
2412666666.6666665077 0.179573163390159606933593750000 -0.042781785130500793457031250000 0.004046560730785132321829511426 0.003032807959243655204772949219 0 0 0 0 
2412833333.3333334923 0.178989306092262295821981865629 -0.043233286589384078979492187500 0.003989445045590400695800781250 0.002816949039697647094726562500 0 0 0 0 
2413000000.0000000000 0.178439259529113797286825615629 -0.043758764863014221191406250000 0.004126497544348239898681640625 0.002693473128601909117457724463 0 0 0 0 
2413166666.6666665077 0.177608042955398587325888115629 -0.044012572616338729858398437500 0.004164372105151414871215820312 0.002357733901590108871459960938 0 0 0 0 
2413333333.3333334923 0.176829114556312588790731865629 -0.044544134289026260375976562500 0.004333973862230777740478515625 0.002413534093648194833042763818 0 0 0 0 
2413500000.0000000000 0.175839811563491793533486884371 -0.044973228126764297485351562500 0.004305511713027954101562500000 0.002249378710985184149501181494 0 0 0 0 
2413666666.6666665077 0.174963355064392089843750000000 -0.045593149960041053081472028907 0.004454721696674823760986328125 0.002082326915115118026733398438 0 0 0 0 
2413833333.3333334923 0.173756882548332186599893134371 -0.046208512037992477416992187500 0.004224338568747043609619140625 0.002007334027439355850219726562 0 0 0 0 
2414000000.0000000000 0.172468245029449490646200615629 -0.047006696462631232524831403907 0.004494421184062957763671875000 0.001917510060593486049054789966 0 0 0 0 
2414166666.6666665077 0.171660274267196710784588731258 -0.047592163085937500000000000000 0.004485209006816148757934570312 0.001668564858846365971806191553 0 0 0 0 
2414333333.3333334923 0.170384079217910794357138115629 -0.048604317009449012065847028907 0.004570208024233579635620117188 0.001562297227792442061780620044 0 0 0 0 
2414500000.0000000000 0.169379994273185702224893134371 -0.049269251525402069091796875000 0.004441726487129926681518554688 0.001508789602667093060137104565 0 0 0 0 
2414666666.6666665077 0.168301492929458590408486884371 -0.050239633768796920776367187500 0.004567560274153947830200195312 0.001215888070873915932298969800 0 0 0 0 
2414833333.3333334923 0.166809141635894803146200615629 -0.051511783152818679809570312500 0.004696614108979701995849609375 0.001050899154506623961805034106 0 0 0 0 
2415000000.0000000000 0.165581196546554593185263115629 -0.052436005324125289916992187500 0.004692978225648403167724609375 0.001059860107488930008531879956 0 0 0 0 
2415166666.6666665077 0.164562389254570007324218750000 -0.053720295429229743267018903907 0.004723433405160903930664062500 0.000904972082935273647308349609 0 0 0 0 
2415333333.3333334923 0.163629591464996310135049384371 -0.055099453777074806903879533593 0.004778170492500066757202148438 0.000780030444730073213577270508 0 0 0 0 
2415500000.0000000000 0.162335768342018099685830634371 -0.056379906833171837543527971093 0.004692419897764921188354492188 0.000634756812360137701034545898 0 0 0 0 
2415666666.6666665077 0.161273762583732604980468750000 -0.057828642427921302104909528907 0.004866141825914382934570312500 0.000350581278325989788204747333 0 0 0 0 
2415833333.3333334923 0.160097524523735101897869981258 -0.059430655092000961303710937500 0.004780687857419252395629882812 0.000306044239550828879505711688 0 0 0 0 
2416000000.0000000000 0.159005239605903597732705634371 -0.061167635023593902587890625000 0.004754371941089630126953125000 0.000198777284822426709249773569 0 0 0 0 
2416166666.6666665077 0.158137515187263488769531250000 -0.062827162444591522216796875000 0.004817558918148279190063476562 0.000004171497948846081271767616 0 0 0 0 
2416333333.3333334923 0.157086730003356905838174384371 -0.064527131617069244384765625000 0.004677414428442716598510742188 -0.000202815121156163486555376596 0 0 0 0 
2416500000.0000000000 0.156215503811836187164630018742 -0.066325955092906951904296875000 0.004558495245873928070068359375 -0.000366443273378536105155944824 0 0 0 0 
2416666666.6666665077 0.155257016420364407638388115629 -0.068144768476486206054687500000 0.004496594890952110290527343750 -0.000603130727540701627731323242 0 0 0 0 
2416833333.3333334923 0.154543444514274597167968750000 -0.070093415677547454833984375000 0.004491078201681376370901777051 -0.000640409649349749088287353516 0 0 0 0 
2417000000.0000000000 0.153559550642967196365518134371 -0.072022363543510437011718750000 0.004550882615149021148681640625 -0.000882586231455206871032714844 0 0 0 0 
2417166666.6666665077 0.152970582246780395507812500000 -0.073830686509609222412109375000 0.004527890123426914215087890625 -0.000968893524259328842163085938 0 0 0 0 
2417333333.3333334923 0.152357310056686401367187500000 -0.075771048665046691894531250000 0.004242298658937215805053710938 -0.001082751434296369986293173682 0 0 0 0 
2417500000.0000000000 0.151656627655029296875000000000 -0.077794723212718963623046875000 0.004198819864541292190551757812 -0.000899940147064626216888427734 0 0 0 0 
2417666666.6666665077 0.151138201355934087555255018742 -0.079459957778453826904296875000 0.004331864882260560989379882812 -0.001095992047339678027509379810 0 0 0 0 
2417833333.3333334923 0.150687336921691894531250000000 -0.081304378807544708251953125000 0.004236351698637008666992187500 -0.001197245554067194895503378760 0 0 0 0 
2418000000.0000000000 0.150212526321411105056924384371 -0.083121739327907562255859375000 0.004185839556157588958740234375 -0.001324522425420582077623676831 0 0 0 0 
2418166666.6666665077 0.149972155690193204025106865629 -0.084772139787673950195312500000 0.004355773329734802246093750000 -0.001356750261038542010663676685 0 0 0 0 
2418333333.3333334923 0.149871364235877990722656250000 -0.086448907852172851562500000000 0.004192466847598552703857421875 -0.001523972256109118895289755713 0 0 0 0 
2418500000.0000000000 0.149463236331939697265625000000 -0.087951004505157470703125000000 0.004160742741078138351440429688 -0.001567903556860982938053750146 0 0 0 0 
2418666666.6666665077 0.149519026279449490646200615629 -0.089578025043010711669921875000 0.004202709998935461044311523438 -0.001480946666561067104339599609 0 0 0 0 
2418833333.3333334923 0.149350374937057495117187500000 -0.091025799512863159179687500000 0.004138797055929899215698242188 -0.001644979813136159940006875146 0 0 0 0 
2419000000.0000000000 0.149204939603805486481036268742 -0.092248253524303436279296875000 0.004126577172428370389456464551 -0.001851636799983680031420063550 0 0 0 0 
2419166666.6666665077 0.149356573820114107986611884371 -0.093447104096412658691406250000 0.004241991322487592697143554688 -0.001994852907955646948573447119 0 0 0 0 
2419333333.3333334923 0.149222880601882906814736884371 -0.094364263117313385009765625000 0.004046479240059852600097656250 -0.002041724277660251097438193213 0 0 0 0 
2419500000.0000000000 0.149461671710014287750567518742 -0.095624767243862152099609375000 0.004090373404324054718017578125 -0.002269802149385213851928710938 0 0 0 0 
2419666666.6666665077 0.149633541703224209884481865629 -0.096440888941287994384765625000 0.003999433014541864395141601562 -0.002250409917905927138087607275 0 0 0 0 
2419833333.3333334923 0.149859741330146789550781250000 -0.097178369760513305664062500000 0.003925062716007232666015625000 -0.002499151974916458129882812500 0 0 0 0 
