# Version 1.00
#
freq[Hz];re:Trc1_S11;im:Trc1_S11;re:Trc2_S21;im:Trc2_S21;
2.400000000000000E+009;1.682005524635315E-001;4.063142836093903E-002;-2.381148980930448E-003;-1.485653774579987E-004;
2.400166666666667E+009;1.688796728849411E-001;3.998937085270882E-002;-2.426297869533300E-003;-2.238298038719222E-004;
2.400333333333334E+009;1.694678217172623E-001;3.905077278614044E-002;-2.401467179879546E-003;-3.977911255788058E-004;
2.400500000000000E+009;1.699990630149841E-001;3.816428780555725E-002;-2.424777951091528E-003;-2.416912029730156E-004;
2.400666666666667E+009;1.702283769845963E-001;3.729109093546867E-002;-2.508369507268071E-003;-2.927645982708782E-004;
2.400833333333334E+009;1.706470847129822E-001;3.655318915843964E-002;-2.510640770196915E-003;-3.422603767830879E-004;
2.401000000000000E+009;1.708441972732544E-001;3.567340597510338E-002;-2.561585279181600E-003;-3.833700902760029E-004;
2.401166666666667E+009;1.712130308151245E-001;3.495385497808456E-002;-2.713910769671202E-003;-2.037402155110613E-004;
2.401333333333334E+009;1.713566184043884E-001;3.403104469180107E-002;-2.850351855158806E-003;-3.013729583472014E-004;
2.401500000000000E+009;1.714714169502258E-001;3.322238847613335E-002;-2.963250037282705E-003;-1.316929119639099E-004;
2.401666666666667E+009;1.717652380466461E-001;3.247452527284622E-002;-2.923226915299892E-003;6.973301788093522E-005;
2.401833333333334E+009;1.717289537191391E-001;3.142417222261429E-002;-3.044616430997849E-003;6.699532968923450E-005;
2.402000000000000E+009;1.717524528503418E-001;3.059277310967445E-002;-2.976275980472565E-003;3.563871723599732E-004;
2.402166666666667E+009;1.717937886714935E-001;2.956407330930233E-002;-2.872813725844026E-003;4.774688568431884E-004;
2.402333333333334E+009;1.714592128992081E-001;2.884873189032078E-002;-2.793377032503486E-003;5.134048988111317E-004;
2.402500000000000E+009;1.718549281358719E-001;2.781385369598866E-002;-2.851971192285419E-003;7.929737912490964E-004;
2.402666666666667E+009;1.717072129249573E-001;2.697390131652355E-002;-2.779299393296242E-003;7.522208034060895E-004;
2.402833333333334E+009;1.715251058340073E-001;2.586939744651318E-002;-2.787656383588910E-003;9.148805984295905E-004;
2.403000000000000E+009;1.714827418327332E-001;2.477471344172955E-002;-2.779797185212374E-003;1.020773430354893E-003;
2.403166666666667E+009;1.714089065790176E-001;2.363304607570171E-002;-2.476312452927232E-003;1.098930719308555E-003;
2.403333333333334E+009;1.713148057460785E-001;2.262940257787705E-002;-2.465482568368316E-003;1.260685734450817E-003;
2.403500000000000E+009;1.710256040096283E-001;2.132781594991684E-002;-2.449420280754566E-003;1.386374351568520E-003;
2.403666666666667E+009;1.709815859794617E-001;2.005714736878872E-002;-2.407677238807082E-003;1.452171825803816E-003;
2.403833333333334E+009;1.708708703517914E-001;1.877719908952713E-002;-2.307550748810172E-003;1.450900221243501E-003;
2.404000000000000E+009;1.708662211894989E-001;1.765186153352261E-002;-2.118066651746631E-003;1.426463364623487E-003;
2.404166666666667E+009;1.705148369073868E-001;1.628882996737957E-002;-2.105105435475707E-003;1.509957597590983E-003;
2.404333333333334E+009;1.704853773117065E-001;1.509980484843254E-002;-2.014965051785111E-003;1.462485990487039E-003;
2.404500000000000E+009;1.701827198266983E-001;1.341821160167456E-002;-1.838961034081876E-003;1.533949631266296E-003;
2.404666666666667E+009;1.700768619775772E-001;1.213720161467791E-002;-1.881583244539797E-003;1.322827767580748E-003;
2.404833333333334E+009;1.700393557548523E-001;1.065268367528915E-002;-1.992473145946860E-003;1.450736657716334E-003;
2.405000000000000E+009;1.699625253677368E-001;9.180669672787190E-003;-1.741537824273109E-003;1.184098655357957E-003;
2.405166666666667E+009;1.699572503566742E-001;7.647560909390450E-003;-1.747890491969883E-003;1.461515203118324E-003;
2.405333333333334E+009;1.699897348880768E-001;6.026765797287226E-003;-1.749102026224136E-003;1.443295273929834E-003;
2.405500000000000E+009;1.699338108301163E-001;4.451117478311062E-003;-1.963734393939376E-003;1.140933018177748E-003;
2.405666666666667E+009;1.698975563049316E-001;2.885258523747325E-003;-1.754025230184197E-003;1.435646321624517E-003;
2.405833333333334E+009;1.696767210960388E-001;1.441008294932544E-003;-1.899282447993755E-003;1.323627890087664E-003;
2.406000000000000E+009;1.697063893079758E-001;-4.876048187725246E-004;-1.961686648428440E-003;1.576203154399991E-003;
2.406166666666667E+009;1.694750785827637E-001;-1.765919965691865E-003;-1.825062092393637E-003;1.600803923793137E-003;
2.406333333333334E+009;1.696209013462067E-001;-3.432387486100197E-003;-2.001288114115596E-003;1.481737010180950E-003;
2.406500000000000E+009;1.694585382938385E-001;-5.254601128399372E-003;-1.865954138338566E-003;1.823411439545453E-003;
2.406666666666667E+009;1.691495776176453E-001;-6.618944462388754E-003;-1.780809834599495E-003;1.778690377250314E-003;
2.406833333333334E+009;1.691002398729324E-001;-8.348726667463779E-003;-1.736039528623223E-003;1.799489255063236E-003;
2.407000000000000E+009;1.689952611923218E-001;-9.845341555774212E-003;-1.694149454124272E-003;1.823068130761385E-003;
2.407166666666667E+009;1.688463985919952E-001;-1.126972585916519E-002;-1.547058345749974E-003;1.652781153097749E-003;
2.407333333333334E+009;1.685697287321091E-001;-1.258300337940455E-002;-1.528761582449079E-003;1.805646112188697E-003;
2.407500000000000E+009;1.685070842504501E-001;-1.395566854625940E-002;-1.841868972405791E-003;1.757395570166409E-003;
2.407666666666667E+009;1.682695448398590E-001;-1.501148194074631E-002;-1.601421623490751E-003;1.760760555043817E-003;
2.407833333333334E+009;1.681379079818726E-001;-1.646004803478718E-002;-1.627032994292676E-003;1.837725751101971E-003;
2.408000000000000E+009;1.679898053407669E-001;-1.749317348003388E-002;-1.643164898268879E-003;1.859552110545337E-003;
2.408166666666667E+009;1.679648458957672E-001;-1.833717152476311E-002;-1.680353074334562E-003;1.854815054684877E-003;
2.408333333333334E+009;1.680829226970673E-001;-1.928690820932388E-002;-1.655254047363997E-003;1.890054205432534E-003;
2.408500000000000E+009;1.680942326784134E-001;-2.026607468724251E-002;-1.735029160045087E-003;2.026968635618687E-003;
2.408666666666667E+009;1.679820120334625E-001;-2.113755792379379E-002;-1.755835488438606E-003;1.996588893234730E-003;
2.408833333333334E+009;1.681053787469864E-001;-2.200677059590817E-002;-1.849145162850618E-003;2.034531906247139E-003;
2.409000000000000E+009;1.683288514614105E-001;-2.266085147857666E-002;-1.735047553665936E-003;2.293661003932357E-003;
2.409166666666667E+009;1.684969961643219E-001;-2.368526905775070E-002;-1.824528560973704E-003;2.296068007126451E-003;
2.409333333333334E+009;1.687222421169281E-001;-2.457352727651596E-002;-1.818413380533457E-003;2.528765471652150E-003;
2.409500000000000E+009;1.689614206552506E-001;-2.555528283119202E-002;-1.819922821596265E-003;2.495517721399665E-003;
2.409666666666667E+009;1.689733117818832E-001;-2.633895166218281E-002;-1.738875056616962E-003;2.793550491333008E-003;
2.409833333333334E+009;1.690668910741806E-001;-2.713450975716114E-002;-1.660615904256702E-003;2.900313818827272E-003;
2.410000000000000E+009;1.692686080932617E-001;-2.800725586712360E-002;-1.840871525928378E-003;2.946414053440094E-003;
2.410166666666667E+009;1.694382280111313E-001;-2.905141375958920E-002;-1.635093591175973E-003;3.232277464121580E-003;
2.410333333333334E+009;1.693813651800156E-001;-2.983827516436577E-002;-1.509719179011881E-003;3.449250943958759E-003;
2.410500000000000E+009;1.692920774221420E-001;-3.081262670457363E-002;-1.427217968739569E-003;3.606725251302123E-003;
2.410666666666667E+009;1.692051738500595E-001;-3.178137168288231E-002;-1.224026666022837E-003;3.698542248457670E-003;
2.410833333333334E+009;1.692634969949722E-001;-3.242218121886253E-002;-8.696779841557145E-004;3.821974853053689E-003;
2.411000000000000E+009;1.691100746393204E-001;-3.342140838503838E-002;-6.489301449619234E-004;3.934450447559357E-003;
2.411166666666667E+009;1.689081639051437E-001;-3.426505625247955E-002;-5.735774757340550E-004;4.016072023659945E-003;
2.411333333333334E+009;1.686345934867859E-001;-3.497898206114769E-002;-4.253785300534219E-004;4.051421303302050E-003;
2.411500000000000E+009;1.684608608484268E-001;-3.593563288450241E-002;-9.412573854206130E-005;4.106526728719473E-003;
2.411666666666667E+009;1.683655530214310E-001;-3.697242960333824E-002;1.359205052722246E-004;3.932138904929161E-003;
2.411833333333334E+009;1.681257337331772E-001;-3.765930980443955E-002;3.559416509233415E-004;3.942171577364206E-003;
2.412000000000000E+009;1.679660975933075E-001;-3.861833736300468E-002;4.742335586342961E-004;4.012849181890488E-003;
2.412166666666667E+009;1.674872040748596E-001;-3.936284407973290E-002;6.766607984900475E-004;3.942995332181454E-003;
2.412333333333334E+009;1.673008352518082E-001;-4.019296914339066E-002;8.602416492067277E-004;3.921743948012590E-003;
2.412500000000000E+009;1.668919771909714E-001;-4.107948392629623E-002;8.757543400861323E-004;3.850623033940792E-003;
2.412666666666667E+009;1.665864586830139E-001;-4.248544573783875E-002;1.142708933912218E-003;3.754206933081150E-003;
2.412833333333334E+009;1.661989092826843E-001;-4.328518360853195E-002;1.312319654971361E-003;3.802947001531720E-003;
2.413000000000000E+009;1.657424420118332E-001;-4.429089650511742E-002;1.256972784176469E-003;3.689165692776442E-003;
2.413166666666667E+009;1.652872562408447E-001;-4.508874192833901E-002;1.574738067574799E-003;3.636911977082491E-003;
2.413333333333334E+009;1.646478325128555E-001;-4.622818157076836E-002;1.709054806269705E-003;3.614987712353468E-003;
2.413500000000000E+009;1.643665730953217E-001;-4.709466546773911E-002;1.814580638892949E-003;3.658886766061187E-003;
2.413666666666667E+009;1.637021005153656E-001;-4.825776442885399E-002;1.870926469564438E-003;3.472409676760435E-003;
2.413833333333334E+009;1.631422936916351E-001;-4.924309998750687E-002;2.132683061063290E-003;3.337626112625003E-003;
2.414000000000000E+009;1.626244932413101E-001;-5.026208981871605E-002;2.276409184560180E-003;3.297000657767057E-003;
2.414166666666667E+009;1.624381840229034E-001;-5.119805783033371E-002;2.274913480505347E-003;3.169405041262507E-003;
2.414333333333334E+009;1.617869287729263E-001;-5.231314897537231E-002;2.493313048034906E-003;3.029284765943885E-003;
2.414500000000000E+009;1.616637110710144E-001;-5.312997102737427E-002;2.537182532250881E-003;2.948187990114093E-003;
2.414666666666667E+009;1.613276302814484E-001;-5.415896698832512E-002;2.578090410679579E-003;2.858430612832308E-003;
2.414833333333334E+009;1.610258966684341E-001;-5.510725453495979E-002;2.580224536359310E-003;2.695252420380712E-003;
2.415000000000000E+009;1.606545597314835E-001;-5.612885206937790E-002;2.699285047128797E-003;2.697255462408066E-003;
2.415166666666667E+009;1.605231463909149E-001;-5.735905840992928E-002;2.805012511089444E-003;2.494447166100144E-003;
2.415333333333334E+009;1.603957563638687E-001;-5.849494412541390E-002;2.920038998126984E-003;2.384096384048462E-003;
2.415500000000000E+009;1.601740270853043E-001;-5.960657075047493E-002;3.104740055277944E-003;2.215671585872769E-003;
2.415666666666667E+009;1.599985957145691E-001;-6.072290614247322E-002;2.980947960168123E-003;2.076073316857219E-003;
2.415833333333334E+009;1.599026620388031E-001;-6.198439002037048E-002;3.205690067261457E-003;2.145889215171337E-003;
2.416000000000000E+009;1.594854295253754E-001;-6.320156157016754E-002;3.100625239312649E-003;1.789953559637070E-003;
2.416166666666667E+009;1.595597714185715E-001;-6.434977054595947E-002;3.294903086498380E-003;1.928404672071338E-003;
2.416333333333334E+009;1.592380553483963E-001;-6.570599228143692E-002;3.210299648344517E-003;1.615424524061382E-003;
2.416500000000000E+009;1.589692980051041E-001;-6.700875610113144E-002;3.288006410002708E-003;1.440086518414319E-003;
2.416666666666667E+009;1.586871892213821E-001;-6.808432191610336E-002;3.186442423611879E-003;1.320773502811790E-003;
2.416833333333334E+009;1.584961861371994E-001;-6.936147809028626E-002;3.048593178391457E-003;1.216051517985761E-003;
2.417000000000000E+009;1.579542458057404E-001;-7.054951786994934E-002;3.129822667688131E-003;1.057934365235269E-003;
2.417166666666667E+009;1.578278988599777E-001;-7.167211174964905E-002;3.277575364336371E-003;9.301964309997857E-004;
2.417333333333334E+009;1.574481725692749E-001;-7.257697731256485E-002;3.141203429549933E-003;8.947983151301742E-004;
2.417500000000000E+009;1.570650786161423E-001;-7.366317510604858E-002;3.246907610446215E-003;7.826687069609761E-004;
2.417666666666667E+009;1.568956971168518E-001;-7.459646463394165E-002;3.215422620996833E-003;7.005340303294361E-004;
2.417833333333334E+009;1.565535664558411E-001;-7.539421319961548E-002;3.243794664740562E-003;6.583493086509407E-004;
2.418000000000000E+009;1.562034189701080E-001;-7.640611380338669E-002;3.052524523809552E-003;6.273449980653822E-004;
2.418166666666667E+009;1.560470014810562E-001;-7.718565315008164E-002;3.160042222589254E-003;4.139100783504546E-004;
2.418333333333334E+009;1.559957265853882E-001;-7.804095745086670E-002;3.194017801433802E-003;5.332851433195174E-004;
2.418500000000000E+009;1.555602401494980E-001;-7.886175066232681E-002;3.231419250369072E-003;4.490319697652012E-004;
2.418666666666667E+009;1.554974019527435E-001;-7.965970784425736E-002;3.033831715583801E-003;3.901168529409915E-004;
2.418833333333334E+009;1.549968570470810E-001;-8.034204691648483E-002;3.235218347981572E-003;2.291065175086260E-004;
2.419000000000000E+009;1.546143889427185E-001;-8.125869929790497E-002;3.121765097603202E-003;1.690286735538393E-004;
2.419166666666667E+009;1.545343697071075E-001;-8.184534311294556E-002;3.209838643670082E-003;1.265477112610824E-005;
2.419333333333334E+009;1.540110111236572E-001;-8.237286657094955E-002;3.188009839504957E-003;4.664732114179060E-005;
2.419500000000000E+009;1.538093388080597E-001;-8.316528052091599E-002;3.174115903675556E-003;7.231610197777627E-006;
2.419666666666667E+009;1.534474641084671E-001;-8.385465294122696E-002;3.180809551849961E-003;-1.574056295794435E-005;
2.419833333333334E+009;1.531266570091248E-001;-8.427942544221878E-002;3.297645132988691E-003;-8.661745960125700E-005;
2.420000000000000E+009;1.527807414531708E-001;-8.494999259710312E-002;3.357278415933251E-003;-3.092983970418572E-004;
2.420166666666667E+009;1.524884849786758E-001;-8.539436012506485E-002;3.303085686638951E-003;-4.475774767342955E-004;
2.420333333333334E+009;1.522222310304642E-001;-8.604420721530914E-002;3.249255707487464E-003;-6.840894930064678E-004;
2.420500000000000E+009;1.518079191446304E-001;-8.640909194946289E-002;3.064807271584868E-003;-8.894970524124801E-004;
2.420666666666667E+009;1.513476818799973E-001;-8.677655458450317E-002;3.158855717629194E-003;-9.382846183143556E-004;
2.420833333333334E+009;1.510733962059021E-001;-8.746769279241562E-002;3.113350132480264E-003;-9.802649728953838E-004;
2.421000000000000E+009;1.505499184131622E-001;-8.835513889789581E-002;2.911754418164492E-003;-1.215706928633153E-003;
2.421166666666667E+009;1.501999497413635E-001;-8.879460394382477E-002;2.893614117056131E-003;-1.217424985952675E-003;
2.421333333333334E+009;1.498476564884186E-001;-8.951377868652344E-002;2.895748475566506E-003;-1.348212594166398E-003;
2.421500000000000E+009;1.492121070623398E-001;-9.004154056310654E-002;2.791584935039282E-003;-1.558217918500304E-003;
2.421666666666667E+009;1.486834883689880E-001;-9.080473333597183E-002;2.651532180607319E-003;-1.651052734814584E-003;
2.421833333333334E+009;1.482908129692078E-001;-9.148258715867996E-002;2.514203544706106E-003;-1.587260514497757E-003;
2.422000000000000E+009;1.474288403987885E-001;-9.203168749809265E-002;2.439492149278522E-003;-1.678388565778732E-003;
2.422166666666667E+009;1.468737572431564E-001;-9.278899431228638E-002;2.436873968690634E-003;-1.699747866950929E-003;
2.422333333333334E+009;1.464225798845291E-001;-9.357770532369614E-002;2.262236084789038E-003;-1.853893394581974E-003;
2.422500000000000E+009;1.456806659698486E-001;-9.436547756195068E-002;2.173192100599408E-003;-1.941026421263814E-003;
2.422666666666667E+009;1.449591964483261E-001;-9.507830440998077E-002;2.036114921793342E-003;-1.882080803625286E-003;
2.422833333333334E+009;1.444139033555985E-001;-9.618895500898361E-002;1.794577576220036E-003;-1.856853021308780E-003;
2.423000000000000E+009;1.436181962490082E-001;-9.682304412126541E-002;1.709801028482616E-003;-1.848206971772015E-003;
2.423166666666667E+009;1.430741101503372E-001;-9.763187915086746E-002;1.743339700624347E-003;-1.819482073187828E-003;
2.423333333333334E+009;1.424308419227600E-001;-9.841705113649368E-002;1.761555671691895E-003;-1.906012766994536E-003;
2.423500000000000E+009;1.417366117238998E-001;-9.945185482501984E-002;1.487476984038949E-003;-1.790156587958336E-003;
2.423666666666667E+009;1.409103125333786E-001;-1.004987359046936E-001;1.474414253607392E-003;-1.719302614219487E-003;
2.423833333333334E+009;1.404128372669220E-001;-1.014397516846657E-001;1.402002759277821E-003;-1.725543988868594E-003;
2.424000000000000E+009;1.395245939493179E-001;-1.022651493549347E-001;1.341579249128699E-003;-1.652585342526436E-003;
2.424166666666667E+009;1.388114839792252E-001;-1.031371653079987E-001;1.412653946317732E-003;-1.646616612561047E-003;
2.424333333333334E+009;1.382256746292114E-001;-1.041085869073868E-001;1.278029056265950E-003;-1.528041670098901E-003;
2.424500000000000E+009;1.374693363904953E-001;-1.052509471774101E-001;1.406820141710341E-003;-1.462822314351797E-003;
2.424666666666667E+009;1.370250731706619E-001;-1.059608757495880E-001;1.394373131915927E-003;-1.651299768127501E-003;
2.424833333333334E+009;1.363058984279633E-001;-1.070766150951386E-001;1.310071558691561E-003;-1.475307159125805E-003;
2.425000000000000E+009;1.357832998037338E-001;-1.080489456653595E-001;1.504790387116373E-003;-1.455582445487380E-003;
2.425166666666667E+009;1.349839717149735E-001;-1.090932041406632E-001;1.416725339367986E-003;-1.671117614023387E-003;
2.425333333333334E+009;1.345483511686325E-001;-1.100576594471932E-001;1.366288634017110E-003;-1.515780109912157E-003;
2.425500000000000E+009;1.341519653797150E-001;-1.110334321856499E-001;1.478698570281267E-003;-1.629862235859036E-003;
2.425666666666667E+009;1.334971934556961E-001;-1.120679974555969E-001;1.409744378179312E-003;-1.727784750983119E-003;
2.425833333333334E+009;1.329611092805862E-001;-1.130750104784966E-001;1.552545814774931E-003;-1.553288428112865E-003;
2.426000000000000E+009;1.325064450502396E-001;-1.141758635640144E-001;1.510267728008330E-003;-1.853191060945392E-003;
2.426166666666667E+009;1.323052793741226E-001;-1.151148229837418E-001;1.500727608799934E-003;-1.722021261230111E-003;
2.426333333333334E+009;1.316493600606918E-001;-1.161116063594818E-001;1.495253061875701E-003;-1.755612553097308E-003;
2.426500000000000E+009;1.312010735273361E-001;-1.168582886457443E-001;1.401973539032042E-003;-1.795490388758481E-003;
2.426666666666667E+009;1.309542357921600E-001;-1.177266761660576E-001;1.443138695321977E-003;-1.996287610381842E-003;
2.426833333333334E+009;1.304630488157272E-001;-1.186181828379631E-001;1.467995345592499E-003;-1.970713259652257E-003;
2.427000000000000E+009;1.300937533378601E-001;-1.194925531744957E-001;1.367080723866820E-003;-2.113317139446735E-003;
2.427166666666667E+009;1.297094672918320E-001;-1.201784312725067E-001;1.612389110960066E-003;-2.053349511697888E-003;
2.427333333333334E+009;1.293552368879318E-001;-1.209568381309509E-001;1.308185164816678E-003;-2.132636960595846E-003;
2.427500000000000E+009;1.291758865118027E-001;-1.217011660337448E-001;1.588973449543119E-003;-2.149167237803340E-003;
2.427666666666667E+009;1.287518143653870E-001;-1.224475875496864E-001;1.512722927145660E-003;-2.177245682105422E-003;
2.427833333333334E+009;1.284713149070740E-001;-1.230944246053696E-001;1.475880155339837E-003;-2.430879976600409E-003;
