# Hz S RI R 
2400000000.0000000000 0.171063214540481595138388115629 0.039835955947637557983398437500 0.002373151946812868118286132812 0.002125770784914493994471884619 0 0 0 0 
2400166666.6666665077 0.171547874808311490157919365629 0.039450481534004211425781250000 0.002317833481356502012965536963 0.002016770420596003966090536963 0 0 0 0 
2400333333.3333334923 0.172103568911552401443643134371 0.038830652832984917377512346093 0.002502737333998084068298339844 0.001965819159522653059718466650 0 0 0 0 
2400500000.0000000000 0.172692045569419888595419365629 0.038234844803810119628906250000 0.002544506918638945059535361182 0.001567588769830762906315468896 0 0 0 0 
2400666666.6666665077 0.172775849699974087814169365629 0.037564933300018310546875000000 0.002512315986678003831150673975 0.001508245593868196010589599609 0 0 0 0 
2400833333.3333334923 0.173087477684020996093750000000 0.037129722535610198974609375000 0.002473979024216533140895224463 0.001355987042188643975498818506 0 0 0 0 
2401000000.0000000000 0.173261433839798001388388115629 0.036391440778970718383789062500 0.002443401142954825921299599756 0.001147544011473655917524028247 0 0 0 0 
2401166666.6666665077 0.173318535089492797851562500000 0.035746674984693527221679687500 0.002479193033650517897364951025 0.001173855853267014026641845703 0 0 0 0 
2401333333.3333334923 0.173432484269142206390057481258 0.035302489995956420898437500000 0.002228735247626901106593466650 0.001003738841973244927049946362 0 0 0 0 
2401500000.0000000000 0.173440054059028597732705634371 0.034457728266716003417968750000 0.002261266577988862991333007812 0.000758068112190812826156616211 0 0 0 0 
2401666666.6666665077 0.173350661993026705642861884371 0.034043595194816589355468750000 0.002362727187573910193202353369 0.000853624893352389335632324219 0 0 0 0 
2401833333.3333334923 0.173136681318283108810263115629 0.033224008977413177490234375000 0.002171752508729695840122841943 0.000764880911447107791900634766 0 0 0 0 
2402000000.0000000000 0.173031568527221707443075615629 0.032586123794317252422292341407 0.002140452852472662925720214844 0.000676854106131941080093383789 0 0 0 0 
2402166666.6666665077 0.172888919711113003829794365629 0.031800258904695510864257812500 0.002181380055844784216639853369 0.000748922058846801519393920898 0 0 0 0 
2402333333.3333334923 0.172613412141799899002236884371 0.030998092144727710378626639454 0.002133901929482818083522177588 0.000713204382918775081634521484 0 0 0 0 
2402500000.0000000000 0.172576412558555603027343750000 0.030105780810117721557617187500 0.002163969445973635153529501807 0.000668240245431661605834960938 0 0 0 0 
2402666666.6666665077 0.172180265188217190841513115629 0.029205664992332458496093750000 0.002040811115875840187072753906 0.000829846598207950592041015625 0 0 0 0 
2402833333.3333334923 0.171777278184890802581463731258 0.028127463534474369394322579296 0.002253014827147126197814941406 0.000686344748828560113906860352 0 0 0 0 
2403000000.0000000000 0.171554893255233792404013115629 0.026818564161658290517786795704 0.001929764752276241996167827075 0.000505774922203272581100463867 0 0 0 0 
2403166666.6666665077 0.171270966529846191406250000000 0.025896184146404269826868826954 0.002049161586910485787632607568 0.000590100709814578294754028320 0 0 0 0 
2403333333.3333334923 0.171050131320953396896200615629 0.024914089590311050415039062500 0.002082655671983956856968545068 0.000500565860420465469360351562 0 0 0 0 
2403500000.0000000000 0.170300468802452087402343750000 0.023525115102529529226282889454 0.002239679684862494902369833838 0.000394321774365380406379699707 0 0 0 0 
2403666666.6666665077 0.170210719108581487457598768742 0.022124467417597770690917968750 0.002220329130068420930149697412 0.000540848006494343280792236328 0 0 0 0 
2403833333.3333334923 0.169973075389862088302450615629 0.020603111013770099985142891796 0.002058038720861076874973916162 0.000471127277705818414688110352 0 0 0 0 
2404000000.0000000000 0.169643029570579501053018134371 0.019369648769497871398925781250 0.002396700205281376838684082031 0.000353594834450632279545384540 0 0 0 0 
2404166666.6666665077 0.169085264205932589431924384371 0.017868712544441219675084298046 0.002245774259790778160095214844 0.000161345233209431198522290640 0 0 0 0 
2404333333.3333334923 0.169017568230628995040731865629 0.016397580504417419433593750000 0.002186259254813193841221474756 0.000316798192216083407402038574 0 0 0 0 
2404500000.0000000000 0.168657943606376703460369981258 0.014570890925824640446673008398 0.002266837283968925909755087744 0.000150744308484718203544616699 0 0 0 0 
2404666666.6666665077 0.168491989374160794357138115629 0.012945450842380520212193673046 0.002439870033413172201869345557 0.000108545667899306904203952928 0 0 0 0 
2404833333.3333334923 0.168228879570960998535156250000 0.011490716598927979905098162305 0.002160850446671247915980673682 0.000012806386621377899905646972 0 0 0 0 
2405000000.0000000000 0.168177753686904907226562500000 0.009414982050657272338867187500 0.002149504376575351195094443213 -0.000003269385842941118912075319 0 0 0 0 
2405166666.6666665077 0.168130934238433810135049384371 0.007712192833423615369314862988 0.002282426459714769883396767725 -0.000102359023003373295068740845 0 0 0 0 
2405333333.3333334923 0.168123990297317504882812500000 0.005773495417088270187377929688 0.002250917023047804832458496094 -0.000226436139200814095422467642 0 0 0 0 
2405500000.0000000000 0.168069243431091308593750000000 0.004079545382410287857055664062 0.002414118731394410133361816406 -0.000284681096673011779785156250 0 0 0 0 
2405666666.6666665077 0.167971253395080594161825615629 0.002348809735849500136134482275 0.002223482122644782066345214844 -0.000254625250818207914203089581 0 0 0 0 
2405833333.3333334923 0.167968645691871587555255018742 0.000504907511640340089797973633 0.002255430910736321969273232568 -0.000390728237107396125793457031 0 0 0 0 
2406000000.0000000000 0.168159276247024508377236884371 -0.001531453686766325993778847803 0.002158282790333033041713095557 -0.000580438587348908185958862305 0 0 0 0 
2406166666.6666665077 0.167972043156623812576455634371 -0.003074937732890247864964150537 0.002088395180180668830871582031 -0.000447904400061815977096557617 0 0 0 0 
2406333333.3333334923 0.168021902441978510100994981258 -0.005275921430438756942749023438 0.002212480176240206198451376807 -0.000565532245673239231109619141 0 0 0 0 
2406500000.0000000000 0.167966827750205993652343750000 -0.007059852592647075653076171875 0.002075237222015858130214072119 -0.000487561075715348124504089355 0 0 0 0 
2406666666.6666665077 0.167829796671867398361044365629 -0.008586931973695755004882812500 0.001968710217624903158900595557 -0.000495904299896210432052612305 0 0 0 0 
2406833333.3333334923 0.167956098914146395584268134371 -0.010570923797786239278773123829 0.002075412077829242186305380713 -0.000484806136228144223063868390 0 0 0 0 
2407000000.0000000000 0.168129339814186096191406250000 -0.012202163226902490097969256055 0.002016764832660555839538574219 -0.000680569384712725877761840820 0 0 0 0 
2407166666.6666665077 0.168204560875892611404580634371 -0.013687177561223510396937186329 0.002332140691578388214111328125 -0.000786635268013924360275268555 0 0 0 0 
2407333333.3333334923 0.168097242712974603850994981258 -0.015165704302489759272565272852 0.002162619726732372803928994287 -0.000785920245107263326644897461 0 0 0 0 
2407500000.0000000000 0.168126627802848788162393134371 -0.016585683450102809560755545704 0.002160530537366867065429687500 -0.000858349550981074571609497070 0 0 0 0 
2407666666.6666665077 0.168290257453918512542401231258 -0.017853545024991038930872733204 0.002304557245224713845493935693 -0.000982875470072031021118164062 0 0 0 0 
2407833333.3333334923 0.168125167489051791092080634371 -0.019216777756810188293457031250 0.002219008747488259835484170068 -0.000996493268758058547973632812 0 0 0 0 
2408000000.0000000000 0.168396294116973904708700615629 -0.020423909649252891540527343750 0.002112140180543065071105957031 -0.001136866165325046019313193213 0 0 0 0 
2408166666.6666665077 0.168452650308609008789062500000 -0.021142739802598949777623360546 0.002230806509032845930812216650 -0.001233729417435825087903666919 0 0 0 0 
2408333333.3333334923 0.168895319104194613357705634371 -0.022178759798407561565358747657 0.002113135531544684930088662256 -0.001296180649660527922986674731 0 0 0 0 
2408500000.0000000000 0.168884634971618707854901231258 -0.023179205134510990488072579296 0.002000021748244761986973427881 -0.001415949431248008988024067456 0 0 0 0 
2408666666.6666665077 0.169306844472885104080361884371 -0.023877331987023350107213204296 0.002063278341665863990783691406 -0.001510156085714698054670024341 0 0 0 0 
2408833333.3333334923 0.169625133275985690017861884371 -0.024740034714341160165806954296 0.001958021195605396790745400537 -0.001524427323602139949798583984 0 0 0 0 
2409000000.0000000000 0.169850885868072509765625000000 -0.025338275358080860483189766796 0.001771166105754673914668417822 -0.001899410854093730015995644678 0 0 0 0 
2409166666.6666665077 0.170349419116973904708700615629 -0.026215504854917529714564139454 0.001657956396229564926744770581 -0.001829234650358557917951274341 0 0 0 0 
2409333333.3333334923 0.170728236436843899825888115629 -0.026871513575315478933314139454 0.001640114584006368897081684644 -0.001983523368835448785069131006 0 0 0 0 
2409500000.0000000000 0.170949190855026300628338731258 -0.027730161324143409729003906250 0.001562534365803003094316792065 -0.001929852878674864985822368091 0 0 0 0 
2409666666.6666665077 0.171200111508369501311932481258 -0.028313329443335529672642891796 0.001169964903965591950657509912 -0.001916363486088811917545937646 0 0 0 0 
2409833333.3333334923 0.171408712863922091385049384371 -0.029021248221397399902343750000 0.001115751103498042063472128760 -0.001888870378024875900865864331 0 0 0 0 
2410000000.0000000000 0.171537935733795193771200615629 -0.029615186154842380178431326954 0.000955442490521818399429321289 -0.001977101201191544966456747900 0 0 0 0 
2410166666.6666665077 0.171726763248443603515625000000 -0.030423415824770930898646170704 0.000926480686757713556289672852 -0.001870704116299747987034463037 0 0 0 0 
2410333333.3333334923 0.171673387289047213455361884371 -0.030941264703869819641113281250 0.000826263742055743932723999023 -0.001799607533030211925506591797 0 0 0 0 
2410500000.0000000000 0.171807423233985900878906250000 -0.031622879207134246826171875000 0.000762251846026629209518432617 -0.001774133066646754958509135669 0 0 0 0 
2410666666.6666665077 0.171678051352500887771768134371 -0.032387461513280868530273437500 0.000664300459902733564376831055 -0.001559859607368708090541220557 0 0 0 0 
2410833333.3333334923 0.171633079648017911056356865629 -0.033061884343624121929128278907 0.000663466227706521749496459961 -0.001534209819510578892351460034 0 0 0 0 
2411000000.0000000000 0.171442374587058993240518134371 -0.033621162176132202148437500000 0.000747391139157116413116455078 -0.001327741192653774998308491284 0 0 0 0 
2411166666.6666665077 0.171114474534988403320312500000 -0.034085460007190697406809221093 0.000630658876616507768630981445 -0.001375988591462373950360942310 0 0 0 0 
2411333333.3333334923 0.170823365449905395507812500000 -0.034657754004001617431640625000 0.000708606326952576637268066406 -0.001292973989620805003522563403 0 0 0 0 
2411500000.0000000000 0.170444712042808504959268134371 -0.035624559968709952617604841407 0.000779901165515184402465820312 -0.001211288385093211910845112378 0 0 0 0 
2411666666.6666665077 0.170305535197257995605468750000 -0.036103837192058563232421875000 0.000779367808718234300613403320 -0.001181589090265334086177206885 0 0 0 0 
2411833333.3333334923 0.170015439391136197189169365629 -0.036866944283246987079660783593 0.001064257929101585908177041162 -0.001145809306763112978694296729 0 0 0 0 
2412000000.0000000000 0.169470682740211486816406250000 -0.037495438009500496601145158593 0.001128686009906231923344277490 -0.001292774803005158901214599609 0 0 0 0 
2412166666.6666665077 0.168954864144325311858807481258 -0.038309555500745773315429687500 0.001094297505915164947509765625 -0.001303167198784648938419961084 0 0 0 0 
2412333333.3333334923 0.168638005852699307540731865629 -0.039234533905982971191406250000 0.001356653985567390918731689453 -0.001273673609830439090728759766 0 0 0 0 
2412500000.0000000000 0.167771264910697909256143134371 -0.040019817650318152690847028907 0.001146601862274110100389790112 -0.001372221042402089075801230322 0 0 0 0 
2412666666.6666665077 0.167454287409782409667968750000 -0.040955897420644760131835937500 0.001285379286855458996416401440 -0.001628319849260150952580117334 0 0 0 0 
2412833333.3333334923 0.166703879833221407791299384371 -0.041769776493310928344726562500 0.001489080488681792996050190503 -0.001706694718450308062909770435 0 0 0 0 
2413000000.0000000000 0.166101694107055691818075615629 -0.042617887258529663085937500000 0.001525809755548835017560649341 -0.001828522072173655033111572266 0 0 0 0 
2413166666.6666665077 0.165284201502799987792968750000 -0.043523814529180526733398437500 0.001480474718846380927442241138 -0.001891879714094101948979043115 0 0 0 0 
2413333333.3333334923 0.164619281888008089920205634371 -0.044691961258649832988698591407 0.001335067907348274967790913159 -0.002046317327767610983607626807 0 0 0 0 
2413500000.0000000000 0.163887679576873807052450615629 -0.045713320374488830566406250000 0.001345109078101814010022807544 -0.002194029977545142173767089844 0 0 0 0 
2413666666.6666665077 0.163330867886543301681356865629 -0.046885415911674499511718750000 0.001399802509695291952845908057 -0.002240523928776382966282509912 0 0 0 0 
2413833333.3333334923 0.162470966577529907226562500000 -0.047893125563859939575195312500 0.001417061430402100086212158203 -0.002296427264809608893153525244 0 0 0 0 
2414000000.0000000000 0.161803796887397793868856865629 -0.048869486898183822631835937500 0.001132718636654316945316933740 -0.002541696652770041985752724756 0 0 0 0 
2414166666.6666665077 0.161211565136909512618856865629 -0.050032239407300949096679687500 0.001160187297500669956207275391 -0.002766359364613891081569052588 0 0 0 0 
2414333333.3333334923 0.160640940070152310470419365629 -0.051095865666866302490234375000 0.001083823735825717015507363428 -0.002973539521917701201197958838 0 0 0 0 
2414500000.0000000000 0.160296887159347506424111884371 -0.052115160971879959106445312500 0.000951820577029138803482055664 -0.003060929011553525924682617188 0 0 0 0 
2414666666.6666665077 0.159700766205787686446981865629 -0.053460724651813507080078125000 0.000873796117957681417465209961 -0.003292602719739079909083701025 0 0 0 0 
2414833333.3333334923 0.159138962626457186599893134371 -0.054652936756610870361328125000 0.000664519320707768201828002930 -0.003387585282325745062587118994 0 0 0 0 
2415000000.0000000000 0.158787697553634588043536268742 -0.055831577628850936889648437500 0.000323280342854559421539306641 -0.003503461135551332993748330225 0 0 0 0 
2415166666.6666665077 0.158411130309104891678018134371 -0.057105634361505508422851562500 0.000253665930358693003654479980 -0.003439033171162008805515908350 0 0 0 0 
2415333333.3333334923 0.158287748694419888595419365629 -0.058631744235754013061523437500 -0.000019844961570925079286098480 -0.003689194796606897874119423975 0 0 0 0 
2415500000.0000000000 0.158057704567909212967080634371 -0.059752319008111946796457658593 -0.000258458632742986083030700684 -0.003611932275816798210144042969 0 0 0 0 
2415666666.6666665077 0.157681867480277987381143134371 -0.061248671263456351543386091407 -0.000611586787272244691848754883 -0.003780569648370147185084677588 0 0 0 0 
2415833333.3333334923 0.157687440514564486404580634371 -0.062592953443527221679687500000 -0.000768790079746395349502563477 -0.003719514003023505210876464844 0 0 0 0 
2416000000.0000000000 0.157334402203559903243856865629 -0.064085513353347778320312500000 -0.001125693670473993041394877856 -0.003575373440980910821201943506 0 0 0 0 
2416166666.6666665077 0.157359287142753601074218750000 -0.065463252365589141845703125000 -0.001159981708042324023005820166 -0.003469780087471007867100381006 0 0 0 0 
2416333333.3333334923 0.157217547297477694412393134371 -0.066888585686683654785156250000 -0.001644553034566343047498393481 -0.003252462251111865043640136719 0 0 0 0 
2416500000.0000000000 0.156953811645507812500000000000 -0.068426169455051422119140625000 -0.001623509218916296958923339844 -0.003194622462615371184108115088 0 0 0 0 
2416666666.6666665077 0.156784072518348693847656250000 -0.069676660001277923583984375000 -0.001761522958986460945726704175 -0.003015178721398115158081054688 0 0 0 0 
2416833333.3333334923 0.156642735004425104339276231258 -0.071224056184291839599609375000 -0.001872127992101014094111777197 -0.002912067342549562887904501807 0 0 0 0 
2417000000.0000000000 0.156274154782295199295205634371 -0.072431772947311401367187500000 -0.001918400055728852965711284106 -0.002721534809097648100612021338 0 0 0 0 
2417166666.6666665077 0.156222954392433194259481865629 -0.073559224605560302734375000000 -0.002014427911490201950073242188 -0.002639343729242682890651083838 0 0 0 0 
2417333333.3333334923 0.156100794672966003417968750000 -0.074788242578506469726562500000 -0.002056780969724059104919433594 -0.002420532284304500059840536963 0 0 0 0 
2417500000.0000000000 0.155920460820198086837606865629 -0.076049968600273132324218750000 -0.002144586760550736947300576318 -0.002418801188468933105468750000 0 0 0 0 
2417666666.6666665077 0.155915588140487698654013115629 -0.076964966952800750732421875000 -0.002245242241770029067993164062 -0.002229440724477171897888183594 0 0 0 0 
2417833333.3333334923 0.155821874737739590743856865629 -0.077977776527404785156250000000 -0.002303715096786617799046181787 -0.002117178635671734809875488281 0 0 0 0 
2418000000.0000000000 0.155717372894287109375000000000 -0.078933522105216979980468750000 -0.002326675923541187806370400537 -0.002040510531514883041381835938 0 0 0 0 
2418166666.6666665077 0.155583217740058898925781250000 -0.079764217138290405273437500000 -0.002274323720484972000122070312 -0.001777847297489643096923828125 0 0 0 0 
2418333333.3333334923 0.155760705471038790603799384371 -0.080792814493179321289062500000 -0.002500546397641301155090332031 -0.001777644269168376922607421875 0 0 0 0 
2418500000.0000000000 0.155667409300804110428018134371 -0.081445179879665374755859375000 -0.002490958198904991149902343750 -0.001734265359118581035016704028 0 0 0 0 
2418666666.6666665077 0.155609861016273498535156250000 -0.082258604466915130615234375000 -0.002599439816549419923069619287 -0.001385757466778158924700092847 0 0 0 0 
2418833333.3333334923 0.155349731445312500000000000000 -0.083015307784080505371093750000 -0.002685414394363760948181152344 -0.001402896363288163921953510815 0 0 0 0 
2419000000.0000000000 0.155228719115257290939169365629 -0.083729244768619537353515625000 -0.002647354966029524803161621094 -0.001330652623437345027923583984 0 0 0 0 
2419166666.6666665077 0.155239537358283996582031250000 -0.084210567176342010498046875000 -0.002627042820677161216735839844 -0.001207763794809580066083598560 0 0 0 0 
2419333333.3333334923 0.154895603656768798828125000000 -0.084581822156906127929687500000 -0.002692170906811953024623251807 -0.001003923243843019008636474609 0 0 0 0 
2419500000.0000000000 0.154688239097595187088174384371 -0.085261784493923187255859375000 -0.002782407216727734045741415869 -0.000961889280006289482116699219 0 0 0 0 
2419666666.6666665077 0.154694586992263793945312500000 -0.085823267698287963867187500000 -0.002661417936906218962428427588 -0.000704662001226097453772390100 0 0 0 0 
2419833333.3333334923 0.154117837548255892654580634371 -0.086020052433013916015625000000 -0.002429581480100750923156738281 -0.000692446425091475248336791992 0 0 0 0 
