# Hz S RI R 50
2400000000.0000000000 0.171024665236473111251669365629 0.039853028953075408935546875000 0.002293969970196485953090048682 0.002095641801133751869201660156 0 0 0 0 
2400166666.6666665077 0.171648204326629610916299384371 0.039398051798343658447265625000 0.002317918697372078895568847656 0.002033273922279477119445800781 0 0 0 0 
2400333333.3333334923 0.172029867768287686446981865629 0.038700591772794716571848283593 0.002464449498802423910853720557 0.001752378302626311995862651294 0 0 0 0 
2400500000.0000000000 0.172452330589294405838174384371 0.038217525929212570190429687500 0.002315898425877093835117959131 0.001681947149336338043212890625 0 0 0 0 
2400666666.6666665077 0.172698706388473510742187500000 0.037671610713005072856862653907 0.002570951124653220176696777344 0.001404368784278630993486713940 0 0 0 0 
2400833333.3333334923 0.173000991344451904296875000000 0.037151157855987548828125000000 0.002713280962780117988586425781 0.001312359236180782101274799878 0 0 0 0 
2401000000.0000000000 0.173322185873985290527343750000 0.036425031721591949462890625000 0.002402184531092644171473837744 0.001162729808129369995714497144 0 0 0 0 
2401166666.6666665077 0.173397839069366510589276231258 0.035809595137834548950195312500 0.002287901006639004187342978369 0.001037647947669029018999409253 0 0 0 0 
2401333333.3333334923 0.173330381512641906738281250000 0.035123866051435470581054687500 0.002213406609371304945704794775 0.000966501829680055379867553711 0 0 0 0 
2401500000.0000000000 0.173331022262573186676348768742 0.034611508250236511230468750000 0.002315686084330081939697265625 0.000999253592453896999359130859 0 0 0 0 
2401666666.6666665077 0.173271596431732205489950615629 0.034002214670181267475168596093 0.002089461544528603987452841650 0.000825509137939661741256713867 0 0 0 0 
2401833333.3333334923 0.173347219824791010100994981258 0.033226814121007919311523437500 0.002038394333794713020324707031 0.000831384211778640747070312500 0 0 0 0 
2402000000.0000000000 0.172953024506568908691406250000 0.032504331320524222637136091407 0.002216780092567204995396279443 0.000795451749581843614578247070 0 0 0 0 
2402166666.6666665077 0.172768190503120394607705634371 0.031800344586372382427175153907 0.002182214986532926993129111182 0.000716253358405083417892456055 0 0 0 0 
2402333333.3333334923 0.172683000564575195312500000000 0.031042335554957389831542968750 0.002068138215690851211547851562 0.000654351082630455493927001953 0 0 0 0 
2402500000.0000000000 0.172634914517402704436932481258 0.030198801308870319021204764454 0.002082776045426725907566689600 0.000653021445032209157943725586 0 0 0 0 
2402666666.6666665077 0.172100439667701693435830634371 0.029163321480154991149902343750 0.001872506109066307978389120947 0.000678571232128888368606567383 0 0 0 0 
2402833333.3333334923 0.171873360872268704513388115629 0.028164168819785121572474295704 0.002123565878719090981724404443 0.000643043196760118007659912109 0 0 0 0 
2403000000.0000000000 0.171530202031135586837606865629 0.027001883834600448608398437500 0.002056107856333256201503134619 0.000571757263969630002975463867 0 0 0 0 
2403166666.6666665077 0.171275913715362604339276231258 0.025938302278518680227259451954 0.002052813535556197166442871094 0.000502542592585086822509765625 0 0 0 0 
2403333333.3333334923 0.171068042516708401779013115629 0.024665981531143188476562500000 0.002091925125569105148315429688 0.000452745676739141399234217511 0 0 0 0 
2403500000.0000000000 0.170527175068855313400106865629 0.023654127493500709533691406250 0.001893622102215885899187397534 0.000440761679783463478088378906 0 0 0 0 
2403666666.6666665077 0.170237883925437899490518134371 0.021997755393385890615443045704 0.002032552380114794211146689307 0.000405041762860491926043909894 0 0 0 0 
2403833333.3333334923 0.169879481196403503417968750000 0.020780481398105621337890625000 0.002184504410251975059509277344 0.000359123281668871586948948993 0 0 0 0 
2404000000.0000000000 0.169573202729225186446981865629 0.019212426617741591716725935157 0.002044612774625421004054404150 0.000347974564647301977306920184 0 0 0 0 
2404166666.6666665077 0.169298231601715087890625000000 0.017605453729629520071009451954 0.002218821551650762991664267432 0.000215634630876593291759490967 0 0 0 0 
2404333333.3333334923 0.169107645750045804122763115629 0.016288990154862400400181954296 0.002117074793204665184020996094 0.000202283976250328096464434213 0 0 0 0 
2404500000.0000000000 0.168638586997985812088174384371 0.014620268717408180236816406250 0.002292867749929428100585937500 0.000170813800650648799821576529 0 0 0 0 
2404666666.6666665077 0.168657675385475186446981865629 0.012923488393425939732561680273 0.002185465535148977799656533350 -0.000014400318832485939970220259 0 0 0 0 
2404833333.3333334923 0.168362021446227999588174384371 0.011287875473499299830426600977 0.002272546757012606100795126807 0.000003989544893556740134954453 0 0 0 0 
2405000000.0000000000 0.168163627386093111892861884371 0.009437605738639831542968750000 0.002188868122175335884094238281 -0.000089131048298440873622894287 0 0 0 0 
2405166666.6666665077 0.168157130479812594314736884371 0.007702116854488849639892578125 0.002198828617110847993137978662 -0.000021420162738650109281743697 0 0 0 0 
2405333333.3333334923 0.168148905038833590408486884371 0.005791490897536277770996093750 0.002321993699297308921813964844 -0.000166820886079221990987500601 0 0 0 0 
2405500000.0000000000 0.168145596981048611739950615629 0.004034243058413267135620117188 0.002221767092123628096339560400 -0.000176298592123203006669721060 0 0 0 0 
2405666666.6666665077 0.168116360902786310393963731258 0.002186934929341077804565429688 0.002261349465698004202601767432 -0.000295246631139889413684290753 0 0 0 0 
2405833333.3333334923 0.167896956205367986481036268742 0.000445674406364560073048192157 0.002117356518283485932591103662 -0.000325093627907335812419337140 0 0 0 0 
2406000000.0000000000 0.168051779270172091385049384371 -0.001603448530659079985377646338 0.002089984016492962837219238281 -0.000522003974765539169311523438 0 0 0 0 
2406166666.6666665077 0.167855337262153597732705634371 -0.003265702398493885993957519531 0.002211160957813262939453125000 -0.000295519741484895402758997784 0 0 0 0 
2406333333.3333334923 0.168063193559646606445312500000 -0.005264827050268650054931640625 0.001992219127714633941650390625 -0.000529954326339066028594970703 0 0 0 0 
2406500000.0000000000 0.168022692203521700760049384371 -0.006982659921050071716308593750 0.002170566236600279808044433594 -0.000548932701349258422851562500 0 0 0 0 
2406666666.6666665077 0.167903766036033602615518134371 -0.008804815821349620819091796875 0.002083863364532589912414550781 -0.000584929133765399456024169922 0 0 0 0 
2406833333.3333334923 0.167945951223373413085937500000 -0.010650215670466419565221016796 0.002146136248484253883361816406 -0.000503879971802234649658203125 0 0 0 0 
2407000000.0000000000 0.168059676885604886154013115629 -0.012247512117028239858607108204 0.002148385159671307043788290869 -0.000544224458280950784683227539 0 0 0 0 
2407166666.6666665077 0.168246984481811495681924384371 -0.013633947819471359252929687500 0.002134918235242366790771484375 -0.000680115248542279005050659180 0 0 0 0 
2407333333.3333334923 0.168180033564567593673544365629 -0.015392157249152660369873046875 0.002035187790170311927795410156 -0.000665649538859724998474121094 0 0 0 0 
2407500000.0000000000 0.168148353695869501311932481258 -0.016517868265509608877161795704 0.002143130637705326080322265625 -0.000884349166881293058395385742 0 0 0 0 
2407666666.6666665077 0.168249368667602511306924384371 -0.017847094684839248657226562500 0.002171592554077506065368652344 -0.000909338239580392837524414062 0 0 0 0 
2407833333.3333334923 0.168354719877242986481036268742 -0.019246147945523258554478829296 0.002110356697812675996067666162 -0.000971696455962955951690673828 0 0 0 0 
2408000000.0000000000 0.168327972292900113204794365629 -0.020247060805559158325195312500 0.002300456399098039107081747900 -0.001038682414218782944920205225 0 0 0 0 
2408166666.6666665077 0.168607503175735501388388115629 -0.021112116053700450551966483204 0.002197868423536419868469238281 -0.001308035454712807915331196362 0 0 0 0 
2408333333.3333334923 0.168994262814521789550781250000 -0.022067071869969371450403983204 0.002144869649782776832580566406 -0.001466676127165555953979492188 0 0 0 0 
2408500000.0000000000 0.169100731611251803299111884371 -0.023053383454680439340611641796 0.002015294041484593911411904443 -0.001467199879698454900028847803 0 0 0 0 
2408666666.6666665077 0.169380292296409606933593750000 -0.023859899491071701049804687500 0.001900221104733645915985107422 -0.001598501228727400086046528394 0 0 0 0 
2408833333.3333334923 0.169564574956893893142861884371 -0.024646142497658729553222656250 0.001913165790028870105743408203 -0.001644768286496401049970317310 0 0 0 0 
2409000000.0000000000 0.169937968254089410979901231258 -0.025252288207411769521693045704 0.001591117470525204918505024487 -0.001718969782814383940455771338 0 0 0 0 
2409166666.6666665077 0.170384302735328702071981865629 -0.026022812351584441448171247657 0.001665079616941512064692831885 -0.001837644027546047947527241284 0 0 0 0 
2409333333.3333334923 0.170806556940078707595986884371 -0.026882965117692950857142264454 0.001555957132950424931169819409 -0.001924604410305619022966694409 0 0 0 0 
2409500000.0000000000 0.170996859669685391525106865629 -0.027646496891975399362584298046 0.001386837800964713096618652344 -0.001867733779363333962084126050 0 0 0 0 
2409666666.6666665077 0.171175092458725003341513115629 -0.028311030939221378671666329296 0.001226330641657114028930664062 -0.001916735200211405970929789966 0 0 0 0 
2409833333.3333334923 0.171425387263298006912393134371 -0.028829654678702350961705391796 0.001105918898247181935551308740 -0.001905750948935746929766010815 0 0 0 0 
2410000000.0000000000 0.171612083911895807464276231258 -0.029638186097145080566406250000 0.001003121607936918952344584888 -0.001898782560601830916163779150 0 0 0 0 
2410166666.6666665077 0.171795949339866610428018134371 -0.030098218470811840402623360546 0.000847588176839053630828857422 -0.001787910587154329039930034106 0 0 0 0 
2410333333.3333334923 0.171777427196502713302450615629 -0.030849616974592208862304687500 0.000825372117105871438980102539 -0.001726721297018229961395263672 0 0 0 0 
2410500000.0000000000 0.171750009059906005859375000000 -0.031595777720212943340261091407 0.000762085139285773038864135742 -0.001773969386704266071319580078 0 0 0 0 
2410666666.6666665077 0.171731144189834594726562500000 -0.032426647841930389404296875000 0.000714294030331075191497802734 -0.001652351580560206933262490381 0 0 0 0 
2410833333.3333334923 0.171649470925331087967080634371 -0.032898567616939551616628278907 0.000846054987050592899322509766 -0.001493586110882461071014404297 0 0 0 0 
2411000000.0000000000 0.171536460518837002853231865629 -0.033589750528335571289062500000 0.000619260477833449840545654297 -0.001444895053282380104064941406 0 0 0 0 
2411166666.6666665077 0.171162143349647494217080634371 -0.034140150994062416767160783593 0.000678775482811033725738525391 -0.001085636438801885084864951025 0 0 0 0 
2411333333.3333334923 0.170955404639244107345419365629 -0.034693505614995963359792341407 0.000911580747924745082855224609 -0.001267502666451036930084228516 0 0 0 0 
2411500000.0000000000 0.170523524284362792968750000000 -0.035696592181921012187917341407 0.000871508964337408542633056641 -0.001126996590755880095838237231 0 0 0 0 
2411666666.6666665077 0.170275509357452392578125000000 -0.036251112818717956542968750000 0.000736793619580566883087158203 -0.001253187307156621976139687646 0 0 0 0 
2411833333.3333334923 0.169900730252265902420205634371 -0.036760404706001281738281250000 0.000882819469552487134933471680 -0.000958969118073582649230957031 0 0 0 0 
2412000000.0000000000 0.169600978493690490722656250000 -0.037727657705545432353932966407 0.001077388064004481055616069263 -0.001151724718511105017421103369 0 0 0 0 
2412166666.6666665077 0.168987736105918912032919365629 -0.038305934518575668334960937500 0.001142508233897387981414794922 -0.001238789758644998073577880859 0 0 0 0 
2412333333.3333334923 0.168585956096649197677450615629 -0.039114512503147132183034528907 0.001260473160073160908342670972 -0.001325294142588973045349121094 0 0 0 0 
2412500000.0000000000 0.167787998914718600174111884371 -0.039808940142393112182617187500 0.001352798310108483054517436450 -0.001321747200563549995422363281 0 0 0 0 
2412666666.6666665077 0.167323097586631802657919365629 -0.040908928960561752319335937500 0.001336405635811388926265097510 -0.001605103258043528036830283057 0 0 0 0 
2412833333.3333334923 0.166830360889434786697549384371 -0.041658651083707809448242187500 0.001472739619202912070630717700 -0.001603665761649609045741415869 0 0 0 0 
2413000000.0000000000 0.166118100285530090332031250000 -0.042663156986236572265625000000 0.001496929093264042897465371240 -0.001720382715575397014617919922 0 0 0 0 
2413166666.6666665077 0.165379062294959994217080634371 -0.043645903468132019042968750000 0.001523612882010638930677104419 -0.001763871405273675918579101562 0 0 0 0 
2413333333.3333334923 0.164627611637115506271200615629 -0.044767674058675772930104841407 0.001515814918093383095384907300 -0.002140987431630492210388183594 0 0 0 0 
2413500000.0000000000 0.163849383592605590820312500000 -0.045659672468900680541992187500 0.001353847095742821910260844653 -0.002022181637585163116455078125 0 0 0 0 
2413666666.6666665077 0.163399994373321505447549384371 -0.046734016388654708862304687500 0.001413378980942070917842245947 -0.002099400153383613066432333838 0 0 0 0 
2413833333.3333334923 0.162451267242431612869424384371 -0.047854658216238021850585937500 0.001427257317118346907972026294 -0.002315443009138106866123818506 0 0 0 0 
2414000000.0000000000 0.161737754940986605545205634371 -0.049009378999471657489817033593 0.001379875233396887996076274341 -0.002651651389896870093104697119 0 0 0 0 
2414166666.6666665077 0.161296069622039794921875000000 -0.050002910196781158447265625000 0.001297415816225111918208456885 -0.002731119748204946951625204932 0 0 0 0 
2414333333.3333334923 0.160590678453445406814736884371 -0.051129795610904686664621721093 0.001170866074971854903577495044 -0.003000869881361722946166992188 0 0 0 0 
2414500000.0000000000 0.160213783383369501311932481258 -0.052338860929012298583984375000 0.000945326697546988725662231445 -0.003048913087695837020874023438 0 0 0 0 
2414666666.6666665077 0.159655526280403109451455634371 -0.053298532962799072265625000000 0.000788092322181910276412963867 -0.003307098522782326178309775244 0 0 0 0 
2414833333.3333334923 0.159167587757110595703125000000 -0.054694421589374542236328125000 0.000652043672744184732437133789 -0.003488957881927489800694131006 0 0 0 0 
2415000000.0000000000 0.158731296658515902420205634371 -0.055774658918380737304687500000 0.000428847328294068574905395508 -0.003430341370403767065760947119 0 0 0 0 
2415166666.6666665077 0.158489763736724909026776231258 -0.057138603180646903301198591407 0.000120905147923622293911795345 -0.003687314456328750090358115088 0 0 0 0 
2415333333.3333334923 0.158351704478263910491619981258 -0.058537695556879036640207658593 -0.000012028759556415030227013128 -0.003712648758664727210998535156 0 0 0 0 
2415500000.0000000000 0.158122152090072604080361884371 -0.059927709400653839111328125000 -0.000211530859814956811353406363 -0.003674486884847282929661416162 0 0 0 0 
2415666666.6666665077 0.157835066318511990646200615629 -0.061131678521633148193359375000 -0.000580250693019479513168334961 -0.003619454801082611083984375000 0 0 0 0 
2415833333.3333334923 0.157607600092887906173544365629 -0.062658049166202545166015625000 -0.000661686877720057964324951172 -0.003584285266697407202479697119 0 0 0 0 
2416000000.0000000000 0.157381489872932406326455634371 -0.064096681773662567138671875000 -0.001046709949150681929347372900 -0.003582127857953310012817382812 0 0 0 0 
2416166666.6666665077 0.157368674874305697342080634371 -0.065488994121551513671875000000 -0.001162728178314865069148398291 -0.003417174564674497084376669775 0 0 0 0 
2416333333.3333334923 0.157199397683143587967080634371 -0.066804639995098114013671875000 -0.001595137408003211021423339844 -0.003169786185026168823242187500 0 0 0 0 
2416500000.0000000000 0.156970933079719487945880018742 -0.068381555378437042236328125000 -0.001592103741131722927093505859 -0.003188973991200327873229980469 0 0 0 0 
2416666666.6666665077 0.156677752733230590820312500000 -0.069605290889739990234375000000 -0.001772840041667222976684570312 -0.003043256467208265824558877100 0 0 0 0 
2416833333.3333334923 0.156695798039436312576455634371 -0.071160592138767242431640625000 -0.001897868933156132914899516528 -0.002969693625345826148986816406 0 0 0 0 
2417000000.0000000000 0.156301245093345586578692518742 -0.072445251047611236572265625000 -0.001973535167053341865539550781 -0.002666249871253966851475381006 0 0 0 0 
2417166666.6666665077 0.156148165464401300628338731258 -0.073556967079639434814453125000 -0.002046126872301102118251181494 -0.002637356985360383987426757812 0 0 0 0 
2417333333.3333334923 0.156133204698562594314736884371 -0.074728302657604217529296875000 -0.002085302490741014914271689307 -0.002503382507711648941040039062 0 0 0 0 
2417500000.0000000000 0.155846700072288513183593750000 -0.076130792498588562011718750000 -0.002203889889642595811131142725 -0.002248466014862060980555868994 0 0 0 0 
2417666666.6666665077 0.155905529856681795974893134371 -0.076920382678508758544921875000 -0.002246449468657373948338173975 -0.002273827092722057862522744287 0 0 0 0 
2417833333.3333334923 0.155807808041572598556356865629 -0.077840358018875122070312500000 -0.002229460049420595169067382812 -0.002132181776687502861022949219 0 0 0 0 
2418000000.0000000000 0.155578762292861910720986884371 -0.079095318913459777832031250000 -0.002393472241237760023829794775 -0.001956521766260265870335244287 0 0 0 0 
2418166666.6666665077 0.155607432126998901367187500000 -0.079672828316688537597656250000 -0.002471799263730645179748535156 -0.001983392983675003051757812500 0 0 0 0 
2418333333.3333334923 0.155734494328498812576455634371 -0.080616138875484466552734375000 -0.002386688254773616790771484375 -0.001647560042329132990596152197 0 0 0 0 
2418500000.0000000000 0.155618607997894287109375000000 -0.081363387405872344970703125000 -0.002517272019758820967433310400 -0.001644006813876331069348979419 0 0 0 0 
2418666666.6666665077 0.155652344226837213714276231258 -0.082348570227622985839843750000 -0.002577533945441246032714843750 -0.001583427540026604912401508862 0 0 0 0 
2418833333.3333334923 0.155334621667861910720986884371 -0.083008550107479095458984375000 -0.002667531603947281837463378906 -0.001564034959301352934596396338 0 0 0 0 
2419000000.0000000000 0.155253857374191311935263115629 -0.083621688187122344970703125000 -0.002721913158893585205078125000 -0.001318841124884784004808735425 0 0 0 0 
2419166666.6666665077 0.155231490731239291092080634371 -0.084245555102825164794921875000 -0.002568833297118545012233115088 -0.001107309479266405105590820312 0 0 0 0 
2419333333.3333334923 0.154896527528762789627236884371 -0.084602981805801391601562500000 -0.002539123175665736198425292969 -0.000960362900514155626296997070 0 0 0 0 
2419500000.0000000000 0.154744699597358703613281250000 -0.085356354713439941406250000000 -0.002656240249052644209620810400 -0.000856241269502788782119750977 0 0 0 0 
2419666666.6666665077 0.154568836092948913574218750000 -0.085749946534633636474609375000 -0.002733469707891345024108886719 -0.000725687074009329080581665039 0 0 0 0 
2419833333.3333334923 0.154324665665626498123330634371 -0.085999414324760437011718750000 -0.002473501488566399054286337744 -0.000708720705006271600723266602 0 0 0 0 
