# Version 1.00
#
freq[Hz];re:Trc1_S11;im:Trc1_S11;re:Trc2_S21;im:Trc2_S21;
2.400000000000000E+009;1.570485830307007E-001;6.070798635482788E-002;-3.213013755157590E-003;5.816238990519196E-005;
2.400166666666667E+009;1.572007685899735E-001;5.895450338721275E-002;-3.172710537910461E-003;2.461695985402912E-004;
2.400333333333334E+009;1.570779830217362E-001;5.708078294992447E-002;-3.415820654481649E-003;2.462719567120075E-004;
2.400500000000000E+009;1.572319567203522E-001;5.513567849993706E-002;-3.310395171865821E-003;4.427847452461720E-004;
2.400666666666667E+009;1.574897766113281E-001;5.298420041799545E-002;-3.177120350301266E-003;5.733766593039036E-004;
2.400833333333334E+009;1.576820313930512E-001;5.119310691952705E-002;-3.231379436329007E-003;6.538379820995033E-004;
2.401000000000000E+009;1.579166054725647E-001;4.917996376752853E-002;-3.190303221344948E-003;8.670985116623342E-004;
2.401166666666667E+009;1.582061797380447E-001;4.713054373860359E-002;-3.165915375575423E-003;1.009445288218558E-003;
2.401333333333334E+009;1.587240397930145E-001;4.504653811454773E-002;-3.200770588591695E-003;1.101838075555861E-003;
2.401500000000000E+009;1.591000258922577E-001;4.292305186390877E-002;-3.131004283204675E-003;1.195623539388180E-003;
2.401666666666667E+009;1.596154123544693E-001;4.117698967456818E-002;-3.138303756713867E-003;1.141554908826947E-003;
2.401833333333334E+009;1.601185798645020E-001;3.908324986696243E-002;-3.068842226639390E-003;1.519652665592730E-003;
2.402000000000000E+009;1.605300903320313E-001;3.708774968981743E-002;-2.874205121770501E-003;1.375137246213853E-003;
2.402166666666667E+009;1.611429452896118E-001;3.505847230553627E-002;-2.905495930463076E-003;1.568041858263314E-003;
2.402333333333334E+009;1.619969606399536E-001;3.341487795114517E-002;-2.811741316691041E-003;1.696710241958499E-003;
2.402500000000000E+009;1.629679501056671E-001;3.185681253671646E-002;-2.618728904053569E-003;1.735517522320151E-003;
2.402666666666667E+009;1.635814309120178E-001;3.008490055799484E-002;-2.532261423766613E-003;1.823823200538755E-003;
2.402833333333334E+009;1.643942594528198E-001;2.863379381597042E-002;-2.517270389944315E-003;1.860907301306725E-003;
2.403000000000000E+009;1.652965694665909E-001;2.696121297776699E-002;-2.386109670624137E-003;2.000527223572135E-003;
2.403166666666667E+009;1.661523282527924E-001;2.563658356666565E-002;-2.439458156004548E-003;2.177016809582710E-003;
2.403333333333334E+009;1.671131700277329E-001;2.448884211480618E-002;-2.349987393245101E-003;2.224003663286567E-003;
2.403500000000000E+009;1.679297983646393E-001;2.307794801890850E-002;-2.102054189890623E-003;2.179315313696861E-003;
2.403666666666667E+009;1.689233034849167E-001;2.189636602997780E-002;-2.044425578787923E-003;2.135836053639650E-003;
2.403833333333334E+009;1.698625236749649E-001;2.086247503757477E-002;-2.095965435728431E-003;2.267783042043448E-003;
2.404000000000000E+009;1.707047224044800E-001;1.988990791141987E-002;-1.910718623548746E-003;2.368767280131578E-003;
2.404166666666667E+009;1.716921925544739E-001;1.889994740486145E-002;-1.927145989611745E-003;2.411896130070090E-003;
2.404333333333334E+009;1.725556701421738E-001;1.804130710661411E-002;-1.778844161890447E-003;2.573020290583372E-003;
2.404500000000000E+009;1.734403073787689E-001;1.704488880932331E-002;-1.633023959584534E-003;2.501677488908172E-003;
2.404666666666667E+009;1.742256432771683E-001;1.647186838090420E-002;-1.506982487626374E-003;2.654681215062738E-003;
2.404833333333334E+009;1.750001609325409E-001;1.589696295559406E-002;-1.471884432248771E-003;2.727943472564220E-003;
2.405000000000000E+009;1.758514940738678E-001;1.525682210922241E-002;-1.282886252738535E-003;2.707194769755006E-003;
2.405166666666667E+009;1.765168905258179E-001;1.472584623843432E-002;-1.067264354787767E-003;2.587796421721578E-003;
2.405333333333334E+009;1.770775318145752E-001;1.418714970350266E-002;-1.080259447917342E-003;2.580438973382115E-003;
2.405500000000000E+009;1.777802854776382E-001;1.378003787249327E-002;-1.000975491479039E-003;2.632938325405121E-003;
2.405666666666667E+009;1.782313883304596E-001;1.347032003104687E-002;-9.470897493883967E-004;2.681855112314224E-003;
2.405833333333334E+009;1.785073131322861E-001;1.308667846024036E-002;-6.932698306627572E-004;2.522639697417617E-003;
2.406000000000000E+009;1.790322363376617E-001;1.272109895944595E-002;-6.307915900833905E-004;2.732227789238095E-003;
2.406166666666667E+009;1.792632192373276E-001;1.261758897453547E-002;-6.384294247254729E-004;2.696743700653315E-003;
2.406333333333334E+009;1.796300709247589E-001;1.213188190013170E-002;-4.474742745514959E-004;2.640342107042670E-003;
2.406500000000000E+009;1.796755492687225E-001;1.197065506130457E-002;-3.980705805588514E-004;2.584512112662196E-003;
2.406666666666667E+009;1.794872432947159E-001;1.164699811488390E-002;-1.115566119551659E-004;2.581175882369280E-003;
2.406833333333334E+009;1.796171367168427E-001;1.120804902166128E-002;-5.381146183935925E-005;2.661012113094330E-003;
2.407000000000000E+009;1.796748191118240E-001;1.081806514412165E-002;5.380814400268719E-005;2.493748674169183E-003;
2.407166666666667E+009;1.796239912509918E-001;1.056360825896263E-002;3.800132617470808E-005;2.609878545626998E-003;
2.407333333333334E+009;1.792992949485779E-001;9.889340028166771E-003;8.072099444689229E-005;2.522905124351382E-003;
2.407500000000000E+009;1.790631562471390E-001;9.474101476371288E-003;3.117396554443985E-004;2.267684089019895E-003;
2.407666666666667E+009;1.786905825138092E-001;9.007005952298641E-003;3.213819582015276E-004;2.429719548672438E-003;
2.407833333333334E+009;1.780970096588135E-001;8.155450224876404E-003;4.425020597409457E-004;2.301320200785995E-003;
2.408000000000000E+009;1.778435111045837E-001;7.468466181308031E-003;4.736110277008265E-004;2.302232664078474E-003;
2.408166666666667E+009;1.771640479564667E-001;6.865626666694880E-003;6.468147621490061E-004;2.232598606497049E-003;
2.408333333333334E+009;1.767449826002121E-001;5.933749023824930E-003;6.827327888458967E-004;2.297838451340795E-003;
2.408500000000000E+009;1.761741638183594E-001;4.831685684621334E-003;8.162531885318458E-004;2.208041725680232E-003;
2.408666666666667E+009;1.755629479885101E-001;3.853058675304055E-003;7.762027089484036E-004;2.077835146337748E-003;
2.408833333333334E+009;1.748692840337753E-001;2.623385516926646E-003;8.452564943581820E-004;2.089743269607425E-003;
2.409000000000000E+009;1.743038594722748E-001;1.525264931842685E-003;9.656559559516609E-004;1.860598917119205E-003;
2.409166666666667E+009;1.736416667699814E-001;3.487603389658034E-004;9.867149638012052E-004;1.924223150126636E-003;
2.409333333333334E+009;1.730715334415436E-001;-1.108414144255221E-003;1.023600692860782E-003;1.849882653914392E-003;
2.409500000000000E+009;1.723027825355530E-001;-2.664384664967656E-003;1.004350371658802E-003;1.772082177922130E-003;
2.409666666666667E+009;1.716298460960388E-001;-4.065044224262238E-003;1.193588832393289E-003;1.539838267490268E-003;
2.409833333333334E+009;1.709699481725693E-001;-5.615860689431429E-003;1.230025431141257E-003;1.559189870022237E-003;
2.410000000000000E+009;1.708119958639145E-001;-7.288931868970394E-003;1.227068249136210E-003;1.349141355603933E-003;
2.410166666666667E+009;1.701148152351379E-001;-8.921523578464985E-003;1.297794282436371E-003;1.250562723726034E-003;
2.410333333333334E+009;1.696161329746246E-001;-1.074006501585245E-002;1.322212629020214E-003;1.353905885480344E-003;
2.410500000000000E+009;1.690731197595596E-001;-1.253577135503292E-002;1.324425218626857E-003;1.246634637936950E-003;
2.410666666666667E+009;1.688621491193771E-001;-1.435631792992353E-002;1.346005941741169E-003;1.143415574915707E-003;
2.410833333333334E+009;1.685352027416229E-001;-1.619640365242958E-002;1.576009439304471E-003;9.307248401455581E-004;
2.411000000000000E+009;1.682038903236389E-001;-1.825288496911526E-002;1.273685949854553E-003;1.040144008584321E-003;
2.411166666666667E+009;1.681885421276093E-001;-1.996992900967598E-002;1.612239750102162E-003;8.321298519149423E-004;
2.411333333333334E+009;1.678447276353836E-001;-2.174599654972553E-002;1.457657897844911E-003;7.189326570369303E-004;
2.411500000000000E+009;1.678584814071655E-001;-2.394663728773594E-002;1.464892993681133E-003;5.361448857001960E-004;
2.411666666666667E+009;1.681463122367859E-001;-2.590465545654297E-002;1.523187616840005E-003;5.771833821199834E-004;
2.411833333333334E+009;1.680793315172195E-001;-2.779745683073998E-002;1.436152146197856E-003;4.869581607636064E-004;
2.412000000000000E+009;1.685474663972855E-001;-2.981590293347836E-002;1.359940157271922E-003;4.111234738957137E-004;
2.412166666666667E+009;1.687264144420624E-001;-3.155547380447388E-002;1.413171645253897E-003;3.042306925635785E-004;
2.412333333333334E+009;1.690861284732819E-001;-3.347879648208618E-002;1.476385979913175E-003;6.551440310431644E-005;
2.412500000000000E+009;1.691460758447647E-001;-3.530455380678177E-002;1.216996111907065E-003;9.941819735104218E-005;
2.412666666666667E+009;1.698456257581711E-001;-3.718611598014832E-002;1.252575661055744E-003;2.826298259606119E-005;
2.412833333333334E+009;1.702833920717239E-001;-3.879924491047859E-002;1.181317609734833E-003;-1.723408495308831E-004;
2.413000000000000E+009;1.708545237779617E-001;-4.055696353316307E-002;1.006957376375794E-003;-2.943545696325600E-004;
2.413166666666667E+009;1.714098006486893E-001;-4.211030900478363E-002;9.641111246310175E-004;-2.590564545243979E-004;
2.413333333333334E+009;1.716618984937668E-001;-4.378464072942734E-002;1.194333774037659E-003;-3.734770871233195E-004;
2.413500000000000E+009;1.724005788564682E-001;-4.524203389883041E-002;8.903722628019750E-004;-3.522076876834035E-004;
2.413666666666667E+009;1.731363981962204E-001;-4.680339246988297E-002;9.200650383718312E-004;-3.370746562723070E-004;
2.413833333333334E+009;1.736443638801575E-001;-4.810325056314468E-002;7.028094842098653E-004;-5.872528417967260E-004;
2.414000000000000E+009;1.741729825735092E-001;-4.933531582355499E-002;5.518610123544931E-004;-6.234055617824197E-004;
2.414166666666667E+009;1.747661978006363E-001;-5.050721019506455E-002;4.273387021385133E-004;-5.661344621330500E-004;
2.414333333333334E+009;1.751388609409332E-001;-5.169783905148506E-002;4.182472475804389E-004;-5.329218693077564E-004;
2.414500000000000E+009;1.760217994451523E-001;-5.259981378912926E-002;1.982848043553531E-004;-4.535034240689129E-004;
2.414666666666667E+009;1.763189733028412E-001;-5.352021008729935E-002;4.719696153188124E-005;-6.501194438897073E-004;
2.414833333333334E+009;1.768220514059067E-001;-5.451598018407822E-002;4.918569902656600E-005;-5.628200015053153E-004;
2.415000000000000E+009;1.771558374166489E-001;-5.508158728480339E-002;-9.271932503907010E-005;-5.124200833961368E-004;
2.415166666666667E+009;1.775153130292893E-001;-5.583835393190384E-002;-1.195791337522678E-004;-3.947677323594689E-004;
2.415333333333334E+009;1.779029071331024E-001;-5.651421472430229E-002;-2.302765205968171E-004;-4.751480882987380E-004;
2.415500000000000E+009;1.781109720468521E-001;-5.691136047244072E-002;-3.530394169501960E-004;-2.521509304642677E-004;
2.415666666666667E+009;1.782265156507492E-001;-5.740451067686081E-002;-4.428284009918571E-004;-2.717529132496566E-004;
2.415833333333334E+009;1.784156113862991E-001;-5.773079022765160E-002;-4.370445967651904E-004;-1.959733199328184E-004;
2.416000000000000E+009;1.782103925943375E-001;-5.815863609313965E-002;-2.571093209553510E-004;-1.099111614166759E-004;
2.416166666666667E+009;1.783639490604401E-001;-5.852784216403961E-002;-5.538624245673418E-004;9.570075781084597E-005;
2.416333333333334E+009;1.780729889869690E-001;-5.871715396642685E-002;-6.900408188812435E-004;3.350206679897383E-005;
2.416500000000000E+009;1.780091971158981E-001;-5.902188271284103E-002;-6.605481030419469E-004;1.686809118837118E-004;
2.416666666666667E+009;1.774850636720657E-001;-5.911251530051231E-002;-6.333663477562368E-004;2.832284662872553E-004;
2.416833333333334E+009;1.772873103618622E-001;-5.961488932371140E-002;-5.003872793167830E-004;2.927754248958081E-004;
2.417000000000000E+009;1.765911281108856E-001;-5.975635722279549E-002;-5.020895623601973E-004;3.906794008798897E-004;
2.417166666666667E+009;1.759811490774155E-001;-5.990901216864586E-002;-6.613083533011377E-004;5.631129024550319E-004;
2.417333333333334E+009;1.754134893417358E-001;-6.015893816947937E-002;-6.663472158834338E-004;5.711177363991737E-004;
2.417500000000000E+009;1.745834797620773E-001;-6.062793731689453E-002;-5.557841504923999E-004;5.122857983224094E-004;
2.417666666666667E+009;1.738649606704712E-001;-6.073813512921333E-002;-5.256863078102469E-004;5.809703143313527E-004;
2.417833333333334E+009;1.729681044816971E-001;-6.116466224193573E-002;-4.384813946671784E-004;6.641243235208094E-004;
2.418000000000000E+009;1.719398647546768E-001;-6.160084158182144E-002;-3.694543556775898E-004;8.631370728835464E-004;
2.418166666666667E+009;1.708211898803711E-001;-6.179261207580566E-002;-4.334568220656365E-004;8.538656402379274E-004;
2.418333333333334E+009;1.699236035346985E-001;-6.236565485596657E-002;-4.331203235778958E-004;8.486721199005842E-004;
2.418500000000000E+009;1.686882674694061E-001;-6.298499554395676E-002;-4.863345238845795E-004;8.951910422183573E-004;
2.418666666666667E+009;1.677466332912445E-001;-6.354656070470810E-002;-1.988310832530260E-004;9.641665965318680E-004;
2.418833333333334E+009;1.662197411060333E-001;-6.427067518234253E-002;-3.597894392441958E-004;9.973763953894377E-004;
2.419000000000000E+009;1.651358306407929E-001;-6.491062790155411E-002;-3.059538721572608E-004;9.720395319163799E-004;
2.419166666666667E+009;1.638392210006714E-001;-6.572052836418152E-002;-2.394630573689938E-004;9.976208675652742E-004;
2.419333333333334E+009;1.625117510557175E-001;-6.642560660839081E-002;-2.372294693486765E-004;1.119927153922617E-003;
2.419500000000000E+009;1.614936441183090E-001;-6.762237846851349E-002;-6.729934102622792E-005;9.408898768015206E-004;
2.419666666666667E+009;1.603662967681885E-001;-6.862152367830277E-002;-1.832817360991612E-004;1.104177325032651E-003;
2.419833333333334E+009;1.590377837419510E-001;-6.961645185947418E-002;-1.156342405010946E-004;1.095021259970963E-003;
2.420000000000000E+009;1.580381244421005E-001;-7.073401659727097E-002;-1.160690007964149E-004;1.233518356457353E-003;
2.420166666666667E+009;1.568037271499634E-001;-7.213089615106583E-002;6.984794890740886E-005;1.236762269400060E-003;
2.420333333333334E+009;1.559081226587296E-001;-7.347949594259262E-002;8.482633711537346E-005;1.102930749766529E-003;
2.420500000000000E+009;1.549593806266785E-001;-7.464423030614853E-002;4.975802585249767E-005;1.075559412129223E-003;
2.420666666666667E+009;1.538953185081482E-001;-7.607823610305786E-002;1.641192357055843E-004;1.246157451532781E-003;
2.420833333333334E+009;1.531767994165421E-001;-7.756743580102921E-002;2.074395160889253E-004;1.189498929306865E-003;
2.421000000000000E+009;1.524077057838440E-001;-7.908036559820175E-002;2.279874461237341E-004;1.164887100458145E-003;
2.421166666666667E+009;1.518287211656570E-001;-8.079660683870316E-002;2.122932928614318E-004;1.001609023660421E-003;
2.421333333333334E+009;1.510934531688690E-001;-8.255930989980698E-002;2.365267573622987E-004;1.184465945698321E-003;
2.421500000000000E+009;1.506046205759049E-001;-8.402785658836365E-002;3.039946313947439E-004;9.877850534394383E-004;
2.421666666666667E+009;1.501252055168152E-001;-8.558569103479385E-002;3.713790210895240E-004;1.064807409420610E-003;
2.421833333333334E+009;1.499080359935761E-001;-8.720045536756516E-002;5.655463319271803E-004;1.123951864428818E-003;
2.422000000000000E+009;1.494975835084915E-001;-8.885559439659119E-002;4.058302438352257E-004;1.081205438822508E-003;
2.422166666666667E+009;1.493704617023468E-001;-9.070444107055664E-002;5.157269770279527E-004;1.114442711696029E-003;
2.422333333333334E+009;1.491844356060028E-001;-9.225578606128693E-002;5.189331131987274E-004;1.160735962912440E-003;
2.422500000000000E+009;1.491743922233582E-001;-9.368303418159485E-002;5.004234262742102E-004;1.067569479346275E-003;
2.422666666666667E+009;1.491464674472809E-001;-9.558225423097611E-002;6.044486071914434E-004;1.118600834161043E-003;
2.422833333333334E+009;1.494394838809967E-001;-9.715953469276428E-002;6.436098483391106E-004;1.166516565717757E-003;
2.423000000000000E+009;1.496482193470001E-001;-9.863143414258957E-002;6.440078723244369E-004;1.178219798021019E-003;
2.423166666666667E+009;1.499759256839752E-001;-1.003781259059906E-001;4.998188233003020E-004;1.203387975692749E-003;
2.423333333333334E+009;1.502961367368698E-001;-1.016072556376457E-001;7.232868229039013E-004;1.231783535331488E-003;
2.423500000000000E+009;1.504293978214264E-001;-1.031162440776825E-001;7.198447128757834E-004;1.215585391037166E-003;
2.423666666666667E+009;1.509602069854736E-001;-1.045441702008247E-001;5.686405347660184E-004;1.253838418051601E-003;
2.423833333333334E+009;1.515309512615204E-001;-1.058441475033760E-001;6.825890741311014E-004;1.273067668080330E-003;
2.424000000000000E+009;1.518353223800659E-001;-1.070316582918167E-001;7.206936716102064E-004;1.170184812508524E-003;
2.424166666666667E+009;1.522060632705689E-001;-1.081401854753494E-001;8.476822404190898E-004;1.192547963000834E-003;
2.424333333333334E+009;1.528398841619492E-001;-1.092076152563095E-001;9.342761477455497E-004;1.312950626015663E-003;
2.424500000000000E+009;1.533573120832443E-001;-1.103749126195908E-001;1.024578930810094E-003;1.416886225342751E-003;
2.424666666666667E+009;1.540821641683579E-001;-1.109782308340073E-001;1.057727262377739E-003;1.249072025530040E-003;
2.424833333333334E+009;1.542552113533020E-001;-1.119779571890831E-001;1.072926446795464E-003;1.218987628817558E-003;
2.425000000000000E+009;1.547269523143768E-001;-1.128061711788178E-001;1.251974492333829E-003;1.256893854588270E-003;
2.425166666666667E+009;1.549727171659470E-001;-1.134827435016632E-001;1.300342381000519E-003;1.117659267038107E-003;
2.425333333333334E+009;1.554691195487976E-001;-1.140904873609543E-001;1.569406478665769E-003;1.266745850443840E-003;
2.425500000000000E+009;1.559060662984848E-001;-1.147014796733856E-001;1.420336426235735E-003;1.352556748315692E-003;
2.425666666666667E+009;1.558740288019180E-001;-1.151319518685341E-001;1.562203047797084E-003;1.252622110769153E-003;
2.425833333333334E+009;1.562250107526779E-001;-1.155783608555794E-001;1.630068989470601E-003;9.636900504119694E-004;
2.426000000000000E+009;1.563557684421539E-001;-1.160267367959023E-001;1.687191892415285E-003;9.916512062773109E-004;
2.426166666666667E+009;1.565591394901276E-001;-1.163470074534416E-001;1.813594833947718E-003;9.955631103366613E-004;
2.426333333333334E+009;1.563667207956314E-001;-1.166706383228302E-001;1.764907501637936E-003;8.383084787055850E-004;
2.426500000000000E+009;1.564763039350510E-001;-1.168053448200226E-001;1.956841675564647E-003;8.000365924090147E-004;
2.426666666666667E+009;1.563649177551270E-001;-1.168831065297127E-001;1.927830046042800E-003;7.906612590886653E-004;
2.426833333333334E+009;1.560088545084000E-001;-1.170654222369194E-001;1.941233640536666E-003;7.960002403706312E-004;
2.427000000000000E+009;1.555895358324051E-001;-1.173049286007881E-001;1.953103579580784E-003;6.484401528723538E-004;
2.427166666666667E+009;1.552024483680725E-001;-1.173013895750046E-001;2.003531903028488E-003;5.158808780834079E-004;
2.427333333333334E+009;1.545883417129517E-001;-1.175077781081200E-001;2.279311884194613E-003;3.995687002316117E-004;
2.427500000000000E+009;1.540575027465820E-001;-1.176538318395615E-001;2.153241075575352E-003;4.112172464374453E-004;
2.427666666666667E+009;1.532386988401413E-001;-1.179029121994972E-001;2.210896229371429E-003;2.547928888816387E-004;
2.427833333333334E+009;1.522894948720932E-001;-1.179855912923813E-001;2.209857106208801E-003;2.058090612990782E-004;
