# Version 1.00
#
freq[Hz];re:Trc1_S11;im:Trc1_S11;re:Trc2_S21;im:Trc2_S21;
2.400000000000000E+009;1.736841797828674E-001;4.913766682147980E-002;3.808917012065649E-003;1.529515022411943E-003;
2.400166666666667E+009;1.741517484188080E-001;4.874861985445023E-002;3.753996221348643E-003;1.325452816672623E-003;
2.400333333333334E+009;1.746015846729279E-001;4.788941517472267E-002;3.705906448885799E-003;1.330629806034267E-003;
2.400500000000000E+009;1.751646250486374E-001;4.724000766873360E-002;3.763199783861637E-003;1.270294655114412E-003;
2.400666666666667E+009;1.751167178153992E-001;4.643104597926140E-002;3.612121799960733E-003;1.010367996059358E-003;
2.400833333333334E+009;1.754852682352066E-001;4.603924602270126E-002;3.633219050243497E-003;1.018990646116436E-003;
2.401000000000000E+009;1.755031794309616E-001;4.541024193167687E-002;3.435325575992465E-003;8.729120017960668E-004;
2.401166666666667E+009;1.756857484579086E-001;4.469842091202736E-002;3.398332512006164E-003;9.834881639108062E-004;
2.401333333333334E+009;1.755611002445221E-001;4.397808760404587E-002;3.536364762112498E-003;9.921563323587179E-004;
2.401500000000000E+009;1.758241206407547E-001;4.317828640341759E-002;3.494224976748228E-003;8.315376471728087E-004;
2.401666666666667E+009;1.754744350910187E-001;4.275048151612282E-002;3.543917322531343E-003;7.556100026704371E-004;
2.401833333333334E+009;1.754264533519745E-001;4.179066792130470E-002;3.444301197305322E-003;1.054834458045661E-003;
2.402000000000000E+009;1.751681566238403E-001;4.108949750661850E-002;3.396633779630065E-003;8.946886518970132E-004;
2.402166666666667E+009;1.749858260154724E-001;3.995391353964806E-002;3.374252002686262E-003;8.237008587457240E-004;
2.402333333333334E+009;1.747399866580963E-001;3.911174088716507E-002;3.572077024728060E-003;1.010552863590419E-003;
2.402500000000000E+009;1.747482717037201E-001;3.791199624538422E-002;3.662981791421771E-003;8.280725451186299E-004;
2.402666666666667E+009;1.744201183319092E-001;3.707346320152283E-002;3.592521650716662E-003;9.345842408947647E-004;
2.402833333333334E+009;1.739603877067566E-001;3.594677522778511E-002;3.602898679673672E-003;8.032085024751723E-004;
2.403000000000000E+009;1.736671775579453E-001;3.454944491386414E-002;3.662304487079382E-003;7.641281699761748E-004;
2.403166666666667E+009;1.733288615942001E-001;3.315508365631104E-002;3.739455249160528E-003;9.116985020227730E-004;
2.403333333333334E+009;1.730207949876785E-001;3.159402310848236E-002;3.849831176921725E-003;8.119874983094633E-004;
2.403500000000000E+009;1.723645478487015E-001;3.014323674142361E-002;4.083365667611361E-003;8.853792096488178E-004;
2.403666666666667E+009;1.721038669347763E-001;2.823181077837944E-002;3.949343226850033E-003;6.307169096544385E-004;
2.403833333333334E+009;1.719164550304413E-001;2.674960717558861E-002;4.247739445418119E-003;6.359047838486731E-004;
2.404000000000000E+009;1.715098023414612E-001;2.498766034841538E-002;4.451683256775141E-003;6.203776574693620E-004;
2.404166666666667E+009;1.708958894014359E-001;2.290949970483780E-002;4.386234562844038E-003;6.909348885528743E-004;
2.404333333333334E+009;1.707286685705185E-001;2.111740037798882E-002;4.587975796312094E-003;4.645238805096597E-004;
2.404500000000000E+009;1.704093515872955E-001;1.905494928359985E-002;4.861480090767145E-003;2.369775902479887E-004;
2.404666666666667E+009;1.701308786869049E-001;1.718327589333057E-002;4.839750938117504E-003;1.452160940971226E-004;
2.404833333333334E+009;1.698915511369705E-001;1.517279073596001E-002;5.076208617538214E-003;2.465635589032900E-005;
2.405000000000000E+009;1.697714030742645E-001;1.299379207193852E-002;5.252931732684374E-003;-1.400709006702527E-004;
2.405166666666667E+009;1.696780771017075E-001;1.101509574800730E-002;5.269927438348532E-003;-2.917696838267148E-004;
2.405333333333334E+009;1.696035414934158E-001;8.864875882863998E-003;5.439724773168564E-003;-5.135799292474985E-004;
2.405500000000000E+009;1.696555912494659E-001;6.774766370654106E-003;5.357770249247551E-003;-5.943626747466624E-004;
2.405666666666667E+009;1.698222160339356E-001;4.811921622604132E-003;5.575773771852255E-003;-9.489207295700908E-004;
2.405833333333334E+009;1.699349433183670E-001;2.881618682295084E-003;5.491527263075113E-003;-1.265633036382496E-003;
2.406000000000000E+009;1.704098135232925E-001;5.853497423231602E-004;5.474077071994543E-003;-1.571483910083771E-003;
2.406166666666667E+009;1.705167442560196E-001;-1.200514379888773E-003;5.535665899515152E-003;-1.857744297012687E-003;
2.406333333333334E+009;1.711041480302811E-001;-3.317915368825197E-003;5.562753882259131E-003;-1.935314270667732E-003;
2.406500000000000E+009;1.714454740285873E-001;-5.131581798195839E-003;5.427936557680368E-003;-2.116963034495711E-003;
2.406666666666667E+009;1.718794405460358E-001;-7.158783730119467E-003;5.594094283878803E-003;-2.547864103689790E-003;
2.406833333333334E+009;1.725445538759232E-001;-9.061645716428757E-003;5.263046827167273E-003;-2.750474028289318E-003;
2.407000000000000E+009;1.731768697500229E-001;-1.097388472408056E-002;5.272631999105215E-003;-2.947998698800802E-003;
2.407166666666667E+009;1.739403009414673E-001;-1.267664507031441E-002;5.314664449542761E-003;-3.147959941998124E-003;
2.407333333333334E+009;1.745297163724899E-001;-1.456067897379398E-002;5.098633933812380E-003;-3.436719067394733E-003;
2.407500000000000E+009;1.752967834472656E-001;-1.608029752969742E-002;5.153463687747717E-003;-3.658799687400460E-003;
2.407666666666667E+009;1.761242300271988E-001;-1.771146804094315E-002;4.912863951176405E-003;-3.967309836298227E-003;
2.407833333333334E+009;1.767016202211380E-001;-1.950891502201557E-002;4.946142435073853E-003;-4.211192484945059E-003;
2.408000000000000E+009;1.777689307928085E-001;-2.099357172846794E-002;4.855512641370297E-003;-4.432735033333302E-003;
2.408166666666667E+009;1.782748997211456E-001;-2.233497425913811E-002;4.722313955426216E-003;-4.621925763785839E-003;
2.408333333333334E+009;1.792130470275879E-001;-2.362505346536636E-002;4.438389092683792E-003;-4.952425137162209E-003;
2.408500000000000E+009;1.797776371240616E-001;-2.488726563751698E-002;4.350025206804276E-003;-4.980488680303097E-003;
2.408666666666667E+009;1.805206537246704E-001;-2.615893445909023E-002;4.246132448315620E-003;-5.277468822896481E-003;
2.408833333333334E+009;1.810120195150375E-001;-2.730435132980347E-002;3.941898234188557E-003;-5.479069892317057E-003;
2.409000000000000E+009;1.815090924501419E-001;-2.819525077939034E-002;3.737478749826551E-003;-5.645018070936203E-003;
2.409166666666667E+009;1.820772886276245E-001;-2.910360693931580E-002;3.615377238020301E-003;-5.907373968511820E-003;
2.409333333333334E+009;1.825840622186661E-001;-2.981420047581196E-002;3.300177166238427E-003;-6.032811943441629E-003;
2.409500000000000E+009;1.828169375658035E-001;-3.079158812761307E-002;3.009190084412694E-003;-6.068461574614048E-003;
2.409666666666667E+009;1.832427829504013E-001;-3.125588595867157E-002;2.903418848291040E-003;-6.346791051328182E-003;
2.409833333333334E+009;1.835249215364456E-001;-3.172286599874497E-002;2.571159042418003E-003;-6.291727069765329E-003;
2.410000000000000E+009;1.838702559471130E-001;-3.228682652115822E-002;2.366078319028020E-003;-6.484567653387785E-003;
2.410166666666667E+009;1.840861737728119E-001;-3.258239850401878E-002;2.123763784766197E-003;-6.509386468678713E-003;
2.410333333333334E+009;1.840365827083588E-001;-3.290995210409164E-002;1.894121058285236E-003;-6.529162172228098E-003;
2.410500000000000E+009;1.841782033443451E-001;-3.330431133508682E-002;1.575140282511711E-003;-6.870421580970287E-003;
2.410666666666667E+009;1.838453561067581E-001;-3.382038697600365E-002;1.446224167011678E-003;-6.997696124017239E-003;
2.410833333333334E+009;1.838237792253494E-001;-3.408992290496826E-002;1.164167071692646E-003;-6.893416400998831E-003;
2.411000000000000E+009;1.835137307643890E-001;-3.429266810417175E-002;9.182881913147867E-004;-6.957709323614836E-003;
2.411166666666667E+009;1.831995546817780E-001;-3.449998423457146E-002;7.047441904433072E-004;-7.112230174243450E-003;
2.411333333333334E+009;1.828212141990662E-001;-3.484437614679337E-002;3.788199101109058E-004;-7.149110548198223E-003;
2.411500000000000E+009;1.821092218160629E-001;-3.531578928232193E-002;2.185532648582012E-004;-7.249482907354832E-003;
2.411666666666667E+009;1.817613840103149E-001;-3.569900617003441E-002;-1.916806941153482E-004;-7.209325209259987E-003;
2.411833333333334E+009;1.809102892875671E-001;-3.604708239436150E-002;-5.629491643048823E-004;-7.415040396153927E-003;
2.412000000000000E+009;1.800921559333801E-001;-3.645406663417816E-002;-8.027532603591681E-004;-7.471454329788685E-003;
2.412166666666667E+009;1.791731119155884E-001;-3.713426366448402E-002;-1.053662388585508E-003;-7.263693492859602E-003;
2.412333333333334E+009;1.784271448850632E-001;-3.747726604342461E-002;-1.231515430845320E-003;-7.336837239563465E-003;
2.412500000000000E+009;1.771606504917145E-001;-3.816759213805199E-002;-1.542706391774118E-003;-7.329422514885664E-003;
2.412666666666667E+009;1.761761754751205E-001;-3.895252943038940E-002;-1.981236506253481E-003;-7.267365232110024E-003;
2.412833333333334E+009;1.750081032514572E-001;-3.960807621479034E-002;-2.140503143891692E-003;-7.157047279179096E-003;
2.413000000000000E+009;1.736629605293274E-001;-4.038300365209580E-002;-2.447451930493116E-003;-7.066289894282818E-003;
2.413166666666667E+009;1.724214851856232E-001;-4.120188951492310E-002;-2.730738604441285E-003;-7.011967711150646E-003;
2.413333333333334E+009;1.710805445909500E-001;-4.219023138284683E-002;-3.039607545360923E-003;-6.840907502919436E-003;
2.413500000000000E+009;1.698174327611923E-001;-4.329651966691017E-002;-3.415549872443080E-003;-6.798211485147476E-003;
2.413666666666667E+009;1.684443205595017E-001;-4.431982710957527E-002;-3.626002697274089E-003;-6.640034262090921E-003;
2.413833333333334E+009;1.671856194734573E-001;-4.545409604907036E-002;-4.012522287666798E-003;-6.620666943490505E-003;
2.414000000000000E+009;1.657721251249313E-001;-4.692093282938004E-002;-4.298180807381868E-003;-6.326517555862665E-003;
2.414166666666667E+009;1.644789427518845E-001;-4.814899712800980E-002;-4.504016134887934E-003;-6.084439344704151E-003;
2.414333333333334E+009;1.632843762636185E-001;-4.963769391179085E-002;-4.741067066788673E-003;-5.829578731209040E-003;
2.414500000000000E+009;1.622003465890884E-001;-5.106803029775620E-002;-5.054129753261805E-003;-5.665748845785856E-003;
2.414666666666667E+009;1.610509604215622E-001;-5.258927866816521E-002;-5.311186425387859E-003;-5.531736183911562E-003;
2.414833333333334E+009;1.599868834018707E-001;-5.433692038059235E-002;-5.373613908886910E-003;-5.086930003017187E-003;
2.415000000000000E+009;1.588419377803803E-001;-5.587404221296310E-002;-5.744515452533960E-003;-4.979722667485476E-003;
2.415166666666667E+009;1.578702479600906E-001;-5.782080441713333E-002;-5.863375961780548E-003;-4.798781126737595E-003;
2.415333333333334E+009;1.572377234697342E-001;-5.957422405481339E-002;-5.812691990286112E-003;-4.342023283243179E-003;
2.415500000000000E+009;1.563975960016251E-001;-6.133322045207024E-002;-6.148222368210554E-003;-4.097700119018555E-003;
2.415666666666667E+009;1.556121259927750E-001;-6.316524744033814E-002;-6.242791656404734E-003;-3.838945645838976E-003;
2.415833333333334E+009;1.549376398324966E-001;-6.522383540868759E-002;-6.326154805719852E-003;-3.533270442858338E-003;
2.416000000000000E+009;1.542917340993881E-001;-6.709305942058563E-002;-6.452755536884069E-003;-3.219399368390441E-003;
2.416166666666667E+009;1.539964377880096E-001;-6.901828199625015E-002;-6.444353144615889E-003;-2.949441783130169E-003;
2.416333333333334E+009;1.534334421157837E-001;-7.094381749629974E-002;-6.546761840581894E-003;-2.598836785182357E-003;
2.416500000000000E+009;1.531309634447098E-001;-7.312170416116715E-002;-6.625530309975147E-003;-2.298543928191066E-003;
2.416666666666667E+009;1.526924967765808E-001;-7.497061789035797E-002;-6.559907924383879E-003;-2.026096219196916E-003;
2.416833333333334E+009;1.525921523571014E-001;-7.696488499641419E-002;-6.608440540730953E-003;-1.774002332240343E-003;
2.417000000000000E+009;1.521713435649872E-001;-7.895538955926895E-002;-6.658558733761311E-003;-1.400703680701554E-003;
2.417166666666667E+009;1.521985679864883E-001;-8.063167333602905E-002;-6.531414575874806E-003;-1.200760249048472E-003;
2.417333333333334E+009;1.521093249320984E-001;-8.242826908826828E-002;-6.452060304582119E-003;-1.094804378226399E-003;
2.417500000000000E+009;1.520696431398392E-001;-8.417899161577225E-002;-6.418271455913782E-003;-7.885269005782902E-004;
2.417666666666667E+009;1.522169411182404E-001;-8.569870889186859E-002;-6.414874922484160E-003;-4.678106051869690E-004;
2.417833333333334E+009;1.522935330867767E-001;-8.725538849830627E-002;-6.217263173311949E-003;-2.754781744442880E-004;
2.418000000000000E+009;1.523508876562119E-001;-8.874825388193131E-002;-6.288749165832996E-003;-8.454565977444872E-005;
2.418166666666667E+009;1.524738669395447E-001;-8.993614464998245E-002;-6.084352266043425E-003;1.262788427993655E-004;
2.418333333333334E+009;1.528557240962982E-001;-9.136100113391876E-002;-6.238284520804882E-003;3.222595551051199E-004;
2.418500000000000E+009;1.529889106750488E-001;-9.246236830949783E-002;-6.173050962388516E-003;5.440320237539709E-004;
2.418666666666667E+009;1.532818526029587E-001;-9.351641684770584E-002;-5.976689979434013E-003;7.138330256566405E-004;
2.418833333333334E+009;1.532972157001495E-001;-9.445054829120636E-002;-5.870486609637737E-003;8.151274523697794E-004;
2.419000000000000E+009;1.534727960824966E-001;-9.512005746364594E-002;-5.869637709110975E-003;9.944130433723331E-004;
2.419166666666667E+009;1.537099629640579E-001;-9.587501734495163E-002;-5.841432139277458E-003;1.316068577580154E-003;
2.419333333333334E+009;1.537672281265259E-001;-9.623367339372635E-002;-5.811658687889576E-003;1.343089970760047E-003;
2.419500000000000E+009;1.541199237108231E-001;-9.696956723928452E-002;-5.899670533835888E-003;1.563314814120531E-003;
2.419666666666667E+009;1.543635278940201E-001;-9.729345142841339E-002;-5.673663690686226E-003;1.811163849197328E-003;
2.419833333333334E+009;1.543754190206528E-001;-9.730929136276245E-002;-5.646154284477234E-003;2.095597330480814E-003;
2.420000000000000E+009;1.544732749462128E-001;-9.749758988618851E-002;-5.560286808758974E-003;2.147446619346738E-003;
2.420166666666667E+009;1.545875370502472E-001;-9.737853705883026E-002;-5.547561217099428E-003;2.399968681856990E-003;
2.420333333333334E+009;1.544833332300186E-001;-9.750571846961975E-002;-5.420506931841373E-003;2.591802738606930E-003;
2.420500000000000E+009;1.546172350645065E-001;-9.721398353576660E-002;-5.176139995455742E-003;2.897857455536723E-003;
2.420666666666667E+009;1.544568538665772E-001;-9.692157804965973E-002;-4.890327807515860E-003;3.238716395571828E-003;
2.420833333333334E+009;1.545393913984299E-001;-9.680355340242386E-002;-4.996107891201973E-003;3.145205555483699E-003;
2.421000000000000E+009;1.540498733520508E-001;-9.649327397346497E-002;-4.699030425399542E-003;3.409399650990963E-003;
2.421166666666667E+009;1.538179069757462E-001;-9.597422182559967E-002;-4.488558042794466E-003;3.515840740874410E-003;
2.421333333333334E+009;1.536815762519836E-001;-9.587945044040680E-002;-4.507892299443483E-003;3.538297023624182E-003;
2.421500000000000E+009;1.530513018369675E-001;-9.547030925750732E-002;-4.153923597186804E-003;3.911164589226246E-003;
2.421666666666667E+009;1.526123583316803E-001;-9.512746334075928E-002;-3.942656330764294E-003;4.077051300555468E-003;
2.421833333333334E+009;1.520217359066010E-001;-9.487038105726242E-002;-3.694141749292612E-003;3.968311473727226E-003;
2.422000000000000E+009;1.513234078884125E-001;-9.450361877679825E-002;-3.587060840800405E-003;4.097118042409420E-003;
2.422166666666667E+009;1.505312770605087E-001;-9.416172653436661E-002;-3.524146275594831E-003;4.068761132657528E-003;
2.422333333333334E+009;1.494760811328888E-001;-9.407166391611099E-002;-3.222448751330376E-003;4.289735108613968E-003;
2.422500000000000E+009;1.485263854265213E-001;-9.371552616357803E-002;-3.077096771448851E-003;4.339494276791811E-003;
2.422666666666667E+009;1.473349183797836E-001;-9.362244606018066E-002;-2.811885671690106E-003;4.395324736833572E-003;
2.422833333333334E+009;1.461496353149414E-001;-9.353721141815186E-002;-2.644478809088469E-003;4.291117656975985E-003;
2.423000000000000E+009;1.449209004640579E-001;-9.338220208883286E-002;-2.410834189504385E-003;4.481091629713774E-003;
2.423166666666667E+009;1.435920745134354E-001;-9.346242249011993E-002;-2.245421754196286E-003;4.377185832709074E-003;
2.423333333333334E+009;1.422445923089981E-001;-9.337299317121506E-002;-2.062749117612839E-003;4.333834163844585E-003;
2.423500000000000E+009;1.407520473003388E-001;-9.347414225339890E-002;-1.934326137416065E-003;4.465377889573574E-003;
2.423666666666667E+009;1.392287462949753E-001;-9.375906735658646E-002;-1.659381669014692E-003;4.336716141551733E-003;
2.423833333333334E+009;1.377620548009872E-001;-9.408695995807648E-002;-1.482856459915638E-003;4.516052082180977E-003;
2.424000000000000E+009;1.362585425376892E-001;-9.420005977153778E-002;-1.361179864034057E-003;4.180173855274916E-003;
2.424166666666667E+009;1.346322149038315E-001;-9.469851106405258E-002;-1.190009759739041E-003;4.278000909835100E-003;
2.424333333333334E+009;1.330990344285965E-001;-9.508332610130310E-002;-9.564985521137714E-004;3.948486875742674E-003;
2.424500000000000E+009;1.317938417196274E-001;-9.578352421522141E-002;-1.024411292746663E-003;3.987265285104513E-003;
2.424666666666667E+009;1.303608566522598E-001;-9.640859067440033E-002;-8.513054926879704E-004;4.061131272464991E-003;
2.424833333333334E+009;1.287599205970764E-001;-9.706059843301773E-002;-7.908527040854096E-004;3.906484693288803E-003;
2.425000000000000E+009;1.275111883878708E-001;-9.807416796684265E-002;-6.879993015900254E-004;3.891582135111094E-003;
2.425166666666667E+009;1.259070634841919E-001;-9.916195273399353E-002;-7.194992504082620E-004;4.021829459816217E-003;
2.425333333333334E+009;1.248375102877617E-001;-1.000785604119301E-001;-5.148650961928070E-004;3.902720753103495E-003;
2.425500000000000E+009;1.236458495259285E-001;-1.012267544865608E-001;-3.479174338281155E-004;3.659458365291357E-003;
2.425666666666667E+009;1.222948580980301E-001;-1.024313047528267E-001;-5.194452824071050E-004;3.784934990108013E-003;
2.425833333333334E+009;1.212145239114761E-001;-1.037381440401077E-001;-2.431488101137802E-004;3.831534413620830E-003;
2.426000000000000E+009;1.202967837452889E-001;-1.051911115646362E-001;-1.554714253870770E-004;3.720645792782307E-003;
2.426166666666667E+009;1.195523813366890E-001;-1.067488193511963E-001;-3.267154679633677E-004;3.740837099030614E-003;
2.426333333333334E+009;1.186368316411972E-001;-1.080011352896690E-001;-1.635246007936075E-004;3.872936125844717E-003;
2.426500000000000E+009;1.179482266306877E-001;-1.095448583364487E-001;-1.145973583334126E-004;3.707017516717315E-003;
2.426666666666667E+009;1.173715293407440E-001;-1.110854595899582E-001;1.820579745981377E-005;3.625581739470363E-003;
2.426833333333334E+009;1.167738214135170E-001;-1.127265691757202E-001;8.289633842650801E-005;3.757781814783812E-003;
2.427000000000000E+009;1.161886602640152E-001;-1.144911721348763E-001;2.871608012355864E-004;3.832609159871936E-003;
2.427166666666667E+009;1.157166436314583E-001;-1.159527078270912E-001;3.429041244089603E-004;3.741599386557937E-003;
2.427333333333334E+009;1.153605058789253E-001;-1.176626607775688E-001;5.923880962654948E-004;3.689404809847474E-003;
2.427500000000000E+009;1.152374073863030E-001;-1.191871911287308E-001;5.813760217279196E-004;3.712506033480167E-003;
2.427666666666667E+009;1.150097548961639E-001;-1.209331452846527E-001;6.709218723699451E-004;3.640113165602088E-003;
