# Version 1.00
#
freq[Hz];re:Trc1_S11;im:Trc1_S11;re:Trc2_S21;im:Trc2_S21;
2.400000000000000E+009;1.734848171472549E-001;4.900830984115601E-002;3.663124050945044E-003;1.404896378517151E-003;
2.400166666666667E+009;1.740440577268601E-001;4.863198474049568E-002;3.839191282168031E-003;1.249810680747032E-003;
2.400333333333334E+009;1.743027716875076E-001;4.779990762472153E-002;3.657138906419277E-003;1.074736588634551E-003;
2.400500000000000E+009;1.747611314058304E-001;4.718212783336639E-002;3.792798845097423E-003;8.567486074753106E-004;
2.400666666666667E+009;1.750386804342270E-001;4.658847302198410E-002;3.486922010779381E-003;9.674787288531661E-004;
2.400833333333334E+009;1.752121746540070E-001;4.603707417845726E-002;3.452746430411935E-003;6.723558763042092E-004;
2.401000000000000E+009;1.754843890666962E-001;4.541993886232376E-002;3.374902298673987E-003;5.869193701073527E-004;
2.401166666666667E+009;1.756569594144821E-001;4.470495879650116E-002;3.376998240128160E-003;5.278632743284106E-004;
2.401333333333334E+009;1.753696054220200E-001;4.396167770028114E-002;3.287164960056543E-003;6.446723127737641E-004;
2.401500000000000E+009;1.755897104740143E-001;4.330273345112801E-002;3.315204987302423E-003;5.030125030316412E-004;
2.401666666666667E+009;1.753993332386017E-001;4.272665083408356E-002;3.177403239533305E-003;4.332216922193766E-004;
2.401833333333334E+009;1.753988116979599E-001;4.183338955044746E-002;3.176105674356222E-003;5.163351306691766E-004;
2.402000000000000E+009;1.748819649219513E-001;4.111889377236366E-002;3.136801300570369E-003;4.289881908334792E-004;
2.402166666666667E+009;1.748471707105637E-001;4.003250226378441E-002;3.237477503716946E-003;6.123848143033683E-004;
2.402333333333334E+009;1.746157705783844E-001;3.903529420495033E-002;3.305424004793167E-003;5.353700253181160E-004;
2.402500000000000E+009;1.745285540819168E-001;3.824206814169884E-002;3.031024709343910E-003;4.771306994371116E-004;
2.402666666666667E+009;1.741068959236145E-001;3.715555369853973E-002;3.200825070962310E-003;5.332853179425001E-004;
2.402833333333334E+009;1.738192141056061E-001;3.591809794306755E-002;3.147271461784840E-003;5.998384440317750E-004;
2.403000000000000E+009;1.733870804309845E-001;3.441760689020157E-002;3.253516741096973E-003;5.950416671112180E-004;
2.403166666666667E+009;1.729544848203659E-001;3.311670571565628E-002;3.444477915763855E-003;7.888601394370198E-004;
2.403333333333334E+009;1.727285534143448E-001;3.187143057584763E-002;3.416857449337840E-003;7.336654816754162E-004;
2.403500000000000E+009;1.722825318574905E-001;3.026072680950165E-002;3.530520712956786E-003;7.475753664039075E-004;
2.403666666666667E+009;1.719614267349243E-001;2.867628633975983E-002;3.534001531079412E-003;7.784898625686765E-004;
2.403833333333334E+009;1.717384904623032E-001;2.689472027122974E-002;3.734354628250003E-003;6.264689145609736E-004;
2.404000000000000E+009;1.712494790554047E-001;2.505754306912422E-002;3.923565614968538E-003;7.438327302224934E-004;
2.404166666666667E+009;1.708056330680847E-001;2.311742492020130E-002;3.974891267716885E-003;5.994878010824323E-004;
2.404333333333334E+009;1.705975085496903E-001;2.148835733532906E-002;4.311018157750368E-003;6.176660535857081E-004;
2.404500000000000E+009;1.702514886856079E-001;1.928292028605938E-002;4.224092233926058E-003;5.275603034533560E-004;
2.404666666666667E+009;1.700124293565750E-001;1.733448170125485E-002;4.410125315189362E-003;4.017708415631205E-004;
2.404833333333334E+009;1.697033792734146E-001;1.522013545036316E-002;4.688729997724295E-003;1.991647877730429E-004;
2.405000000000000E+009;1.697008609771729E-001;1.339997444301844E-002;4.796287510544062E-003;1.523535465821624E-004;
2.405166666666667E+009;1.696720123291016E-001;1.136512123048306E-002;4.944998305290937E-003;-1.248491607839242E-004;
2.405333333333334E+009;1.697159707546234E-001;9.142579510807991E-003;5.134023260325193E-003;-1.087913260562345E-004;
2.405500000000000E+009;1.696697026491165E-001;7.192769553512335E-003;5.263473372906447E-003;-4.958251956850290E-004;
2.405666666666667E+009;1.699170917272568E-001;5.108362063765526E-003;5.225510336458683E-003;-7.966727716848254E-004;
2.405833333333334E+009;1.699048727750778E-001;3.018123097717762E-003;5.275021307170391E-003;-1.024838304147124E-003;
2.406000000000000E+009;1.702447682619095E-001;1.004196354188025E-003;5.475981626659632E-003;-1.276627066545188E-003;
2.406166666666667E+009;1.704956740140915E-001;-8.453995687887073E-004;5.493057891726494E-003;-1.399903791025281E-003;
2.406333333333334E+009;1.710882782936096E-001;-2.976643620058894E-003;5.516470409929752E-003;-1.843263278715313E-003;
2.406500000000000E+009;1.714327931404114E-001;-4.925719462335110E-003;5.456464830785990E-003;-1.892376923933625E-003;
2.406666666666667E+009;1.718936115503311E-001;-6.897921208292246E-003;5.446534603834152E-003;-2.231068443506956E-003;
2.406833333333334E+009;1.725782155990601E-001;-8.909008465707302E-003;5.474285222589970E-003;-2.415813505649567E-003;
2.407000000000000E+009;1.732927113771439E-001;-1.072971709072590E-002;5.250892136245966E-003;-2.671059919521213E-003;
2.407166666666667E+009;1.741445660591126E-001;-1.244534924626350E-002;5.323681049048901E-003;-2.901434432715178E-003;
2.407333333333334E+009;1.747013479471207E-001;-1.441477425396442E-002;5.210853647440672E-003;-3.067501587793231E-003;
2.407500000000000E+009;1.755273044109345E-001;-1.596517115831375E-002;5.250275600701571E-003;-3.299561329185963E-003;
2.407666666666667E+009;1.762584298849106E-001;-1.756310835480690E-002;5.023446865379810E-003;-3.698536893352866E-003;
2.407833333333334E+009;1.769398599863052E-001;-1.937342993915081E-002;5.117593333125114E-003;-3.852311288937926E-003;
2.408000000000000E+009;1.777691990137100E-001;-2.092399261891842E-002;4.911898169666529E-003;-4.202256444841623E-003;
2.408166666666667E+009;1.785305291414261E-001;-2.225471846759319E-002;4.843205679208040E-003;-4.281353671103716E-003;
2.408333333333334E+009;1.794281303882599E-001;-2.361318282783032E-002;4.489283543080092E-003;-4.528807476162911E-003;
2.408500000000000E+009;1.800946891307831E-001;-2.492340840399265E-002;4.552206024527550E-003;-4.898468032479286E-003;
2.408666666666667E+009;1.807003766298294E-001;-2.618332765996456E-002;4.220171365886927E-003;-5.228536203503609E-003;
2.408833333333334E+009;1.811444163322449E-001;-2.733530104160309E-002;4.325192887336016E-003;-5.515416618436575E-003;
2.409000000000000E+009;1.817212104797363E-001;-2.817882783710957E-002;4.138875752687454E-003;-5.537989083677530E-003;
2.409166666666667E+009;1.823119223117828E-001;-2.902286127209663E-002;3.693175502121449E-003;-5.731896962970495E-003;
2.409333333333334E+009;1.827757209539414E-001;-3.001704998314381E-002;3.435169113799930E-003;-5.893820431083441E-003;
2.409500000000000E+009;1.832211464643478E-001;-3.080137073993683E-002;3.167986171320081E-003;-6.181683391332626E-003;
2.409666666666667E+009;1.834182590246201E-001;-3.134465590119362E-002;3.020868636667728E-003;-6.212841719388962E-003;
2.409833333333334E+009;1.836732774972916E-001;-3.186079487204552E-002;2.673115814104676E-003;-6.513092201203108E-003;
2.410000000000000E+009;1.839089393615723E-001;-3.225496411323547E-002;2.502005780115724E-003;-6.464347243309021E-003;
2.410166666666667E+009;1.841058135032654E-001;-3.269904106855393E-002;2.290892647579312E-003;-6.565694231539965E-003;
2.410333333333334E+009;1.841423958539963E-001;-3.309688717126846E-002;2.043925691395998E-003;-6.805120501667261E-003;
2.410500000000000E+009;1.842239350080490E-001;-3.345555812120438E-002;1.686776638962328E-003;-6.702367216348648E-003;
2.410666666666667E+009;1.841143220663071E-001;-3.364352509379387E-002;1.575696049258113E-003;-7.005317602306604E-003;
2.410833333333334E+009;1.839478611946106E-001;-3.410180285573006E-002;1.259965240024030E-003;-6.959929130971432E-003;
2.411000000000000E+009;1.838415861129761E-001;-3.434499725699425E-002;1.009300583973527E-003;-7.090087048709393E-003;
2.411166666666667E+009;1.835051476955414E-001;-3.462234511971474E-002;7.517319172620773E-004;-7.195377722382546E-003;
2.411333333333334E+009;1.829218417406082E-001;-3.502530977129936E-002;4.258437256794423E-004;-7.232292555272579E-003;
2.411500000000000E+009;1.823352426290512E-001;-3.546522185206413E-002;2.180543815484271E-004;-7.279166020452976E-003;
2.411666666666667E+009;1.818472594022751E-001;-3.597675636410713E-002;-2.259851025883108E-004;-7.405295502394438E-003;
2.411833333333334E+009;1.811454892158508E-001;-3.611679375171661E-002;-3.357878013048321E-004;-7.488203700631857E-003;
2.412000000000000E+009;1.803492456674576E-001;-3.684289380908012E-002;-7.236311794258654E-004;-7.419972680509090E-003;
2.412166666666667E+009;1.792058050632477E-001;-3.724940121173859E-002;-1.117383828386664E-003;-7.357000373303890E-003;
2.412333333333334E+009;1.785637885332108E-001;-3.768935427069664E-002;-1.336719142273068E-003;-7.454324513673782E-003;
2.412500000000000E+009;1.771738082170487E-001;-3.823905065655708E-002;-1.491580624133349E-003;-7.519990671426058E-003;
2.412666666666667E+009;1.761588454246521E-001;-3.920542821288109E-002;-1.899381633847952E-003;-7.429953664541245E-003;
2.412833333333334E+009;1.750274747610092E-001;-3.981034085154533E-002;-2.238432643935084E-003;-7.175169419497252E-003;
2.413000000000000E+009;1.738089025020599E-001;-4.057623818516731E-002;-2.550501376390457E-003;-7.399448659271002E-003;
2.413166666666667E+009;1.724882870912552E-001;-4.152983799576759E-002;-2.837993204593658E-003;-7.117967121303082E-003;
2.413333333333334E+009;1.710310876369476E-001;-4.238412529230118E-002;-3.102266462519765E-003;-7.198166567832232E-003;
2.413500000000000E+009;1.698098182678223E-001;-4.346073046326637E-002;-3.536173142492771E-003;-6.963907275348902E-003;
2.413666666666667E+009;1.685075461864471E-001;-4.460630193352699E-002;-3.783905413001776E-003;-6.790988147258759E-003;
2.413833333333334E+009;1.671874523162842E-001;-4.593379795551300E-002;-4.125302191823721E-003;-6.466781720519066E-003;
2.414000000000000E+009;1.656821966171265E-001;-4.715677723288536E-002;-4.346797708421946E-003;-6.493113469332457E-003;
2.414166666666667E+009;1.644683778285980E-001;-4.833741486072540E-002;-4.679212346673012E-003;-6.302016787230969E-003;
2.414333333333334E+009;1.632392406463623E-001;-4.984201490879059E-002;-4.892172757536173E-003;-5.873046815395355E-003;
2.414500000000000E+009;1.621698290109634E-001;-5.136280879378319E-002;-5.168607458472252E-003;-5.569884553551674E-003;
2.414666666666667E+009;1.608532220125198E-001;-5.283944681286812E-002;-5.410493817180395E-003;-5.429667420685291E-003;
2.414833333333334E+009;1.598722040653229E-001;-5.449904501438141E-002;-5.647608079016209E-003;-5.191123578697443E-003;
2.415000000000000E+009;1.586956828832626E-001;-5.617988482117653E-002;-5.797374993562698E-003;-4.719691816717386E-003;
2.415166666666667E+009;1.577783226966858E-001;-5.787106975913048E-002;-6.012774538248777E-003;-4.606138914823532E-003;
2.415333333333334E+009;1.568875014781952E-001;-5.979530885815620E-002;-5.940668750554323E-003;-4.419772420078516E-003;
2.415500000000000E+009;1.560335457324982E-001;-6.150351464748383E-002;-6.255804561078548E-003;-4.127068445086479E-003;
2.415666666666667E+009;1.553772985935211E-001;-6.337523460388184E-002;-6.289021577686071E-003;-3.813071409240365E-003;
2.415833333333334E+009;1.549056619405747E-001;-6.531853973865509E-002;-6.273047998547554E-003;-3.524149302393198E-003;
2.416000000000000E+009;1.540967375040054E-001;-6.723428517580032E-002;-6.472198758274317E-003;-3.263260237872601E-003;
2.416166666666667E+009;1.537709385156632E-001;-6.921334564685822E-002;-6.652558222413063E-003;-2.924447646364570E-003;
2.416333333333334E+009;1.533554792404175E-001;-7.115229219198227E-002;-6.540539208799601E-003;-2.537318738177419E-003;
2.416500000000000E+009;1.529201120138168E-001;-7.313064485788345E-002;-6.476151756942272E-003;-2.369298133999109E-003;
2.416666666666667E+009;1.525516510009766E-001;-7.505088299512863E-002;-6.656575947999954E-003;-2.063469029963017E-003;
2.416833333333334E+009;1.524073183536530E-001;-7.723136991262436E-002;-6.620105821639299E-003;-1.739493920467794E-003;
2.417000000000000E+009;1.520327329635620E-001;-7.898905873298645E-002;-6.638501770794392E-003;-1.558948308229446E-003;
2.417166666666667E+009;1.519410759210587E-001;-8.073255419731140E-002;-6.614801473915577E-003;-1.171666313894093E-003;
2.417333333333334E+009;1.518561393022537E-001;-8.240123838186264E-002;-6.560982204973698E-003;-9.221753571182489E-004;
2.417500000000000E+009;1.518439948558807E-001;-8.427725732326508E-002;-6.444843485951424E-003;-7.253960357047617E-004;
2.417666666666667E+009;1.520470678806305E-001;-8.567773550748825E-002;-6.665434688329697E-003;-5.489648319780827E-004;
2.417833333333334E+009;1.520592123270035E-001;-8.726207166910172E-002;-6.329743191599846E-003;-3.217431658413261E-004;
2.418000000000000E+009;1.520611643791199E-001;-8.873589336872101E-002;-6.177655886858702E-003;-8.644900663057342E-005;
2.418166666666667E+009;1.523040533065796E-001;-8.991420269012451E-002;-6.112049799412489E-003;3.040468254766893E-005;
2.418333333333334E+009;1.526367217302322E-001;-9.130399674177170E-002;-6.276097148656845E-003;2.182318421546370E-004;
2.418500000000000E+009;1.527449488639832E-001;-9.238772094249725E-002;-6.142374128103256E-003;6.439507706090808E-004;
2.418666666666667E+009;1.530584990978241E-001;-9.331668168306351E-002;-6.063435692340136E-003;6.846875185146928E-004;
2.418833333333334E+009;1.532030701637268E-001;-9.436409920454025E-002;-5.981738213449717E-003;8.349109557457268E-004;
2.419000000000000E+009;1.532640308141708E-001;-9.503541886806488E-002;-5.997825413942337E-003;8.805771358311176E-004;
2.419166666666667E+009;1.535051316022873E-001;-9.574189037084580E-002;-5.980316083878279E-003;1.289458596147597E-003;
2.419333333333334E+009;1.536350250244141E-001;-9.602429717779160E-002;-5.922872573137283E-003;1.377337379381061E-003;
2.419500000000000E+009;1.539656072854996E-001;-9.677213430404663E-002;-5.959332454949617E-003;1.565795857459307E-003;
2.419666666666667E+009;1.540743261575699E-001;-9.697009623050690E-002;-5.809175781905651E-003;1.776075339876115E-003;
2.419833333333334E+009;1.541673392057419E-001;-9.727283567190170E-002;-5.763407796621323E-003;2.009870717301965E-003;
2.420000000000000E+009;1.543611288070679E-001;-9.728837013244629E-002;-5.542815662920475E-003;2.236114582046866E-003;
2.420166666666667E+009;1.544319540262222E-001;-9.731638431549072E-002;-5.563299637287855E-003;2.474472858011723E-003;
2.420333333333334E+009;1.545748114585877E-001;-9.728442132472992E-002;-5.384590011090040E-003;2.625562716275454E-003;
2.420500000000000E+009;1.545545905828476E-001;-9.705904126167297E-002;-5.383604206144810E-003;2.746849553659558E-003;
2.420666666666667E+009;1.543480902910233E-001;-9.677797555923462E-002;-5.273036658763886E-003;3.096814034506679E-003;
2.420833333333334E+009;1.545284241437912E-001;-9.655592590570450E-002;-5.095917731523514E-003;3.377028042450547E-003;
2.421000000000000E+009;1.540072709321976E-001;-9.629143029451370E-002;-4.923543427139521E-003;3.340599359944463E-003;
2.421166666666667E+009;1.539327949285507E-001;-9.583745896816254E-002;-4.669824149459600E-003;3.591456217691302E-003;
2.421333333333334E+009;1.536263376474381E-001;-9.576165676116943E-002;-4.533851519227028E-003;3.709611715748906E-003;
2.421500000000000E+009;1.530894041061401E-001;-9.515677392482758E-002;-4.492557607591152E-003;3.889403538778424E-003;
2.421666666666667E+009;1.525750756263733E-001;-9.479294717311859E-002;-4.112691152840853E-003;4.124208353459835E-003;
2.421833333333334E+009;1.519797146320343E-001;-9.457997977733612E-002;-3.990352619439364E-003;4.234020598232746E-003;
2.422000000000000E+009;1.510690450668335E-001;-9.418513625860214E-002;-3.833901835605502E-003;4.378727637231350E-003;
2.422166666666667E+009;1.505520045757294E-001;-9.426215291023254E-002;-3.624954959377646E-003;4.471049178391695E-003;
2.422333333333334E+009;1.497444510459900E-001;-9.367265552282333E-002;-3.350172191858292E-003;4.407410975545645E-003;
2.422500000000000E+009;1.484960019588471E-001;-9.350421279668808E-002;-3.053321968764067E-003;4.490061197429895E-003;
2.422666666666667E+009;1.474875360727310E-001;-9.347977489233017E-002;-2.900235820561647E-003;4.592061042785645E-003;
2.422833333333334E+009;1.462339311838150E-001;-9.334877133369446E-002;-2.848826814442873E-003;4.625937901437283E-003;
2.423000000000000E+009;1.449870616197586E-001;-9.337458759546280E-002;-2.480816794559360E-003;4.594810772687197E-003;
2.423166666666667E+009;1.437680423259735E-001;-9.325442463159561E-002;-2.473970409482718E-003;4.595960490405560E-003;
2.423333333333334E+009;1.424335986375809E-001;-9.311256557703018E-002;-2.084923908114433E-003;4.840199369937182E-003;
2.423500000000000E+009;1.408910155296326E-001;-9.333930164575577E-002;-1.871877582743764E-003;4.734409973025322E-003;
2.423666666666667E+009;1.391502916812897E-001;-9.368377178907394E-002;-1.815665047615767E-003;4.662496037781239E-003;
2.423833333333334E+009;1.379268616437912E-001;-9.397561848163605E-002;-1.512937247753143E-003;4.750665742903948E-003;
2.424000000000000E+009;1.362570375204086E-001;-9.412750601768494E-002;-1.270490465685725E-003;4.633733071386814E-003;
2.424166666666667E+009;1.346532106399536E-001;-9.465368837118149E-002;-1.336241024546325E-003;4.558900836855173E-003;
2.424333333333334E+009;1.333392560482025E-001;-9.514693915843964E-002;-9.223981760442257E-004;4.514157306402922E-003;
2.424500000000000E+009;1.318358331918716E-001;-9.582490473985672E-002;-7.644609431736171E-004;4.439448937773705E-003;
2.424666666666667E+009;1.304130852222443E-001;-9.620535373687744E-002;-6.929745431989431E-004;4.450497683137655E-003;
2.424833333333334E+009;1.288202404975891E-001;-9.707363694906235E-002;-4.702315782196820E-004;4.289295990020037E-003;
2.425000000000000E+009;1.275146752595902E-001;-9.797063469886780E-002;-4.182245756965131E-004;4.405054263770580E-003;
2.425166666666667E+009;1.260437667369843E-001;-9.894984215497971E-002;-3.707843134179711E-004;4.152005072683096E-003;
2.425333333333334E+009;1.248810514807701E-001;-9.997546672821045E-002;-3.262657846789807E-004;4.166788421571255E-003;
2.425500000000000E+009;1.236858069896698E-001;-1.012586206197739E-001;-2.777963236439973E-004;4.128120373934507E-003;
2.425666666666667E+009;1.222949475049973E-001;-1.024033352732658E-001;-9.726084681460634E-005;4.018083680421114E-003;
2.425833333333334E+009;1.214448884129524E-001;-1.037252396345139E-001;-7.574957271572202E-005;3.903140081092715E-003;
2.426000000000000E+009;1.204659417271614E-001;-1.051393970847130E-001;9.541311737848446E-005;3.783141495659947E-003;
2.426166666666667E+009;1.196066886186600E-001;-1.066511645913124E-001;1.904832606669515E-004;3.951763268560171E-003;
2.426333333333334E+009;1.188462600111961E-001;-1.080818548798561E-001;7.999888475751504E-005;3.978677093982697E-003;
2.426500000000000E+009;1.180595159530640E-001;-1.096152290701866E-001;2.613800752442330E-004;3.720967797562480E-003;
2.426666666666667E+009;1.175212860107422E-001;-1.111581027507782E-001;2.846900897566229E-004;3.777575679123402E-003;
2.426833333333334E+009;1.168413087725639E-001;-1.127981171011925E-001;4.753691318910569E-004;3.952131140977144E-003;
2.427000000000000E+009;1.163240373134613E-001;-1.145710796117783E-001;5.767646362073720E-004;3.849626984447241E-003;
2.427166666666667E+009;1.159106492996216E-001;-1.160302236676216E-001;6.274324259720743E-004;3.744906978681684E-003;
2.427333333333334E+009;1.154984310269356E-001;-1.176617071032524E-001;8.242785115726292E-004;3.833373775705695E-003;
2.427500000000000E+009;1.153368353843689E-001;-1.192056611180306E-001;8.997914264909923E-004;3.630702616646886E-003;
2.427666666666667E+009;1.150978654623032E-001;-1.208920180797577E-001;1.012573018670082E-003;3.646466182544828E-003;
