# Version 1.00
#
freq[Hz];re:Trc1_S11;im:Trc1_S11;re:Trc2_S21;im:Trc2_S21;
2.400000000000000E+009;1.573561280965805E-001;1.110158935189247E-001;6.262945011258125E-003;4.451117478311062E-003;
2.400166666666667E+009;1.568491905927658E-001;1.089398488402367E-001;6.473764777183533E-003;4.288073629140854E-003;
2.400333333333334E+009;1.563515514135361E-001;1.067143008112907E-001;6.591909565031529E-003;4.182496108114719E-003;
2.400500000000000E+009;1.559036374092102E-001;1.042321100831032E-001;6.695252843201160E-003;4.073139280080795E-003;
2.400666666666667E+009;1.556569933891296E-001;1.017800793051720E-001;6.883136462420225E-003;3.969321493059397E-003;
2.400833333333334E+009;1.552742719650269E-001;9.899355471134186E-002;6.990614812821150E-003;4.006396047770977E-003;
2.401000000000000E+009;1.549981832504273E-001;9.610573202371597E-002;7.299741264432669E-003;3.765821689739823E-003;
2.401166666666667E+009;1.544847488403320E-001;9.340146929025650E-002;7.383995223790407E-003;3.691763151437044E-003;
2.401333333333334E+009;1.545818597078323E-001;9.061942994594574E-002;7.620033342391253E-003;3.386528231203556E-003;
2.401500000000000E+009;1.547090411186218E-001;8.749192953109741E-002;7.823082618415356E-003;3.319106530398130E-003;
2.401666666666667E+009;1.544442921876907E-001;8.442880958318710E-002;8.284050971269608E-003;2.973114605993033E-003;
2.401833333333334E+009;1.548088192939758E-001;8.164267241954804E-002;8.471421897411346E-003;2.846026327461004E-003;
2.402000000000000E+009;1.552935689687729E-001;7.878745347261429E-002;8.613017387688160E-003;2.483450341969729E-003;
2.402166666666667E+009;1.557431519031525E-001;7.591994851827622E-002;8.813200518488884E-003;2.260415581986308E-003;
2.402333333333334E+009;1.564252823591232E-001;7.306827604770660E-002;9.147238917648792E-003;1.921644085086882E-003;
2.402500000000000E+009;1.572396159172058E-001;7.009506970643997E-002;9.458509273827076E-003;1.542565412819386E-003;
2.402666666666667E+009;1.581291407346726E-001;6.758022308349609E-002;9.724278934299946E-003;1.101021771319211E-003;
2.402833333333334E+009;1.594475954771042E-001;6.489337980747223E-002;9.798696264624596E-003;7.899859338067472E-004;
2.403000000000000E+009;1.606405973434448E-001;6.219379976391792E-002;9.879571385681629E-003;2.398016222286969E-004;
2.403166666666667E+009;1.622700244188309E-001;5.965833738446236E-002;9.933872148394585E-003;-3.155909653287381E-004;
2.403333333333334E+009;1.636786609888077E-001;5.703239142894745E-002;1.007458474487066E-002;-8.265159558504820E-004;
2.403500000000000E+009;1.653490215539932E-001;5.487688630819321E-002;9.840118698775768E-003;-1.304457895457745E-003;
2.403666666666667E+009;1.670803874731064E-001;5.243205279111862E-002;9.786326438188553E-003;-1.832823501899838E-003;
2.403833333333334E+009;1.687369942665100E-001;5.026194453239441E-002;9.828756563365459E-003;-2.312431111931801E-003;
2.404000000000000E+009;1.703542619943619E-001;4.810258746147156E-002;9.697848930954933E-003;-2.864925656467676E-003;
2.404166666666667E+009;1.723368018865585E-001;4.651043191552162E-002;9.660596027970314E-003;-3.264265367761254E-003;
2.404333333333334E+009;1.739053279161453E-001;4.452812671661377E-002;9.096757508814335E-003;-3.705481532961130E-003;
2.404500000000000E+009;1.757471710443497E-001;4.278980940580368E-002;8.883997797966003E-003;-4.162004217505455E-003;
2.404666666666667E+009;1.776420027017593E-001;4.116545617580414E-002;8.597746491432190E-003;-4.713384900242090E-003;
2.404833333333334E+009;1.795353591442108E-001;3.997121751308441E-002;8.258283138275147E-003;-4.889219999313355E-003;
2.405000000000000E+009;1.810477524995804E-001;3.915338590741158E-002;7.993298582732678E-003;-5.145153962075710E-003;
2.405166666666667E+009;1.828238964080811E-001;3.815548866987228E-002;7.687787991017103E-003;-5.578801035881043E-003;
2.405333333333334E+009;1.846133470535278E-001;3.748116642236710E-002;7.361780852079392E-003;-5.707155447453260E-003;
2.405500000000000E+009;1.861552596092224E-001;3.687070682644844E-002;6.933230441063643E-003;-6.009189877659082E-003;
2.405666666666667E+009;1.875788569450378E-001;3.647388145327568E-002;6.488664541393518E-003;-6.223513744771481E-003;
2.405833333333334E+009;1.894741952419281E-001;3.603105992078781E-002;6.232701707631350E-003;-6.563464179635048E-003;
2.406000000000000E+009;1.907583326101303E-001;3.587370738387108E-002;5.961917340755463E-003;-6.542108952999115E-003;
2.406166666666667E+009;1.921801865100861E-001;3.558995202183723E-002;5.624509416520596E-003;-6.641375832259655E-003;
2.406333333333334E+009;1.933990567922592E-001;3.563757613301277E-002;5.388044286519289E-003;-6.898641586303711E-003;
2.406500000000000E+009;1.947200596332550E-001;3.571334481239319E-002;5.011590197682381E-003;-6.845152005553246E-003;
2.406666666666667E+009;1.955564916133881E-001;3.598750382661820E-002;4.806210286915302E-003;-6.879330612719059E-003;
2.406833333333334E+009;1.965223550796509E-001;3.616201877593994E-002;4.341318737715483E-003;-7.089535705745220E-003;
2.407000000000000E+009;1.971094012260437E-001;3.653331100940704E-002;4.188661463558674E-003;-7.148657925426960E-003;
2.407166666666667E+009;1.979462057352066E-001;3.659296780824661E-002;3.648481098935008E-003;-7.177467923611403E-003;
2.407333333333334E+009;1.981702893972397E-001;3.708492964506149E-002;3.646478755399585E-003;-7.313495501875877E-003;
2.407500000000000E+009;1.985900849103928E-001;3.742772713303566E-002;3.279613330960274E-003;-7.294998504221439E-003;
2.407666666666667E+009;1.988981962203980E-001;3.773106262087822E-002;2.860847860574722E-003;-7.238251157104969E-003;
2.407833333333334E+009;1.986240744590759E-001;3.789470344781876E-002;2.476868452504277E-003;-7.259344216436148E-003;
2.408000000000000E+009;1.988030821084976E-001;3.804849833250046E-002;2.339147962629795E-003;-7.266572210937738E-003;
2.408166666666667E+009;1.985120773315430E-001;3.820659592747688E-002;2.089477144181728E-003;-7.096582092344761E-003;
2.408333333333334E+009;1.982661038637161E-001;3.816814720630646E-002;1.681354828178883E-003;-7.098339032381773E-003;
2.408500000000000E+009;1.977335363626480E-001;3.831244632601738E-002;1.605383702553809E-003;-7.010759785771370E-003;
2.408666666666667E+009;1.971799731254578E-001;3.812445700168610E-002;1.495937816798687E-003;-6.796845700591803E-003;
2.408833333333334E+009;1.964810937643051E-001;3.779734671115875E-002;1.285154023207724E-003;-6.688463035970926E-003;
2.409000000000000E+009;1.957024931907654E-001;3.728903084993362E-002;1.032046042382717E-003;-6.436574272811413E-003;
2.409166666666667E+009;1.946882754564285E-001;3.676033392548561E-002;9.946097852662206E-004;-6.429173517972231E-003;
2.409333333333334E+009;1.937640607357025E-001;3.612527623772621E-002;9.580545593053103E-004;-6.310719531029463E-003;
2.409500000000000E+009;1.924551874399185E-001;3.538063541054726E-002;9.042631136253476E-004;-6.337840110063553E-003;
2.409666666666667E+009;1.916044205427170E-001;3.414687514305115E-002;7.944476092234254E-004;-6.143290549516678E-003;
2.409833333333334E+009;1.903003305196762E-001;3.314196318387985E-002;8.590591023676097E-004;-6.401447579264641E-003;
2.410000000000000E+009;1.892895698547363E-001;3.180585056543350E-002;7.289308123290539E-004;-6.347539834678173E-003;
2.410166666666667E+009;1.880015581846237E-001;3.028288669884205E-002;7.365550263784826E-004;-6.252193823456764E-003;
2.410333333333334E+009;1.868225634098053E-001;2.878907695412636E-002;5.183460889384151E-004;-6.421055179089308E-003;
2.410500000000000E+009;1.853936612606049E-001;2.716538868844509E-002;4.475550667848438E-004;-6.390654481947422E-003;
2.410666666666667E+009;1.843680292367935E-001;2.503483742475510E-002;1.857297902461141E-004;-6.432583089917898E-003;
2.410833333333334E+009;1.836049258708954E-001;2.313247695565224E-002;1.400520268362016E-004;-6.562913767993450E-003;
2.411000000000000E+009;1.825179010629654E-001;2.086424455046654E-002;6.829475023550913E-005;-6.474706809967756E-003;
2.411166666666667E+009;1.813566237688065E-001;1.876437477767468E-002;-4.908792834612541E-005;-6.444013677537441E-003;
2.411333333333334E+009;1.805732995271683E-001;1.644102856516838E-002;-4.436091694515199E-004;-6.450220476835966E-003;
2.411500000000000E+009;1.796493977308273E-001;1.408101897686720E-002;-5.732501740567386E-004;-6.467915605753660E-003;
2.411666666666667E+009;1.793869733810425E-001;1.169066689908505E-002;-6.915151025168598E-004;-6.492188200354576E-003;
2.411833333333334E+009;1.786457002162933E-001;9.055008180439472E-003;-9.126332588493824E-004;-6.479446310549974E-003;
2.412000000000000E+009;1.785051673650742E-001;6.451564375311136E-003;-8.095084922388196E-004;-6.550221238285303E-003;
2.412166666666667E+009;1.783733367919922E-001;4.003999289125204E-003;-1.117839128710330E-003;-6.288257427513599E-003;
2.412333333333334E+009;1.781813204288483E-001;1.197989331558347E-003;-1.091373967938125E-003;-6.433677859604359E-003;
2.412500000000000E+009;1.783226579427719E-001;-1.435425365343690E-003;-1.498833764344454E-003;-6.531813647598028E-003;
2.412666666666667E+009;1.786609292030335E-001;-4.013520665466785E-003;-1.490297610871494E-003;-6.458225194364786E-003;
2.412833333333334E+009;1.790960133075714E-001;-6.639645434916019E-003;-1.724768662825227E-003;-6.252792663872242E-003;
2.413000000000000E+009;1.797348409891129E-001;-9.308822453022003E-003;-1.780617865733802E-003;-6.377431564033032E-003;
2.413166666666667E+009;1.802377998828888E-001;-1.187284942716360E-002;-1.899883151054382E-003;-6.413441617041826E-003;
2.413333333333334E+009;1.812948435544968E-001;-1.449760701507330E-002;-2.235508756712079E-003;-6.563893985003233E-003;
2.413500000000000E+009;1.820091754198074E-001;-1.702113077044487E-002;-2.411166206002235E-003;-6.467236671596766E-003;
2.413666666666667E+009;1.829951554536820E-001;-1.966374740004540E-002;-2.697741147130728E-003;-6.378720048815012E-003;
2.413833333333334E+009;1.841547042131424E-001;-2.189207635819912E-002;-2.890412695705891E-003;-6.352652795612812E-003;
2.414000000000000E+009;1.852891594171524E-001;-2.426133863627911E-002;-3.080608323216438E-003;-6.375723052769899E-003;
2.414166666666667E+009;1.864372044801712E-001;-2.645136974751949E-002;-3.519733436405659E-003;-6.276994477957487E-003;
2.414333333333334E+009;1.876384168863297E-001;-2.888366952538490E-002;-3.602402517572045E-003;-6.180278956890106E-003;
2.414500000000000E+009;1.887674629688263E-001;-3.049570880830288E-002;-3.918644040822983E-003;-6.095234770327807E-003;
2.414666666666667E+009;1.902463138103485E-001;-3.233389928936958E-002;-4.235094878822565E-003;-5.872474517673254E-003;
2.414833333333334E+009;1.915127336978912E-001;-3.402172774076462E-002;-4.312283825129271E-003;-5.813497118651867E-003;
2.415000000000000E+009;1.926040202379227E-001;-3.568211570382118E-002;-4.754187073558569E-003;-5.484344903379679E-003;
2.415166666666667E+009;1.940863132476807E-001;-3.705121949315071E-002;-4.948200657963753E-003;-5.488472525030375E-003;
2.415333333333334E+009;1.954984366893768E-001;-3.824369236826897E-002;-5.056325811892748E-003;-5.351524334400892E-003;
2.415500000000000E+009;1.967686712741852E-001;-3.925548121333122E-002;-5.227031651884317E-003;-5.090164020657539E-003;
2.415666666666667E+009;1.980884522199631E-001;-4.026263579726219E-002;-5.352615378797054E-003;-4.797630477696657E-003;
2.415833333333334E+009;1.991677582263947E-001;-4.089941456913948E-002;-5.426363553851843E-003;-4.583634901791811E-003;
2.416000000000000E+009;2.002305090427399E-001;-4.184383526444435E-002;-5.569010507315397E-003;-4.364999011158943E-003;
2.416166666666667E+009;2.012822329998016E-001;-4.251198843121529E-002;-5.835292860865593E-003;-4.160269629210234E-003;
2.416333333333334E+009;2.021437138319016E-001;-4.285952076315880E-002;-5.855692550539970E-003;-3.775288350880146E-003;
2.416500000000000E+009;2.031679898500443E-001;-4.316788166761398E-002;-5.968328565359116E-003;-3.644673852249980E-003;
2.416666666666667E+009;2.037022113800049E-001;-4.358848929405212E-002;-6.038852035999298E-003;-3.419769462198019E-003;
2.416833333333334E+009;2.043139785528183E-001;-4.350511729717255E-002;-5.901870783418417E-003;-3.312291577458382E-003;
2.417000000000000E+009;2.047099769115448E-001;-4.376834258437157E-002;-6.083498243242502E-003;-3.284365404397249E-003;
2.417166666666667E+009;2.047340720891953E-001;-4.352016374468803E-002;-6.086635403335095E-003;-2.937490586191416E-003;
2.417333333333334E+009;2.049101442098618E-001;-4.325602576136589E-002;-6.180849857628346E-003;-2.739389194175601E-003;
2.417500000000000E+009;2.050303965806961E-001;-4.319291561841965E-002;-6.311619188636541E-003;-2.617212245240808E-003;
2.417666666666667E+009;2.047987580299377E-001;-4.270373657345772E-002;-6.322500761598349E-003;-2.442316617816687E-003;
2.417833333333334E+009;2.046993970870972E-001;-4.243023693561554E-002;-6.570355035364628E-003;-2.390542766079307E-003;
2.418000000000000E+009;2.041237801313400E-001;-4.196368902921677E-002;-6.529707461595535E-003;-2.196090295910835E-003;
2.418166666666667E+009;2.035885006189346E-001;-4.158839583396912E-002;-6.607620976865292E-003;-1.887349411845207E-003;
2.418333333333334E+009;2.029014974832535E-001;-4.125787690281868E-002;-6.724589038640261E-003;-1.730831223540008E-003;
2.418500000000000E+009;2.021538466215134E-001;-4.106180369853973E-002;-6.817372050136328E-003;-1.571265747770667E-003;
2.418666666666667E+009;2.014164030551910E-001;-4.050817340612412E-002;-6.812092382460833E-003;-1.258454052731395E-003;
2.418833333333334E+009;2.003181129693985E-001;-4.047184064984322E-002;-7.115801330655813E-003;-9.108502999879420E-004;
2.419000000000000E+009;1.990626901388168E-001;-4.035921394824982E-002;-7.014105562120676E-003;-7.504386012442410E-004;
2.419166666666667E+009;1.978404670953751E-001;-4.039293900132179E-002;-6.832029670476914E-003;-4.807711520697922E-004;
2.419333333333334E+009;1.965370029211044E-001;-4.048497974872589E-002;-6.956789642572403E-003;-1.140130480052903E-004;
2.419500000000000E+009;1.950058639049530E-001;-4.060649499297142E-002;-6.932253949344158E-003;-3.143826688756235E-005;
2.419666666666667E+009;1.934041380882263E-001;-4.111589118838310E-002;-6.791362073272467E-003;2.358277415623888E-004;
2.419833333333334E+009;1.917028576135635E-001;-4.142297431826592E-002;-6.779323797672987E-003;4.124204569961876E-004;
2.420000000000000E+009;1.902490556240082E-001;-4.190134629607201E-002;-6.728975567966700E-003;5.574318929575384E-004;
2.420166666666667E+009;1.883976757526398E-001;-4.277069866657257E-002;-6.570556666702032E-003;7.261065766215324E-004;
2.420333333333334E+009;1.866227388381958E-001;-4.364234581589699E-002;-6.502183154225349E-003;1.010225270874798E-003;
2.420500000000000E+009;1.848374903202057E-001;-4.471635818481445E-002;-6.376064382493496E-003;1.147744362242520E-003;
2.420666666666667E+009;1.830395013093948E-001;-4.569911956787109E-002;-6.471362430602312E-003;1.170443021692336E-003;
2.420833333333334E+009;1.811603754758835E-001;-4.698813334107399E-002;-6.414486095309258E-003;1.342209405265749E-003;
2.421000000000000E+009;1.793971508741379E-001;-4.844329506158829E-002;-6.547592580318451E-003;1.497056568041444E-003;
2.421166666666667E+009;1.776743978261948E-001;-5.001290142536163E-002;-6.436973344534636E-003;1.740540144965053E-003;
2.421333333333334E+009;1.757617741823196E-001;-5.141225457191467E-002;-6.417308002710342E-003;1.903099124319851E-003;
2.421500000000000E+009;1.740782856941223E-001;-5.323266983032227E-002;-6.575629115104675E-003;2.026078524067998E-003;
2.421666666666667E+009;1.726059466600418E-001;-5.523490533232689E-002;-6.286397576332092E-003;2.314901677891612E-003;
2.421833333333334E+009;1.711713522672653E-001;-5.707004666328430E-002;-6.445805076509714E-003;2.583303954452276E-003;
2.422000000000000E+009;1.696227341890335E-001;-5.891643464565277E-002;-6.375908851623535E-003;2.751179737970233E-003;
2.422166666666667E+009;1.686594486236572E-001;-6.118204817175865E-002;-6.137621123343706E-003;2.991296118125320E-003;
2.422333333333334E+009;1.672168970108032E-001;-6.323600560426712E-002;-6.057778373360634E-003;3.276663133874536E-003;
2.422500000000000E+009;1.661582440137863E-001;-6.548097729682922E-002;-5.881483666598797E-003;3.413205500692129E-003;
2.422666666666667E+009;1.653682291507721E-001;-6.734044104814529E-002;-5.757012870162725E-003;3.601290052756667E-003;
2.422833333333334E+009;1.644973903894424E-001;-6.974732130765915E-002;-5.476928781718016E-003;3.964208066463471E-003;
2.423000000000000E+009;1.638557463884354E-001;-7.207886874675751E-002;-5.440874025225639E-003;4.172032698988915E-003;
2.423166666666667E+009;1.633645594120026E-001;-7.427252829074860E-002;-5.303053651005030E-003;4.321335814893246E-003;
2.423333333333334E+009;1.627950966358185E-001;-7.641772180795670E-002;-5.019160918891430E-003;4.628057125955820E-003;
2.423500000000000E+009;1.626281291246414E-001;-7.857655733823776E-002;-4.684424027800560E-003;4.741805605590344E-003;
2.423666666666667E+009;1.625768393278122E-001;-8.088218420743942E-002;-4.318804945796728E-003;4.737324547022581E-003;
2.423833333333334E+009;1.623355150222778E-001;-8.291067928075790E-002;-4.061215091496706E-003;4.883256740868092E-003;
2.424000000000000E+009;1.625149846076965E-001;-8.509778231382370E-002;-3.918198868632317E-003;5.007057916373015E-003;
2.424166666666667E+009;1.626669168472290E-001;-8.693838119506836E-002;-3.687787335366011E-003;5.031527951359749E-003;
2.424333333333334E+009;1.628010272979736E-001;-8.896845579147339E-002;-3.460003761574626E-003;5.228773225098848E-003;
2.424500000000000E+009;1.631954163312912E-001;-9.099338948726654E-002;-3.243621438741684E-003;5.167590919882059E-003;
2.424666666666667E+009;1.635700017213821E-001;-9.271775931119919E-002;-3.009639913216233E-003;5.188981071114540E-003;
2.424833333333334E+009;1.641633957624435E-001;-9.432402253150940E-002;-2.716904273256660E-003;5.212868563830853E-003;
2.425000000000000E+009;1.646199524402618E-001;-9.583497792482376E-002;-2.592181321233511E-003;5.164453294128180E-003;
2.425166666666667E+009;1.650536805391312E-001;-9.718709439039230E-002;-2.328637056052685E-003;5.206215195357800E-003;
2.425333333333334E+009;1.656872779130936E-001;-9.849413484334946E-002;-2.205124357715249E-003;5.181507673114538E-003;
2.425500000000000E+009;1.662462651729584E-001;-9.988405555486679E-002;-1.929645310156047E-003;5.266959313303232E-003;
2.425666666666667E+009;1.668839752674103E-001;-1.008758842945099E-001;-1.838783500716090E-003;5.090373102575541E-003;
2.425833333333334E+009;1.674156785011292E-001;-1.019232794642448E-001;-1.739730359986424E-003;5.051449872553349E-003;
2.426000000000000E+009;1.680333763360977E-001;-1.026470810174942E-001;-1.453096512705088E-003;5.069910548627377E-003;
2.426166666666667E+009;1.687301695346832E-001;-1.032497882843018E-001;-1.567883533425629E-003;4.939041566103697E-003;
2.426333333333334E+009;1.691837310791016E-001;-1.040790155529976E-001;-1.244487240910530E-003;5.081648938357830E-003;
2.426500000000000E+009;1.699137836694717E-001;-1.044491082429886E-001;-1.188058522529900E-003;4.978283774107695E-003;
2.426666666666667E+009;1.704273074865341E-001;-1.048635095357895E-001;-1.173536060377955E-003;4.775999113917351E-003;
2.426833333333334E+009;1.710948646068573E-001;-1.052945703268051E-001;-7.794948760420084E-004;4.889021161943674E-003;
2.427000000000000E+009;1.713112741708756E-001;-1.053732037544251E-001;-7.654657820239663E-004;4.845091607421637E-003;
2.427166666666667E+009;1.717132776975632E-001;-1.056772395968437E-001;-5.655832355841994E-004;4.885607399046421E-003;
2.427333333333334E+009;1.719755083322525E-001;-1.058203056454659E-001;-5.296010058373213E-004;4.723460879176855E-003;
2.427500000000000E+009;1.720553785562515E-001;-1.060224249958992E-001;-2.945296000689268E-004;4.630181007087231E-003;
2.427666666666667E+009;1.719794571399689E-001;-1.059742197394371E-001;-2.980907447636128E-004;4.549178294837475E-003;
