# Hz S RI R 50
2400000000.0000000000 0.158168941736221313476562500000 0.061955884099006652832031250000 -0.002912877593189477920532226562 -0.001933202729560435035108256763 0 0 0 0 
2400166666.6666665077 0.158109366893768310546875000000 0.060463607311248779296875000000 -0.002813526894897222952601767432 -0.001808958477340639071223593604 0 0 0 0 
2400333333.3333334923 0.157874360680580111404580634371 0.058595657348632812500000000000 -0.002918759128078817887547158350 -0.001746774069033562920214008862 0 0 0 0 
2400500000.0000000000 0.157916635274887112716513115629 0.056552965193986892700195312500 -0.002886245260015130043029785156 -0.001575952395796776034711528247 0 0 0 0 
2400666666.6666665077 0.157964587211608886718750000000 0.054630491882562637329101562500 -0.002963420003652573065516806494 -0.001450646552257240035413432544 0 0 0 0 
2400833333.3333334923 0.158352375030517605880575615629 0.052747171372175216674804687500 -0.002845311304554342789890908350 -0.001320161507464945099474262769 0 0 0 0 
2401000000.0000000000 0.158255621790885897537393134371 0.050778266042470932006835937500 -0.002923145424574614004847861182 -0.001325333607383071942570351709 0 0 0 0 
2401166666.6666665077 0.158415734767913790603799384371 0.048754129558801651000976562500 -0.002861660905182362036464072119 -0.001006547361612319946289062500 0 0 0 0 
2401333333.3333334923 0.158711031079292297363281250000 0.046681039035320281982421875000 -0.002886353060603141784667968750 -0.000939799414481967687606811523 0 0 0 0 
2401500000.0000000000 0.159129634499549893478231865629 0.044629961252212517475168596093 -0.002862892579287291006800986182 -0.000716078677214682102203369141 0 0 0 0 
2401666666.6666665077 0.159141987562179593185263115629 0.042784340679645538330078125000 -0.002809266094118357138392783057 -0.000601032865233719348907470703 0 0 0 0 
2401833333.3333334923 0.159731119871139498611611884371 0.040674902498722083354909528907 -0.002749748062342404885532998193 -0.000574551930185407400131225586 0 0 0 0 
2402000000.0000000000 0.160056695342063903808593750000 0.038549564778804779052734375000 -0.002598945749923586845397949219 -0.000464080425444990396499633789 0 0 0 0 
2402166666.6666665077 0.160707265138626098632812500000 0.036431629210710532451589216407 -0.002642671111971139907836914062 -0.000257620355114340782165527344 0 0 0 0 
2402333333.3333334923 0.161105364561080904861611884371 0.034876886755228042602539062500 -0.002604678273200989203212118994 -0.000106423176475800600930890494 0 0 0 0 
2402500000.0000000000 0.162066966295242309570312500000 0.032978110015392303466796875000 -0.002388279419392346902134560693 -0.000194296051631681593969622202 0 0 0 0 
2402666666.6666665077 0.162540555000305203536825615629 0.031315658241510391235351562500 -0.002400062745437026023864746094 -0.000031803396268514923077037199 0 0 0 0 
2402833333.3333334923 0.163429692387580899337606865629 0.029628312215209010732630545704 -0.002239817054942249818089150537 0.000122543977340683286816197528 0 0 0 0 
2403000000.0000000000 0.164200142025947598556356865629 0.028127687051892280578613281250 -0.002170796506106853918788290869 0.000222334274440072503968915396 0 0 0 0 
2403166666.6666665077 0.164992436766624506194744981258 0.026342073455452919006347656250 -0.002094141673296689987182617188 0.000214378247619606608718317853 0 0 0 0 
2403333333.3333334923 0.165808200836181612869424384371 0.025046322494745261455495466407 -0.001913399784825742027880024487 0.000253548059845343177944737567 0 0 0 0 
2403500000.0000000000 0.166676178574562100509481865629 0.023538343608379360544224923046 -0.001784674357622862079023051685 0.000337582052452489679485875262 0 0 0 0 
2403666666.6666665077 0.167602896690368707854901231258 0.022130789235234260559082031250 -0.001792242284864187023760151440 0.000467204750748351216316223145 0 0 0 0 
2403833333.3333334923 0.168657332658767700195312500000 0.020876327529549598693847656250 -0.001692708465270698070526123047 0.000578419188968837261199951172 0 0 0 0 
2404000000.0000000000 0.169666573405265808105468750000 0.019788358360528949392298514454 -0.001573148183524609045741415869 0.000555775244720280170440673828 0 0 0 0 
2404166666.6666665077 0.170337304472923306564169365629 0.018697947263717651367187500000 -0.001585308113135397000553750146 0.000623694446403533220291137695 0 0 0 0 
2404333333.3333334923 0.171261832118034390548544365629 0.017760770395398139953613281250 -0.001471425057388842105865478516 0.000459952367236837690502720966 0 0 0 0 
2404500000.0000000000 0.172226652503013610839843750000 0.016541397199034690856933593750 -0.001198500976897775910021137769 0.000392056303098797798156738281 0 0 0 0 
2404666666.6666665077 0.173281475901603698730468750000 0.015856383368372920644739920704 -0.001149659859947860024095844800 0.000344545551342889720767420636 0 0 0 0 
2404833333.3333334923 0.174033790826797513107138115629 0.014855485409498219925850115430 -0.001269899075850843949558877100 0.000331344286678358912467956543 0 0 0 0 
2405000000.0000000000 0.174874782562255887130575615629 0.014222686178982259577741054102 -0.001030886196531354947331093896 0.000217820983380079296514234000 0 0 0 0 
2405166666.6666665077 0.175625428557395907303018134371 0.013516326434910300863245780079 -0.001172243966720998070360493237 0.000484304619021713679462987079 0 0 0 0 
2405333333.3333334923 0.176394179463386507888955634371 0.012926172465085979806920235546 -0.000919716781936585903167724609 0.000246610201429575681686401367 0 0 0 0 
2405500000.0000000000 0.177134796977043207366619981258 0.012487030588090419769287109375 -0.001047902973368763923645019531 0.000199507281649857786580762320 0 0 0 0 
2405666666.6666665077 0.177687451243400601486044365629 0.011977636255323890340784842579 -0.000911917188204824924468994141 0.000102555117337033193237842699 0 0 0 0 
2405833333.3333334923 0.178166598081588800628338731258 0.011627379804849629837959490430 -0.000909242953639477491378784180 0.000164883997058495906278333121 0 0 0 0 
2406000000.0000000000 0.178811714053153991699218750000 0.011113534681498999159843243945 -0.001102495123632251999498676831 0.000116309311124496202595295091 0 0 0 0 
2406166666.6666665077 0.179046422243118286132812500000 0.010825406759977340698242187500 -0.001050628605298697948455810547 -0.000108078776975162300184526987 0 0 0 0 
2406333333.3333334923 0.179601043462753295898437500000 0.010487529449164869135846522852 -0.001007470302283764102338481372 -0.000071961876528803259134292603 0 0 0 0 
2406500000.0000000000 0.179845094680786105056924384371 0.010131309740245340519915195898 -0.000999444047920405864715576172 -0.000153245753608644008636474609 0 0 0 0 
2406666666.6666665077 0.179859951138496398925781250000 0.009865354746580123901367187500 -0.001227234839461744048474955981 -0.000097797899798024445772171021 0 0 0 0 
2406833333.3333334923 0.180207744240760803222656250000 0.009456561878323554992675781250 -0.000970748660620301961898803711 -0.000198733585420996004908961163 0 0 0 0 
2407000000.0000000000 0.180138856172561701018963731258 0.009117935784161090850830078125 -0.001066345255821943066240620190 -0.000103974023659247905015945435 0 0 0 0 
2407166666.6666665077 0.180324211716651888748330634371 0.008805117569863796234130859375 -0.001014067791402339935302734375 -0.000186496981768868890687665396 0 0 0 0 
2407333333.3333334923 0.180102735757827786544638115629 0.008263424038887023925781250000 -0.001324163051322102980372763525 -0.000316425517667084878117161884 0 0 0 0 
2407500000.0000000000 0.179926097393035888671875000000 0.007907651364803314208984375000 -0.001252828165888786099077534253 -0.000184188422281295088216504507 0 0 0 0 
2407666666.6666665077 0.179800540208816500564736884371 0.007454834878444671630859375000 -0.001254344475455581925035786206 -0.000102780453744344399727959904 0 0 0 0 
2407833333.3333334923 0.179298549890518188476562500000 0.006750209257006645202636718750 -0.001398568041622638919233012622 -0.000276359060080721974372863770 0 0 0 0 
2408000000.0000000000 0.179005637764930697342080634371 0.006083406042307615280151367188 -0.001370786922052503065821982275 -0.000109069791506044593736371451 0 0 0 0 
2408166666.6666665077 0.178601294755935696700888115629 0.005530730355530977249145507812 -0.001273786765523255088208842700 -0.000159982766490429612711229868 0 0 0 0 
2408333333.3333334923 0.178350627422332791427450615629 0.004915694706141948699951171875 -0.001434548525139689011814736475 -0.000152855791384354206636705942 0 0 0 0 
2408500000.0000000000 0.177641615271568298339843750000 0.003871439257636665864231728662 -0.001373307430185378031489706885 -0.000082095022662542760372161865 0 0 0 0 
2408666666.6666665077 0.177074611186981201171875000000 0.002971807261928915977478027344 -0.001362231443636118932011269678 -0.000140002681291662210791987286 0 0 0 0 
2408833333.3333334923 0.176365837454795809646768134371 0.001967064570635557174682617188 -0.001425265218131243965746235425 -0.000020928035155520771035944291 0 0 0 0 
2409000000.0000000000 0.175698220729827908614950615629 0.000983292353339493274688720703 -0.001526664127595722892163920825 0.000027798845621873631399085386 0 0 0 0 
2409166666.6666665077 0.175101041793823186676348768742 -0.000226461459533311399534502573 -0.001436288468539715030072856372 0.000077273580245673656463623047 0 0 0 0 
2409333333.3333334923 0.174501255154609707931356865629 -0.001486168359406292004826211084 -0.001611788640730082988739013672 -0.000050779417506419122219085693 0 0 0 0 
2409500000.0000000000 0.173918262124061612228231865629 -0.002638400997966527938842773438 -0.001468975329771637916564941406 0.000127680119476281106472015381 0 0 0 0 
2409666666.6666665077 0.173065990209579495529013115629 -0.004260194487869740399832441113 -0.001531276502646506049512553638 0.000009975393368222285062074661 0 0 0 0 
2409833333.3333334923 0.172400116920471191406250000000 -0.005435837432742118835449218750 -0.001572935027070343928096152197 0.000057875146012520417571067810 0 0 0 0 
2410000000.0000000000 0.171884015202522305587606865629 -0.006916661746799945831298828125 -0.001474311924539506001713418115 0.000071579823270440101623535156 0 0 0 0 
2410166666.6666665077 0.171120360493660000900106865629 -0.008590894751250743865966796875 -0.001614387263543904044507670825 0.000058355686633149161934852600 0 0 0 0 
2410333333.3333334923 0.170560777187347412109375000000 -0.010117202065885070455530936329 -0.001648199628107249953626323169 0.000101469449873548001050949097 0 0 0 0 
2410500000.0000000000 0.170039474964141901214276231258 -0.011787635274231430398961251171 -0.001485722372308374101754213648 0.000005765286914538592100143433 0 0 0 0 
2410666666.6666665077 0.169552206993102999588174384371 -0.013764766044914720707903477148 -0.001498565427027642943738627856 0.000072716749855317175388336182 0 0 0 0 
2410833333.3333334923 0.169440940022468594650106865629 -0.015362794511020180093785469921 -0.001655322033911943001988076318 0.000142619464895687997341156006 0 0 0 0 
2411000000.0000000000 0.168897196650505093673544365629 -0.017196048051118850708007812500 -0.001716420869342982985852885669 0.000131764842080883708879193716 0 0 0 0 
2411166666.6666665077 0.168487429618835504729901231258 -0.019155841320753101003626639454 -0.001651396043598652102826762622 0.000087719068687874823808670044 0 0 0 0 
2411333333.3333334923 0.168297544121742304046307481258 -0.020880119875073429452916329296 -0.001678952248767018101335835034 0.000305080873658880591392517090 0 0 0 0 
2411500000.0000000000 0.168068110942840603927450615629 -0.022901641204953190195103829296 -0.001860211952589452049852680737 0.000179293259861879104941767560 0 0 0 0 
2411666666.6666665077 0.168204143643379211425781250000 -0.024718910455703738821009451954 -0.001787190325558186011073447119 0.000143486220622435212135314941 0 0 0 0 
2411833333.3333334923 0.168125987052917508224325615629 -0.026665497571229941631276716407 -0.001844083773903548934339213794 0.000366224208846688324778956281 0 0 0 0 
2412000000.0000000000 0.168211743235588101486044365629 -0.028642801567912098276158516796 -0.002130873501300812201258993994 0.000271840690402314121097010480 0 0 0 0 
2412166666.6666665077 0.168273061513900812347088731258 -0.030358500778675079345703125000 -0.002075002295896410942077636719 0.000309797993395477479130345477 0 0 0 0 
2412333333.3333334923 0.168538436293601989746093750000 -0.032214935868978500366210937500 -0.001990227028727530999424599756 0.000365582760423421913951319562 0 0 0 0 
2412500000.0000000000 0.168661087751388605315838731258 -0.034086015075445182109792341407 -0.002063113031908870177028036963 0.000552999728824943304061889648 0 0 0 0 
2412666666.6666665077 0.169079154729843111892861884371 -0.036129459738731377338449846093 -0.002268456853926181793212890625 0.000286356807919219082027989520 0 0 0 0 
2412833333.3333334923 0.169361382722854586502236884371 -0.037983924150466918945312500000 -0.002400787547230720953700400244 0.000720171083230525255203247070 0 0 0 0 
2413000000.0000000000 0.169838935136794988434161268742 -0.039463374763727188110351562500 -0.002407039050012826919555664062 0.000609307142440229654312133789 0 0 0 0 
2413166666.6666665077 0.170145899057388305664062500000 -0.041270922869443893432617187500 -0.002423308091238141059875488281 0.000870924268383532762527465820 0 0 0 0 
2413333333.3333334923 0.170554518699645996093750000000 -0.042846228927373893047292341407 -0.002536685438826680183410644531 0.000913334428332746028900146484 0 0 0 0 
2413500000.0000000000 0.171066880226135309417401231258 -0.044404920190572738647460937500 -0.002520717680454254150390625000 0.000893922464456409215927124023 0 0 0 0 
2413666666.6666665077 0.171764492988586398025674384371 -0.046094797551631927490234375000 -0.002484458964318037033081054688 0.001007348648272454955457377856 0 0 0 0 
2413833333.3333334923 0.171996816992759704589843750000 -0.047449115663766860961914062500 -0.002434422029182314872741699219 0.001357603003270924091339111328 0 0 0 0 
2414000000.0000000000 0.172589242458343505859375000000 -0.049083910882472991943359375000 -0.002555961720645428137538290869 0.001313682994805275960209511865 0 0 0 0 
2414166666.6666665077 0.173319965600967407226562500000 -0.049963243305683142925222028907 -0.002511656377464532852172851562 0.001503318198956548950792622144 0 0 0 0 
2414333333.3333334923 0.173746779561042813400106865629 -0.051509428769350051879882812500 -0.002353895455598831176757812500 0.001714863115921616987941122900 0 0 0 0 
2414500000.0000000000 0.174309566617011996170205634371 -0.052454784512519843364675153907 -0.002653150120750070051905966650 0.001660322071984410069109272534 0 0 0 0 
2414666666.6666665077 0.174796193838119506835937500000 -0.053559772670269012451171875000 -0.002535036066547036170959472656 0.001868095365352929072139120947 0 0 0 0 
2414833333.3333334923 0.175259709358215304275674384371 -0.054516479372978210449218750000 -0.002289763418957591056823730469 0.002085545333102345900294638525 0 0 0 0 
2415000000.0000000000 0.175728812813758905608807481258 -0.055295947939157492900807966407 -0.002498695626854896979091025244 0.002147676190361381010768271338 0 0 0 0 
2415166666.6666665077 0.176113992929458590408486884371 -0.056149225682020187377929687500 -0.002320499857887626127955771338 0.002329020993784070014953613281 0 0 0 0 
2415333333.3333334923 0.176440328359603909591513115629 -0.056897450238466262817382812500 -0.002301064087077974839451455225 0.002467014128342270851135253906 0 0 0 0 
2415500000.0000000000 0.176745533943176297286825615629 -0.057406328618526458740234375000 -0.002142256358638405799865722656 0.002626310568302869796752929688 0 0 0 0 
2415666666.6666665077 0.176963314414024408538494981258 -0.058011941611766822124440778907 -0.002072157571092247962951660156 0.002590532414615153832676552881 0 0 0 0 
2415833333.3333334923 0.177282065153122003753338731258 -0.058610230684280402446706403907 -0.002097987337037920951843261719 0.002741464413702487945556640625 0 0 0 0 
2416000000.0000000000 0.177215307950973510742187500000 -0.059036090970039367675781250000 -0.002010851399973034858703613281 0.002768319332972168922424316406 0 0 0 0 
2416166666.6666665077 0.177428171038627596756143134371 -0.059388671070337302471120466407 -0.001694042468443512916564941406 0.003157310653477907180786132812 0 0 0 0 
2416333333.3333334923 0.177389398217201205154580634371 -0.059766948223114006732981096093 -0.001636555418372154018999409253 0.003382274648174643950221396338 0 0 0 0 
2416500000.0000000000 0.177269548177719088455361884371 -0.060054171830415732646901716407 -0.001650897436775266907335590894 0.003338535316288470788242959131 0 0 0 0 
2416666666.6666665077 0.176969215273857088943643134371 -0.060349445790052407001535783593 -0.001544747850857675075531005859 0.003354611806571484045741415869 0 0 0 0 
2416833333.3333334923 0.176632925868034390548544365629 -0.060657080262899398803710937500 -0.001199575373902916908264160156 0.003570848843082786040065146338 0 0 0 0 
2417000000.0000000000 0.176288768649101312835369981258 -0.060928367078304290771484375000 -0.001144208246842026927350688403 0.003700330620631576018092490088 0 0 0 0 
2417166666.6666665077 0.175793588161468505859375000000 -0.061093095690011978149414062500 -0.001008942723274230957031250000 0.003730338765308260917663574219 0 0 0 0 
2417333333.3333334923 0.175288408994674710372763115629 -0.061310987919569022441823591407 -0.000837783969473093748092651367 0.003765308763831853866577148438 0 0 0 0 
2417500000.0000000000 0.174729704856872586349325615629 -0.061775971204042441631276716407 -0.000672051450237631797790527344 0.003691236255690455003025673975 0 0 0 0 
2417666666.6666665077 0.174049213528633089920205634371 -0.061845175921916961669921875000 -0.000523424998391419649124145508 0.004001365043222904205322265625 0 0 0 0 
2417833333.3333334923 0.173253715038299588302450615629 -0.062139082700014107440988908593 -0.000344678701367229223251342773 0.003969844896346330642700195312 0 0 0 0 
2418000000.0000000000 0.172381579875945989410723768742 -0.062569610774517059326171875000 -0.000203837276785634512275141583 0.004045119509100914001464843750 0 0 0 0 
2418166666.6666665077 0.171345666050911005218182481258 -0.062941461801528930664062500000 -0.000070569083618465811014175415 0.003942962735891342163085937500 0 0 0 0 
2418333333.3333334923 0.170710742473602294921875000000 -0.063271082937717437744140625000 0.000241821588133461800500592642 0.004000119399279356002807617188 0 0 0 0 
2418500000.0000000000 0.169511154294014004806356865629 -0.063801974058151245117187500000 0.000362935854354873299598693848 0.003850431879982351823094033350 0 0 0 0 
2418666666.6666665077 0.168525174260139493087606865629 -0.064335949718952178955078125000 0.000458529248135164380073547363 0.003996637649834156036376953125 0 0 0 0 
2418833333.3333334923 0.167214810848236111739950615629 -0.064897231757640838623046875000 0.000650248781312257051467895508 0.003892515320330857796909951318 0 0 0 0 
2419000000.0000000000 0.166002631187438992599325615629 -0.065571852028369903564453125000 0.000771355873439460992813110352 0.003883748315274714989903115381 0 0 0 0 
2419166666.6666665077 0.165004849433898898025674384371 -0.066093556582927703857421875000 0.001014742651022970893262553638 0.003841726109385489983799599756 0 0 0 0 
2419333333.3333334923 0.163715928792953491210937500000 -0.066884100437164306640625000000 0.001118746935389935970306396484 0.003805712098255753950831747900 0 0 0 0 
2419500000.0000000000 0.162701979279518099685830634371 -0.067885547876358032226562500000 0.001358056324534117958666157300 0.003619896480813622908351279150 0 0 0 0 
2419666666.6666665077 0.161767601966857910156250000000 -0.068835221230983734130859375000 0.001426124363206326961517333984 0.003745994064956903891322470557 0 0 0 0 
2419833333.3333334923 0.160271629691123990157919365629 -0.069623909890651702880859375000 0.001650014193728565952898335034 0.003619825234636663956883095850 0 0 0 0 
