# Hz S RI R 
2400000000.0000000000 0.158105447888374300857705634371 0.062676712870597839355468750000 -0.004009479656815528869628906250 -0.000922895211260765790939331055 0 0 0 0 
2400166666.6666665077 0.158055081963539095779580634371 0.061182312667369842529296875000 -0.003957064822316169738769531250 -0.000611346855293959379196166992 0 0 0 0 
2400333333.3333334923 0.157996207475662203689736884371 0.059183578938245773315429687500 -0.003894682042300701141357421875 -0.000672563794068992137908935547 0 0 0 0 
2400500000.0000000000 0.157902702689170809646768134371 0.057531636208295822143554687500 -0.004024755675345659255981445312 -0.000507782970089465379714965820 0 0 0 0 
2400666666.6666665077 0.157748028635978698730468750000 0.055374741554260246967356096093 -0.004053208045661449432373046875 -0.000448818260338157415390014648 0 0 0 0 
2400833333.3333334923 0.157811716198921203613281250000 0.053320661187171942974050153907 -0.003850437002256513075587607275 -0.000314627715852111577987670898 0 0 0 0 
2401000000.0000000000 0.158033803105354309082031250000 0.051102936267852783203125000000 -0.004008627962321043014526367188 -0.000140156436827965107843121939 0 0 0 0 
2401166666.6666665077 0.158101022243499811370526231258 0.048989001661539077758789062500 -0.003914805129170417785644531250 -0.000086772372014820575714111328 0 0 0 0 
2401333333.3333334923 0.158166050910949707031250000000 0.047140844166278839111328125000 -0.003879493102431296868565224756 0.000158958137035369900151929312 0 0 0 0 
2401500000.0000000000 0.158605426549911499023437500000 0.044839542359113693237304687500 -0.003847785294055939154383993994 0.000132408007630147012785234995 0 0 0 0 
2401666666.6666665077 0.158838883042335510253906250000 0.043113067746162421489675153907 -0.003775263903662561936619423975 0.000292098295176401680142003192 0 0 0 0 
2401833333.3333334923 0.159254342317581204513388115629 0.040823556482791900634765625000 -0.003758898703381419181823730469 0.000294296827632933909266871320 0 0 0 0 
2402000000.0000000000 0.159574136137962313553018134371 0.038952879607677459716796875000 -0.003781725885346531867980957031 0.000514150888193398714065551758 0 0 0 0 
2402166666.6666665077 0.159910827875137301345986884371 0.036698710173368447040598283593 -0.003827280364930630163905478369 0.000505864096339792013168334961 0 0 0 0 
2402333333.3333334923 0.160613179206848089020098768742 0.034794859588146209716796875000 -0.003777289064601064162013388525 0.000553219637367874383926391602 0 0 0 0 
2402500000.0000000000 0.161419570446014404296875000000 0.033130638301372528076171875000 -0.003959127236157655715942382812 0.000600735191255807876586914062 0 0 0 0 
2402666666.6666665077 0.162003517150878906250000000000 0.031313017010688781738281250000 -0.003862918354570866064784384619 0.000832314137369394302368164062 0 0 0 0 
2402833333.3333334923 0.162702068686485290527343750000 0.029783328995108600961705391796 -0.003801932325586677031276083838 0.001045644981786608912824321216 0 0 0 0 
2403000000.0000000000 0.163613826036453302581463731258 0.028010355308651920663853829296 -0.003704672446474432945251464844 0.000886049470864236354827880859 0 0 0 0 
2403166666.6666665077 0.164558961987495394607705634371 0.026317914947867390024205391796 -0.003685886738821864128112792969 0.001168283983133733055712055737 0 0 0 0 
2403333333.3333334923 0.165381595492363003829794365629 0.024853488430380821228027343750 -0.003808506298810244040248251807 0.001351116225123406107064272241 0 0 0 0 
2403500000.0000000000 0.166375458240509005447549384371 0.023443177342414859426478201954 -0.003680600319057703018188476562 0.001483993721194565079332661206 0 0 0 0 
2403666666.6666665077 0.167312860488891601562500000000 0.021841812878847118722935860546 -0.003726160852238535881042480469 0.001467840862460434003117226709 0 0 0 0 
2403833333.3333334923 0.168405145406722994705361884371 0.020707983523607250558873360546 -0.003774278098717331886291503906 0.001605810597538948059082031250 0 0 0 0 
2404000000.0000000000 0.169273212552070589920205634371 0.019591933116316798818568045704 -0.003692963160574436187744140625 0.001812060363590717098833393628 0 0 0 0 
2404166666.6666665077 0.170184642076492309570312500000 0.018431836739182468759556954296 -0.003512218827381730079650878906 0.001880675437860191085218120044 0 0 0 0 
2404333333.3333334923 0.171110466122627313811932481258 0.017503783106803890573521798046 -0.003437656676396727995631552588 0.002139852615073322816136025537 0 0 0 0 
2404500000.0000000000 0.172096833586692810058593750000 0.016290908679366108285924141796 -0.003434998216107488112208701025 0.002157022710889577865600585938 0 0 0 0 
2404666666.6666665077 0.172983542084693908691406250000 0.015673806890845298767089843750 -0.003239399986341596083400107275 0.002249435754492878913879394531 0 0 0 0 
2404833333.3333334923 0.173835247755050686935263115629 0.014824600890278819692591483204 -0.003164636204019188880920410156 0.002539151348173617882969521631 0 0 0 0 
2405000000.0000000000 0.174810305237770108321981865629 0.013973215594887729990025704296 -0.003063695272430777983424521338 0.002672454575076698823216103662 0 0 0 0 
2405166666.6666665077 0.175678789615631103515625000000 0.013395475223660470789899257227 -0.002788097131997346878051757812 0.002877089893445373015162802588 0 0 0 0 
2405333333.3333334923 0.176481023430824307540731865629 0.012787215411663060624092302930 -0.002717022085562347932102822412 0.002896518679335712952854775537 0 0 0 0 
2405500000.0000000000 0.177182793617248507400674384371 0.012442512437701230484932146680 -0.002717093797400594191310263525 0.002906880807131528854370117188 0 0 0 0 
2405666666.6666665077 0.177936509251594487945880018742 0.011977993883192539215087890625 -0.002387518063187599182128906250 0.003083551535382866859436035156 0 0 0 0 
2405833333.3333334923 0.178469538688659695724325615629 0.011552481912076469766637032421 -0.002126089297235012054443359375 0.003180302912369370894191122900 0 0 0 0 
2406000000.0000000000 0.179078176617622403243856865629 0.011184112168848519761055193555 -0.002252335194498300986049033057 0.003009418724104762077331542969 0 0 0 0 
2406166666.6666665077 0.179486051201820401290731865629 0.010772079229354860133160975977 -0.001971254358068108992335654150 0.003178203711286187171936035156 0 0 0 0 
2406333333.3333334923 0.180012986063957186599893134371 0.010519484058022500819196132227 -0.001697083003818989016889262622 0.003361704060807824134826660156 0 0 0 0 
2406500000.0000000000 0.180284529924392700195312500000 0.010192566551268100738525390625 -0.001715900609269737980486225659 0.003168493276461958885192871094 0 0 0 0 
2406666666.6666665077 0.180334627628326388260049384371 0.009875695221126079559326171875 -0.001524764928035438060760498047 0.003219451289623976187465048682 0 0 0 0 
2406833333.3333334923 0.180716276168823186676348768742 0.009652646258473396301269531250 -0.001462997868657111904741596753 0.003195618512108922004699707031 0 0 0 0 
2407000000.0000000000 0.180844515562057495117187500000 0.009287657216191291809082031250 -0.001287515973672270991681743091 0.003348843660205603079554892432 0 0 0 0 
2407166666.6666665077 0.180878728628158597091513115629 0.009097346104681491851806640625 -0.001214375603012741045710898291 0.003191540716215968132019042969 0 0 0 0 
2407333333.3333334923 0.180589690804481506347656250000 0.008550204336643218994140625000 -0.000944996776524931192398071289 0.003257143311202526092529296875 0 0 0 0 
2407500000.0000000000 0.180554121732711791992187500000 0.008242646232247352600097656250 -0.001036239438690244934679340894 0.003044283250346779823303222656 0 0 0 0 
2407666666.6666665077 0.180386871099472101409588731258 0.007921909913420677185058593750 -0.000849286792799830436706542969 0.003129762830212711854221963037 0 0 0 0 
2407833333.3333334923 0.179960742592811612228231865629 0.007146755233407020568847656250 -0.000646936881821602582931518555 0.002990452339872717857360839844 0 0 0 0 
2408000000.0000000000 0.179708540439605712890625000000 0.006534124724566937360281659863 -0.000611227296758443117141723633 0.003043342614546418190002441406 0 0 0 0 
2408166666.6666665077 0.179177150130271911621093750000 0.006170007400214672088623046875 -0.000505689473357051610946655273 0.002950063906610012054443359375 0 0 0 0 
2408333333.3333334923 0.178861662745475796798544365629 0.005357699468731880187988281250 -0.000431788968853652477264404297 0.002983465092256664796116494287 0 0 0 0 
2408500000.0000000000 0.178219735622406005859375000000 0.004580757580697537335867597363 -0.000522296759299933910369873047 0.002956556156277656988856650244 0 0 0 0 
2408666666.6666665077 0.177573218941688509842080634371 0.003703528549522161917445517432 -0.000272827193839475512504577637 0.002877164166420698165893554688 0 0 0 0 
2408833333.3333334923 0.176887020468711908538494981258 0.002623918233439325852635048975 -0.000303684442769736105769556866 0.002884213812649250030517578125 0 0 0 0 
2409000000.0000000000 0.176185488700866699218750000000 0.001694721984677016951917338794 -0.000159765128046274212285718375 0.002913033589720726013183593750 0 0 0 0 
2409166666.6666665077 0.175757005810737609863281250000 0.000585170637350529432296752930 0.000036073310184292502026965482 0.002816266380250453948974609375 0 0 0 0 
2409333333.3333334923 0.174935743212699890136718750000 -0.000778208079282194375991821289 0.000011026965694327369669472047 0.002900614170357584953308105469 0 0 0 0 
2409500000.0000000000 0.174265608191490201095419365629 -0.002096688142046331925633095850 -0.000076414871728047728538513184 0.002725708996877073807957314600 0 0 0 0 
2409666666.6666665077 0.173437476158142089843750000000 -0.003391817212104796929600381006 0.000147239450598135590553283691 0.002649361500516533851623535156 0 0 0 0 
2409833333.3333334923 0.172768905758857699295205634371 -0.004660886712372303009033203125 0.000225699099246412488535204477 0.002705705817788838906529091943 0 0 0 0 
2410000000.0000000000 0.172111332416534396072549384371 -0.006240827962756156921386718750 0.000060449983720900490880012512 0.002569977892562747001647949219 0 0 0 0 
2410166666.6666665077 0.171552956104278592208700615629 -0.007840900681912899017333984375 0.000205160074983723488733014517 0.002623872598633170127868652344 0 0 0 0 
2410333333.3333334923 0.170793846249580411056356865629 -0.009387919679284095764160156250 0.000252287165494635701179504395 0.002579289022833108901977539062 0 0 0 0 
2410500000.0000000000 0.170288220047950689117755018742 -0.011117074638605119532575038477 0.000307861162582412416308802472 0.002727692481130361990687704932 0 0 0 0 
2410666666.6666665077 0.169644728302955599685830634371 -0.012837849557399749755859375000 0.000313301105052232688099461688 0.002541938330978155136108398438 0 0 0 0 
2410833333.3333334923 0.169485256075859097579794365629 -0.014563195407390589278251447070 0.000480820366647094488143920898 0.002505284966900945143458701025 0 0 0 0 
2411000000.0000000000 0.168983772397041293045205634371 -0.016380939632654190063476562500 0.000435999449109658598899841309 0.002477639587596058845520019531 0 0 0 0 
2411166666.6666665077 0.168461292982101412674111884371 -0.018341027200222018850306326954 0.000706323131453245878219604492 0.002472036052495241165161132812 0 0 0 0 
2411333333.3333334923 0.168320819735527010818643134371 -0.020303864032030109060267264454 0.000655162381008267402648925781 0.002430766588076949119567871094 0 0 0 0 
2411500000.0000000000 0.168095409870147705078125000000 -0.022343045100569728506068045704 0.000677572854328900575637817383 0.002379078883677721023559570312 0 0 0 0 
2411666666.6666665077 0.168065577745437594314736884371 -0.024286519736051559448242187500 0.000682477781083434820175170898 0.002409007865935564041137695312 0 0 0 0 
2411833333.3333334923 0.167956337332725497146768134371 -0.026151826605200770986536795704 0.000611178169492632150650024414 0.002465742640197277069091796875 0 0 0 0 
2412000000.0000000000 0.168170616030693109710369981258 -0.028135672211647030221959298046 0.000548996904399245977401733398 0.002247829223051667213439941406 0 0 0 0 
2412166666.6666665077 0.168204039335250910003338731258 -0.030165592208504680288294608204 0.000847711053211241960525512695 0.002373749157413839860203408350 0 0 0 0 
2412333333.3333334923 0.168464988470077486892861884371 -0.031959306448698036884348283593 0.000770819548051804304122924805 0.002256538253277540206909179688 0 0 0 0 
2412500000.0000000000 0.168344989418983487228231865629 -0.033783040940761573101003278907 0.000940038822591304779052734375 0.002201995113864541053771972656 0 0 0 0 
2412666666.6666665077 0.168930396437644986251669365629 -0.036191031336784362792968750000 0.000929850968532264232635498047 0.002354085445404053168055868994 0 0 0 0 
2412833333.3333334923 0.169316664338111905196981865629 -0.037704758346080780029296875000 0.001053951913490892107125307398 0.002248608740046619935276650537 0 0 0 0 
2413000000.0000000000 0.169676229357719393631143134371 -0.039500191807746887207031250000 0.000992314890027046203613281250 0.002248961245641111893894814600 0 0 0 0 
2413166666.6666665077 0.170015066862106295486611884371 -0.041242055594921112060546875000 0.001191533752717077948926616138 0.002252843230962752862217568506 0 0 0 0 
2413333333.3333334923 0.170441046357154901702557481258 -0.043061580508947372436523437500 0.001222861814312637069104838794 0.002130371751263738112208701025 0 0 0 0 
2413500000.0000000000 0.170974165201187106033486884371 -0.044621355831623077392578125000 0.001305943005718291022657084888 0.002212554682046175003051757812 0 0 0 0 
2413666666.6666665077 0.171617209911346407791299384371 -0.046131711453199386596679687500 0.001406932366080581925035786206 0.002194559667259455160853720557 0 0 0 0 
2413833333.3333334923 0.172182321548461886306924384371 -0.047790233045816421508789062500 0.001448808703571557998657226562 0.001960795139893888993504189600 0 0 0 0 
2414000000.0000000000 0.172441378235817011077557481258 -0.049331881105899810791015625000 0.001633889507502316994907998193 0.002111657755449413819553994287 0 0 0 0 
2414166666.6666665077 0.173127487301826504806356865629 -0.050485428422689437866210937500 0.001587462378665805079816508716 0.001852739136666059927699423682 0 0 0 0 
2414333333.3333334923 0.173775792121887207031250000000 -0.051881399005651467060129533593 0.001580076874233782074571919019 0.001870086183771491050720214844 0 0 0 0 
2414500000.0000000000 0.174388691782951410491619981258 -0.052844390273094177246093750000 0.001804207102395593903185200269 0.001868106774054467894910502856 0 0 0 0 
2414666666.6666665077 0.174881607294082613845986884371 -0.053901650011539459228515625000 0.001795190270058810927747416919 0.001866427715867758014081645435 0 0 0 0 
2414833333.3333334923 0.175308391451835604568643134371 -0.055036123842000961303710937500 0.001987714553251862959620810400 0.001646930119022727012634277344 0 0 0 0 
2415000000.0000000000 0.175712183117866488357705634371 -0.055759958922863006591796875000 0.001923525705933571078656840747 0.001501093502156436009647988428 0 0 0 0 
2415166666.6666665077 0.176191225647926302810830634371 -0.056708328425884246826171875000 0.002002492081373929977416992188 0.001592355896718800067901611328 0 0 0 0 
2415333333.3333334923 0.176641479134559603592080634371 -0.057419955730438232421875000000 0.002130950102582573890686035156 0.001437729923054575920104980469 0 0 0 0 
2415500000.0000000000 0.176943838596343994140625000000 -0.057990811765193939208984375000 0.002182748168706893920898437500 0.001150798867456614971160888672 0 0 0 0 
2415666666.6666665077 0.177187576889991788009481865629 -0.058362055569887161254882812500 0.002374191302806138992309570312 0.001135672326199709935429238428 0 0 0 0 
2415833333.3333334923 0.177502036094665499588174384371 -0.059114955365657813335378278907 0.002206325531005858941319131006 0.001068590558134018941166543115 0 0 0 0 
2416000000.0000000000 0.177565485239028902908486884371 -0.059414803981781012798268903907 0.002243736293166875839233398438 0.001015246612951159910914755713 0 0 0 0 
2416166666.6666665077 0.177719369530677795410156250000 -0.059908352792263031005859375000 0.002323187422007321877720498193 0.000728732615243643522262573242 0 0 0 0 
2416333333.3333334923 0.177648663520812988281250000000 -0.060194335877895362163503278907 0.002089404035359621047973632812 0.000734230445232242345809936523 0 0 0 0 
2416500000.0000000000 0.177498862147331210037393134371 -0.060547620058059692382812500000 0.002314887009561061859130859375 0.000548679556231945753097534180 0 0 0 0 
2416666666.6666665077 0.177375003695488003829794365629 -0.060662336647510528564453125000 0.002220075577497481866123818506 0.000561197579372674226760864258 0 0 0 0 
2416833333.3333334923 0.177148401737213107010049384371 -0.061034634709358222270925153907 0.002219028770923614935633993994 0.000387440493796020800441187726 0 0 0 0 
2417000000.0000000000 0.176580131053924588302450615629 -0.061200041323900222778320312500 0.002049777191132307052612304688 0.000289638293907046318054199219 0 0 0 0 
2417166666.6666665077 0.176317542791366604904013115629 -0.061235018074512481689453125000 0.002014897996559739112854003906 0.000113654226879589300282062669 0 0 0 0 
2417333333.3333334923 0.175764054059982299804687500000 -0.061508338898420326923410783593 0.002072208095341920852661132812 0.000205788717721588909626007080 0 0 0 0 
2417500000.0000000000 0.175090089440345791915731865629 -0.061901435256004326557199846093 0.002021987223997712135314941406 -0.000052855990361422300338745117 0 0 0 0 
2417666666.6666665077 0.174423366785049410720986884371 -0.062000740319490432739257812500 0.001976884203031659126281738281 -0.000085635452705901116132736206 0 0 0 0 
2417833333.3333334923 0.173660427331924410720986884371 -0.062238130718469619750976562500 0.001827728585340083079097128760 -0.000142197124660015106201171875 0 0 0 0 
2418000000.0000000000 0.172700047492981012542401231258 -0.062553778290748596191406250000 0.001784243504516779942753457178 -0.000166698038810864090919494629 0 0 0 0 
2418166666.6666665077 0.171848237514495905120526231258 -0.062816992402076721191406250000 0.001672865822911262945887900244 -0.000129208099679090109750470572 0 0 0 0 
2418333333.3333334923 0.171000003814697293380575615629 -0.063161589205265045166015625000 0.001632558298297225995304726709 -0.000324277760228142088085728778 0 0 0 0 
2418500000.0000000000 0.169845804572105407714843750000 -0.063634157180786132812500000000 0.001523943035863339900970458984 -0.000193482439499348402023315430 0 0 0 0 
2418666666.6666665077 0.168816015124321011642294365629 -0.064114101231098175048828125000 0.001468817354179918982862163013 -0.000344261701684445088535863055 0 0 0 0 
2418833333.3333334923 0.167580813169479397872763115629 -0.064644649624824523925781250000 0.001371974707581103064893413013 -0.000386902189347892999649047852 0 0 0 0 
2419000000.0000000000 0.166415289044380187988281250000 -0.065036348998546600341796875000 0.001428017974831164100049663013 -0.000402377685531973784596043719 0 0 0 0 
2419166666.6666665077 0.165322393178939791580361884371 -0.065879553556442260742187500000 0.001398235792294145064112997900 -0.000434844405390322208404541016 0 0 0 0 
2419333333.3333334923 0.163964420557022094726562500000 -0.066370666027069091796875000000 0.001310233841650187969207763672 -0.000297106656944379210472106934 0 0 0 0 
2419500000.0000000000 0.162862822413444491287393134371 -0.067369319498538970947265625000 0.001163861481472850062726664966 -0.000418303941842168623774927960 0 0 0 0 
2419666666.6666665077 0.161567479372024508377236884371 -0.068219140172004699707031250000 0.001163409906439482948900532300 -0.000295001664198934977680760516 0 0 0 0 
2419833333.3333334923 0.160374104976654108245526231258 -0.069076068699359893798828125000 0.001175980665720999024034809644 -0.000459028058685362284809666766 0 0 0 0 
