# Hz S RI R 
2400000000.0000000000 0.157990112900734003265057481258 0.111880622804164900352397182814 0.000331715942593291401863098145 -0.004970324225723742571358965137 0 0 0 0 
2400166666.6666665077 0.157571017742157010177450615629 0.109695866703987093826455634371 0.000215257328818552196025848389 -0.004884258378297091397757245801 0 0 0 0 
2400333333.3333334923 0.157234996557235690017861884371 0.107450053095817593673544365629 -0.000056816636060830212455203397 -0.004918999969959259033203125000 0 0 0 0 
2400500000.0000000000 0.156794354319572504241619981258 0.104934036731719998458700615629 -0.000357427546987310106128138409 -0.004945202264934778213500976562 0 0 0 0 
2400666666.6666665077 0.156499013304710388183593750000 0.102458700537681593467631557814 -0.000504314608406275510787963867 -0.004907513502985239028930664062 0 0 0 0 
2400833333.3333334923 0.156153842806816101074218750000 0.099741682410240173339843750000 -0.000792592123616486787796020508 -0.004871066659688949584960937500 0 0 0 0 
2401000000.0000000000 0.155893087387084988693075615629 0.096769332885742187500000000000 -0.000932434864807873964309692383 -0.004718386102467775344848632812 0 0 0 0 
2401166666.6666665077 0.155717656016349792480468750000 0.093924589455127716064453125000 -0.001102328184060751958134316553 -0.004787457641214132308959960938 0 0 0 0 
2401333333.3333334923 0.155588924884796087066973768742 0.091025277972221374511718750000 -0.001114029320888221047045063550 -0.004678112920373678207397460938 0 0 0 0 
2401500000.0000000000 0.155581325292587308029013115629 0.088062666356563568115234375000 -0.001370716257952153899549174731 -0.004628962371498346328735351562 0 0 0 0 
2401666666.6666665077 0.155725926160812405685263115629 0.085107930004596710205078125000 -0.001411971054039895968196249854 -0.004767245613038539886474609375 0 0 0 0 
2401833333.3333334923 0.155813097953796386718750000000 0.082164503633975982666015625000 -0.001517778262495995001551962744 -0.004621360916644334793090820312 0 0 0 0 
2402000000.0000000000 0.156590864062309292892294365629 0.079078875482082366943359375000 -0.001616256427951157093048095703 -0.004558631218969821929931640625 0 0 0 0 
2402166666.6666665077 0.156832620501518305022869981258 0.076372653245925903320312500000 -0.001874794252216815948486328125 -0.004702356178313493728637695312 0 0 0 0 
2402333333.3333334923 0.157764360308647211272869981258 0.073348745703697204589843750000 -0.001932333805598319010493613135 -0.004760541953146457672119140625 0 0 0 0 
2402500000.0000000000 0.158456489443778991699218750000 0.070471733808517456054687500000 -0.002181045245379209952113486182 -0.004769477993249893188476562500 0 0 0 0 
2402666666.6666665077 0.159464627504348810393963731258 0.067792207002639770507812500000 -0.002504933625459671020507812500 -0.004730612505227327346801757812 0 0 0 0 
2402833333.3333334923 0.160712257027626009842080634371 0.064956843852996826171875000000 -0.002735033398494123978855752100 -0.004573475569486618041992187500 0 0 0 0 
2403000000.0000000000 0.161825880408287103850994981258 0.062242124229669570922851562500 -0.002971841255202889008762978662 -0.004712894093245267868041992188 0 0 0 0 
2403166666.6666665077 0.163593322038650512695312500000 0.059680238366127007221262346093 -0.003348755883052945137023925781 -0.004577137529850006103515625000 0 0 0 0 
2403333333.3333334923 0.164918333292007501800213731258 0.057052981108427047729492187500 -0.003775280667468905015232705225 -0.004269936122000216570382402637 0 0 0 0 
2403500000.0000000000 0.166463777422904996017294365629 0.054597254842519760131835937500 -0.003910783212631940841674804688 -0.004200678784400224685668945312 0 0 0 0 
2403666666.6666665077 0.168279543519020108321981865629 0.052435368299484252929687500000 -0.004100117366760969161987304688 -0.003990344237536191940307617188 0 0 0 0 
2403833333.3333334923 0.169900327920913696289062500000 0.050083424896001822734792341407 -0.004517673980444669723510742188 -0.003824476385489106178283691406 0 0 0 0 
2404000000.0000000000 0.171479210257530212402343750000 0.048009686172008507465402971093 -0.004860494751483201980590820312 -0.003260619007050991058349609375 0 0 0 0 
2404166666.6666665077 0.173471271991729708572549384371 0.046097889542579650878906250000 -0.005015267990529537200927734375 -0.002816569060087203979492187500 0 0 0 0 
2404333333.3333334923 0.175082758069038391113281250000 0.044164247810840606689453125000 -0.005001638084650039672851562500 -0.002626310335472226142883300781 0 0 0 0 
2404500000.0000000000 0.176943078637123107910156250000 0.042499296367168433452565778907 -0.005083066411316394805908203125 -0.002179477596655488014221191406 0 0 0 0 
2404666666.6666665077 0.178582385182380704025106865629 0.040879543870687491680104841407 -0.005118238739669322967529296875 -0.001854488742537796931025839697 0 0 0 0 
2404833333.3333334923 0.180295899510383605957031250000 0.039664104580879211425781250000 -0.005103865172713994979858398438 -0.001539449905976653099060058594 0 0 0 0 
2405000000.0000000000 0.182052344083786010742187500000 0.038746949285268776630442033593 -0.005051467102020978927612304688 -0.001130901742726563973667763818 0 0 0 0 
2405166666.6666665077 0.183761715888977106292401231258 0.037947237491607672954518903907 -0.004881105851382017135620117188 -0.000916995049919933080673217773 0 0 0 0 
2405333333.3333334923 0.185440495610237093826455634371 0.037027116864919662475585937500 -0.005149622447788715362548828125 -0.000628809269983321428298950195 0 0 0 0 
2405500000.0000000000 0.187065988779067993164062500000 0.036476541310548782348632812500 -0.004756640177220106124877929688 -0.000355868512997403686672764911 0 0 0 0 
2405666666.6666665077 0.188737973570823697189169365629 0.035921897739171981811523437500 -0.004676746204495429992675781250 -0.000117675328510813401497979436 0 0 0 0 
2405833333.3333334923 0.190228119492530794998330634371 0.035478081554174423217773437500 -0.004638890735805034637451171875 -0.000158791735884733498096466064 0 0 0 0 
2406000000.0000000000 0.191517189145088195800781250000 0.035434547811746597290039062500 -0.004467799328267574310302734375 0.000197735818801447803347987042 0 0 0 0 
2406166666.6666665077 0.192885607481002807617187500000 0.035232309252023696899414062500 -0.004139957483857870101928710938 0.000489302678033709526062011719 0 0 0 0 
2406333333.3333334923 0.194283381104469299316406250000 0.035250905901193618774414062500 -0.004188518505543470382690429688 0.000529250712133944034576416016 0 0 0 0 
2406500000.0000000000 0.195269942283630398849325615629 0.035280801355838782573659528907 -0.004123701248317956924438476562 0.000835352169815450906753540039 0 0 0 0 
2406666666.6666665077 0.196320548653602600097656250000 0.035486977547407150268554687500 -0.003821394639089703993556357275 0.000819000764749944210052490234 0 0 0 0 
2406833333.3333334923 0.197171747684478787521200615629 0.035609446465969092632253278907 -0.003794035175815225081202841650 0.000878292252309620380401611328 0 0 0 0 
2407000000.0000000000 0.197874397039413507659588731258 0.036008004099130630493164062500 -0.003610721323639154000523232568 0.001089647645130753950831747900 0 0 0 0 
2407166666.6666665077 0.198657408356666592696981865629 0.036144189536571502685546875000 -0.003310739761218429045436240088 0.001239380333572625897051167065 0 0 0 0 
2407333333.3333334923 0.198912233114242609222088731258 0.036515064537525177001953125000 -0.003210081951692699952366494287 0.001186908455565572001813579028 0 0 0 0 
2407500000.0000000000 0.199120461940765408614950615629 0.036949329078197479248046875000 -0.002979416400194168090820312500 0.001115967170335351987126015771 0 0 0 0 
2407666666.6666665077 0.199352025985717801193075615629 0.037108182907104492187500000000 -0.002867811592295765876770019531 0.001376049360260366959812783350 0 0 0 0 
2407833333.3333334923 0.199249744415283203125000000000 0.037298168987035751342773437500 -0.002808069344609975814819335938 0.001182034029625355980516743237 0 0 0 0 
2408000000.0000000000 0.199373483657836886306924384371 0.037488721311092376708984375000 -0.002573264297097920937779091943 0.001478114514611661000492714990 0 0 0 0 
2408166666.6666665077 0.199044704437255887130575615629 0.037549685686826712871511091407 -0.002634870354086161093470908057 0.001354186446405946991564106519 0 0 0 0 
2408333333.3333334923 0.198741391301155090332031250000 0.037466336041688919067382812500 -0.002412679605185985998866415869 0.001312712789513170935987163013 0 0 0 0 
2408500000.0000000000 0.198222085833549499511718750000 0.037440568208694458007812500000 -0.002292824909090995788574218750 0.001202438259497285106061625903 0 0 0 0 
2408666666.6666665077 0.197687059640884399414062500000 0.037311144173145287250559221093 -0.002343053696677089171168661963 0.001330936909653245969059609521 0 0 0 0 
2408833333.3333334923 0.196981489658355712890625000000 0.037035491317510611797292341407 -0.002248407807201147079467773438 0.001414516940712928988813090747 0 0 0 0 
2409000000.0000000000 0.196196779608726501464843750000 0.036455437541008002544362653907 -0.002069255569949746131896972656 0.001259302487596869902369833838 0 0 0 0 
2409166666.6666665077 0.195171386003494290450888115629 0.035857018083333969116210937500 -0.002008579671382904052734375000 0.001362600945867598056793212891 0 0 0 0 
2409333333.3333334923 0.194245919585227994064169365629 0.035362891852855682373046875000 -0.001846747589297593073603964697 0.001257401308976114013074565356 0 0 0 0 
2409500000.0000000000 0.192985713481903103927450615629 0.034423585981130599975585937500 -0.001795681542716919942143105615 0.001185172935947776057599711841 0 0 0 0 
2409666666.6666665077 0.191682219505310086349325615629 0.033387776464223861694335937500 -0.001855421229265630028368305737 0.001205054693855345032335590894 0 0 0 0 
2409833333.3333334923 0.190665274858474703689736884371 0.032194767147302627563476562500 -0.001694604987278581099269247900 0.001186897628940642096875834888 0 0 0 0 
2410000000.0000000000 0.189325630664825411697549384371 0.030815938487648960458775704296 -0.001511684618890285925624228369 0.000998666044324636459350585938 0 0 0 0 
2410166666.6666665077 0.188170582056045504470986884371 0.029267298057675361633300781250 -0.001654769526794553019879985278 0.000992582063190639019012451172 0 0 0 0 
2410333333.3333334923 0.186913177371025113204794365629 0.027847357094287868845006173046 -0.001470855902880430004717182690 0.000743539771065115928649902344 0 0 0 0 
2410500000.0000000000 0.185676023364067105392294365629 0.025985032320022579538365548046 -0.001502319704741239981410361182 0.000762204639613628387451171875 0 0 0 0 
2410666666.6666665077 0.184549659490585299392861884371 0.024132691323757171630859375000 -0.001557110110297798893572163159 0.000780480215325951576232910156 0 0 0 0 
2410833333.3333334923 0.183636307716369601150674384371 0.022087134420871741558034528907 -0.001581734628416598060010600513 0.000557280844077467918395996094 0 0 0 0 
2411000000.0000000000 0.182426318526268005371093750000 0.019960774108767509460449218750 -0.001700607943348586992976523291 0.000466462253825739026069641113 0 0 0 0 
2411166666.6666665077 0.181437537074089105804119981258 0.018008071929216388357142264454 -0.001467964961193501949310302734 0.000607531517744064331054687500 0 0 0 0 
2411333333.3333334923 0.180613964796066311935263115629 0.015340065583586689340611641796 -0.001515696407295763926265097510 0.000492537626996636390686035156 0 0 0 0 
2411500000.0000000000 0.179762035608291598220986884371 0.013221604749560359609583670704 -0.001483327359892427921295166016 0.000497648841701447963714599609 0 0 0 0 
2411666666.6666665077 0.179275393486023004729901231258 0.010730765759944919240931326954 -0.001637203618884087042567587744 0.000300122337648644989162999286 0 0 0 0 
2411833333.3333334923 0.178705617785453796386718750000 0.008175168186426162719726562500 -0.001695191254839300892473530347 0.000465433666249737089306431903 0 0 0 0 
2412000000.0000000000 0.178417593240737887283486884371 0.005691132042557001113891601562 -0.001898691989481448910356831128 0.000315826066071167588233947754 0 0 0 0 
2412166666.6666665077 0.178295806050300598144531250000 0.003245889907702804045436240088 -0.001915181404910982088801718604 0.000162278854986652704790392465 0 0 0 0 
2412333333.3333334923 0.178220823407173212249432481258 0.000446401245426386594772338867 -0.002184258308261632919311523438 0.000246387557126581723063868390 0 0 0 0 
2412500000.0000000000 0.178376063704490689376669365629 -0.002064858563244342803955078125 -0.002231369493529200987574911963 0.000239680593949742588117876596 0 0 0 0 
2412666666.6666665077 0.178506240248680086990518134371 -0.004901166539639235410208417676 -0.002232921775430440902709960938 0.000159459741553291705533704214 0 0 0 0 
2412833333.3333334923 0.179042726755142211914062500000 -0.007619928102940320968627929688 -0.002523225499317049980163574219 0.000318768928991630673408508301 0 0 0 0 
2413000000.0000000000 0.179449453949928311446981865629 -0.010024826973676679783831211523 -0.002603678498417139053344726562 0.000395201728679239804118555890 0 0 0 0 
2413166666.6666665077 0.180193424224853487869424384371 -0.012626894749701019632359688671 -0.002768760081380606131312704932 0.000466489000245928818553370343 0 0 0 0 
2413333333.3333334923 0.181023970246315002441406250000 -0.015241665765643119812011718750 -0.003002619137987494902369833838 0.000503835792187601327896118164 0 0 0 0 
2413500000.0000000000 0.181779012084007290939169365629 -0.017763053998351100576380545704 -0.003038837341591715812683105469 0.000611314724665135253607595178 0 0 0 0 
2413666666.6666665077 0.182789355516433688064736884371 -0.020364789292216300964355468750 -0.003124911803752183914184570312 0.000961470068432390689849853516 0 0 0 0 
2413833333.3333334923 0.183853894472122192382812500000 -0.022842893376946449279785156250 -0.003357318229973316192626953125 0.001149234944023191928863525391 0 0 0 0 
2414000000.0000000000 0.184904649853706387618856865629 -0.024986332282423969614049141796 -0.003262796439230442047119140625 0.001401804271154106096980429541 0 0 0 0 
2414166666.6666665077 0.186124265193939208984375000000 -0.027112415060400959360142891796 -0.003427690127864480018615722656 0.001499248202890157916425395435 0 0 0 0 
2414333333.3333334923 0.187150061130523709396200615629 -0.029400572180747989309290701954 -0.003321761963889002799987792969 0.001846315572038293101667094653 0 0 0 0 
2414500000.0000000000 0.188493147492408807952557481258 -0.031208446249365810049036795704 -0.003300658194348216056823730469 0.002137622795999050140380859375 0 0 0 0 
2414666666.6666665077 0.189834266901016207595986884371 -0.032941967248916632915456403907 -0.003267497522756456895115517725 0.002338053658604621887207031250 0 0 0 0 
2414833333.3333334923 0.191091120243072509765625000000 -0.034626357257366180419921875000 -0.003222504397854208946228027344 0.002589319366961718039271689307 0 0 0 0 
2415000000.0000000000 0.192210450768470791915731865629 -0.036240726709365851665456403907 -0.002906391164287925200221396338 0.002704211510717868804931640625 0 0 0 0 
2415166666.6666665077 0.193691104650497408767861884371 -0.037468321621417999267578125000 -0.002728698309510945840122841943 0.003057328052818775177001953125 0 0 0 0 
2415333333.3333334923 0.195088267326355008224325615629 -0.038840811699628829956054687500 -0.002796713495627046065089560400 0.003096082247793674902675009619 0 0 0 0 
2415500000.0000000000 0.196484506130218505859375000000 -0.039827730506658547138254533593 -0.002490665763616561889648437500 0.003273710142821073965785361182 0 0 0 0 
2415666666.6666665077 0.197760805487632806975994981258 -0.040822278708219528198242187500 -0.002604666864499450163600302588 0.003385677933692932128906250000 0 0 0 0 
2415833333.3333334923 0.198826968669891412933026231258 -0.041526813060045242309570312500 -0.002283308422192931175231933594 0.003559232223778963088989257812 0 0 0 0 
2416000000.0000000000 0.199884921312332208831463731258 -0.042236119508743293071706403907 -0.002212927211076021194458007812 0.003583304816856979890110634912 0 0 0 0 
2416166666.6666665077 0.200926825404167203048544365629 -0.043034091591835021972656250000 -0.002059375401586294174194335938 0.003646982135251164002659463037 0 0 0 0 
2416333333.3333334923 0.201901957392692593673544365629 -0.043319389224052429199218750000 -0.001875855610705911896349262769 0.003858724376186728911158896338 0 0 0 0 
2416500000.0000000000 0.202600568532943697830361884371 -0.043752774596214287494699846093 -0.001599101349711417935015034253 0.003829230787232518196105957031 0 0 0 0 
2416666666.6666665077 0.203381910920143099685830634371 -0.044065717607736587524414062500 -0.001419755746610463099238730322 0.004017426166683434572701738574 0 0 0 0 
2416833333.3333334923 0.203779712319374112228231865629 -0.044034384191036217426340471093 -0.001237139455042779011967324365 0.004084389656782150268554687500 0 0 0 0 
2417000000.0000000000 0.204250186681747408767861884371 -0.044155020266771323467214216407 -0.001015297602862120108363486182 0.004084865562617778778076171875 0 0 0 0 
2417166666.6666665077 0.204353317618370111663494981258 -0.043964788317680358886718750000 -0.000937525590416043996810913086 0.004011777695268393430227948926 0 0 0 0 
2417333333.3333334923 0.204460665583610506912393134371 -0.043661784380674362182617187500 -0.000680739118251949548721313477 0.004206214565783739089965820312 0 0 0 0 
2417500000.0000000000 0.204452365636825589279013115629 -0.043551631271839141845703125000 -0.000512759084813296794891357422 0.004315238445997238159179687500 0 0 0 0 
2417666666.6666665077 0.204352647066116305252236884371 -0.043174229562282562255859375000 -0.000280615204246714711189270020 0.004226614255458117398733808301 0 0 0 0 
2417833333.3333334923 0.204059541225433405120526231258 -0.042749796062707901000976562500 -0.000240593697526492205545148306 0.004138730466365814208984375000 0 0 0 0 
2418000000.0000000000 0.203697010874748202224893134371 -0.042346667498350143432617187500 0.000114680282422341406345367432 0.004205137956887483596801757812 0 0 0 0 
2418166666.6666665077 0.203113123774528503417968750000 -0.042036890983581542968750000000 0.000203001487534493207931518555 0.004047934431582689285278320312 0 0 0 0 
2418333333.3333334923 0.202488020062446594238281250000 -0.041654888540506362915039062500 0.000339963356964290087849217548 0.003988144919276238355154706738 0 0 0 0 
2418500000.0000000000 0.201700076460838290115518134371 -0.041378211230039596557617187500 0.000446728459792211706012171613 0.004028117749840021133422851562 0 0 0 0 
2418666666.6666665077 0.200800761580467196365518134371 -0.040986154228448867797851562500 0.000620126491412520408630371094 0.003981514833867549896240234375 0 0 0 0 
2418833333.3333334923 0.199746176600456210037393134371 -0.040972921997308731079101562500 0.000779514957685023546218872070 0.004137476440519095334524823926 0 0 0 0 
2419000000.0000000000 0.198560968041420010665731865629 -0.040797125548124313354492187500 0.000911580456886440515518188477 0.004140945151448249816894531250 0 0 0 0 
2419166666.6666665077 0.197266846895217895507812500000 -0.040694899857044219970703125000 0.001011843211017549037933349609 0.004075809381902217864990234375 0 0 0 0 
2419333333.3333334923 0.195823475718498202224893134371 -0.040890507400035858154296875000 0.001293895184062421105028461987 0.003977667540311813354492187500 0 0 0 0 
2419500000.0000000000 0.194386303424835205078125000000 -0.041024897247552871704101562500 0.001511465292423963980433798682 0.003923187963664531707763671875 0 0 0 0 
2419666666.6666665077 0.192842558026313809493856865629 -0.041523594409227371215820312500 0.001547174644656478924992226709 0.003842330537736415863037109375 0 0 0 0 
2419833333.3333334923 0.191000819206237792968750000000 -0.041801769286394119262695312500 0.001822585705667733929277729565 0.003693861421197652816772460938 0 0 0 0 
