# Hz S RI R 50
2400000000.0000000000 0.168421044945716913421307481258 0.047035317867994308471679687500 0.002607253147289156913757324219 0.003545934800058602853062295068 0 0 0 0 
2400166666.6666665077 0.169333830475807189941406250000 0.046118341386318206787109375000 0.002774514257907866997959756006 0.003498919308185576958897256006 0 0 0 0 
2400333333.3333334923 0.170168608427047701736611884371 0.044837322086095809936523437500 0.002800422953441739082336425781 0.003283976577222346825840615381 0 0 0 0 
2400500000.0000000000 0.171661823987960787674111884371 0.044039510190486907958984375000 0.003102465067058802084681845557 0.003652742132544517950770712744 0 0 0 0 
2400666666.6666665077 0.171790629625320406814736884371 0.043222691863775253295898437500 0.002930194605141878128051757812 0.003425960196182132200953818213 0 0 0 0 
2400833333.3333334923 0.172681927680969210525674384371 0.042894955724477767944335937500 0.002585728885605930848362588037 0.003171172458678483963012695312 0 0 0 0 
2401000000.0000000000 0.173678234219551086425781250000 0.041065819561481482768972028907 0.003543064929544926123378134619 0.002876512473449110984802246094 0 0 0 0 
2401166666.6666665077 0.172905400395393399337606865629 0.041198302060365676879882812500 0.002199545502662659125087118994 0.002167096594348549842834472656 0 0 0 0 
2401333333.3333334923 0.175002902746200589279013115629 0.039626073092222206806223283593 0.003349745878949760957005166162 0.002658321987837553024291992188 0 0 0 0 
2401500000.0000000000 0.175374463200569208343182481258 0.039172202348709113384206403907 0.003026900347322226004359579932 0.002260063309222459793090820312 0 0 0 0 
2401666666.6666665077 0.176304578781127901931924384371 0.038579653948545462871511091407 0.003668858669698237939121865381 0.002377622760832310156581259619 0 0 0 0 
2401833333.3333334923 0.176770582795143099685830634371 0.038211602717638022685964216407 0.003378873690962791009190224756 0.002222785027697681946995400537 0 0 0 0 
2402000000.0000000000 0.176952064037322998046875000000 0.037502221763134002685546875000 0.003400949528440833091735839844 0.001939208479598164992091513525 0 0 0 0 
2402166666.6666665077 0.176953360438346890548544365629 0.036150708794593811035156250000 0.003701029345393180847167968750 0.001412280835211277008056640625 0 0 0 0 
2402333333.3333334923 0.177290827035903902908486884371 0.035601712763309478759765625000 0.003599767806008458137512207031 0.001363979768939316055895161206 0 0 0 0 
2402500000.0000000000 0.179624229669570895095986884371 0.035830996930599212646484375000 0.003802541876211761994602822412 0.002585019916296004815342568506 0 0 0 0 
2402666666.6666665077 0.177639827132225008865518134371 0.035136319696903228759765625000 0.003168642520904541015625000000 0.001101913047023117975947714697 0 0 0 0 
2402833333.3333334923 0.178050532937049893478231865629 0.034841094166040420532226562500 0.002919702557846903800964355469 0.001430715434253216006635356372 0 0 0 0 
2403000000.0000000000 0.179406523704528808593750000000 0.033032853156328201293945312500 0.004149003420025110244750976562 0.001754783676005899906158447266 0 0 0 0 
2403166666.6666665077 0.178655698895454406738281250000 0.031728420406579971313476562500 0.004060668870806694030761718750 0.001066116732545197010040283203 0 0 0 0 
2403333333.3333334923 0.179179206490516690353231865629 0.030979232862591739999791329296 0.004147237166762351989746093750 0.000911874696612358093261718750 0 0 0 0 
2403500000.0000000000 0.178269267082214410979901231258 0.031058529391884800302525704296 0.003338952781632543043849326025 0.000996260438114404678344726562 0 0 0 0 
2403666666.6666665077 0.178536683320999201018963731258 0.029601149260997768747349923046 0.003890412626788020133972167969 0.001017222530208528041839599609 0 0 0 0 
2403833333.3333334923 0.178535103797912597656250000000 0.028533097356557849538782889454 0.003728374140337109999415732275 0.000726298021618276834487915039 0 0 0 0 
2404000000.0000000000 0.178112521767616299728231865629 0.027388697490096088754674141796 0.003942270297557116422171308301 0.000880648614838719367980957031 0 0 0 0 
2404166666.6666665077 0.177832320332527188400106865629 0.026164427399635318410853201954 0.003835296723991632895228720557 0.000690046639647334814071655273 0 0 0 0 
2404333333.3333334923 0.177398279309272793868856865629 0.024924309924244880676269531250 0.003924898337572813034057617188 0.000741137599106878042221069336 0 0 0 0 
2404500000.0000000000 0.176932260394096402267294365629 0.023516425862908359872838204296 0.004035963676869869232177734375 0.000606807414442300796508789062 0 0 0 0 
2404666666.6666665077 0.176696032285690307617187500000 0.022131638601422309875488281250 0.003904340090230106873753213037 0.000556183105800300836563110352 0 0 0 0 
2404833333.3333334923 0.176111072301864596267861884371 0.020630607381463050842285156250 0.003857264062389730973484658350 0.000470589933684095686108189716 0 0 0 0 
2405000000.0000000000 0.175828635692596407791299384371 0.019047290086746219289759451954 0.003990758210420609387869550488 0.000378610595362260883480626239 0 0 0 0 
2405166666.6666665077 0.175329163670539911468182481258 0.017554277554154399526575858204 0.004138403572142124176025390625 0.000039510963688371703028678894 0 0 0 0 
2405333333.3333334923 0.174887910485267611404580634371 0.015790363773703578603724295704 0.004084392916411161422729492188 0.000092195055913180112838745117 0 0 0 0 
2405500000.0000000000 0.174643009901046808440838731258 0.014118305407464500772496407421 0.004058832768350839614868164062 -0.000104387567262165302604121075 0 0 0 0 
2405666666.6666665077 0.174236238002777099609375000000 0.012472111731767649214774884570 0.003986037801951169967651367188 -0.000219074543565511703491210938 0 0 0 0 
2405833333.3333334923 0.173658505082130404373330634371 0.010627479292452340561836443555 0.004250709433108568191528320312 -0.000267721654381603002548217773 0 0 0 0 
2406000000.0000000000 0.173684194684028597732705634371 0.008629947900772094726562500000 0.004125375300645828247070312500 -0.000563433859497308731079101562 0 0 0 0 
2406166666.6666665077 0.173308670520782498458700615629 0.006795059889554977416992187500 0.004014726728200913342947675488 -0.000533079495653510093688964844 0 0 0 0 
2406333333.3333334923 0.173419982194900512695312500000 0.004976090509444475173950195312 0.004175495821982622146606445312 -0.000787843833677470684051513672 0 0 0 0 
2406500000.0000000000 0.173190161585807800292968750000 0.002933267038315535025355673682 0.004233340267091990384573652051 -0.000686187413521111011505126953 0 0 0 0 
2406666666.6666665077 0.172902971506118802169638115629 0.000955999712459743022918701172 0.004246971569955348968505859375 -0.000854136422276496887207031250 0 0 0 0 
2406833333.3333334923 0.172941029071807889083700615629 -0.001139950938522815921186137622 0.004217300564050673571114824512 -0.001022140379063785076141357422 0 0 0 0 
2407000000.0000000000 0.173147469758987399002236884371 -0.003221705555915832953212118994 0.004181234166026115417480468750 -0.001103479764424263997318886865 0 0 0 0 
2407166666.6666665077 0.173332616686821011642294365629 -0.005207565147429704666137695312 0.004293723031878471374511718750 -0.001229290850460528893711709131 0 0 0 0 
2407333333.3333334923 0.173395067453384399414062500000 -0.007328597828745841979980468750 0.004373881965875625610351562500 -0.001402741880156100013135600513 0 0 0 0 
2407500000.0000000000 0.173643127083778409103231865629 -0.009453190490603446960449218750 0.004444516729563474655151367188 -0.001714507001452147960662841797 0 0 0 0 
2407666666.6666665077 0.174004971981048611739950615629 -0.011248973198235040146797381055 0.004551125224679709348196698926 -0.001903914380818604989292763818 0 0 0 0 
2407833333.3333334923 0.174157246947288513183593750000 -0.013549246825277810532539568555 0.004583945963531733426565839551 -0.001985819078981875939610146631 0 0 0 0 
2408000000.0000000000 0.174571484327316311935263115629 -0.015441243536770340311070626171 0.004616709426045417785644531250 -0.002251687459647655920741415869 0 0 0 0 
2408166666.6666665077 0.175016283988952608963174384371 -0.017320115119218829763392264454 0.004418030846863985061645507812 -0.002552677644416689872741699219 0 0 0 0 
2408333333.3333334923 0.175625711679458590408486884371 -0.019278934225440028799036795704 0.004581083543598651885986328125 -0.002772975247353314919712685693 0 0 0 0 
2408500000.0000000000 0.175730586051940890213174384371 -0.021181246265769008291224295704 0.004359933082014322280883789062 -0.003160608233883976936340332031 0 0 0 0 
2408666666.6666665077 0.176366105675697298904580634371 -0.022914322093129161489466483204 0.004352090880274772644042968750 -0.003331010928377509117126464844 0 0 0 0 
2408833333.3333334923 0.176643013954162597656250000000 -0.024693597108125690114954764454 0.004172902088612318038940429688 -0.003586536971852182908299111475 0 0 0 0 
2409000000.0000000000 0.176967725157737704178018134371 -0.026251772418618198740025704296 0.004036555998027324676513671875 -0.003868472063913940949680947412 0 0 0 0 
2409166666.6666665077 0.177498564124107388595419365629 -0.027796514332294460641881173046 0.003687742864713073210475302588 -0.004060035105794668197631835938 0 0 0 0 
2409333333.3333334923 0.177893653512001009842080634371 -0.029173048213124278676966483204 0.003397031454369426207301474463 -0.004268574994057416915893554688 0 0 0 0 
2409500000.0000000000 0.178405746817588806152343750000 -0.030628437176346778869628906250 0.003255953779444098906276083838 -0.004361310973763465881347656250 0 0 0 0 
2409666666.6666665077 0.178921863436698913574218750000 -0.031825773417949683452565778907 0.003025151090696454048156738281 -0.004617878701537848386282636426 0 0 0 0 
2409833333.3333334923 0.179211869835853604415731865629 -0.032740201801061630249023437500 0.002848050557076930999755859375 -0.004680292680859565734863281250 0 0 0 0 
2410000000.0000000000 0.179752394556999206542968750000 -0.033800281584262847900390625000 0.002652746392413973808288574219 -0.004817218054085969924926757812 0 0 0 0 
2410166666.6666665077 0.180231288075447110275106865629 -0.034690234810113906860351562500 0.002275267615914344787597656250 -0.004811348393559455871582031250 0 0 0 0 
2410333333.3333334923 0.180660083889961187164630018742 -0.035518169403076171875000000000 0.002093562157824635939357138525 -0.004873913247138261795043945312 0 0 0 0 
2410500000.0000000000 0.180947184562683105468750000000 -0.036401420831680297851562500000 0.001787422457709908919093466650 -0.004980158060789108276367187500 0 0 0 0 
2410666666.6666665077 0.181260243058204706390057481258 -0.037125363945960998535156250000 0.001683387206867337010027241284 -0.005015318747609853744506835938 0 0 0 0 
2410833333.3333334923 0.181787714362144497970419365629 -0.037658181041479110717773437500 0.001310545252636075019836425781 -0.005126138683408498764038085938 0 0 0 0 
2411000000.0000000000 0.181817859411239596267861884371 -0.038224671036005020141601562500 0.001171592040918768102761293726 -0.005087336525321006774902343750 0 0 0 0 
2411166666.6666665077 0.182107344269752502441406250000 -0.038945388048887252807617187500 0.000965790997724980115890502930 -0.005087155848741531372070312500 0 0 0 0 
2411333333.3333334923 0.182126834988594110686932481258 -0.039351891726255416870117187500 0.000823171692900359630584716797 -0.005123482085764408111572265625 0 0 0 0 
2411500000.0000000000 0.182025611400604303558026231258 -0.039966560900211327289621721093 0.000556847371626645326614379883 -0.005113050807267426577096269824 0 0 0 0 
2411666666.6666665077 0.182118386030197088043536268742 -0.040338248014450073242187500000 0.000420300406403839588165283203 -0.005168309900909662246704101562 0 0 0 0 
2411833333.3333334923 0.181854188442230196853799384371 -0.040710229426622390747070312500 0.000032670137443346902728080750 -0.005207231268286705017089843750 0 0 0 0 
2412000000.0000000000 0.181924954056739807128906250000 -0.041222363710403442382812500000 -0.000131800872622989090994158334 -0.005219730548560619354248046875 0 0 0 0 
2412166666.6666665077 0.181381851434707613845986884371 -0.041637234389781951904296875000 -0.000251443940214812809794825421 -0.005096998997032642364501953125 0 0 0 0 
2412333333.3333334923 0.181078568100929288009481865629 -0.041993007063865661621093750000 -0.000379808363504707813262939453 -0.005030945874750614166259765625 0 0 0 0 
2412500000.0000000000 0.180385231971740694900674384371 -0.042205747216939933086354841407 -0.000610139919444918632507324219 -0.005194569006562232971191406250 0 0 0 0 
2412666666.6666665077 0.179751142859458895584268134371 -0.042797498404979712749440778907 -0.000906542176380753517150878906 -0.005149552132934331893920898438 0 0 0 0 
2412833333.3333334923 0.179333731532096890548544365629 -0.043177146464586257934570312500 -0.001079005422070622010471963037 -0.005095149856060743331909179688 0 0 0 0 
2413000000.0000000000 0.178562939167022705078125000000 -0.043648794293403632427175153907 -0.001392345642670989036560058594 -0.005021451506763696670532226562 0 0 0 0 
2413166666.6666665077 0.177495360374450711349325615629 -0.044024787843227393413503278907 -0.001380565809085964939714741284 -0.005118718836456537246704101562 0 0 0 0 
2413333333.3333334923 0.176593437790870694259481865629 -0.044519923627376563335378278907 -0.001758027821779251098632812500 -0.004846481606364250183105468750 0 0 0 0 
2413500000.0000000000 0.175662294030189486404580634371 -0.045027367770671837543527971093 -0.001999347237870097160339355469 -0.004818156361579895019531250000 0 0 0 0 
2413666666.6666665077 0.174792215228080805022869981258 -0.045650523155927658081054687500 -0.002242340706288814978358603369 -0.004740816075354815396780683301 0 0 0 0 
2413833333.3333334923 0.173518538475036593338174384371 -0.046212390065193183208425153907 -0.002341422252357006072998046875 -0.004829498007893562316894531250 0 0 0 0 
2414000000.0000000000 0.172298431396484402755575615629 -0.046850021928548812866210937500 -0.002702444326132535934448242188 -0.004589414224028587341308593750 0 0 0 0 
2414166666.6666665077 0.171169728040695190429687500000 -0.047730214893817901611328125000 -0.002900263294577599005458212744 -0.004460732918232679367065429688 0 0 0 0 
2414333333.3333334923 0.169851392507553100585937500000 -0.048669397830963141704518903907 -0.003211401868611574172973632812 -0.004230461549013853073120117188 0 0 0 0 
2414500000.0000000000 0.168835014104843111892861884371 -0.049323763698339462280273437500 -0.003244251944124699072596884619 -0.004041021689772605895996093750 0 0 0 0 
2414666666.6666665077 0.167559459805488586425781250000 -0.050236627459526062011718750000 -0.003426342038437724113464355469 -0.003897548886016010804417275537 0 0 0 0 
2414833333.3333334923 0.166261091828346307952557481258 -0.051438484340906143188476562500 -0.003616586793214083151576376807 -0.003508517052978277206420898438 0 0 0 0 
2415000000.0000000000 0.165061637759208706954794365629 -0.052517052739858627319335937500 -0.003702983492985368208644247900 -0.003363632829859852790832519531 0 0 0 0 
2415166666.6666665077 0.163897141814231900314169365629 -0.053761124610900878906250000000 -0.004075266420841217041015625000 -0.003259260673075913949253701318 0 0 0 0 
2415333333.3333334923 0.162801414728164700607138115629 -0.055129040032625198364257812500 -0.003862701123580337004420615088 -0.002885492751374841170070029150 0 0 0 0 
2415500000.0000000000 0.161526456475257901290731865629 -0.056441579014062881469726562500 -0.004235498141497373580932617188 -0.002575478516519070105311728369 0 0 0 0 
2415666666.6666665077 0.160454511642456110198651231258 -0.057929500937461853027343750000 -0.004144079051911830902099609375 -0.002287812763825058937072753906 0 0 0 0 
2415833333.3333334923 0.159350544214248712737713731258 -0.059553325176239006732981096093 -0.004323981236666440963745117188 -0.002179213566705584959742880713 0 0 0 0 
2416000000.0000000000 0.158226013183593805511151231258 -0.061182361096143722534179687500 -0.004306792747229337692260742188 -0.001887022750452161052106547778 0 0 0 0 
2416166666.6666665077 0.157413825392723111251669365629 -0.062806054949760437011718750000 -0.004122839774936437606811523438 -0.001477979822084308104274130713 0 0 0 0 
2416333333.3333334923 0.156444847583770807464276231258 -0.064548611640930175781250000000 -0.004251808859407901763916015625 -0.001326617202721535942674946362 0 0 0 0 
2416500000.0000000000 0.155554503202438410003338731258 -0.066477432847023010253906250000 -0.004190401639789342880249023438 -0.001089539146050811030744243091 0 0 0 0 
2416666666.6666665077 0.154564216732978793045205634371 -0.068243756890296936035156250000 -0.004161614459007977571969316699 -0.000811044708825647830963134766 0 0 0 0 
2416833333.3333334923 0.154034137725830105880575615629 -0.070247188210487365722656250000 -0.003980869892984628677368164062 -0.000557312450837343931198120117 0 0 0 0 
2417000000.0000000000 0.153150498867034912109375000000 -0.072173878550529479980468750000 -0.004056335892528296384329511426 -0.000565728521905839443206787109 0 0 0 0 
2417166666.6666665077 0.152365475893020602127236884371 -0.073922276496887207031250000000 -0.003853196743875741958618164062 -0.000505842384882271289825439453 0 0 0 0 
2417333333.3333334923 0.151914343237876892089843750000 -0.075833939015865325927734375000 -0.003855289192870258851292275537 -0.000140480973641388091162005014 0 0 0 0 
2417500000.0000000000 0.151300936937332208831463731258 -0.077910386025905609130859375000 -0.003638217924162745909449911963 0.000045153672544984146952629089 0 0 0 0 
2417666666.6666665077 0.151014208793640108963174384371 -0.079572886228561401367187500000 -0.003645855002105236053466796875 0.000050169946916867047548294067 0 0 0 0 
2417833333.3333334923 0.150647267699241610428018134371 -0.081339418888092041015625000000 -0.003479418344795703887939453125 0.000371419911971315687328892841 0 0 0 0 
2418000000.0000000000 0.150177657604217501541299384371 -0.083334870636463165283203125000 -0.003275576746091247038600302588 0.000294627883704379200935363770 0 0 0 0 
2418166666.6666665077 0.149859547615051297286825615629 -0.084951445460319519042968750000 -0.003325401106849313215968466650 0.000409363594371825510829371320 0 0 0 0 
2418333333.3333334923 0.149913281202316311935263115629 -0.086567059159278869628906250000 -0.003140000859275459809544228662 0.000598744198214262723922729492 0 0 0 0 
2418500000.0000000000 0.149733796715736389160156250000 -0.088202238082885742187500000000 -0.002963022794574499130249023438 0.000704379752278327941894531250 0 0 0 0 
2418666666.6666665077 0.149590730667114313323651231258 -0.089791446924209594726562500000 -0.003011130262166262106654501807 0.000826891977339982986450195312 0 0 0 0 
2418833333.3333334923 0.149656727910041809082031250000 -0.091139651834964752197265625000 -0.002860460197553039030787802588 0.000984651735052466392517089844 0 0 0 0 
2419000000.0000000000 0.149521768093109103103799384371 -0.092510081827640533447265625000 -0.002672408008947968916652060400 0.000890301133040338754653930664 0 0 0 0 
2419166666.6666665077 0.149809107184410095214843750000 -0.093630500137805938720703125000 -0.002573327394202352003810263525 0.001163190579973161003710102612 0 0 0 0 
2419333333.3333334923 0.149633809924125699142294365629 -0.094636239111423492431640625000 -0.002446089638397098021266318213 0.001127096591517328999162983472 0 0 0 0 
2419500000.0000000000 0.149880260229110690017861884371 -0.095767393708229064941406250000 -0.002177084330469369888305664062 0.001215215772390366034266806494 0 0 0 0 
2419666666.6666665077 0.150151103734970092773437500000 -0.096739992499351501464843750000 -0.002235864754766225814819335938 0.001271297805942595005035400391 0 0 0 0 
2419833333.3333334923 0.150332778692245511154013115629 -0.097250677645206451416015625000 -0.001934749772772192955017089844 0.001252856221981347040889120947 0 0 0 0 
