# Version 1.00
#
freq[Hz];re:Trc1_S11;im:Trc1_S11;re:Trc2_S21;im:Trc2_S21;
2.400000000000000E+009;1.682797521352768E-001;4.045136272907257E-002;1.282196259126067E-003;-3.053886583074927E-003;
2.400166666666667E+009;1.689140349626541E-001;3.988066688179970E-002;1.152414479292929E-003;-3.075065324082971E-003;
2.400333333333334E+009;1.694232374429703E-001;3.896411508321762E-002;9.121105540543795E-004;-3.108150325715542E-003;
2.400500000000000E+009;1.698921322822571E-001;3.805072233080864E-002;7.161254179663956E-004;-3.163512796163559E-003;
2.400666666666667E+009;1.701772958040237E-001;3.715010359883308E-002;5.778895574621856E-004;-3.056646790355444E-003;
2.400833333333334E+009;1.707789301872253E-001;3.630024194717407E-002;5.359525675885379E-004;-2.897225087508559E-003;
2.401000000000000E+009;1.712036579847336E-001;3.550343215465546E-002;3.473729302641004E-004;-2.859389642253518E-003;
2.401166666666667E+009;1.712971627712250E-001;3.470261767506599E-002;1.679959095781669E-004;-2.818322973325849E-003;
2.401333333333334E+009;1.715433448553085E-001;3.388125821948052E-002;1.308558275923133E-004;-2.775091445073485E-003;
2.401500000000000E+009;1.717042773962021E-001;3.288035839796066E-002;-1.268353080376983E-004;-2.690452616661787E-003;
2.401666666666667E+009;1.718998253345490E-001;3.224102780222893E-002;-2.414124755887315E-004;-2.570926677435637E-003;
2.401833333333334E+009;1.719358414411545E-001;3.136248514056206E-002;-3.304968413431197E-004;-2.471420913934708E-003;
2.402000000000000E+009;1.719426214694977E-001;3.047859296202660E-002;-4.755869158543646E-004;-2.406013896688819E-003;
2.402166666666667E+009;1.719965785741806E-001;2.957349456846714E-002;-4.251228820066899E-004;-2.195906126871705E-003;
2.402333333333334E+009;1.719573140144348E-001;2.878105454146862E-002;-5.472062039189041E-004;-2.269532997161150E-003;
2.402500000000000E+009;1.720183938741684E-001;2.799913287162781E-002;-4.449845873750746E-004;-1.976448111236095E-003;
2.402666666666667E+009;1.720069944858551E-001;2.717881463468075E-002;-4.127986612729728E-004;-1.913247862830758E-003;
2.402833333333334E+009;1.718656271696091E-001;2.615330182015896E-002;-4.354413249529898E-004;-1.899235532619059E-003;
2.403000000000000E+009;1.718002855777741E-001;2.502427808940411E-002;-3.964937641285360E-004;-1.837908988818526E-003;
2.403166666666667E+009;1.717201769351959E-001;2.392038144171238E-002;-3.258390061091632E-004;-1.752996118739247E-003;
2.403333333333334E+009;1.716342717409134E-001;2.294664457440376E-002;-2.653218980412930E-004;-1.766365021467209E-003;
2.403500000000000E+009;1.714388281106949E-001;2.188149467110634E-002;-2.135554241249338E-004;-1.647011609748006E-003;
2.403666666666667E+009;1.712130606174469E-001;2.053680643439293E-002;-2.521663554944098E-004;-1.592155313119292E-003;
2.403833333333334E+009;1.710716038942337E-001;1.939187943935394E-002;-9.770473116077483E-005;-1.511479029431939E-003;
2.404000000000000E+009;1.710068136453629E-001;1.820409670472145E-002;-1.899294147733599E-005;-1.730850199237466E-003;
2.404166666666667E+009;1.708409190177918E-001;1.680674590170384E-002;1.136494029196911E-004;-1.630316372029483E-003;
2.404333333333334E+009;1.705434471368790E-001;1.563106477260590E-002;-1.239858647750225E-005;-1.702904119156301E-003;
2.404500000000000E+009;1.703147888183594E-001;1.415308285504580E-002;1.103573231375776E-004;-1.756731071509421E-003;
2.404666666666667E+009;1.704376637935638E-001;1.283700112253428E-002;6.359979306580499E-005;-1.884163473732770E-003;
2.404833333333334E+009;1.701120436191559E-001;1.148017030209303E-002;5.390699516283348E-005;-1.954493345692754E-003;
2.405000000000000E+009;1.701768487691879E-001;9.878145530819893E-003;-1.256192626897246E-004;-2.010293304920197E-003;
2.405166666666667E+009;1.699213087558746E-001;8.384916931390762E-003;-9.988091915147379E-005;-2.140451455488801E-003;
2.405333333333334E+009;1.700410991907120E-001;6.699790246784687E-003;-1.887693215394393E-004;-2.276692539453507E-003;
2.405500000000000E+009;1.698688268661499E-001;5.281543359160423E-003;-1.152855038526468E-004;-2.183624776080251E-003;
2.405666666666667E+009;1.698945313692093E-001;3.505208296701312E-003;-1.999706582864747E-004;-2.066068118438125E-003;
2.405833333333334E+009;1.696155816316605E-001;2.000736305490136E-003;-2.970152418129146E-004;-2.108006738126278E-003;
2.406000000000000E+009;1.696151793003082E-001;2.106208412442356E-004;-1.786354259820655E-004;-2.232999773696065E-003;
2.406166666666667E+009;1.694271713495255E-001;-1.198426820337772E-003;-4.057561163790524E-004;-2.313249278813601E-003;
2.406333333333334E+009;1.695064753293991E-001;-2.842892194166780E-003;-4.623168206308037E-004;-2.349371556192637E-003;
2.406500000000000E+009;1.691681295633316E-001;-4.595350939780474E-003;-4.173235211055726E-004;-2.387499436736107E-003;
2.406666666666667E+009;1.689539402723312E-001;-6.072712130844593E-003;-6.865686737000942E-004;-2.617151942104101E-003;
2.406833333333334E+009;1.689865887165070E-001;-7.735712453722954E-003;-6.606138776987791E-004;-2.595766214653850E-003;
2.407000000000000E+009;1.688838899135590E-001;-9.356575086712837E-003;-8.667351212352514E-004;-2.741171047091484E-003;
2.407166666666667E+009;1.687282770872116E-001;-1.063293591141701E-002;-9.053397225216031E-004;-2.623702632263303E-003;
2.407333333333334E+009;1.686136871576309E-001;-1.211623568087816E-002;-1.026851125061512E-003;-2.771854167804122E-003;
2.407500000000000E+009;1.682943105697632E-001;-1.348710153251886E-002;-1.143736764788628E-003;-2.961730584502220E-003;
2.407666666666667E+009;1.682863235473633E-001;-1.471002027392387E-002;-1.480732113122940E-003;-2.818338107317686E-003;
2.407833333333334E+009;1.680724024772644E-001;-1.615303382277489E-002;-1.564287696965039E-003;-2.957676304504275E-003;
2.408000000000000E+009;1.680797487497330E-001;-1.733904145658016E-002;-1.818388816900551E-003;-2.856502542272210E-003;
2.408166666666667E+009;1.678868383169174E-001;-1.829542219638825E-002;-2.040988998487592E-003;-2.844563685357571E-003;
2.408333333333334E+009;1.680567264556885E-001;-1.931557059288025E-002;-2.232688944786787E-003;-2.797584515064955E-003;
2.408500000000000E+009;1.680305153131485E-001;-2.034030854701996E-002;-2.436311449855566E-003;-2.674659946933389E-003;
2.408666666666667E+009;1.682567596435547E-001;-2.133614756166935E-002;-2.725759521126747E-003;-2.411941532045603E-003;
2.408833333333334E+009;1.682534813880920E-001;-2.216827124357224E-002;-2.995063783600926E-003;-2.242777030915022E-003;
2.409000000000000E+009;1.684864759445190E-001;-2.293979935348034E-002;-2.963535021990538E-003;-1.958806300535798E-003;
2.409166666666667E+009;1.686916947364807E-001;-2.411893941462040E-002;-3.060611197724938E-003;-1.842468627728522E-003;
2.409333333333334E+009;1.688419878482819E-001;-2.494586445391178E-002;-3.082286566495895E-003;-1.635187654756010E-003;
2.409500000000000E+009;1.691531389951706E-001;-2.599944546818733E-002;-3.154672915115953E-003;-1.393782906234264E-003;
2.409666666666667E+009;1.691771596670151E-001;-2.677608467638493E-002;-3.215969540178776E-003;-1.077432883903384E-003;
2.409833333333334E+009;1.693170219659805E-001;-2.753727510571480E-002;-3.125557210296392E-003;-9.442726150155067E-004;
2.410000000000000E+009;1.695290952920914E-001;-2.830271236598492E-002;-3.042906289920211E-003;-7.641857373528183E-004;
2.410166666666667E+009;1.696157008409500E-001;-2.936749346554279E-002;-2.887823386117816E-003;-5.949468468315899E-004;
2.410333333333334E+009;1.695726960897446E-001;-3.028580732643604E-002;-3.000579308718443E-003;-4.868939577136189E-004;
2.410500000000000E+009;1.697207093238831E-001;-3.114997968077660E-002;-2.920208498835564E-003;-4.557504435069859E-004;
2.410666666666667E+009;1.696865409612656E-001;-3.223587572574616E-002;-2.812787890434265E-003;-2.075314841931686E-004;
2.410833333333334E+009;1.696161180734634E-001;-3.300240263342857E-002;-2.828647382557392E-003;-1.806807558750734E-004;
2.411000000000000E+009;1.694040596485138E-001;-3.379037976264954E-002;-2.613430144265294E-003;-1.645742304390296E-004;
2.411166666666667E+009;1.693468689918518E-001;-3.461965918540955E-002;-2.621464431285858E-003;-1.151195829152130E-004;
2.411333333333334E+009;1.691168397665024E-001;-3.537724539637566E-002;-2.588220173493028E-003;-1.217914018525335E-006;
2.411500000000000E+009;1.690148860216141E-001;-3.633175417780876E-002;-2.608955604955554E-003;9.777140803635120E-005;
2.411666666666667E+009;1.688861250877380E-001;-3.690859675407410E-002;-2.665654523298144E-003;2.284071815665811E-004;
2.411833333333334E+009;1.687814146280289E-001;-3.773003444075584E-002;-2.620429033413529E-003;3.126601513940841E-004;
2.412000000000000E+009;1.684235036373138E-001;-3.861665725708008E-002;-2.416729461401701E-003;3.088751109316945E-004;
2.412166666666667E+009;1.680610626935959E-001;-3.942953050136566E-002;-2.335805445909500E-003;4.749524232465774E-004;
2.412333333333334E+009;1.679006814956665E-001;-4.034611955285072E-002;-2.410877728834748E-003;4.865913069806993E-004;
2.412500000000000E+009;1.675132066011429E-001;-4.115968570113182E-002;-2.138943411409855E-003;5.516431992873550E-004;
2.412666666666667E+009;1.670952290296555E-001;-4.243954271078110E-002;-2.058472950011492E-003;4.835538275074214E-004;
2.412833333333334E+009;1.668007373809815E-001;-4.320566728711128E-002;-2.065959619358182E-003;4.454057780094445E-004;
2.413000000000000E+009;1.661043465137482E-001;-4.412473738193512E-002;-1.951789367012680E-003;4.250304773449898E-004;
2.413166666666667E+009;1.657827198505402E-001;-4.503489658236504E-002;-1.814349670894444E-003;3.073097323067486E-004;
2.413333333333334E+009;1.652150899171829E-001;-4.607052356004715E-002;-1.734407967887819E-003;1.278784184250981E-004;
2.413500000000000E+009;1.648216396570206E-001;-4.704238474369049E-002;-1.827073516324163E-003;6.377482350217179E-005;
2.413666666666667E+009;1.642877161502838E-001;-4.797894135117531E-002;-1.832361798733473E-003;2.559480344643816E-005;
2.413833333333334E+009;1.636591106653214E-001;-4.892171546816826E-002;-1.887369435280561E-003;2.287330280523747E-004;
2.414000000000000E+009;1.632471233606339E-001;-4.979769513010979E-002;-1.963313668966293E-003;-4.024822919745930E-005;
2.414166666666667E+009;1.629209965467453E-001;-5.079156532883644E-002;-2.046970883384347E-003;7.812055264366791E-005;
2.414333333333334E+009;1.622684597969055E-001;-5.193455889821053E-002;-2.178768161684275E-003;6.528537778649479E-005;
2.414500000000000E+009;1.619881391525269E-001;-5.266359075903893E-002;-2.362602856010199E-003;1.444133067707298E-005;
2.414666666666667E+009;1.617223918437958E-001;-5.366555973887444E-002;-2.523992909118533E-003;3.376603126525879E-005;
2.414833333333334E+009;1.612946540117264E-001;-5.471791699528694E-002;-2.448671497404575E-003;8.513509237673134E-005;
2.415000000000000E+009;1.608926504850388E-001;-5.575491487979889E-002;-2.637609606608748E-003;1.425211812602356E-004;
2.415166666666667E+009;1.607085317373276E-001;-5.688814073801041E-002;-2.866795053705573E-003;2.744477242231369E-004;
2.415333333333334E+009;1.605622917413712E-001;-5.801202356815338E-002;-2.894717268645763E-003;3.646287368610501E-004;
2.415500000000000E+009;1.603647917509079E-001;-5.906114354729652E-002;-3.096315776929259E-003;4.070523136761040E-004;
2.415666666666667E+009;1.599447578191757E-001;-6.037611141800880E-002;-3.193122800439596E-003;6.765082944184542E-004;
2.415833333333334E+009;1.598477363586426E-001;-6.161902472376823E-002;-3.360550152137876E-003;9.478158317506313E-004;
2.416000000000000E+009;1.595230400562286E-001;-6.277047097682953E-002;-3.356711706146598E-003;1.132430508732796E-003;
2.416166666666667E+009;1.594929248094559E-001;-6.410457193851471E-002;-3.501906525343657E-003;1.564200269058347E-003;
2.416333333333334E+009;1.591348350048065E-001;-6.530531495809555E-002;-3.516604658216238E-003;1.809739856980741E-003;
2.416500000000000E+009;1.588746458292007E-001;-6.657250225543976E-002;-3.357564099133015E-003;1.978840678930283E-003;
2.416666666666667E+009;1.584082096815109E-001;-6.775984168052673E-002;-3.273432375863195E-003;2.400630852207542E-003;
2.416833333333334E+009;1.582895964384079E-001;-6.916835904121399E-002;-3.013026900589466E-003;2.609382849186659E-003;
2.417000000000000E+009;1.577181816101074E-001;-7.029046118259430E-002;-2.913259202614427E-003;2.796543296426535E-003;
2.417166666666667E+009;1.574761569499970E-001;-7.140638679265976E-002;-2.651747781783342E-003;2.874942729249597E-003;
2.417333333333334E+009;1.572278887033463E-001;-7.241649925708771E-002;-2.503536874428392E-003;3.119957167655230E-003;
2.417500000000000E+009;1.568131595849991E-001;-7.352593541145325E-002;-2.158749848604202E-003;3.280251985415816E-003;
2.417666666666667E+009;1.566487550735474E-001;-7.445533573627472E-002;-2.091994276270270E-003;3.324252786114812E-003;
2.417833333333334E+009;1.563760340213776E-001;-7.541334629058838E-002;-1.788565539754927E-003;3.488213988021016E-003;
2.418000000000000E+009;1.559120267629623E-001;-7.654837518930435E-002;-1.511870068497956E-003;3.378179622814059E-003;
2.418166666666667E+009;1.557736098766327E-001;-7.721284031867981E-002;-1.350406557321549E-003;3.421497764065862E-003;
2.418333333333334E+009;1.557748615741730E-001;-7.826376706361771E-002;-1.160316867753863E-003;3.521954873576760E-003;
2.418500000000000E+009;1.553570330142975E-001;-7.909141480922699E-002;-1.175328507088125E-003;3.437770064920187E-003;
2.418666666666667E+009;1.552498936653137E-001;-7.988684624433518E-002;-7.601792458444834E-004;3.547645406797528E-003;
2.418833333333334E+009;1.548852771520615E-001;-8.082903176546097E-002;-6.864956230856478E-004;3.547160653397441E-003;
2.419000000000000E+009;1.545114517211914E-001;-8.153467625379562E-002;-6.050488445907831E-004;3.438458545133472E-003;
2.419166666666667E+009;1.542034149169922E-001;-8.233067393302918E-002;-3.555089933797717E-004;3.479475853964686E-003;
2.419333333333334E+009;1.539134830236435E-001;-8.282908052206039E-002;-1.944319374160841E-004;3.504830645397306E-003;
2.419500000000000E+009;1.536719948053360E-001;-8.362241834402084E-002;1.422977802576497E-004;3.314229426905513E-003;
2.419666666666667E+009;1.535022407770157E-001;-8.419696986675263E-002;2.168042410630733E-004;3.381378948688507E-003;
2.419833333333334E+009;1.531098335981369E-001;-8.469160646200180E-002;4.252939543221146E-004;3.367052413523197E-003;
2.420000000000000E+009;1.529804468154907E-001;-8.530656248331070E-002;4.347982467152178E-004;3.060827963054180E-003;
2.420166666666667E+009;1.526703685522080E-001;-8.586118370294571E-002;7.241225684992969E-004;2.947128843516111E-003;
2.420333333333334E+009;1.523952931165695E-001;-8.646564185619354E-002;8.369971765205264E-004;2.901084255427122E-003;
2.420500000000000E+009;1.521121710538864E-001;-8.689856529235840E-002;1.007439219392836E-003;2.581867855042219E-003;
2.420666666666667E+009;1.517210751771927E-001;-8.742181956768036E-002;9.154570288956165E-004;2.590985037386417E-003;
2.420833333333334E+009;1.513448804616928E-001;-8.813056349754334E-002;9.272294701077044E-004;2.341337502002716E-003;
2.421000000000000E+009;1.509566754102707E-001;-8.863481134176254E-002;8.591273799538612E-004;2.253060229122639E-003;
2.421166666666667E+009;1.506464630365372E-001;-8.932752162218094E-002;8.848395664244890E-004;2.152234548702836E-003;
2.421333333333334E+009;1.503115296363831E-001;-9.006165713071823E-002;8.683304185979068E-004;2.006994560360909E-003;
2.421500000000000E+009;1.497601717710495E-001;-9.044943004846573E-002;8.436658536083996E-004;2.013660501688719E-003;
2.421666666666667E+009;1.492574959993362E-001;-9.118548035621643E-002;8.424551924690604E-004;1.865772414021194E-003;
2.421833333333334E+009;1.487178355455399E-001;-9.177546948194504E-002;8.784844540059567E-004;2.018287079408765E-003;
2.422000000000000E+009;1.482089161872864E-001;-9.259653836488724E-002;6.772924680262804E-004;1.904538250528276E-003;
2.422166666666667E+009;1.475206613540649E-001;-9.323838353157044E-002;5.272242706269026E-004;1.957333181053400E-003;
2.422333333333334E+009;1.470837444067001E-001;-9.384679049253464E-002;6.172953872010112E-004;1.843421137891710E-003;
2.422500000000000E+009;1.462890505790710E-001;-9.445691853761673E-002;6.261242670007050E-004;1.983227906748653E-003;
2.422666666666667E+009;1.455590426921845E-001;-9.522160142660141E-002;6.096672732383013E-004;1.980320317670703E-003;
2.422833333333334E+009;1.450522541999817E-001;-9.623181819915772E-002;6.642999942414463E-004;1.963839866220951E-003;
2.423000000000000E+009;1.445487141609192E-001;-9.683174639940262E-002;5.749863921664655E-004;2.078925492241979E-003;
2.423166666666667E+009;1.438715308904648E-001;-9.761974960565567E-002;5.509291659109294E-004;2.068500733003020E-003;
2.423333333333334E+009;1.430897861719132E-001;-9.840487688779831E-002;8.290490950457752E-004;2.086066175252199E-003;
2.423500000000000E+009;1.423559039831162E-001;-9.927832335233688E-002;9.239102946594358E-004;2.150956075638533E-003;
2.423666666666667E+009;1.414847373962402E-001;-1.001734733581543E-001;9.202883811667562E-004;2.033290686085820E-003;
2.423833333333334E+009;1.411456167697907E-001;-1.011289507150650E-001;1.075269537977874E-003;2.251322381198406E-003;
2.424000000000000E+009;1.401450484991074E-001;-1.018625199794769E-001;1.016594236716628E-003;2.251805737614632E-003;
2.424166666666667E+009;1.392868459224701E-001;-1.028239801526070E-001;1.073443912900984E-003;2.231233287602663E-003;
2.424333333333334E+009;1.388620734214783E-001;-1.036765500903130E-001;1.190871698781848E-003;2.286561764776707E-003;
2.424500000000000E+009;1.382270455360413E-001;-1.047343462705612E-001;1.277022296562791E-003;2.110121073201299E-003;
2.424666666666667E+009;1.377380192279816E-001;-1.053398475050926E-001;1.486927038058639E-003;2.340706530958414E-003;
2.424833333333334E+009;1.368792206048966E-001;-1.064552292227745E-001;1.495074830017984E-003;2.144757192581892E-003;
2.425000000000000E+009;1.363451927900314E-001;-1.075373888015747E-001;1.682528876699507E-003;2.162678167223930E-003;
2.425166666666667E+009;1.355033367872238E-001;-1.085082441568375E-001;1.925369957461953E-003;2.129497239366174E-003;
2.425333333333334E+009;1.351528912782669E-001;-1.094474792480469E-001;1.841487479396164E-003;1.982945948839188E-003;
2.425500000000000E+009;1.346407383680344E-001;-1.103912442922592E-001;1.984301721677184E-003;1.940204063430429E-003;
2.425666666666667E+009;1.338698416948319E-001;-1.114409565925598E-001;2.181648509576917E-003;1.833495101891458E-003;
2.425833333333334E+009;1.334487050771713E-001;-1.124155670404434E-001;2.305860863998532E-003;1.676323823630810E-003;
2.426000000000000E+009;1.328648179769516E-001;-1.135232225060463E-001;2.294584177434444E-003;1.617477042600513E-003;
2.426166666666667E+009;1.324924081563950E-001;-1.145453900098801E-001;2.161707263439894E-003;1.512157847173512E-003;
2.426333333333334E+009;1.318345963954926E-001;-1.155612841248512E-001;2.359045203775168E-003;1.446856767870486E-003;
2.426500000000000E+009;1.314547359943390E-001;-1.164016351103783E-001;2.380052581429482E-003;1.211441238410771E-003;
2.426666666666667E+009;1.310358345508575E-001;-1.171897947788239E-001;2.431058557704091E-003;1.007000566460192E-003;
2.426833333333334E+009;1.305306255817413E-001;-1.182523220777512E-001;2.346566179767251E-003;1.053910120390356E-003;
2.427000000000000E+009;1.301384568214417E-001;-1.191623881459236E-001;2.354993717744947E-003;1.017128000967205E-003;
2.427166666666667E+009;1.297660619020462E-001;-1.197982802987099E-001;2.223971532657743E-003;9.046729537658393E-004;
2.427333333333334E+009;1.292977333068848E-001;-1.206764206290245E-001;2.117787720635533E-003;9.149597026407719E-004;
2.427500000000000E+009;1.291459202766419E-001;-1.215215101838112E-001;2.377473749220371E-003;6.421319558285177E-004;
2.427666666666667E+009;1.286715567111969E-001;-1.222893148660660E-001;2.243791474029422E-003;7.644002907909453E-004;
