# Version 1.00
#
freq[Hz];re:Trc1_S11;im:Trc1_S11;re:Trc2_S21;im:Trc2_S21;
2.400000000000000E+009;1.564466655254364E-001;6.016067788004875E-002;-3.420599503442645E-003;5.633194465190172E-003;
2.400166666666667E+009;1.566746234893799E-001;5.857660248875618E-002;-2.949349815025926E-003;5.852619186043739E-003;
2.400333333333334E+009;1.565974205732346E-001;5.629675835371018E-002;-2.996653318405151E-003;5.740100983530283E-003;
2.400500000000000E+009;1.570044457912445E-001;5.413453653454781E-002;-2.802265575155616E-003;5.887171719223261E-003;
2.400666666666667E+009;1.571276783943176E-001;5.208693444728851E-002;-2.652507508173585E-003;6.040831562131643E-003;
2.400833333333334E+009;1.574671566486359E-001;5.012228712439537E-002;-2.441342454403639E-003;6.048563402146101E-003;
2.401000000000000E+009;1.578405797481537E-001;4.811930656433106E-002;-2.396978437900543E-003;6.253833882510662E-003;
2.401166666666667E+009;1.583346724510193E-001;4.570918902754784E-002;-1.976149855181575E-003;6.311201956123114E-003;
2.401333333333334E+009;1.587812304496765E-001;4.376594722270966E-002;-1.792510855011642E-003;6.228315643966198E-003;
2.401500000000000E+009;1.595318466424942E-001;4.170351848006249E-002;-1.712472410872579E-003;6.424460560083389E-003;
2.401666666666667E+009;1.599324941635132E-001;3.989757224917412E-002;-1.414137426763773E-003;6.512732710689306E-003;
2.401833333333334E+009;1.605287641286850E-001;3.760651499032974E-002;-1.092207152396441E-003;6.544154137372971E-003;
2.402000000000000E+009;1.609881073236466E-001;3.592050820589066E-002;-9.800187544897199E-004;6.412096321582794E-003;
2.402166666666667E+009;1.617472320795059E-001;3.393256664276123E-002;-6.423693848773837E-004;6.664672866463661E-003;
2.402333333333334E+009;1.627390682697296E-001;3.212132677435875E-002;-5.476377555169165E-004;6.619994994252920E-003;
2.402500000000000E+009;1.637302935123444E-001;3.049474209547043E-002;-4.423939099069685E-004;6.430703680962324E-003;
2.402666666666667E+009;1.645277440547943E-001;2.885659597814083E-002;-6.754854985047132E-005;6.488972343504429E-003;
2.402833333333334E+009;1.652525216341019E-001;2.742881141602993E-002;2.128160122083500E-004;6.671481300145388E-003;
2.403000000000000E+009;1.661977171897888E-001;2.597030438482761E-002;3.138840256724507E-004;6.675656419247389E-003;
2.403166666666667E+009;1.670633852481842E-001;2.446428127586842E-002;5.673843552358449E-004;6.540320347994566E-003;
2.403333333333334E+009;1.681860536336899E-001;2.338274195790291E-002;8.311747224070132E-004;6.539465859532356E-003;
2.403500000000000E+009;1.689987629652023E-001;2.224556542932987E-002;1.029024715535343E-003;6.490237545222044E-003;
2.403666666666667E+009;1.701336055994034E-001;2.106594294309616E-002;1.443262561224401E-003;6.500272545963526E-003;
2.403833333333334E+009;1.711141467094421E-001;2.000161260366440E-002;1.686359639279544E-003;6.478191819041967E-003;
2.404000000000000E+009;1.719376593828201E-001;1.907073892652988E-002;1.838951720856130E-003;6.305125076323748E-003;
2.404166666666667E+009;1.728437542915344E-001;1.825742051005364E-002;2.171529922634363E-003;6.281613372266293E-003;
2.404333333333334E+009;1.736254692077637E-001;1.761614158749580E-002;2.396554220467806E-003;6.245289463549852E-003;
2.404500000000000E+009;1.744320988655090E-001;1.678340882062912E-002;2.771648112684488E-003;6.087655667215586E-003;
2.404666666666667E+009;1.752956956624985E-001;1.618644781410694E-002;2.926480025053024E-003;6.071735173463821E-003;
2.404833333333334E+009;1.760245114564896E-001;1.568613946437836E-002;3.083352232351899E-003;5.930706392973661E-003;
2.405000000000000E+009;1.767300963401794E-001;1.514595933258534E-002;3.342752112075687E-003;5.799310281872749E-003;
2.405166666666667E+009;1.771482974290848E-001;1.475754193961620E-002;3.615409601479769E-003;5.749545060098171E-003;
2.405333333333334E+009;1.779026091098785E-001;1.432833448052406E-002;3.865949343889952E-003;5.525656510144472E-003;
2.405500000000000E+009;1.782950013875961E-001;1.401212811470032E-002;3.980719950050116E-003;5.360826849937439E-003;
2.405666666666667E+009;1.787159442901611E-001;1.377355586737394E-002;4.210100974887610E-003;5.264331586658955E-003;
2.405833333333334E+009;1.789138019084930E-001;1.356771681457758E-002;4.357106983661652E-003;5.020543001592159E-003;
2.406000000000000E+009;1.794399321079254E-001;1.318054366856813E-002;4.573386162519455E-003;4.911943338811398E-003;
2.406166666666667E+009;1.793142557144165E-001;1.307661272585392E-002;4.802963230758905E-003;4.673390649259090E-003;
2.406333333333334E+009;1.796322166919708E-001;1.289643626660109E-002;4.738818854093552E-003;4.470572806894779E-003;
2.406500000000000E+009;1.795373111963272E-001;1.256190147250891E-002;5.092638079077005E-003;4.253777675330639E-003;
2.406666666666667E+009;1.794321388006210E-001;1.227445434778929E-002;5.264140199869871E-003;3.792363218963146E-003;
2.406833333333334E+009;1.793557554483414E-001;1.188813988119364E-002;5.389291793107987E-003;3.789337351918221E-003;
2.407000000000000E+009;1.792352646589279E-001;1.163096819072962E-002;5.565114784985781E-003;3.439525375142694E-003;
2.407166666666667E+009;1.790244579315186E-001;1.127511356025934E-002;5.675776395946741E-003;3.158156061545014E-003;
2.407333333333334E+009;1.785451322793961E-001;1.064368989318609E-002;5.794993601739407E-003;3.077356144785881E-003;
2.407500000000000E+009;1.781387776136398E-001;1.021154504269362E-002;5.756867583841085E-003;2.685410436242819E-003;
2.407666666666667E+009;1.778081655502319E-001;9.490864351391792E-003;5.869740154594183E-003;2.406413666903973E-003;
2.407833333333334E+009;1.770393103361130E-001;8.884745649993420E-003;5.961159709841013E-003;2.194821368902922E-003;
2.408000000000000E+009;1.764751374721527E-001;8.038915693759918E-003;5.929590202867985E-003;1.961521105840802E-003;
2.408166666666667E+009;1.759777665138245E-001;7.280245888978243E-003;5.937944166362286E-003;1.572758075781167E-003;
2.408333333333334E+009;1.754898279905319E-001;6.345812231302261E-003;6.072229240089655E-003;1.402550144121051E-003;
2.408500000000000E+009;1.746901124715805E-001;5.404670722782612E-003;6.079362239688635E-003;1.242438331246376E-003;
2.408666666666667E+009;1.740975379943848E-001;4.154469817876816E-003;6.029288750141859E-003;7.966505945660174E-004;
2.408833333333334E+009;1.732663661241531E-001;3.041214309632778E-003;5.925465375185013E-003;6.551275146193802E-004;
2.409000000000000E+009;1.725832372903824E-001;1.808303059078753E-003;5.809180438518524E-003;4.018288163933903E-004;
2.409166666666667E+009;1.718987673521042E-001;3.665059630293399E-004;5.833763163536787E-003;2.599945873953402E-004;
2.409333333333334E+009;1.715247184038162E-001;-1.146402326412499E-003;5.774936638772488E-003;2.438981755403802E-005;
2.409500000000000E+009;1.705805063247681E-001;-2.649480244144797E-003;5.782623309642077E-003;-4.362633917480707E-004;
2.409666666666667E+009;1.699601113796234E-001;-4.165884107351303E-003;5.792077630758286E-003;-4.957396304234862E-004;
2.409833333333334E+009;1.695190668106079E-001;-5.828439723700285E-003;5.617607850581408E-003;-5.979809793643653E-004;
2.410000000000000E+009;1.689397245645523E-001;-7.417436689138413E-003;5.590148735791445E-003;-7.971103768795729E-004;
2.410166666666667E+009;1.684860736131668E-001;-9.060926735401154E-003;5.286884028464556E-003;-9.340220130980015E-004;
2.410333333333334E+009;1.679265201091766E-001;-1.091035362333059E-002;5.086301825940609E-003;-1.166657893918455E-003;
2.410500000000000E+009;1.677883267402649E-001;-1.294881943613291E-002;5.111590493470430E-003;-1.301819109357894E-003;
2.410666666666667E+009;1.674368381500244E-001;-1.491298712790012E-002;4.939777776598930E-003;-1.577147864736617E-003;
2.410833333333334E+009;1.671653538942337E-001;-1.681741513311863E-002;5.007405299693346E-003;-1.513291383162141E-003;
2.411000000000000E+009;1.668746173381805E-001;-1.876637712121010E-002;4.740282893180847E-003;-1.778302714228630E-003;
2.411166666666667E+009;1.669836789369583E-001;-2.089685201644898E-002;4.494461230933666E-003;-1.784239662811160E-003;
2.411333333333334E+009;1.670167148113251E-001;-2.268500626087189E-002;4.601057618856430E-003;-2.066794782876968E-003;
2.411500000000000E+009;1.669874191284180E-001;-2.484812773764134E-002;4.265720956027508E-003;-2.229590434581041E-003;
2.411666666666667E+009;1.672357320785523E-001;-2.674926631152630E-002;4.101895261555910E-003;-2.366668311879039E-003;
2.411833333333334E+009;1.674244552850723E-001;-2.855543047189713E-002;3.883251221850514E-003;-2.548777731135488E-003;
2.412000000000000E+009;1.678132265806198E-001;-3.041763976216316E-002;3.876804374158382E-003;-2.555673010647297E-003;
2.412166666666667E+009;1.681615114212036E-001;-3.219370543956757E-002;3.835923504084349E-003;-2.667261520400643E-003;
2.412333333333334E+009;1.687933057546616E-001;-3.418940678238869E-002;3.553673857823014E-003;-2.730387961491942E-003;
2.412500000000000E+009;1.690875738859177E-001;-3.584914281964302E-002;3.416870953515172E-003;-2.805212046951056E-003;
2.412666666666667E+009;1.696608215570450E-001;-3.792865574359894E-002;3.239816753193736E-003;-2.935651224106550E-003;
2.412833333333334E+009;1.703370809555054E-001;-3.944290801882744E-002;3.152977908030152E-003;-2.972525078803301E-003;
2.413000000000000E+009;1.708096712827683E-001;-4.106467589735985E-002;3.062681062147021E-003;-3.136774990707636E-003;
2.413166666666667E+009;1.716314256191254E-001;-4.258824512362480E-002;2.907223301008344E-003;-3.246379084885120E-003;
2.413333333333334E+009;1.720790266990662E-001;-4.409622028470039E-002;2.821342786774039E-003;-3.140445332974196E-003;
2.413500000000000E+009;1.728007495403290E-001;-4.563413932919502E-002;2.766323508694768E-003;-3.220348153263331E-003;
2.413666666666667E+009;1.735958456993103E-001;-4.709910228848457E-002;2.508242381736636E-003;-3.180166007950902E-003;
2.413833333333334E+009;1.741940379142761E-001;-4.821945354342461E-002;2.251432277262211E-003;-3.205872839316726E-003;
2.414000000000000E+009;1.746783256530762E-001;-4.945568740367889E-002;2.276913961395621E-003;-3.318258328363299E-003;
2.414166666666667E+009;1.755930185317993E-001;-5.052620545029640E-002;2.076484961435199E-003;-3.340033581480384E-003;
2.414333333333334E+009;1.760855317115784E-001;-5.169927328824997E-002;1.927627366967499E-003;-3.371128113940358E-003;
2.414500000000000E+009;1.768971681594849E-001;-5.232964456081390E-002;1.732631004415453E-003;-3.406798699870706E-003;
2.414666666666667E+009;1.772927939891815E-001;-5.324542522430420E-002;1.866198144853115E-003;-3.480986692011356E-003;
2.414833333333334E+009;1.776775419712067E-001;-5.410956963896751E-002;1.450814772397280E-003;-3.452528035268188E-003;
2.415000000000000E+009;1.778788119554520E-001;-5.463751032948494E-002;1.437519444152713E-003;-3.413460450246930E-003;
2.415166666666667E+009;1.783303469419479E-001;-5.526488646864891E-002;1.172304968349636E-003;-3.457723651081324E-003;
2.415333333333334E+009;1.787194758653641E-001;-5.577814951539040E-002;1.192292664200068E-003;-3.489472204819322E-003;
2.415500000000000E+009;1.788637936115265E-001;-5.621302500367165E-002;1.031008898280561E-003;-3.349301638081670E-003;
2.415666666666667E+009;1.790622472763062E-001;-5.665251240134239E-002;8.278813911601901E-004;-3.504311665892601E-003;
2.415833333333334E+009;1.791625618934631E-001;-5.704402178525925E-002;8.538827532902360E-004;-3.444415051490068E-003;
2.416000000000000E+009;1.788879334926605E-001;-5.728561058640480E-002;7.749149808660150E-004;-3.541825804859400E-003;
2.416166666666667E+009;1.790527701377869E-001;-5.749576166272163E-002;4.063060332555324E-004;-3.454223042353988E-003;
2.416333333333334E+009;1.786678731441498E-001;-5.767491087317467E-002;4.560709348879755E-004;-3.319654846563935E-003;
2.416500000000000E+009;1.783955097198486E-001;-5.809586495161057E-002;1.912857405841351E-004;-3.167060902342200E-003;
2.416666666666667E+009;1.779372841119766E-001;-5.820069089531899E-002;7.871136040193960E-005;-3.228746121749282E-003;
2.416833333333334E+009;1.774619519710541E-001;-5.853121355175972E-002;1.102000678656623E-004;-3.144348040223122E-003;
2.417000000000000E+009;1.766332089900971E-001;-5.869113653898239E-002;-1.270147622562945E-004;-3.032483626157045E-003;
2.417166666666667E+009;1.760553568601608E-001;-5.892849341034889E-002;-3.463187749730423E-005;-3.101531881839037E-003;
2.417333333333334E+009;1.752845942974091E-001;-5.910655856132507E-002;-3.460842708591372E-004;-3.017508424818516E-003;
2.417500000000000E+009;1.743692606687546E-001;-5.957347527146339E-002;-3.101586189586669E-004;-2.991799265146256E-003;
2.417666666666667E+009;1.734858453273773E-001;-5.972789973020554E-002;-3.496155259199441E-004;-2.855580765753985E-003;
2.417833333333334E+009;1.725279837846756E-001;-6.013548001646996E-002;-4.054510500282049E-004;-2.853702055290341E-003;
2.418000000000000E+009;1.713902950286865E-001;-6.070997565984726E-002;-5.484046414494515E-004;-2.871646080166102E-003;
2.418166666666667E+009;1.702423244714737E-001;-6.102782115340233E-002;-5.790073773823679E-004;-2.685252111405134E-003;
2.418333333333334E+009;1.692882627248764E-001;-6.156237423419952E-002;-7.277880213223398E-004;-2.690106397494674E-003;
2.418500000000000E+009;1.679314225912094E-001;-6.208641082048416E-002;-7.708847988396883E-004;-2.607809146866202E-003;
2.418666666666667E+009;1.668339967727661E-001;-6.285455077886581E-002;-7.248998153954744E-004;-2.433486981317401E-003;
2.418833333333334E+009;1.654591560363770E-001;-6.366312503814697E-002;-7.662494317628443E-004;-2.348136622458696E-003;
2.419000000000000E+009;1.640084683895111E-001;-6.433968245983124E-002;-1.023218384943903E-003;-2.353558316826820E-003;
2.419166666666667E+009;1.628014296293259E-001;-6.526124477386475E-002;-1.004973892122507E-003;-2.249498851597309E-003;
2.419333333333334E+009;1.614131927490234E-001;-6.597598642110825E-002;-1.023801043629646E-003;-2.235573716461659E-003;
2.419500000000000E+009;1.601969003677368E-001;-6.744296848773956E-002;-1.057007233612239E-003;-2.188910031691194E-003;
2.419666666666667E+009;1.592020094394684E-001;-6.837631762027741E-002;-1.034600310958922E-003;-2.070241607725620E-003;
2.419833333333334E+009;1.579017490148544E-001;-6.952296942472458E-002;-1.268293592147529E-003;-1.970250857993960E-003;
2.420000000000000E+009;1.568416953086853E-001;-7.075935602188110E-002;-1.205228385515511E-003;-1.931418315507472E-003;
2.420166666666667E+009;1.557684838771820E-001;-7.221431285142899E-002;-1.253946102224290E-003;-1.812959439121187E-003;
2.420333333333334E+009;1.547523438930512E-001;-7.348674535751343E-002;-1.446145703084767E-003;-1.611118670552969E-003;
2.420500000000000E+009;1.537747383117676E-001;-7.485007494688034E-002;-1.258342759683728E-003;-1.668057637289167E-003;
2.420666666666667E+009;1.529992222785950E-001;-7.621655613183975E-002;-1.273649628274143E-003;-1.521166064776480E-003;
2.420833333333334E+009;1.522455364465714E-001;-7.788495719432831E-002;-1.256566843949258E-003;-1.487133791670203E-003;
2.421000000000000E+009;1.513587534427643E-001;-7.948993146419525E-002;-1.279899035580456E-003;-1.411465345881879E-003;
2.421166666666667E+009;1.508207470178604E-001;-8.111811429262161E-002;-1.273223548196256E-003;-1.364756724797189E-003;
2.421333333333334E+009;1.502571105957031E-001;-8.276300877332687E-002;-1.390801044180989E-003;-1.079361420124769E-003;
2.421500000000000E+009;1.499463021755219E-001;-8.440805226564407E-002;-1.293726032599807E-003;-1.075750100426376E-003;
2.421666666666667E+009;1.495315432548523E-001;-8.608621358871460E-002;-1.256876275874674E-003;-9.456732659600675E-004;
2.421833333333334E+009;1.492490470409393E-001;-8.783948421478272E-002;-1.265875180251896E-003;-1.055435859598219E-003;
2.422000000000000E+009;1.489438116550446E-001;-8.966594189405441E-002;-1.212665345519781E-003;-8.206062484532595E-004;
2.422166666666667E+009;1.490710377693176E-001;-9.147824347019196E-002;-1.016378286294639E-003;-6.894972175359726E-004;
2.422333333333334E+009;1.491033881902695E-001;-9.302680939435959E-002;-1.109594362787902E-003;-8.285621297545731E-004;
2.422500000000000E+009;1.491001546382904E-001;-9.456312656402588E-002;-1.070021302439272E-003;-7.345690974034369E-004;
2.422666666666667E+009;1.492355465888977E-001;-9.621661156415939E-002;-1.022822340019047E-003;-7.846013759262860E-004;
2.422833333333334E+009;1.495418101549149E-001;-9.771319478750229E-002;-1.075766165740788E-003;-7.419286994263530E-004;
2.423000000000000E+009;1.500392109155655E-001;-9.939526021480560E-002;-9.583596256561577E-004;-6.395537639036775E-004;
2.423166666666667E+009;1.503753215074539E-001;-1.008026152849197E-001;-8.550154743716121E-004;-5.981316207908094E-004;
2.423333333333334E+009;1.508279293775559E-001;-1.022825837135315E-001;-9.976266883313656E-004;-7.072161533869803E-004;
2.423500000000000E+009;1.512642502784729E-001;-1.037308350205421E-001;-8.961320272646844E-004;-5.625921185128391E-004;
2.423666666666667E+009;1.515242159366608E-001;-1.050563082098961E-001;-8.168100030161440E-004;-6.535357679240406E-004;
2.423833333333334E+009;1.522238105535507E-001;-1.063818186521530E-001;-8.774664020165801E-004;-5.617605638690293E-004;
2.424000000000000E+009;1.527269929647446E-001;-1.073869466781616E-001;-8.411140879616141E-004;-4.637021629605442E-004;
2.424166666666667E+009;1.531987339258194E-001;-1.085798442363739E-001;-7.527166162617505E-004;-3.634957247413695E-004;
2.424333333333334E+009;1.537806689739227E-001;-1.095017567276955E-001;-8.387166308239102E-004;-4.385559586808085E-004;
2.424500000000000E+009;1.543386429548264E-001;-1.106204912066460E-001;-7.098371861502528E-004;-3.502418985590339E-004;
2.424666666666667E+009;1.549233347177506E-001;-1.112846285104752E-001;-7.325852056965232E-004;-4.343882028479129E-004;
2.424833333333334E+009;1.553890854120255E-001;-1.121068596839905E-001;-6.931846146471798E-004;-4.332231183070689E-004;
2.425000000000000E+009;1.557891219854355E-001;-1.128010600805283E-001;-6.260564550757408E-004;-5.550859495997429E-004;
2.425166666666667E+009;1.561545431613922E-001;-1.133837029337883E-001;-6.678701029159129E-004;-3.683222748804838E-004;
2.425333333333334E+009;1.565204709768295E-001;-1.141309812664986E-001;-6.657409830950201E-004;-5.480986437760294E-004;
2.425500000000000E+009;1.568305641412735E-001;-1.146934479475021E-001;-7.333889370784164E-004;-3.639071073848754E-004;
2.425666666666667E+009;1.569710522890091E-001;-1.151387989521027E-001;-5.444386042654514E-004;-4.075120086781681E-004;
2.425833333333334E+009;1.571078002452850E-001;-1.154726892709732E-001;-5.154155660420656E-004;-4.181939002592117E-004;
2.426000000000000E+009;1.571588963270187E-001;-1.158551499247551E-001;-7.163187838159502E-004;-3.718326333910227E-004;
2.426166666666667E+009;1.573852896690369E-001;-1.161392480134964E-001;-5.289188120514154E-004;-3.725328424479812E-004;
2.426333333333334E+009;1.570657789707184E-001;-1.163177117705345E-001;-4.706667386926711E-004;-4.864117072429508E-004;
2.426500000000000E+009;1.569319367408752E-001;-1.164296045899391E-001;-3.096269210800529E-004;-4.402815247885883E-004;
2.426666666666667E+009;1.568306982517242E-001;-1.165046021342278E-001;-3.125909424852580E-004;-3.831891517620534E-004;
2.426833333333334E+009;1.562979519367218E-001;-1.167006343603134E-001;-4.611120384652168E-004;-3.974808496423066E-004;
2.427000000000000E+009;1.558494418859482E-001;-1.168316006660461E-001;-3.417233820073307E-004;-3.239235375076532E-004;
2.427166666666667E+009;1.552002578973770E-001;-1.168255135416985E-001;-5.073057836852968E-004;-3.002587764058262E-004;
2.427333333333334E+009;1.545788645744324E-001;-1.170167103409767E-001;-3.315919311717153E-004;-4.879192856606096E-004;
2.427500000000000E+009;1.538677960634232E-001;-1.170402914285660E-001;-3.277417272329330E-004;-4.525617114268243E-004;
2.427666666666667E+009;1.529324799776077E-001;-1.171488463878632E-001;-3.812717623077333E-004;-5.290065309964120E-004;
