# Version 1.00
#
freq[Hz];re:Trc1_S11;im:Trc1_S11;re:Trc2_S21;im:Trc2_S21;
2.400000000000000E+009;1.679448336362839E-001;4.065873473882675E-002;2.867561997845769E-003;2.241821784991771E-004;
2.400166666666667E+009;1.686622798442841E-001;4.008288308978081E-002;2.867294708266854E-003;3.459365107119083E-004;
2.400333333333334E+009;1.691942811012268E-001;3.898145258426666E-002;3.083120798692107E-003;2.294872538186610E-004;
2.400500000000000E+009;1.696741431951523E-001;3.815612941980362E-002;3.073861822485924E-003;1.593326014699414E-004;
2.400666666666667E+009;1.699070483446121E-001;3.732646256685257E-002;3.214210504665971E-003;7.118235225789249E-005;
2.400833333333334E+009;1.703504025936127E-001;3.651716932654381E-002;3.241246333345771E-003;7.662722782697529E-005;
2.401000000000000E+009;1.706837564706802E-001;3.564203158020973E-002;3.349755890667439E-003;-7.595697297801962E-006;
2.401166666666667E+009;1.708674132823944E-001;3.477790579199791E-002;3.560350975021720E-003;-2.632675168570131E-004;
2.401333333333334E+009;1.709698587656021E-001;3.409513458609581E-002;3.604526398703456E-003;-2.525477320887148E-004;
2.401500000000000E+009;1.714139878749847E-001;3.321975469589233E-002;3.757114522159100E-003;-5.487626767717302E-004;
2.401666666666667E+009;1.712101846933365E-001;3.233024105429649E-002;3.828444052487612E-003;-5.493957432918251E-004;
2.401833333333334E+009;1.715594381093979E-001;3.151463717222214E-002;3.775769146159291E-003;-7.471955032087863E-004;
2.402000000000000E+009;1.712594032287598E-001;3.061198256909847E-002;3.868849016726017E-003;-1.176352612674236E-003;
2.402166666666667E+009;1.715770214796066E-001;2.942485176026821E-002;3.854950191453099E-003;-1.084333518519998E-003;
2.402333333333334E+009;1.715278327465057E-001;2.881116233766079E-002;3.876555012539029E-003;-1.319715753197670E-003;
2.402500000000000E+009;1.715972721576691E-001;2.784996852278709E-002;3.861403791233897E-003;-1.488808309659362E-003;
2.402666666666667E+009;1.713330447673798E-001;2.680213749408722E-002;3.942221868783236E-003;-1.758068334311247E-003;
2.402833333333334E+009;1.712857037782669E-001;2.597760595381260E-002;3.867218969389796E-003;-2.088156528770924E-003;
2.403000000000000E+009;1.713785678148270E-001;2.495785057544708E-002;3.796319942921400E-003;-2.263015368953347E-003;
2.403166666666667E+009;1.712193787097931E-001;2.354658767580986E-002;3.749259514734149E-003;-2.360649872571230E-003;
2.403333333333334E+009;1.711194068193436E-001;2.261767163872719E-002;3.518120152875781E-003;-2.588508883491159E-003;
2.403500000000000E+009;1.710025668144226E-001;2.142577990889549E-002;3.513333853334189E-003;-2.656734781339765E-003;
2.403666666666667E+009;1.709498167037964E-001;2.026171423494816E-002;3.540113568305969E-003;-2.980694640427828E-003;
2.403833333333334E+009;1.706883013248444E-001;1.891582645475864E-002;3.388402285054326E-003;-3.150134813040495E-003;
2.404000000000000E+009;1.707482933998108E-001;1.769314892590046E-002;3.137143095955253E-003;-3.162441542372108E-003;
2.404166666666667E+009;1.705046147108078E-001;1.652438193559647E-002;2.781918039545417E-003;-3.520360682159662E-003;
2.404333333333334E+009;1.704308241605759E-001;1.513288542628288E-002;2.906310604885221E-003;-3.686761483550072E-003;
2.404500000000000E+009;1.701750159263611E-001;1.340777054429054E-002;2.707940060645342E-003;-3.863895544782281E-003;
2.404666666666667E+009;1.703531295061112E-001;1.232136506587267E-002;2.656999975442886E-003;-3.854352282360196E-003;
2.404833333333334E+009;1.700639724731445E-001;1.089280564337969E-002;2.293238183483481E-003;-3.958302084356546E-003;
2.405000000000000E+009;1.702493727207184E-001;9.321687743067741E-003;2.000866224989295E-003;-4.084749612957239E-003;
2.405166666666667E+009;1.701541692018509E-001;7.642475422471762E-003;1.932154758833349E-003;-4.329661373049021E-003;
2.405333333333334E+009;1.703021526336670E-001;5.997042637318373E-003;1.685267197899520E-003;-4.200863186269999E-003;
2.405500000000000E+009;1.700264066457748E-001;4.631246905773878E-003;1.418808358721435E-003;-4.360657185316086E-003;
2.405666666666667E+009;1.700541824102402E-001;3.095858497545123E-003;1.327991485595703E-003;-4.411592613905668E-003;
2.405833333333334E+009;1.700381338596344E-001;1.466995454393327E-003;1.151424483396113E-003;-4.428738728165627E-003;
2.406000000000000E+009;1.699819713830948E-001;-3.622289805207402E-004;9.248203714378178E-004;-4.413282964378595E-003;
2.406166666666667E+009;1.697734594345093E-001;-1.709493575617671E-003;6.666067638434470E-004;-4.467837046831846E-003;
2.406333333333334E+009;1.699004322290421E-001;-3.331325482577086E-003;4.399483150336891E-004;-4.472360014915466E-003;
2.406500000000000E+009;1.696334332227707E-001;-4.969222471117973E-003;2.937903336714953E-004;-4.378328099846840E-003;
2.406666666666667E+009;1.694221943616867E-001;-6.528335623443127E-003;1.398061285726726E-004;-4.383760504424572E-003;
2.406833333333334E+009;1.693564057350159E-001;-8.018540218472481E-003;-6.621412467211485E-005;-4.281301982700825E-003;
2.407000000000000E+009;1.692836284637451E-001;-9.565473534166813E-003;-3.308810992166400E-004;-4.127268213778734E-003;
2.407166666666667E+009;1.692402958869934E-001;-1.080427970737219E-002;-5.764298257417977E-004;-4.190645646303892E-003;
2.407333333333334E+009;1.689153909683228E-001;-1.240265835076571E-002;-7.314129616133869E-004;-4.028464201837778E-003;
2.407500000000000E+009;1.686947196722031E-001;-1.366643514484167E-002;-8.522053249180317E-004;-3.969821613281965E-003;
2.407666666666667E+009;1.686448603868485E-001;-1.486370060592890E-002;-1.138191903010011E-003;-3.739886451512575E-003;
2.407833333333334E+009;1.684423536062241E-001;-1.614588871598244E-002;-1.177219790406525E-003;-3.621031763032079E-003;
2.408000000000000E+009;1.683261096477509E-001;-1.721424050629139E-002;-1.391127821989358E-003;-3.380562178790569E-003;
2.408166666666667E+009;1.681561321020126E-001;-1.818909309804440E-002;-1.534928684122860E-003;-3.395559499040246E-003;
2.408333333333334E+009;1.683786660432816E-001;-1.916951872408390E-002;-1.648596837185323E-003;-3.226825967431068E-003;
2.408500000000000E+009;1.683752536773682E-001;-2.020549029111862E-002;-1.685924129560590E-003;-3.007737221196294E-003;
2.408666666666667E+009;1.683201938867569E-001;-2.109346911311150E-002;-1.738084712997079E-003;-2.921597566455603E-003;
2.408833333333334E+009;1.683460325002670E-001;-2.188954129815102E-002;-1.819502795115113E-003;-2.578477840870619E-003;
2.409000000000000E+009;1.685193926095963E-001;-2.280105091631413E-002;-1.793637406080961E-003;-2.561524044722319E-003;
2.409166666666667E+009;1.686307638883591E-001;-2.365264482796192E-002;-1.881758100353181E-003;-2.324711298570037E-003;
2.409333333333334E+009;1.688106209039688E-001;-2.463874965906143E-002;-1.972929807379842E-003;-2.419968368485570E-003;
2.409500000000000E+009;1.690279692411423E-001;-2.554627694189549E-002;-1.876264112070203E-003;-2.126169390976429E-003;
2.409666666666667E+009;1.689992547035217E-001;-2.630590274930000E-002;-1.851934823207557E-003;-2.053240314126015E-003;
2.409833333333334E+009;1.692429929971695E-001;-2.723936922848225E-002;-1.845217775553465E-003;-1.936772023327649E-003;
2.410000000000000E+009;1.693575233221054E-001;-2.810149639844894E-002;-1.880779047496617E-003;-1.782251172699034E-003;
2.410166666666667E+009;1.693662405014038E-001;-2.891164459288120E-002;-1.776649267412722E-003;-1.605867408216000E-003;
2.410333333333334E+009;1.693512648344040E-001;-2.980714663863182E-002;-1.683433423750103E-003;-1.489555230364204E-003;
2.410500000000000E+009;1.693017929792404E-001;-3.064540959894657E-002;-1.762241590768099E-003;-1.432797638699412E-003;
2.410666666666667E+009;1.692658364772797E-001;-3.167846053838730E-002;-1.574259833432734E-003;-1.484735985286534E-003;
2.410833333333334E+009;1.691172569990158E-001;-3.243969008326531E-002;-1.417199731804431E-003;-1.333522028289735E-003;
2.411000000000000E+009;1.690049469470978E-001;-3.330307081341744E-002;-1.412540208548307E-003;-1.199115416966379E-003;
2.411166666666667E+009;1.688214838504791E-001;-3.416969999670982E-002;-1.337077585048974E-003;-1.187835820019245E-003;
2.411333333333334E+009;1.686972975730896E-001;-3.512674570083618E-002;-1.365901785902679E-003;-1.205983688123524E-003;
2.411500000000000E+009;1.685309559106827E-001;-3.620102629065514E-002;-1.317213289439678E-003;-1.067249220795929E-003;
2.411666666666667E+009;1.684228330850601E-001;-3.683028742671013E-002;-9.941786993294954E-004;-1.143487752415240E-003;
2.411833333333334E+009;1.680916696786881E-001;-3.775715455412865E-002;-1.077348599210382E-003;-1.020977739244700E-003;
2.412000000000000E+009;1.679042428731918E-001;-3.865707293152809E-002;-1.092325663194060E-003;-1.217706711031497E-003;
2.412166666666667E+009;1.674106419086456E-001;-3.957240656018257E-002;-9.860289283096790E-004;-1.141785876825452E-003;
2.412333333333334E+009;1.672751903533936E-001;-4.046205431222916E-002;-1.012076972983778E-003;-1.269136322662234E-003;
2.412500000000000E+009;1.665904521942139E-001;-4.147760942578316E-002;-8.259446476586163E-004;-1.161003718152642E-003;
2.412666666666667E+009;1.664521545171738E-001;-4.255074635148048E-002;-7.058254559524357E-004;-1.335733337327838E-003;
2.412833333333334E+009;1.660744249820709E-001;-4.340081661939621E-002;-4.802590701729059E-004;-1.430970616638660E-003;
2.413000000000000E+009;1.656700968742371E-001;-4.441735893487930E-002;-5.961054703220725E-004;-1.509331632405520E-003;
2.413166666666667E+009;1.651710122823715E-001;-4.534274712204933E-002;-5.688477540388703E-004;-1.424806076101959E-003;
2.413333333333334E+009;1.646867841482163E-001;-4.633323103189468E-002;-8.106768364086747E-004;-1.681053312495351E-003;
2.413500000000000E+009;1.640537977218628E-001;-4.739979654550552E-002;-6.183366058394313E-004;-1.824431004934013E-003;
2.413666666666667E+009;1.637191921472549E-001;-4.845615476369858E-002;-8.487326558679342E-004;-2.013546414673328E-003;
2.413833333333334E+009;1.632512211799622E-001;-4.927010461688042E-002;-8.095491211861372E-004;-2.116315066814423E-003;
2.414000000000000E+009;1.626116633415222E-001;-5.045027658343315E-002;-8.992184884846211E-004;-2.275943290442228E-003;
2.414166666666667E+009;1.623946428298950E-001;-5.125173181295395E-002;-9.678502683527768E-004;-2.287670038640499E-003;
2.414333333333334E+009;1.620302200317383E-001;-5.232750251889229E-002;-1.137364306487143E-003;-2.463781507685781E-003;
2.414500000000000E+009;1.617566198110580E-001;-5.328718200325966E-002;-1.475817407481372E-003;-2.582720480859280E-003;
2.414666666666667E+009;1.614924818277359E-001;-5.419468507170677E-002;-1.613548491150141E-003;-2.630594652146101E-003;
2.414833333333334E+009;1.610339283943176E-001;-5.532141774892807E-002;-1.782471197657287E-003;-2.490542130544782E-003;
2.415000000000000E+009;1.609077453613281E-001;-5.623640492558479E-002;-2.105509396642447E-003;-2.439796691760421E-003;
2.415166666666667E+009;1.605520695447922E-001;-5.740369856357575E-002;-2.100851153954864E-003;-2.381125697866082E-003;
2.415333333333334E+009;1.605152934789658E-001;-5.848259106278420E-002;-2.302010776475072E-003;-2.281836699694395E-003;
2.415500000000000E+009;1.603982746601105E-001;-5.974423512816429E-002;-2.351644448935986E-003;-2.176889684051275E-003;
2.415666666666667E+009;1.602406650781632E-001;-6.086394935846329E-002;-2.554503269493580E-003;-2.032887656241655E-003;
2.415833333333334E+009;1.599974036216736E-001;-6.213555857539177E-002;-2.728199819102883E-003;-2.087189117446542E-003;
2.416000000000000E+009;1.596980243921280E-001;-6.343230605125427E-002;-2.746060956269503E-003;-1.898675691336393E-003;
2.416166666666667E+009;1.596943736076355E-001;-6.464546918869019E-002;-2.901564817875624E-003;-1.738002290949225E-003;
2.416333333333334E+009;1.593492478132248E-001;-6.574460119009018E-002;-2.955649513751268E-003;-1.723405090160668E-003;
2.416500000000000E+009;1.591152101755142E-001;-6.710185110569000E-002;-2.919840160757303E-003;-1.708555617369711E-003;
2.416666666666667E+009;1.587665379047394E-001;-6.815686821937561E-002;-3.045804565772414E-003;-1.590671832673252E-003;
2.416833333333334E+009;1.586261093616486E-001;-6.946642696857452E-002;-3.093163482844830E-003;-1.465864595957100E-003;
2.417000000000000E+009;1.580642908811569E-001;-7.063398510217667E-002;-3.169446485117078E-003;-1.308055245317519E-003;
2.417166666666667E+009;1.577928215265274E-001;-7.158589363098145E-002;-3.347436664626002E-003;-1.304672798141837E-003;
2.417333333333334E+009;1.575541347265244E-001;-7.255543023347855E-002;-3.246462671086192E-003;-9.971903637051582E-004;
2.417500000000000E+009;1.571461409330368E-001;-7.369258999824524E-002;-3.317260183393955E-003;-9.737662621773779E-004;
2.417666666666667E+009;1.568967252969742E-001;-7.451421767473221E-002;-3.515717340633273E-003;-9.205174283124507E-004;
2.417833333333334E+009;1.566003412008286E-001;-7.542543113231659E-002;-3.565092571079731E-003;-8.061146945692599E-004;
2.418000000000000E+009;1.563190221786499E-001;-7.643601298332214E-002;-3.570524975657463E-003;-6.689172587357462E-004;
2.418166666666667E+009;1.559392362833023E-001;-7.706608623266220E-002;-3.558984957635403E-003;-4.076530167367309E-004;
2.418333333333334E+009;1.560362726449966E-001;-7.792311906814575E-002;-3.586769336834550E-003;-3.323422861285508E-004;
2.418500000000000E+009;1.555685997009277E-001;-7.871121913194656E-002;-3.597958479076624E-003;-2.308431430719793E-004;
2.418666666666667E+009;1.552980244159699E-001;-7.949664443731308E-002;-3.567112609744072E-003;-8.669968565300223E-007;
2.418833333333334E+009;1.550431549549103E-001;-8.023913949728012E-002;-3.580369520932436E-003;8.087592141237110E-005;
2.419000000000000E+009;1.547271460294724E-001;-8.090131729841232E-002;-3.459438681602478E-003;8.610160875832662E-006;
2.419166666666667E+009;1.543573290109634E-001;-8.167894929647446E-002;-3.411503974348307E-003;3.229642461519688E-004;
2.419333333333334E+009;1.539354622364044E-001;-8.224719017744064E-002;-3.535476746037602E-003;3.173203149344772E-004;
2.419500000000000E+009;1.536400765180588E-001;-8.297609537839890E-002;-3.481984836980701E-003;5.370709695853293E-004;
2.419666666666667E+009;1.534440368413925E-001;-8.370772749185562E-002;-3.364025382325053E-003;7.029527914710343E-004;
2.419833333333334E+009;1.530178785324097E-001;-8.408809453248978E-002;-3.456712933257222E-003;7.798097212798894E-004;
2.420000000000000E+009;1.527252942323685E-001;-8.468931913375855E-002;-3.442701417952776E-003;8.655324927531183E-004;
2.420166666666667E+009;1.524509042501450E-001;-8.537413179874420E-002;-3.401002148166299E-003;7.778249564580619E-004;
2.420333333333334E+009;1.520689278841019E-001;-8.588311821222305E-002;-3.368556965142489E-003;7.774804253131151E-004;
2.420500000000000E+009;1.517150253057480E-001;-8.643846213817596E-002;-3.437499050050974E-003;1.088800607249141E-003;
2.420666666666667E+009;1.512848734855652E-001;-8.685824275016785E-002;-3.528986591845751E-003;1.256496179848909E-003;
2.420833333333334E+009;1.508736908435822E-001;-8.760149031877518E-002;-3.474590135738254E-003;1.314391614869237E-003;
2.421000000000000E+009;1.504406630992889E-001;-8.824093639850617E-002;-3.416907973587513E-003;1.334215397946537E-003;
2.421166666666667E+009;1.499865949153900E-001;-8.893118053674698E-002;-3.415868384763598E-003;1.642941264435649E-003;
2.421333333333334E+009;1.496776938438416E-001;-8.956986665725708E-002;-3.408511402085424E-003;1.654223306104541E-003;
2.421500000000000E+009;1.487986296415329E-001;-9.007740765810013E-002;-3.312275046482682E-003;1.737001352012157E-003;
2.421666666666667E+009;1.483533382415772E-001;-9.092074632644653E-002;-3.482870524749160E-003;1.874343957751989E-003;
2.421833333333334E+009;1.478466838598251E-001;-9.157061576843262E-002;-3.369574202224612E-003;2.033569850027561E-003;
2.422000000000000E+009;1.473519951105118E-001;-9.223265945911408E-002;-3.310979809612036E-003;2.248993841931224E-003;
2.422166666666667E+009;1.466408371925354E-001;-9.302122890949249E-002;-3.099984955042601E-003;2.421866636723280E-003;
2.422333333333334E+009;1.459776461124420E-001;-9.354455024003983E-002;-3.179213264957070E-003;2.516268985345960E-003;
2.422500000000000E+009;1.453992724418640E-001;-9.436891227960587E-002;-3.096104133874178E-003;2.811456331983209E-003;
2.422666666666667E+009;1.448277980089188E-001;-9.523862600326538E-002;-2.814875915646553E-003;2.835412276908755E-003;
2.422833333333334E+009;1.439282447099686E-001;-9.597364813089371E-002;-2.709287218749523E-003;2.965441904962063E-003;
2.423000000000000E+009;1.434952467679977E-001;-9.680508822202683E-002;-2.579701831564307E-003;3.107551252469420E-003;
2.423166666666667E+009;1.428798586130142E-001;-9.777785092592239E-002;-2.386900130659342E-003;3.306764177978039E-003;
2.423333333333334E+009;1.423592865467072E-001;-9.834089875221252E-002;-2.213223837316036E-003;3.294813213869929E-003;
2.423500000000000E+009;1.414170414209366E-001;-9.943123161792755E-002;-2.032222459092736E-003;3.541281446814537E-003;
2.423666666666667E+009;1.407439708709717E-001;-1.004097834229469E-001;-1.623516669496894E-003;3.556459676474333E-003;
2.423833333333334E+009;1.402078866958618E-001;-1.012930199503899E-001;-1.760593033395708E-003;3.420514753088355E-003;
2.424000000000000E+009;1.394936740398407E-001;-1.022241935133934E-001;-1.546279410831630E-003;3.535272786393762E-003;
2.424166666666667E+009;1.387752145528793E-001;-1.030829325318337E-001;-1.326211844570935E-003;3.511075163260102E-003;
2.424333333333334E+009;1.382396072149277E-001;-1.040261909365654E-001;-1.121536013670266E-003;3.285305108875036E-003;
2.424500000000000E+009;1.376066505908966E-001;-1.050011068582535E-001;-9.869311470538378E-004;3.328328486531973E-003;
2.424666666666667E+009;1.371403187513351E-001;-1.057313233613968E-001;-1.012012013234198E-003;3.337874310091138E-003;
2.424833333333334E+009;1.364073455333710E-001;-1.068183705210686E-001;-9.313580812886357E-004;3.377993125468493E-003;
2.425000000000000E+009;1.357825994491577E-001;-1.079009324312210E-001;-6.231687148101628E-004;3.227374749258161E-003;
2.425166666666667E+009;1.351178884506226E-001;-1.089206486940384E-001;-5.902941338717938E-004;3.319273935630918E-003;
2.425333333333334E+009;1.346970349550247E-001;-1.098228543996811E-001;-3.652229788713157E-004;3.286476247012615E-003;
2.425500000000000E+009;1.343151032924652E-001;-1.109407469630241E-001;-3.144856018479914E-004;3.218848258256912E-003;
2.425666666666667E+009;1.337462067604065E-001;-1.118521392345429E-001;-9.793420031201094E-005;3.276619827374816E-003;
2.425833333333334E+009;1.332959830760956E-001;-1.128121316432953E-001;4.295941107557155E-005;3.164846217259765E-003;
2.426000000000000E+009;1.328002363443375E-001;-1.139571592211723E-001;-1.472455187467858E-004;3.083948045969009E-003;
2.426166666666667E+009;1.325607001781464E-001;-1.148756891489029E-001;1.180193794425577E-004;3.065247321501374E-003;
2.426333333333334E+009;1.319138556718826E-001;-1.158286482095718E-001;1.917306799441576E-004;2.931616269052029E-003;
2.426500000000000E+009;1.316666156053543E-001;-1.166848391294479E-001;1.398424647049978E-004;2.967412350699306E-003;
2.426666666666667E+009;1.313735544681549E-001;-1.175848916172981E-001;2.600259031169117E-004;2.713683992624283E-003;
2.426833333333334E+009;1.309066414833069E-001;-1.184322461485863E-001;1.447491667931899E-004;2.716608578339219E-003;
2.427000000000000E+009;1.305286288261414E-001;-1.195046678185463E-001;2.875469508580864E-004;2.645755186676979E-003;
2.427166666666667E+009;1.301491260528565E-001;-1.200206279754639E-001;2.232113911304623E-004;2.751911757513881E-003;
2.427333333333334E+009;1.297145932912827E-001;-1.208596900105476E-001;3.888772625941783E-004;2.651266288012266E-003;
2.427500000000000E+009;1.296583861112595E-001;-1.215755566954613E-001;3.687733842525631E-004;2.503301016986370E-003;
2.427666666666667E+009;1.292156279087067E-001;-1.224937289953232E-001;3.060961025767028E-004;2.596157835796475E-003;
