# Version 1.00
#
freq[Hz];re:Trc1_S11;im:Trc1_S11;re:Trc2_S21;im:Trc2_S21;
2.400000000000000E+009;1.573143750429153E-001;6.296824663877487E-002;1.310470630414784E-003;-6.777276284992695E-004;
2.400166666666667E+009;1.573257297277451E-001;6.127617880702019E-002;1.276790979318321E-003;-7.480958593077958E-004;
2.400333333333334E+009;1.571483612060547E-001;5.940879508852959E-002;1.377568813040853E-003;-5.876267678104341E-004;
2.400500000000000E+009;1.571993380784988E-001;5.733879655599594E-002;1.271595247089863E-003;-8.032345795072615E-004;
2.400666666666667E+009;1.571985632181168E-001;5.531287193298340E-002;1.456204219721258E-003;-8.389396825805306E-004;
2.400833333333334E+009;1.572854816913605E-001;5.349037796258926E-002;1.227908302098513E-003;-8.204028708860278E-004;
2.401000000000000E+009;1.572424769401550E-001;5.133894830942154E-002;1.258798874914646E-003;-1.097958418540657E-003;
2.401166666666667E+009;1.576691269874573E-001;4.908228665590286E-002;1.335454289801419E-003;-1.013199565932155E-003;
2.401333333333334E+009;1.576638519763947E-001;4.698805138468742E-002;1.409935764968395E-003;-1.247402746230364E-003;
2.401500000000000E+009;1.580274105072022E-001;4.497584328055382E-002;1.451405463740230E-003;-1.306594582274556E-003;
2.401666666666667E+009;1.583510935306549E-001;4.291220009326935E-002;1.250961329787970E-003;-1.364071504212916E-003;
2.401833333333334E+009;1.589018404483795E-001;4.063631594181061E-002;1.343813026323915E-003;-1.170190516859293E-003;
2.402000000000000E+009;1.592178493738174E-001;3.870140016078949E-002;1.295768772251904E-003;-1.516498159617186E-003;
2.402166666666667E+009;1.600153297185898E-001;3.679630905389786E-002;1.477017067372799E-003;-1.495897304266691E-003;
2.402333333333334E+009;1.603116244077683E-001;3.487711772322655E-002;1.304509933106601E-003;-1.633076462894678E-003;
2.402500000000000E+009;1.612880676984787E-001;3.303644433617592E-002;1.174232107587159E-003;-1.690318691544235E-003;
2.402666666666667E+009;1.619210243225098E-001;3.138637542724609E-002;1.344510237686336E-003;-1.776313874870539E-003;
2.402833333333334E+009;1.627079844474793E-001;2.943373657763004E-002;1.233631046488881E-003;-1.694901613518596E-003;
2.403000000000000E+009;1.633851677179337E-001;2.789351530373097E-002;1.189355971291661E-003;-1.988131320104003E-003;
2.403166666666667E+009;1.645621061325073E-001;2.623529359698296E-002;1.195423654280603E-003;-1.762209227308631E-003;
2.403333333333334E+009;1.654396355152130E-001;2.485278435051441E-002;1.063840463757515E-003;-2.172729233279824E-003;
2.403500000000000E+009;1.663211733102799E-001;2.339239604771137E-002;1.261517172679305E-003;-2.138591837137938E-003;
2.403666666666667E+009;1.672228276729584E-001;2.205938845872879E-002;9.975351858884096E-004;-2.194692380726337E-003;
2.403833333333334E+009;1.683038026094437E-001;2.097411267459393E-002;1.039492315612733E-003;-2.279822248965502E-003;
2.404000000000000E+009;1.693222075700760E-001;1.970466226339340E-002;9.077446884475648E-004;-2.472953870892525E-003;
2.404166666666667E+009;1.704145520925522E-001;1.846687309443951E-002;7.258522091433406E-004;-2.415246097370982E-003;
2.404333333333334E+009;1.713666915893555E-001;1.767013594508171E-002;8.381243678741157E-004;-2.599628176540136E-003;
2.404500000000000E+009;1.723719686269760E-001;1.652997545897961E-002;6.097194855101407E-004;-2.714173169806600E-003;
2.404666666666667E+009;1.731353104114533E-001;1.579179801046848E-002;5.174155230633915E-004;-2.775574801489711E-003;
2.404833333333334E+009;1.742592453956604E-001;1.520720683038235E-002;5.523854633793235E-004;-2.874248428270221E-003;
2.405000000000000E+009;1.750391274690628E-001;1.449624542146921E-002;4.146978026255965E-004;-2.903867978602648E-003;
2.405166666666667E+009;1.760216206312180E-001;1.396107673645020E-002;4.291090008337051E-004;-2.883735112845898E-003;
2.405333333333334E+009;1.767774820327759E-001;1.337389927357435E-002;1.039344497257844E-004;-3.092054044827819E-003;
2.405500000000000E+009;1.774236261844635E-001;1.289633940905333E-002;9.877460252027959E-005;-3.130851313471794E-003;
2.405666666666667E+009;1.782342046499252E-001;1.263069733977318E-002;-1.650531630730256E-004;-3.073833417147398E-003;
2.405833333333334E+009;1.785056889057159E-001;1.242071483284235E-002;-8.506943413522095E-005;-3.397939261049032E-003;
2.406000000000000E+009;1.793750673532486E-001;1.170272659510374E-002;-2.634869015309960E-004;-3.400418907403946E-003;
2.406166666666667E+009;1.796496957540512E-001;1.156582217663527E-002;-5.061508272774518E-004;-3.585223807021976E-003;
2.406333333333334E+009;1.802002787590027E-001;1.138352975249291E-002;-6.760625983588398E-004;-3.406583797186613E-003;
2.406500000000000E+009;1.803193092346191E-001;1.107447501271963E-002;-9.263201500289142E-004;-3.494185861200094E-003;
2.406666666666667E+009;1.804913431406021E-001;1.077592466026545E-002;-9.651777218095958E-004;-3.361386246979237E-003;
2.406833333333334E+009;1.806812882423401E-001;1.045855786651373E-002;-1.157713122665882E-003;-3.423578804358840E-003;
2.407000000000000E+009;1.807427555322647E-001;1.018320955336094E-002;-1.168378163129091E-003;-3.428829601034522E-003;
2.407166666666667E+009;1.807986497879028E-001;9.932304732501507E-003;-1.592686632648110E-003;-3.456303384155035E-003;
2.407333333333334E+009;1.806194186210632E-001;9.448565542697907E-003;-1.775691867806017E-003;-3.371901344507933E-003;
2.407500000000000E+009;1.804427504539490E-001;9.188053198158741E-003;-1.895518624223769E-003;-3.301571821793914E-003;
2.407666666666667E+009;1.802596300840378E-001;8.762557059526444E-003;-1.939746551215649E-003;-3.323888406157494E-003;
2.407833333333334E+009;1.797983050346375E-001;8.074278011918068E-003;-2.073626033961773E-003;-3.185808192938566E-003;
2.408000000000000E+009;1.793286800384522E-001;7.547150831669569E-003;-2.303053159266710E-003;-3.062111092731357E-003;
2.408166666666667E+009;1.789347529411316E-001;6.925208494067192E-003;-2.565395785495639E-003;-3.103090450167656E-003;
2.408333333333334E+009;1.785532087087631E-001;6.203062366694212E-003;-2.731527667492628E-003;-3.035858040675521E-003;
2.408500000000000E+009;1.779700368642807E-001;5.358242895454168E-003;-2.839879365637898E-003;-2.836650470271707E-003;
2.408666666666667E+009;1.773223429918289E-001;4.463870543986559E-003;-2.930069342255592E-003;-2.829090226441622E-003;
2.408833333333334E+009;1.766536086797714E-001;3.450745251029730E-003;-2.987842075526714E-003;-2.621707273647189E-003;
2.409000000000000E+009;1.758582144975662E-001;2.451938576996326E-003;-3.133843885734677E-003;-2.314743818715215E-003;
2.409166666666667E+009;1.752073168754578E-001;1.344096614047885E-003;-3.153014462441206E-003;-2.526644617319107E-003;
2.409333333333334E+009;1.745961308479309E-001;-4.225434531690553E-005;-3.261416452005506E-003;-2.326846588402987E-003;
2.409500000000000E+009;1.738921701908112E-001;-1.669759862124920E-003;-3.381074173375964E-003;-2.152619417756796E-003;
2.409666666666667E+009;1.730092614889145E-001;-2.869641641154885E-003;-3.491289447993040E-003;-2.205867087468505E-003;
2.409833333333334E+009;1.722310483455658E-001;-4.082794766873121E-003;-3.531927475705743E-003;-2.057773293927312E-003;
2.410000000000000E+009;1.717175394296646E-001;-5.749791394919157E-003;-3.738531609997153E-003;-1.844754791818559E-003;
2.410166666666667E+009;1.711139529943466E-001;-7.361671887338162E-003;-3.643735311925411E-003;-1.793503994122148E-003;
2.410333333333334E+009;1.704246997833252E-001;-9.115552529692650E-003;-3.843265818431974E-003;-1.550024957396090E-003;
2.410500000000000E+009;1.699267327785492E-001;-1.073359511792660E-002;-3.929190337657929E-003;-1.509935245849192E-003;
2.410666666666667E+009;1.693226248025894E-001;-1.281150151044130E-002;-4.038162063807249E-003;-1.414307393133640E-003;
2.410833333333334E+009;1.689842045307159E-001;-1.437529083341360E-002;-3.976287785917521E-003;-1.235164352692664E-003;
2.411000000000000E+009;1.685350537300110E-001;-1.620278507471085E-002;-4.177748225629330E-003;-1.195432501845062E-003;
2.411166666666667E+009;1.683014631271362E-001;-1.838056929409504E-002;-4.221632145345211E-003;-1.044017495587468E-003;
2.411333333333334E+009;1.678717434406281E-001;-2.026824094355106E-002;-4.356190096586943E-003;-9.566772496327758E-004;
2.411500000000000E+009;1.678417026996613E-001;-2.242428436875343E-002;-4.384521860629320E-003;-7.011896814219654E-004;
2.411666666666667E+009;1.677905619144440E-001;-2.432931587100029E-002;-4.317399114370346E-003;-6.494267727248371E-004;
2.411833333333334E+009;1.676722317934036E-001;-2.601789869368076E-002;-4.385889507830143E-003;-5.068541504442692E-004;
2.412000000000000E+009;1.678793877363205E-001;-2.818874455988407E-002;-4.491258878260851E-003;-1.912827719934285E-004;
2.412166666666667E+009;1.677895635366440E-001;-3.012597002089024E-002;-4.765078891068697E-003;-1.422592613380402E-004;
2.412333333333334E+009;1.682413220405579E-001;-3.204403072595596E-002;-4.615952260792255E-003;1.974427286768332E-004;
2.412500000000000E+009;1.683396846055985E-001;-3.398193418979645E-002;-4.713592119514942E-003;3.186518442817032E-004;
2.412666666666667E+009;1.688758432865143E-001;-3.609205782413483E-002;-4.727263469249010E-003;5.889303865842521E-004;
2.412833333333334E+009;1.691439896821976E-001;-3.770105540752411E-002;-4.821929149329662E-003;6.638496415689588E-004;
2.413000000000000E+009;1.694887429475784E-001;-3.957107290625572E-002;-4.768029786646366E-003;1.015806803479791E-003;
2.413166666666667E+009;1.700654774904251E-001;-4.129942879080772E-002;-4.904199857264757E-003;1.174735836684704E-003;
2.413333333333334E+009;1.705812811851502E-001;-4.293888062238693E-002;-4.890123382210732E-003;1.365400617942214E-003;
2.413500000000000E+009;1.711547523736954E-001;-4.467623308300972E-002;-4.766067489981651E-003;1.656606676988304E-003;
2.413666666666667E+009;1.716569513082504E-001;-4.624207317829132E-002;-4.754501394927502E-003;1.950689009390771E-003;
2.413833333333334E+009;1.722641289234161E-001;-4.759076982736588E-002;-4.553874954581261E-003;2.162251621484757E-003;
2.414000000000000E+009;1.727091372013092E-001;-4.909405857324600E-002;-4.556647036224604E-003;2.434046706184745E-003;
2.414166666666667E+009;1.735061854124069E-001;-5.012330412864685E-002;-4.389898851513863E-003;2.625172259286046E-003;
2.414333333333334E+009;1.741010099649429E-001;-5.159877240657806E-002;-4.509189166128635E-003;2.733857836574316E-003;
2.414500000000000E+009;1.747789233922958E-001;-5.251661315560341E-002;-4.039329010993242E-003;3.011583117768168E-003;
2.414666666666667E+009;1.752361804246903E-001;-5.361370369791985E-002;-3.936617635190487E-003;3.376852720975876E-003;
2.414833333333334E+009;1.757031083106995E-001;-5.456795543432236E-002;-3.858446609228849E-003;3.433345118537545E-003;
2.415000000000000E+009;1.762124747037888E-001;-5.539135262370110E-002;-3.846862586215138E-003;3.585407277569175E-003;
2.415166666666667E+009;1.767583936452866E-001;-5.627031996846199E-002;-3.581754630431533E-003;3.718989668413997E-003;
2.415333333333334E+009;1.771886199712753E-001;-5.704576894640923E-002;-3.367009572684765E-003;3.838212694972754E-003;
2.415500000000000E+009;1.775970607995987E-001;-5.755798891186714E-002;-3.148084040731192E-003;4.130171146243811E-003;
2.415666666666667E+009;1.778069436550140E-001;-5.802183225750923E-002;-3.022802993655205E-003;4.110167268663645E-003;
2.415833333333334E+009;1.780597865581513E-001;-5.840081349015236E-002;-2.818303415551782E-003;4.190839361399412E-003;
2.416000000000000E+009;1.781357526779175E-001;-5.891504511237145E-002;-2.691549947485328E-003;4.317912273108959E-003;
2.416166666666667E+009;1.783325672149658E-001;-5.928374081850052E-002;-2.542671980336309E-003;4.339049104601145E-003;
2.416333333333334E+009;1.782719641923904E-001;-5.945124477148056E-002;-2.363744191825390E-003;4.531351383775473E-003;
2.416500000000000E+009;1.781068146228790E-001;-5.973547324538231E-002;-2.287919167429209E-003;4.586970433592796E-003;
2.416666666666667E+009;1.778619438409805E-001;-5.995302274823189E-002;-2.128016669303179E-003;4.680464509874582E-003;
2.416833333333334E+009;1.777361482381821E-001;-6.037232652306557E-002;-1.836634008213878E-003;4.712580237537623E-003;
2.417000000000000E+009;1.771407872438431E-001;-6.057431548833847E-002;-1.565769547596574E-003;4.647062160074711E-003;
2.417166666666667E+009;1.767807304859161E-001;-6.057516112923622E-002;-1.317641232162714E-003;4.849616438150406E-003;
2.417333333333334E+009;1.762889474630356E-001;-6.073459982872009E-002;-1.213099807500839E-003;4.715909715741873E-003;
2.417500000000000E+009;1.754980236291885E-001;-6.117077171802521E-002;-8.593651000410318E-004;5.038103088736534E-003;
2.417666666666667E+009;1.749284416437149E-001;-6.115727871656418E-002;-9.184402297250927E-004;5.010620225220919E-003;
2.417833333333334E+009;1.741115301847458E-001;-6.146946176886559E-002;-6.976184668019414E-004;5.030544474720955E-003;
2.418000000000000E+009;1.731361299753189E-001;-6.182364374399185E-002;-5.779895000159740E-004;4.952922929078341E-003;
2.418166666666667E+009;1.721256822347641E-001;-6.204906851053238E-002;-3.073488478548825E-004;4.974327981472015E-003;
2.418333333333334E+009;1.714028418064117E-001;-6.244833394885063E-002;-1.063349773176014E-004;5.028148647397757E-003;
2.418500000000000E+009;1.702148169279099E-001;-6.280856579542160E-002;2.606805355753750E-005;5.022696685045958E-003;
2.418666666666667E+009;1.691182255744934E-001;-6.329444795846939E-002;2.858372754417360E-004;4.821097943931818E-003;
2.418833333333334E+009;1.678452491760254E-001;-6.397220492362976E-002;3.435001126490533E-004;4.888640251010656E-003;
2.419000000000000E+009;1.665275990962982E-001;-6.459092348814011E-002;6.024222820997238E-004;4.918148741126061E-003;
2.419166666666667E+009;1.654569655656815E-001;-6.530949473381043E-002;7.086102268658578E-004;4.934012424200773E-003;
2.419333333333334E+009;1.639774739742279E-001;-6.589721888303757E-002;8.579599088989198E-004;4.830156918615103E-003;
2.419500000000000E+009;1.628965884447098E-001;-6.691429764032364E-002;1.028342638164759E-003;4.981377627700567E-003;
2.419666666666667E+009;1.617264300584793E-001;-6.768485158681870E-002;1.388744218274951E-003;4.911399446427822E-003;
2.419833333333334E+009;1.604183316230774E-001;-6.859066337347031E-002;1.476104022003710E-003;4.832325968891382E-003;
2.420000000000000E+009;1.593680977821350E-001;-6.984835863113403E-002;1.639561611227691E-003;4.742976278066635E-003;
2.420166666666667E+009;1.582257002592087E-001;-7.083868980407715E-002;1.820878242142499E-003;4.789553117007017E-003;
2.420333333333334E+009;1.570247560739517E-001;-7.208065688610077E-002;1.851909095421433E-003;4.682940430939198E-003;
2.420500000000000E+009;1.561280339956284E-001;-7.336486130952835E-002;2.173088956624270E-003;4.410356283187866E-003;
2.420666666666667E+009;1.551300436258316E-001;-7.461349666118622E-002;2.218299079686403E-003;4.471821710467339E-003;
2.420833333333334E+009;1.542076617479324E-001;-7.602738589048386E-002;2.526366850361228E-003;4.333813209086657E-003;
2.421000000000000E+009;1.531246155500412E-001;-7.783912122249603E-002;2.516285283491015E-003;4.236445296555758E-003;
2.421166666666667E+009;1.525630950927734E-001;-7.916962355375290E-002;2.736039692535996E-003;4.062091931700707E-003;
2.421333333333334E+009;1.518127173185349E-001;-8.072544634342194E-002;2.907948102802038E-003;4.073645453900099E-003;
2.421500000000000E+009;1.511583328247070E-001;-8.229099214076996E-002;3.024600213393569E-003;4.039826337248087E-003;
2.421666666666667E+009;1.507061868906021E-001;-8.396282047033310E-002;3.231860930100083E-003;3.872476285323501E-003;
2.421833333333334E+009;1.502527743577957E-001;-8.566817641258240E-002;3.271856810897589E-003;3.684297436848283E-003;
2.422000000000000E+009;1.500460505485535E-001;-8.737795054912567E-002;3.522685961797833E-003;3.610753919929266E-003;
2.422166666666667E+009;1.497162133455277E-001;-8.919900655746460E-002;3.563753096386790E-003;3.371806349605322E-003;
2.422333333333334E+009;1.493909657001495E-001;-9.081744402647018E-002;3.675656858831644E-003;3.241675905883312E-003;
2.422500000000000E+009;1.493708938360214E-001;-9.245862811803818E-002;3.757150843739510E-003;3.241366008296609E-003;
2.422666666666667E+009;1.492130309343338E-001;-9.431839734315872E-002;3.884747391566634E-003;2.926137298345566E-003;
2.422833333333334E+009;1.493670642375946E-001;-9.616278111934662E-002;4.003557376563549E-003;2.923150314018130E-003;
2.423000000000000E+009;1.495045125484467E-001;-9.765288233757019E-002;4.079435020685196E-003;2.712124260142446E-003;
2.423166666666667E+009;1.497256457805634E-001;-9.933619201183319E-002;4.048618022352457E-003;2.530047670006752E-003;
2.423333333333334E+009;1.500498503446579E-001;-1.008697897195816E-001;4.388737492263317E-003;2.482310868799686E-003;
2.423500000000000E+009;1.502456963062286E-001;-1.023629829287529E-001;4.336929414421320E-003;2.311805495992303E-003;
2.423666666666667E+009;1.505689471960068E-001;-1.040558740496635E-001;4.461288917809725E-003;2.149009611457586E-003;
2.423833333333334E+009;1.510398089885712E-001;-1.055286154150963E-001;4.493837244808674E-003;1.889384468086064E-003;
2.424000000000000E+009;1.514792591333389E-001;-1.066900938749313E-001;4.747803322970867E-003;1.934936270117760E-003;
2.424166666666667E+009;1.519480049610138E-001;-1.078438833355904E-001;4.655317403376102E-003;1.692888909019530E-003;
2.424333333333334E+009;1.525094360113144E-001;-1.091375350952148E-001;4.772732965648174E-003;1.337572815828025E-003;
2.424500000000000E+009;1.530444771051407E-001;-1.103289946913719E-001;4.822473041713238E-003;1.287612016312778E-003;
2.424666666666667E+009;1.536746025085449E-001;-1.112531647086144E-001;4.961063619703054E-003;9.183250367641449E-004;
2.424833333333334E+009;1.540614068508148E-001;-1.121705174446106E-001;4.880048334598541E-003;8.245626231655479E-004;
2.425000000000000E+009;1.544141620397568E-001;-1.131227388978005E-001;4.882138222455978E-003;5.572985974140465E-004;
2.425166666666667E+009;1.548381298780441E-001;-1.139789298176765E-001;5.024964921176434E-003;4.000111366622150E-004;
2.425333333333334E+009;1.553291231393814E-001;-1.146422028541565E-001;5.058887880295515E-003;2.167677448596805E-004;
2.425500000000000E+009;1.556961983442307E-001;-1.153425276279450E-001;4.989033099263907E-003;5.310838605510071E-005;
2.425666666666667E+009;1.558892279863358E-001;-1.159711331129074E-001;5.050987936556339E-003;-1.159143284894526E-004;
2.425833333333334E+009;1.561207175254822E-001;-1.162632927298546E-001;5.015398375689983E-003;-4.282672889530659E-004;
2.426000000000000E+009;1.563928425312042E-001;-1.169230639934540E-001;4.990220535546541E-003;-7.439768523909152E-004;
2.426166666666667E+009;1.567328423261643E-001;-1.171468719840050E-001;4.830728285014629E-003;-8.959805127233267E-004;
2.426333333333334E+009;1.567687988281250E-001;-1.174631342291832E-001;4.900395870208740E-003;-1.103640068322420E-003;
2.426500000000000E+009;1.567255258560181E-001;-1.176982298493385E-001;4.584233742207289E-003;-1.113007892854512E-003;
2.426666666666667E+009;1.566493511199951E-001;-1.178177222609520E-001;4.637815058231354E-003;-1.297645969316363E-003;
2.426833333333334E+009;1.564859896898270E-001;-1.179627403616905E-001;4.457175731658936E-003;-1.548522617667913E-003;
2.427000000000000E+009;1.561148166656494E-001;-1.181850284337997E-001;4.477331414818764E-003;-1.875608577392995E-003;
2.427166666666667E+009;1.558963507413864E-001;-1.181585714221001E-001;4.273899830877781E-003;-1.942507340572774E-003;
2.427333333333334E+009;1.553036719560623E-001;-1.182353049516678E-001;4.308446776121855E-003;-2.016808139160276E-003;
2.427500000000000E+009;1.549000889062882E-001;-1.183122172951698E-001;4.029217641800642E-003;-2.212274353951216E-003;
2.427666666666667E+009;1.541944742202759E-001;-1.185660213232040E-001;3.986536059528589E-003;-2.313794801011682E-003;
