# Hz S RI R 
2400000000.0000000000 0.171152278780937194824218750000 0.040214933454990386962890625000 0.002670344896614551977870322119 0.000043821535655297338962554932 0 0 0 0 
2400166666.6666665077 0.171810060739517211914062500000 0.039638716727495186542551408593 0.002644418273121118979213095557 -0.000045114600652595981955528259 0 0 0 0 
2400333333.3333334923 0.172205880284309387207031250000 0.039124950766563422466237653907 0.002612936077639460997340536963 0.000012333036465861370618445243 0 0 0 0 
2400500000.0000000000 0.172811940312385586837606865629 0.038496378809213638305664062500 0.002654641633853315873387002100 -0.000113255802716594202957968440 0 0 0 0 
2400666666.6666665077 0.172945752739906311035156250000 0.037775404751300811767578125000 0.002677800366654992103576660156 -0.000343839376000687479972839355 0 0 0 0 
2400833333.3333334923 0.173355579376220703125000000000 0.037285897880792617797851562500 0.002679799683392047882080078125 -0.000359292200300842523574829102 0 0 0 0 
2401000000.0000000000 0.173538073897361810882244981258 0.036699578166008002544362653907 0.002627040492370725111720419775 -0.000361907063052058219909667969 0 0 0 0 
2401166666.6666665077 0.173631370067596407791299384371 0.035854332149028778076171875000 0.002680015284568070931675576318 -0.000521368754561990499496459961 0 0 0 0 
2401333333.3333334923 0.173632383346557589431924384371 0.035128459334373467182199846093 0.002668615663424133820774697412 -0.000785090378485620021820068359 0 0 0 0 
2401500000.0000000000 0.173823267221450805664062500000 0.034391179680824279785156250000 0.002610747003927826881408691406 -0.000844020280055701732635498047 0 0 0 0 
2401666666.6666665077 0.173609972000122098068075615629 0.034049231559038162231445312500 0.002433692803606390953063964844 -0.000984757905825972557067871094 0 0 0 0 
2401833333.3333334923 0.173316657543182400802450615629 0.033228907734155661846120466407 0.002381745958700776100158691406 -0.001209067995660006999969482422 0 0 0 0 
2402000000.0000000000 0.173155605792999295333700615629 0.032396912574768073345143903907 0.002366455271840095953700400244 -0.001271592918783426067949604565 0 0 0 0 
2402166666.6666665077 0.172946110367774991134481865629 0.031539075076580047607421875000 0.002260970417410134835484170068 -0.001266618259251117923139262622 0 0 0 0 
2402333333.3333334923 0.172500163316726712325888115629 0.030846627429127689706822579296 0.002051180228590964837315224756 -0.001263082958757876916172646631 0 0 0 0 
2402500000.0000000000 0.172641009092330904861611884371 0.029997302219271659851074218750 0.001963412389159203009364462744 -0.001339892158284782929661416162 0 0 0 0 
2402666666.6666665077 0.172038599848747308929119981258 0.028963033109903339040736014454 0.002028162591159344153163290869 -0.001570716616697608990910195459 0 0 0 0 
2402833333.3333334923 0.171750113368034390548544365629 0.028072176501154899597167968750 0.001621408155187964005711220850 -0.001494025811553000970127724756 0 0 0 0 
2403000000.0000000000 0.171449989080429104904013115629 0.026964336633682250976562500000 0.001722863875329494909999228369 -0.001577861024998127980473183740 0 0 0 0 
2403166666.6666665077 0.171158254146575899978799384371 0.025924358516931530344029610546 0.001428228919394314072252583081 -0.001534374663606286048889160156 0 0 0 0 
2403333333.3333334923 0.170857951045036288162393134371 0.024693472310900691640833670704 0.001491917064413428089739155347 -0.001558528048917650959612202222 0 0 0 0 
2403500000.0000000000 0.170387521386146600921307481258 0.023315766826272010803222656250 0.001311592292040586905238486182 -0.001536442199721931977512978662 0 0 0 0 
2403666666.6666665077 0.169945821166038513183593750000 0.021973144263029098510742187500 0.001095575164072215990779257666 -0.001421345164999366023420024341 0 0 0 0 
2403833333.3333334923 0.169920593500137301345986884371 0.020657958462834361684778983204 0.000996805378235876560211181641 -0.001409011660143733024597167969 0 0 0 0 
2404000000.0000000000 0.169307023286819513518963731258 0.019311042502522468566894531250 0.001033676089718938090680766528 -0.001087585114873945929883647388 0 0 0 0 
2404166666.6666665077 0.169074848294258089920205634371 0.017512544989585879934290701954 0.000859788677189499139785766602 -0.001340682734735310077667236328 0 0 0 0 
2404333333.3333334923 0.168802469968795804122763115629 0.016112340614199638366699218750 0.000906514760572463274002075195 -0.001148563576862215995788574219 0 0 0 0 
2404500000.0000000000 0.168505936861038208007812500000 0.014397948980331419163714024023 0.000879736442584544420242309570 -0.001115385792218148925183940356 0 0 0 0 
2404666666.6666665077 0.168399140238761901855468750000 0.012880044057965280360211757227 0.000880325387697666883468627930 -0.001046415534801780960680317456 0 0 0 0 
2404833333.3333334923 0.168154448270797701736611884371 0.011133570224046710622767264454 0.000751142040826380252838134766 -0.001011510030366479916813515771 0 0 0 0 
2405000000.0000000000 0.168217360973358209808026231258 0.009449485689401626586914062500 0.000745682453271001577377319336 -0.000914397707674652338027954102 0 0 0 0 
2405166666.6666665077 0.167991116642951993087606865629 0.007523299194872379302978515625 0.000782761606387794017791748047 -0.000710860476829111576080322266 0 0 0 0 
2405333333.3333334923 0.168126925826072692871093750000 0.005729301366955041885375976562 0.001030364655889570929883647388 -0.000732222746592015027999877930 0 0 0 0 
2405500000.0000000000 0.168021708726882906814736884371 0.003975549712777137756347656250 0.001061287824995815970777202075 -0.000714818481355905532836914062 0 0 0 0 
2405666666.6666665077 0.167940407991409301757812500000 0.002196532674133778052089072119 0.001188993453979491970659565503 -0.000698979943990707397460937500 0 0 0 0 
2405833333.3333334923 0.167804852128028897384481865629 0.000461260875454172492027282715 0.001282478682696819088579487378 -0.000564297719392925500869750977 0 0 0 0 
2406000000.0000000000 0.167907789349555996993856865629 -0.001672716811299324035644531250 0.001255014096386731104609824072 -0.000704580219462513923645019531 0 0 0 0 
2406166666.6666665077 0.167824164032936096191406250000 -0.003420751774683595137355185400 0.001332068932242691950557089697 -0.000762605806812644004821777344 0 0 0 0 
2406333333.3333334923 0.167847663164138793945312500000 -0.005176786333322525024414062500 0.001413178863003849983215332031 -0.000799471570644527673721313477 0 0 0 0 
2406500000.0000000000 0.167943134903907803634481865629 -0.007125092670321465405935956738 0.001465663313865662054774618994 -0.001016801805235445933101035010 0 0 0 0 
2406666666.6666665077 0.167674839496612604339276231258 -0.008792685344815254211425781250 0.001635819789953530051587748950 -0.000930141133721917867660522461 0 0 0 0 
2406833333.3333334923 0.167889282107353210449218750000 -0.010459226556122299539586251171 0.001656149863265454985974955981 -0.000926857290323823690414428711 0 0 0 0 
2407000000.0000000000 0.167942389845848111251669365629 -0.012160860933363439387311366602 0.001632142113521694920183491284 -0.001150694559328258037567138672 0 0 0 0 
2407166666.6666665077 0.168105378746986389160156250000 -0.013568909838795660191546055273 0.001628511585295199914219521631 -0.001269483938813209967372275244 0 0 0 0 
2407333333.3333334923 0.168044447898864801604901231258 -0.015203397721052169799804687500 0.001663020811975002071977924878 -0.001382169313728808923008584131 0 0 0 0 
2407500000.0000000000 0.168150171637535095214843750000 -0.016551300883293148386021798046 0.001702749752439558939692831885 -0.001480022445321083068847656250 0 0 0 0 
2407666666.6666665077 0.168155163526535006424111884371 -0.017815992236137390136718750000 0.001674101804383099079132080078 -0.001675769803114234967472695459 0 0 0 0 
2407833333.3333334923 0.168305426836013793945312500000 -0.019183421507477760314941406250 0.001555461669340729930280375903 -0.001654025982134043953539204175 0 0 0 0 
2408000000.0000000000 0.168329283595085088531817518742 -0.020351346582174301147460937500 0.001381794805638492107391357422 -0.001846587983891367912292480469 0 0 0 0 
2408166666.6666665077 0.168664261698722811599893134371 -0.021117968484759330749511718750 0.001482121879234910011291503906 -0.001918814494274557070491171729 0 0 0 0 
2408333333.3333334923 0.168989077210426302810830634371 -0.021886128932237628591517264454 0.001309870393015444061876606519 -0.002002252498641610145568847656 0 0 0 0 
2408500000.0000000000 0.169156119227409390548544365629 -0.022962296381592750549316406250 0.001250536530278623104095458984 -0.002006581285968422889709472656 0 0 0 0 
2408666666.6666665077 0.169445514678955105880575615629 -0.023715890944004058837890625000 0.001128492178395390944239951025 -0.002019686857238411903381347656 0 0 0 0 
2408833333.3333334923 0.169678702950477600097656250000 -0.024564772844314578664759451954 0.001113874255679548003553080981 -0.002020703628659247918369912256 0 0 0 0 
2409000000.0000000000 0.170056998729705810546875000000 -0.025258259847760200500488281250 0.001140384352765976948979043115 -0.002061441540718079046962118994 0 0 0 0 
2409166666.6666665077 0.170430108904838589767294365629 -0.026105301454663280141810233204 0.001013779430650175051448202979 -0.002115099923685193061828613281 0 0 0 0 
2409333333.3333334923 0.170876890420913696289062500000 -0.026856638491153720510462576954 0.000999493524432182312011718750 -0.002139330375939608053920126807 0 0 0 0 
2409500000.0000000000 0.171166613698005704025106865629 -0.027618430554866790771484375000 0.001060919137671590068219829028 -0.002167801605537534193751669775 0 0 0 0 
2409666666.6666665077 0.171263441443443298339843750000 -0.028181426227092739450474923046 0.000996083021163940429687500000 -0.002150756074115633964538574219 0 0 0 0 
2409833333.3333334923 0.171548441052436800857705634371 -0.029021348804235458374023437500 0.001008111401461065032361674731 -0.002116739982739090919494628906 0 0 0 0 
2410000000.0000000000 0.171955585479736300369424384371 -0.029662730172276500356653983204 0.001000359887257217927220009912 -0.002195761539041996002197265625 0 0 0 0 
2410166666.6666665077 0.171927049756050109863281250000 -0.030293716117739680898646170704 0.001112315570935606956481933594 -0.002392636379227042198181152344 0 0 0 0 
2410333333.3333334923 0.171983912587165804763955634371 -0.031032484024763110769251639454 0.000951153633650392293930053711 -0.002431577071547507806065224756 0 0 0 0 
2410500000.0000000000 0.172122925519943209549111884371 -0.031761851161718368530273437500 0.000991748995147645473480224609 -0.002545422874391078948974609375 0 0 0 0 
2410666666.6666665077 0.171754524111747686188067518742 -0.032544050365686416625976562500 0.000813525810372084379196166992 -0.002513267565518618063685751807 0 0 0 0 
2410833333.3333334923 0.171910703182220486739950615629 -0.033067930489778518676757812500 0.000919283949770033359527587891 -0.002581686247140169143676757812 0 0 0 0 
2411000000.0000000000 0.171503350138664301116619981258 -0.033502180129289627075195312500 0.000788596807979047298431396484 -0.002795384032651782035827636719 0 0 0 0 
2411166666.6666665077 0.171290189027786310393963731258 -0.034413415938615798950195312500 0.000725901743862777948379516602 -0.002863932633772491975071572412 0 0 0 0 
2411333333.3333334923 0.170946687459945706466513115629 -0.034688927233219146728515625000 0.000749743543565273284912109375 -0.003117493819445372061488486182 0 0 0 0 
2411500000.0000000000 0.170502796769142206390057481258 -0.035703614354133612895925153907 0.000483060168335214311450404034 -0.003095368389040232138392783057 0 0 0 0 
2411666666.6666665077 0.170227617025375393966513115629 -0.036197066307067871093750000000 0.000368884764611720984608250751 -0.003384739859029651121852255713 0 0 0 0 
2411833333.3333334923 0.169790878891944913009481865629 -0.036809977144002907489817033593 0.000342694693244993686676025391 -0.003529955167323350906372070312 0 0 0 0 
2412000000.0000000000 0.169480010867118807693643134371 -0.037633981555700302124023437500 -0.000075943564297631382942199707 -0.003595038084313272996189736475 0 0 0 0 
2412166666.6666665077 0.169038176536560086349325615629 -0.038381341844797127460520158593 -0.000086828840721864253282546997 -0.003589121159166098074672079932 0 0 0 0 
2412333333.3333334923 0.168594181537628201583700615629 -0.039143372327089309692382812500 -0.000411213899496942812770289288 -0.003767618909478187994716025244 0 0 0 0 
2412500000.0000000000 0.167908087372779901702557481258 -0.039768341928720467304270158593 -0.000616018718574196100234985352 -0.003805910237133502960205078125 0 0 0 0 
2412666666.6666665077 0.167472496628761291503906250000 -0.040857326239347457885742187500 -0.000894168158993124961853027344 -0.003788496134802699089050292969 0 0 0 0 
2412833333.3333334923 0.166682422161102294921875000000 -0.041780631989240653301198591407 -0.001101950183510779900791787256 -0.003935759887099266052246093750 0 0 0 0 
2413000000.0000000000 0.166068881750106811523437500000 -0.042653191834688186645507812500 -0.001574781024828552982927631909 -0.003766872687265276908874511719 0 0 0 0 
2413166666.6666665077 0.165383100509643610198651231258 -0.043693687766790390014648437500 -0.001741766929626465060590434497 -0.003711840603500605063197470557 0 0 0 0 
2413333333.3333334923 0.164481088519096402267294365629 -0.044723775237798690795898437500 -0.001915232744067906899693154443 -0.003627570113167167143580771338 0 0 0 0 
2413500000.0000000000 0.163923725485801696777343750000 -0.045596823096275329589843750000 -0.002122157020494341850280761719 -0.003456243081018329100367880713 0 0 0 0 
2413666666.6666665077 0.163252815604209899902343750000 -0.046795524656772606586496721093 -0.002356046577915548844578408350 -0.003291684202849864959716796875 0 0 0 0 
2413833333.3333334923 0.162459418177604703048544365629 -0.047690942883491523052175153907 -0.002504385542124509811401367188 -0.003030165331438183784484863281 0 0 0 0 
2414000000.0000000000 0.161691993474960299392861884371 -0.048889707773923866962473283593 -0.002723823999986052946803427588 -0.002765125595033168792724609375 0 0 0 0 
2414166666.6666665077 0.161219015717506408691406250000 -0.049903560429811477661132812500 -0.002741845557466148896458291162 -0.002633476629853249029872275244 0 0 0 0 
2414333333.3333334923 0.160616591572761507888955634371 -0.051219586282968521118164062500 -0.002866838360205293135402060400 -0.002451311098411678834202431787 0 0 0 0 
2414500000.0000000000 0.160296097397804288009481865629 -0.052125673741102218627929687500 -0.002741416916251182989833212744 -0.002358281053602695898768759619 0 0 0 0 
2414666666.6666665077 0.159701943397522000411825615629 -0.053354285657405853271484375000 -0.002857098821550608114955283057 -0.002129466040059924125671386719 0 0 0 0 
2414833333.3333334923 0.159237951040267888824786268742 -0.054744292050600051879882812500 -0.002938485471531749205348349463 -0.002034233417361975149867392432 0 0 0 0 
2415000000.0000000000 0.158738970756530789474325615629 -0.055780235677957541728932966407 -0.002969569060951470895054482568 -0.001857288880273699977277446216 0 0 0 0 
2415166666.6666665077 0.158518955111503601074218750000 -0.057063166052103042602539062500 -0.003095228224992752075195312500 -0.001709874137304723045946430737 0 0 0 0 
2415333333.3333334923 0.158334642648696899414062500000 -0.058501649647951133037526716407 -0.002984811319038271903991699219 -0.001503304229117929935455322266 0 0 0 0 
2415500000.0000000000 0.158063694834709195236044365629 -0.059829857200384140014648437500 -0.003007815685123205184936523438 -0.001566601567901670932769775391 0 0 0 0 
2415666666.6666665077 0.157851487398147610763388115629 -0.061169181019067757343332658593 -0.003022235818207263946533203125 -0.001459050108678638935089111328 0 0 0 0 
2415833333.3333334923 0.157842829823494013030682481258 -0.062669083476066589355468750000 -0.003057837486267089843750000000 -0.001160866464488208077074360425 0 0 0 0 
2416000000.0000000000 0.157448992133140591720419365629 -0.064163781702518463134765625000 -0.003076313994824885888340615381 -0.001188247581012547016143798828 0 0 0 0 
2416166666.6666665077 0.157425731420516995529013115629 -0.065659575164318084716796875000 -0.003276846138760447935817099463 -0.000903121079318225383758544922 0 0 0 0 
2416333333.3333334923 0.157110199332237188141192518742 -0.066893257200717926025390625000 -0.003246043808758258819580078125 -0.000745091820135712623596191406 0 0 0 0 
2416500000.0000000000 0.157010257244110107421875000000 -0.068497635424137115478515625000 -0.003293950809165834946873330225 -0.000689045409671962261199951172 0 0 0 0 
2416666666.6666665077 0.156703427433967590332031250000 -0.069727592170238494873046875000 -0.003092678496614098982570029150 -0.000606982735916972160339355469 0 0 0 0 
2416833333.3333334923 0.156679823994636507888955634371 -0.071341820061206817626953125000 -0.003142681205645204024073935400 -0.000392131827538833022117614746 0 0 0 0 
2417000000.0000000000 0.156305894255638094803018134371 -0.072667539119720458984375000000 -0.003135974984616041183471679688 -0.000287882634438574314117431641 0 0 0 0 
2417166666.6666665077 0.156090080738067599197549384371 -0.073794849216938018798828125000 -0.002963837236165999932530068506 -0.000114786234917119199603480206 0 0 0 0 
2417333333.3333334923 0.156059846282005310058593750000 -0.074875399470329284667968750000 -0.003072914201766252951381064307 -0.000104590500995982397668300490 0 0 0 0 
2417500000.0000000000 0.155862033367157010177450615629 -0.076257862150669097900390625000 -0.002919424790889025168177939307 0.000083861596067436039447784424 0 0 0 0 
2417666666.6666665077 0.155844300985336303710937500000 -0.077056005597114562988281250000 -0.002810534089803696112391806494 0.000137916271341964602470397949 0 0 0 0 
2417833333.3333334923 0.155586659908294705489950615629 -0.078115358948707580566406250000 -0.002719723852351307868957519531 0.000384548184229061007499694824 0 0 0 0 
2418000000.0000000000 0.155388846993446405608807481258 -0.079181075096130371093750000000 -0.002682261168956757025477743994 0.000482792296679690480232238770 0 0 0 0 
2418166666.6666665077 0.155239656567573602874432481258 -0.079874821007251739501953125000 -0.002634539501741528944728232275 0.000509794685058295726776123047 0 0 0 0 
2418333333.3333334923 0.155593946576118496993856865629 -0.080656245350837707519531250000 -0.002608560258522630171534872900 0.000570996489841490983963012695 0 0 0 0 
2418500000.0000000000 0.155318558216094998458700615629 -0.081391185522079467773437500000 -0.002487489487975835800170898438 0.000587782240472733974456787109 0 0 0 0 
2418666666.6666665077 0.155433475971221896072549384371 -0.082253664731979370117187500000 -0.002379030454903841018676757812 0.000738719827495515346527099609 0 0 0 0 
2418833333.3333334923 0.155082777142524691482705634371 -0.082937143743038177490234375000 -0.002195714972913264794590615381 0.000782267947215586900711059570 0 0 0 0 
2419000000.0000000000 0.155101820826530512054119981258 -0.083482779562473297119140625000 -0.002220056485384703116175986182 0.000726583471987396478652954102 0 0 0 0 
2419166666.6666665077 0.155014172196388189117755018742 -0.084082804620265960693359375000 -0.002187861828133463859558105469 0.000704693549778312444686889648 0 0 0 0 
2419333333.3333334923 0.154748111963272094726562500000 -0.084527805447578430175781250000 -0.002052531111985445022583007812 0.000585619942285120487213134766 0 0 0 0 
2419500000.0000000000 0.154637560248374911209268134371 -0.085226401686668395996093750000 -0.001943544251844286918640136719 0.000641395454294979572296142578 0 0 0 0 
2419666666.6666665077 0.154592677950859097579794365629 -0.085646331310272216796875000000 -0.001829910674132406928418803638 0.000721017655450850725173950195 0 0 0 0 
2419833333.3333334923 0.154462635517120389083700615629 -0.085796661674976348876953125000 -0.001840422046370804093004536206 0.000658892327919602394104003906 0 0 0 0 
