# Hz S RI R 50
2400000000.0000000000 0.160436213016510009765625000000 0.056911047548055648803710937500 0.003620449453592299981358193506 0.003977179061621428403372480176 0 0 0 0 
2400166666.6666665077 0.160460948944091796875000000000 0.055205281823873519897460937500 0.003699295921251177787780761719 0.003902430878952146010157919775 0 0 0 0 
2400333333.3333334923 0.160503894090652493575888115629 0.053442370146512992168386091407 0.003876514500007032914402627100 0.003938521258533000946044921875 0 0 0 0 
2400500000.0000000000 0.160707280039787292480468750000 0.051688876003026962280273437500 0.004030176438391208648681640625 0.003978277556598187360281659863 0 0 0 0 
2400666666.6666665077 0.160756543278694208343182481258 0.049886509776115417480468750000 0.004074589349329471588134765625 0.003898642025887966156005859375 0 0 0 0 
2400833333.3333334923 0.161020681262016296386718750000 0.048025175929069519042968750000 0.004381114616990089416503906250 0.003781431354582310156581259619 0 0 0 0 
2401000000.0000000000 0.161210998892784090896768134371 0.046228531748056411743164062500 0.004476517904549837112426757812 0.003796124598011374907252646338 0 0 0 0 
2401166666.6666665077 0.161417990922927911956463731258 0.044331330806016921997070312500 0.004821299575269222259521484375 0.003871209453791379928588867188 0 0 0 0 
2401333333.3333334923 0.161572515964508112151776231258 0.042338106781244277954101562500 0.004890629090368747711181640625 0.003663946641609073118922568213 0 0 0 0 
2401500000.0000000000 0.162085488438606289962606865629 0.040655866265296942974050153907 0.005189586896449328336233808301 0.003606515703722835020778036963 0 0 0 0 
2401666666.6666665077 0.162486612796783502776776231258 0.038940362632274627685546875000 0.005384155549108982086181640625 0.003434066427871584892272949219 0 0 0 0 
2401833333.3333334923 0.163054138422012301345986884371 0.037017717957496643066406250000 0.005668378900736570358276367188 0.003348995000123978094813681494 0 0 0 0 
2402000000.0000000000 0.163214892148971613128338731258 0.035149339586496353149414062500 0.005917763337492942810058593750 0.003124888287857174873352050781 0 0 0 0 
2402166666.6666665077 0.163634017109870910644531250000 0.033454235643148422241210937500 0.006249032448977231979370117188 0.003113443730399012999293661963 0 0 0 0 
2402333333.3333334923 0.164072483777999905685263115629 0.031879555433988571166992187500 0.006381435319781303405761718750 0.002931633498519659042358398438 0 0 0 0 
2402500000.0000000000 0.165035828948020907303018134371 0.030185399577021598815917968750 0.006609414238482713699340820312 0.002784866373986006216761923682 0 0 0 0 
2402666666.6666665077 0.165468424558639498611611884371 0.028701078146696090698242187500 0.006681500468403100967407226562 0.002461134688928722901585244287 0 0 0 0 
2402833333.3333334923 0.166142016649246188064736884371 0.027264267206192020071009451954 0.006955362390726804733276367188 0.002167980419471859931945800781 0 0 0 0 
2403000000.0000000000 0.166798040270805386642294365629 0.025854667648673061025599295704 0.007374007254838944348807050488 0.001762144500389694950701069409 0 0 0 0 
2403166666.6666665077 0.167645469307899502853231865629 0.024513848125934600830078125000 0.007508638780564069747924804688 0.001537033938802778937696147388 0 0 0 0 
2403333333.3333334923 0.168392643332481412032919365629 0.023054683580994609487513358204 0.007692468818277120590209960938 0.001223710598424077033996582031 0 0 0 0 
2403500000.0000000000 0.168995067477226312835369981258 0.021902102977037429809570312500 0.007915183901786804199218750000 0.000722061202395707368850708008 0 0 0 0 
2403666666.6666665077 0.170027151703834505935830634371 0.020440356805920600891113281250 0.007955592125654220581054687500 0.000496775202918797731399536133 0 0 0 0 
2403833333.3333334923 0.170681163668632507324218750000 0.019448092207312580453892891796 0.007987575605511665344238281250 0.000011867453395097980444329415 0 0 0 0 
2404000000.0000000000 0.171457529067993191818075615629 0.018307797610759738576868826954 0.008129005320370197296142578125 -0.000342614890541881322860717773 0 0 0 0 
2404166666.6666665077 0.172104895114898709396200615629 0.017319358885288238525390625000 0.008258664980530738830566406250 -0.000623164116404950618743896484 0 0 0 0 
2404333333.3333334923 0.172966286540031405349893134371 0.016522768884897228586217110546 0.008304264396429061889648437500 -0.001065142685547471046447753906 0 0 0 0 
2404500000.0000000000 0.173544287681579589843750000000 0.015525094233453270303746407421 0.008285570889711380004882812500 -0.001622745068743824958801269531 0 0 0 0 
2404666666.6666665077 0.174271628260612487792968750000 0.014701141044497489929199218750 0.008264956064522266387939453125 -0.001920179580338299057604145581 0 0 0 0 
2404833333.3333334923 0.175015017390251187423544365629 0.013933676294982429849644844921 0.008127885870635509490966796875 -0.002255432307720183892491006006 0 0 0 0 
2405000000.0000000000 0.175632357597351101974325615629 0.013330204412341119593610194727 0.008077698759734630584716796875 -0.002762459916993976073024130713 0 0 0 0 
2405166666.6666665077 0.176036655902862604339276231258 0.012553028762340550858467302930 0.007748072035610675811767578125 -0.003131468314677476882934570312 0 0 0 0 
2405333333.3333334923 0.176722228527069091796875000000 0.011872946284711359196673008398 0.007791199255734682083129882812 -0.003526536747813224792480468750 0 0 0 0 
2405500000.0000000000 0.177162140607833890060263115629 0.011571573093533519399622733204 0.007580961100757122039794921875 -0.003787474241107701821568154443 0 0 0 0 
2405666666.6666665077 0.177497655153274508377236884371 0.011094018816947940481165701954 0.007304893340915442380423261426 -0.004299542866647244367117597363 0 0 0 0 
2405833333.3333334923 0.177890792489051791092080634371 0.010723154991865159815778163477 0.007211764343082904815673828125 -0.004417826421558856964111328125 0 0 0 0 
2406000000.0000000000 0.178283959627151489257812500000 0.010090355761349199467669102148 0.006924428511410951614379882812 -0.004941932857036590576171875000 0 0 0 0 
2406166666.6666665077 0.178415745496749905685263115629 0.009903008118271827697753906250 0.006692604627460241317749023438 -0.005239142104983329772949218750 0 0 0 0 
2406333333.3333334923 0.178725928068161010742187500000 0.009268146008253097534179687500 0.006383362226188182830810546875 -0.005376750137656927108764648438 0 0 0 0 
2406500000.0000000000 0.178774982690811212737713731258 0.008965950459241867065429687500 0.006230680271983146667480468750 -0.005659682676196098327636718750 0 0 0 0 
2406666666.6666665077 0.178655639290809603592080634371 0.008603396825492382049560546875 0.005817194469273090362548828125 -0.005879060365259647369384765625 0 0 0 0 
2406833333.3333334923 0.178837493062019403655682481258 0.008085070177912712097167968750 0.005655169486999511718750000000 -0.006064246408641338348388671875 0 0 0 0 
2407000000.0000000000 0.178840219974517794510049384371 0.007588678970932961377615644238 0.005332141648977994918823242188 -0.006343846209347248077392578125 0 0 0 0 
2407166666.6666665077 0.178792789578437805175781250000 0.007231758907437325391287519238 0.005122399423271417617797851562 -0.006435391027480363845825195312 0 0 0 0 
2407333333.3333334923 0.178458273410797091385049384371 0.006565417628735303878784179688 0.004824817646294832229614257812 -0.006641368847340345382690429688 0 0 0 0 
2407500000.0000000000 0.178307786583900507171307481258 0.006118088494986295700073242188 0.004343047272413969039916992188 -0.006744331680238246917724609375 0 0 0 0 
2407666666.6666665077 0.178001061081886291503906250000 0.005478767678141593933105468750 0.004023675341159105300903320312 -0.006824596785008907318115234375 0 0 0 0 
2407833333.3333334923 0.177482157945632906814736884371 0.004831217229366303357596112988 0.003682111389935017065760947119 -0.007044439669698476791381835938 0 0 0 0 
2408000000.0000000000 0.177153825759887695312500000000 0.003827612381428480148315429688 0.003498354926705359978916787256 -0.007088731974363327026367187500 0 0 0 0 
2408166666.6666665077 0.176651537418365506271200615629 0.003240463789552450180053710938 0.003098014276474713845493935693 -0.007110052276402711868286132812 0 0 0 0 
2408333333.3333334923 0.176434710621833801269531250000 0.002350705908611416816711425781 0.002756359521299601034877158057 -0.007160967681556940078735351562 0 0 0 0 
2408500000.0000000000 0.175759971141815213302450615629 0.001253883936442435004590678638 0.002628459595143795013427734375 -0.007150232791900634765625000000 0 0 0 0 
2408666666.6666665077 0.175279080867767306228799384371 0.000280607200693339109420776367 0.002321461215615272955653525244 -0.007172472309321165084838867188 0 0 0 0 
2408833333.3333334923 0.174473255872726412674111884371 -0.000956942676566541194915771484 0.002116731833666563034057617188 -0.007284394465386868390555097363 0 0 0 0 
2409000000.0000000000 0.173954322934150695800781250000 -0.002048210473731160163879394531 0.001776795485056936957715678638 -0.007222879212349653244018554688 0 0 0 0 
2409166666.6666665077 0.173278361558914212325888115629 -0.003212477546185255050659179688 0.001479163882322608990910195459 -0.007222210057079792022705078125 0 0 0 0 
2409333333.3333334923 0.172696858644485501388388115629 -0.004629200790077447891235351562 0.001332199200987816073774028247 -0.007129156962037087354178144238 0 0 0 0 
2409500000.0000000000 0.172163516283035306075888115629 -0.006040766369551420211791992188 0.001145343412645160935045551831 -0.007028860505670309066772460938 0 0 0 0 
2409666666.6666665077 0.171563938260078402420205634371 -0.007423825562000274658203125000 0.001038556220009922981262207031 -0.007044779602438210573678301074 0 0 0 0 
2409833333.3333334923 0.170890927314758300781250000000 -0.008972782641649246215820312500 0.000746944220736622810363769531 -0.006906540133059024810791015625 0 0 0 0 
2410000000.0000000000 0.170454859733581487457598768742 -0.010532342828810220200508318555 0.000467483623651787584454136981 -0.006952053867280483245849609375 0 0 0 0 
2410166666.6666665077 0.170015335083007812500000000000 -0.012104957364499570673932460352 0.000437153794337063973576146259 -0.006921797059476375579833984375 0 0 0 0 
2410333333.3333334923 0.169626101851463290115518134371 -0.013782670721411710221260271680 0.000237416752497665611192426138 -0.006804976146668195724487304688 0 0 0 0 
2410500000.0000000000 0.169192194938659695724325615629 -0.015541338361799720418909842579 -0.000045733824663329869508743286 -0.006828166078776121139526367188 0 0 0 0 
2410666666.6666665077 0.168659508228302001953125000000 -0.017382808029651638376256173046 -0.000169289138284511891290387564 -0.006698215845972299575805664062 0 0 0 0 
2410833333.3333334923 0.168546527624130304534588731258 -0.019065547734498981130579764454 -0.000243322589085437411635798322 -0.006724984850734472274780273438 0 0 0 0 
2411000000.0000000000 0.168116450309753390213174384371 -0.020956043154001239431361014454 -0.000504697905853390693664550781 -0.006713253911584615707397460938 0 0 0 0 
2411166666.6666665077 0.167953655123710604568643134371 -0.022792045027017589914342110546 -0.000674436159897595643997192383 -0.006509938277304173383230878613 0 0 0 0 
2411333333.3333334923 0.167895153164863586425781250000 -0.024737047031521800649622733204 -0.000732433283701539039611816406 -0.006576062645763158798217773438 0 0 0 0 
2411500000.0000000000 0.167545825242996188064736884371 -0.026723276823759078979492187500 -0.000805744726676493883132934570 -0.006620501633733510971069335938 0 0 0 0 
2411666666.6666665077 0.167675197124481201171875000000 -0.028404477983713150024414062500 -0.001018453389406204006792378003 -0.006599005311727523803710937500 0 0 0 0 
2411833333.3333334923 0.167784944176673889160156250000 -0.030354913324117660522460937500 -0.001410250086337327957153320312 -0.006568697281181812286376953125 0 0 0 0 
2412000000.0000000000 0.168077930808067294021768134371 -0.032300051301717758178710937500 -0.001434840029105544090270996094 -0.006570552941411733627319335938 0 0 0 0 
2412166666.6666665077 0.168002516031265286544638115629 -0.034286536276340491558034528907 -0.001561808865517378070233989185 -0.006650408729910851392264081738 0 0 0 0 
2412333333.3333334923 0.168511837720870999435263115629 -0.035957764834165573120117187500 -0.001740898354910314083099365234 -0.006537019275128841400146484375 0 0 0 0 
2412500000.0000000000 0.168419867753982488434161268742 -0.037708174437284469604492187500 -0.002054491778835653825047158350 -0.006658655125647783279418945312 0 0 0 0 
2412666666.6666665077 0.168761879205703707595986884371 -0.039501268416643142700195312500 -0.002168135950341821150538779150 -0.006563418079167603579049394824 0 0 0 0 
2412833333.3333334923 0.169343680143356295486611884371 -0.041156731545925140380859375000 -0.002532642567530273957493447412 -0.006459252908825874328613281250 0 0 0 0 
2413000000.0000000000 0.169654384255409212967080634371 -0.042875617742538452148437500000 -0.002738104434683918952941894531 -0.006610145326703786849975585938 0 0 0 0 
2413166666.6666665077 0.170013278722763089279013115629 -0.044420372694730758666992187500 -0.002822827314957975907566689600 -0.006358026061207056045532226562 0 0 0 0 
2413333333.3333334923 0.170280560851097106933593750000 -0.046056862920522689819335937500 -0.003194900462403893904445029150 -0.006434839218854904174804687500 0 0 0 0 
2413500000.0000000000 0.170916885137558011154013115629 -0.047445207834243767475168596093 -0.003413518192246555848362588037 -0.006460371427237988385672284863 0 0 0 0 
2413666666.6666665077 0.171375960111617986481036268742 -0.049018617719411849975585937500 -0.003782286774367094039916992188 -0.006307752802968025207519531250 0 0 0 0 
2413833333.3333334923 0.171837404370307894607705634371 -0.050207000225782387470285783593 -0.003973488230258226394653320312 -0.006032728590071201324462890625 0 0 0 0 
2414000000.0000000000 0.172311425209045410156250000000 -0.051559045910835273052175153907 -0.004257549066096544265747070312 -0.005928373895585536956787109375 0 0 0 0 
2414166666.6666665077 0.173066884279251098632812500000 -0.052516460418701171875000000000 -0.004490727558732032775878906250 -0.005872041452676057815551757812 0 0 0 0 
2414333333.3333334923 0.173356920480728204925213731258 -0.053887087851762771606445312500 -0.004707625135779380798339843750 -0.005668773781508207321166992188 0 0 0 0 
2414500000.0000000000 0.174094632267951993087606865629 -0.054767981171607971191406250000 -0.004869899246841669082641601562 -0.005659212358295918378348066113 0 0 0 0 
2414666666.6666665077 0.174355909228324890136718750000 -0.055569279938936226581613908593 -0.005181244108825922012329101562 -0.005373029969632625579833984375 0 0 0 0 
2414833333.3333334923 0.174872264266014099121093750000 -0.056544769555330283428151716407 -0.005339159630239009857177734375 -0.004993646871298552426809980176 0 0 0 0 
2415000000.0000000000 0.175165861845016507247763115629 -0.057215213775634772563893903907 -0.005543247796595096588134765625 -0.004798176232725381851196289062 0 0 0 0 
2415166666.6666665077 0.175553157925605801681356865629 -0.057954009622335427021067033593 -0.005746514070779085159301757812 -0.004624230321496725082397460938 0 0 0 0 
2415333333.3333334923 0.175894230604171808440838731258 -0.058590766042470932006835937500 -0.005710199940949678421020507812 -0.004267369862645865354056073926 0 0 0 0 
2415500000.0000000000 0.176221370697021512130575615629 -0.058940846472978591918945312500 -0.006015582010149955749511718750 -0.004003629554063081741333007812 0 0 0 0 
2415666666.6666665077 0.176363930106162997146768134371 -0.059361539781093597412109375000 -0.006068219896405935287475585938 -0.003840976161882280869724892725 0 0 0 0 
2415833333.3333334923 0.176479175686836187164630018742 -0.059935607016086578369140625000 -0.006309633143246173858642578125 -0.003652851097285747961757040869 0 0 0 0 
2416000000.0000000000 0.176408410072326687911825615629 -0.060293514281511306762695312500 -0.006420854944735766324515058301 -0.003350908635184168815612792969 0 0 0 0 
2416166666.6666665077 0.176593109965324401855468750000 -0.060590662062168121337890625000 -0.006410709582269191741943359375 -0.003137009451165794892552041162 0 0 0 0 
2416333333.3333334923 0.176445394754409790039062500000 -0.060828533023595809936523437500 -0.006503812503069639205932617188 -0.002960474230349063873291015625 0 0 0 0 
2416500000.0000000000 0.176201209425926208496093750000 -0.061203069984912872314453125000 -0.006554421037435531616210937500 -0.002622233703732490973231650244 0 0 0 0 
2416666666.6666665077 0.176018014550209100921307481258 -0.061430152505636222148854841407 -0.006565581541508436203002929688 -0.002317659091204404830932617188 0 0 0 0 
2416833333.3333334923 0.175766631960868807693643134371 -0.061745561659336090087890625000 -0.006668603047728539380545331738 -0.001930484897457062981249165112 0 0 0 0 
2417000000.0000000000 0.175195381045341491699218750000 -0.061864100396633148193359375000 -0.006683627143502235412597656250 -0.001826336723752320029615092700 0 0 0 0 
2417166666.6666665077 0.174691304564476013183593750000 -0.061954677104949951171875000000 -0.006688119843602181348318769238 -0.001651616184972227053401327979 0 0 0 0 
2417333333.3333334923 0.174213021993637112716513115629 -0.062190029770135879516601562500 -0.006560171954333782196044921875 -0.001354158855974674008013081128 0 0 0 0 
2417500000.0000000000 0.173414319753646906097088731258 -0.062572367489337921142578125000 -0.006635783705860376358032226562 -0.001026513287797570011736225659 0 0 0 0 
2417666666.6666665077 0.172876060009002713302450615629 -0.062677070498466491699218750000 -0.006635552737861871719360351562 -0.000897090183570981025695800781 0 0 0 0 
2417833333.3333334923 0.171883478760719299316406250000 -0.062925972044467926025390625000 -0.006606096401810646057128906250 -0.000583044311497360467910766602 0 0 0 0 
2418000000.0000000000 0.170998722314834594726562500000 -0.063338160514831542968750000000 -0.006533523555845022201538085938 -0.000434819899965077584415990009 0 0 0 0 
2418166666.6666665077 0.169935047626495389083700615629 -0.063524454832077026367187500000 -0.006568514741957187652587890625 -0.000205667500267736586645403452 0 0 0 0 
2418333333.3333334923 0.169240862131118802169638115629 -0.063985779881477355957031250000 -0.006412707269191741943359375000 0.000075906646088697016239166260 0 0 0 0 
2418500000.0000000000 0.168063789606094388107138115629 -0.064402677118778228759765625000 -0.006328691262751817703247070312 0.000204924814170226508944910870 0 0 0 0 
2418666666.6666665077 0.167054906487464904785156250000 -0.065073095262050628662109375000 -0.006358900573104619979858398438 0.000568448565900325775146484375 0 0 0 0 
2418833333.3333334923 0.165672168135643005371093750000 -0.065528251230716705322265625000 -0.006212530657649040222167968750 0.000570563774090260267257690430 0 0 0 0 
2419000000.0000000000 0.164385452866554288009481865629 -0.066263221204280853271484375000 -0.006066334899514914426321698926 0.000726682948879897594451904297 0 0 0 0 
2419166666.6666665077 0.163306266069412203689736884371 -0.066950798034667968750000000000 -0.006089189555495977401733398438 0.000914501142688095569610595703 0 0 0 0 
2419333333.3333334923 0.161976054310798700530682481258 -0.067405268549919128417968750000 -0.006027762312442064285278320312 0.001032368163578212044359516675 0 0 0 0 
2419500000.0000000000 0.160858020186424310882244981258 -0.068484179675579071044921875000 -0.006013313774019479751586914062 0.001310029416345060088514018481 0 0 0 0 
2419666666.6666665077 0.159850448369979886154013115629 -0.069399893283843994140625000000 -0.005867796018719673156738281250 0.001260467688553035042406391675 0 0 0 0 
2419833333.3333334923 0.158651381731033297439736884371 -0.070338927209377288818359375000 -0.005977167747914791107177734375 0.001647676341235638098475790869 0 0 0 0 
