# Hz S RI R 
2400000000.0000000000 0.165970787405967712402343750000 0.041642092168331153179128278907 -0.001866820035502315001246786963 0.000245958595769479925006312238 0 0 0 0 
2400166666.6666665077 0.166622474789619501311932481258 0.040713347494602203369140625000 -0.001859070151112973906873393481 0.000200246649910695905059260236 0 0 0 0 
2400333333.3333334923 0.167187318205833407303018134371 0.039684049785137183452565778907 -0.001804331201128662066218710791 0.000335107673890888690948486328 0 0 0 0 
2400500000.0000000000 0.167770564556121798416299384371 0.038652487099170691753347028907 -0.001813028473407030105590820312 0.000370180030586198026507777081 0 0 0 0 
2400666666.6666665077 0.168014630675315912444744981258 0.037611573934555046772043596093 -0.002009563380852342085597372900 0.000339306279784068519442957745 0 0 0 0 
2400833333.3333334923 0.168391019105911310393963731258 0.036707267165184020996093750000 -0.002075297525152564048767089844 0.000243663016590289798661908560 0 0 0 0 
2401000000.0000000000 0.168714553117752102950888115629 0.035687547177076339721679687500 -0.002054756972938776016235351562 0.000085255633166525512933731079 0 0 0 0 
2401166666.6666665077 0.169026911258697509765625000000 0.034706749022006988525390625000 -0.002304327441379427909851074219 0.000390286324545741081237792969 0 0 0 0 
2401333333.3333334923 0.169143244624137906173544365629 0.033595088869333267211914062500 -0.002339761238545178933384560693 0.000331098330207169110148829327 0 0 0 0 
2401500000.0000000000 0.169498592615127591232138115629 0.032562606036663062358815778907 -0.002334507415071129798889160156 0.000513828301336616277694702148 0 0 0 0 
2401666666.6666665077 0.169657528400421087066973768742 0.031618375331163413310964216407 -0.002411548979580401940586709131 0.000360377278411760926246643066 0 0 0 0 
2401833333.3333334923 0.169985502958297701736611884371 0.030395928770303729665736014454 -0.002403061371296644210815429688 0.000559221080038696527481079102 0 0 0 0 
2402000000.0000000000 0.169893801212310791015625000000 0.029578870162367820739746093750 -0.002680940087884664969203329932 0.000704213569406419992446899414 0 0 0 0 
2402166666.6666665077 0.170178562402725191970986884371 0.028489410877227779733678048046 -0.002556338440626860098597861182 0.000724784214980900287628173828 0 0 0 0 
2402333333.3333334923 0.170425564050674410720986884371 0.027435785159468650817871093750 -0.002752063330262898965122841943 0.000792884849943220615386962891 0 0 0 0 
2402500000.0000000000 0.170720890164375305175781250000 0.026489693671464920043945312500 -0.002724592108279467062709189307 0.001110320095904171900508261572 0 0 0 0 
2402666666.6666665077 0.170606985688209505935830634371 0.025500569492578509939173514454 -0.002519342117011547088623046875 0.001267393119633198001264262622 0 0 0 0 
2402833333.3333334923 0.170682579278945895095986884371 0.024359703063964840280553048046 -0.002684950595721602006199502100 0.001469847164116800048230815356 0 0 0 0 
2403000000.0000000000 0.170894712209701510330361884371 0.023222407326102260244349295704 -0.002642750041559339003321982275 0.001560293952934443950653076172 0 0 0 0 
2403166666.6666665077 0.170837372541427612304687500000 0.022207073867321010934849923046 -0.002655526855960487885716103662 0.001634091371670364899876259912 0 0 0 0 
2403333333.3333334923 0.171052798628807095626669365629 0.021124551072716709482213204296 -0.002355570904910563988926552881 0.001649322803132236003875732422 0 0 0 0 
2403500000.0000000000 0.170919567346572903732138115629 0.019859468564391139638880545704 -0.002330759540200233893153525244 0.001694454113021492958068847656 0 0 0 0 
2403666666.6666665077 0.171006113290786687652911268742 0.018630795180797580373743826954 -0.002252941718325018882751464844 0.002022005384787917137145996094 0 0 0 0 
2403833333.3333334923 0.171247065067291287521200615629 0.017469242215156558645228201954 -0.002037332626059650941136025537 0.002085021929815412001368857275 0 0 0 0 
2404000000.0000000000 0.171130761504173306564169365629 0.016166426241397861135462576954 -0.002081532729789615111110068213 0.002168256090953946113586425781 0 0 0 0 
2404166666.6666665077 0.171157002449035589020098768742 0.014862102456390859431256679102 -0.001958589302375913100001669775 0.002079865895211697058436728369 0 0 0 0 
2404333333.3333334923 0.171230971813201904296875000000 0.013828791677951809274693673046 -0.001792564871720969893811870044 0.002085311338305472893955849756 0 0 0 0 
2404500000.0000000000 0.171044647693634005447549384371 0.012324806302785869943638985546 -0.001792303635738790035247802734 0.002173466840758920149562216650 0 0 0 0 
2404666666.6666665077 0.171211734414100702483807481258 0.011009951122105119877825352148 -0.001718823448754847049713134766 0.002120838267728685899021767725 0 0 0 0 
2404833333.3333334923 0.171290874481201199630575615629 0.009716764092445373535156250000 -0.001666161697357892990112304688 0.002094657393172382874729775537 0 0 0 0 
2405000000.0000000000 0.171278327703476007659588731258 0.008481878787279129028320312500 -0.001513363095000386021257710034 0.002176312729716300964355468750 0 0 0 0 
2405166666.6666665077 0.171382248401641901214276231258 0.006988473236560822400564862988 -0.001613006461411714987513876807 0.002182871336117386817932128906 0 0 0 0 
2405333333.3333334923 0.171488180756568908691406250000 0.005423241294920445355887128613 -0.001564441830851138071772910010 0.002197890542447566986083984375 0 0 0 0 
2405500000.0000000000 0.171348363161087008377236884371 0.004186535719782114028930664062 -0.001570463646203279928920126807 0.002417833544313908056971884619 0 0 0 0 
2405666666.6666665077 0.171321496367454501053018134371 0.002777729183435440063476562500 -0.001701133907772601084468222510 0.002206585370004177093505859375 0 0 0 0 
2405833333.3333334923 0.171314015984535189529580634371 0.001329682301729917959925986182 -0.001479114289395510933519672925 0.002391371643170713944676064600 0 0 0 0 
2406000000.0000000000 0.171290516853332491775674384371 -0.000088509070337750017642974854 -0.001600221847184001965763711084 0.002460171002894639968872070312 0 0 0 0 
2406166666.6666665077 0.171043291687965393066406250000 -0.001398448483087122006657265771 -0.001399512053467333099962544019 0.002463773824274539947509765625 0 0 0 0 
2406333333.3333334923 0.171148866415023803710937500000 -0.002888652728870511054992675781 -0.001336980029009283022639609229 0.002650836948305367989781045068 0 0 0 0 
2406500000.0000000000 0.170883804559707613845986884371 -0.004351040814071893692016601562 -0.001544290920719503922703408350 0.002640514634549618201014853369 0 0 0 0 
2406666666.6666665077 0.170639455318450899978799384371 -0.005729729309678077697753906250 -0.001389338867738842964172363281 0.002783675910905003981349326025 0 0 0 0 
2406833333.3333334923 0.170453831553459195236044365629 -0.007189385127276182174682617188 -0.001350472331978380896924663013 0.002848012372851372198817587744 0 0 0 0 
2407000000.0000000000 0.170097738504409790039062500000 -0.008481091819703578948974609375 -0.001221043057739735083339072119 0.002942368155345321135279990088 0 0 0 0 
2407166666.6666665077 0.170102879405021695236044365629 -0.009788975119590759277343750000 -0.001221201964654027981999062646 0.003183507826179265975952148438 0 0 0 0 
2407333333.3333334923 0.169616654515266390701455634371 -0.011120724491775039327601248829 -0.001093910541385411999346088940 0.003186100861057639122009277344 0 0 0 0 
2407500000.0000000000 0.169427141547203091720419365629 -0.012341484427452089137067225977 -0.000842644192744046449661254883 0.003406461095437407927272177588 0 0 0 0 
2407666666.6666665077 0.169132024049758911132812500000 -0.013355666771531110245674334180 -0.000930326466914266347885131836 0.003623292315751314163208007812 0 0 0 0 
2407833333.3333334923 0.168701648712158203125000000000 -0.014623245224356649571428867773 -0.000596371653955429792404174805 0.003611081745475531058070517432 0 0 0 0 
2408000000.0000000000 0.168462499976158086578692518742 -0.015493836253881449263603009570 -0.000432025379268452525138854980 0.003685413859784603118896484375 0 0 0 0 
2408166666.6666665077 0.168217405676841708084268134371 -0.016397327184677120553990548046 -0.000352159171598032116889953613 0.003715947037562727928161621094 0 0 0 0 
2408333333.3333334923 0.168296605348587008377236884371 -0.017383506521582599985142891796 -0.000078577781096100807189941406 0.003759122220799326896667480469 0 0 0 0 
2408500000.0000000000 0.167966693639755304534588731258 -0.018250955268740650522252266796 0.000165127028594724806860247202 0.003860844066366552872898720850 0 0 0 0 
2408666666.6666665077 0.167905554175376892089843750000 -0.019228689372539520263671875000 0.000609456852544099092483520508 0.003959073685109615325927734375 0 0 0 0 
2408833333.3333334923 0.167828917503356905838174384371 -0.020236467942595478403111641796 0.000616912962868809700012207031 0.003832256188616157011744833838 0 0 0 0 
2409000000.0000000000 0.167809873819351196289062500000 -0.020848555490374568593958670704 0.000828795949928462505340576172 0.003661985509097576141357421875 0 0 0 0 
2409166666.6666665077 0.167868569493293789962606865629 -0.021797632798552509653111641796 0.001152044045738876082776713794 0.003695949912071228027343750000 0 0 0 0 
2409333333.3333334923 0.168083101511001586914062500000 -0.022731853649020198476771170704 0.001254407572560011906864785303 0.003634724998846650123596191406 0 0 0 0 
2409500000.0000000000 0.167958214879036005218182481258 -0.023750204592943191528320312500 0.001408382202498615004895854419 0.003566914936527609825134277344 0 0 0 0 
2409666666.6666665077 0.167916461825370788574218750000 -0.024741068482398990285853201954 0.001435941783711313984514545972 0.003307542297989130020141601562 0 0 0 0 
2409833333.3333334923 0.167858913540840204436932481258 -0.025488821789622310293177420704 0.001696736901067197106005024487 0.003246644744649529890773154150 0 0 0 0 
2410000000.0000000000 0.167932882905006408691406250000 -0.026401672512292858469029610546 0.001755236997269093990325927734 0.003113082842901349067687988281 0 0 0 0 
2410166666.6666665077 0.167933553457260104080361884371 -0.027518769726157188415527343750 0.001872923457995057106018066406 0.002907079877331852912902832031 0 0 0 0 
2410333333.3333334923 0.167870819568634005447549384371 -0.028601383790373798715611641796 0.002081787679344416098353720557 0.002893426921218634085414267432 0 0 0 0 
2410500000.0000000000 0.167780265212058993240518134371 -0.029693676158785820007324218750 0.002108534332364798025843954932 0.002696466166526079177856445312 0 0 0 0 
2410666666.6666665077 0.167653158307075500488281250000 -0.030724942684173580514928048046 0.002119891578331590132472372900 0.002603609580546617941615439307 0 0 0 0 
2410833333.3333334923 0.167595699429511996170205634371 -0.031662590801715850830078125000 0.002185926539823412895202636719 0.002607595408335328102111816406 0 0 0 0 
2411000000.0000000000 0.167428731918334988693075615629 -0.032596636563539511943776716407 0.002369584282860159873962402344 0.002384081715717912153956747900 0 0 0 0 
2411166666.6666665077 0.167287096381187411209268134371 -0.033865194767713546752929687500 0.002278729574754834175109863281 0.002259034430608152909519814600 0 0 0 0 
2411333333.3333334923 0.167028114199638394454794365629 -0.034675959497690200805664062500 0.002392099471762775941136025537 0.002140040742233396010157919775 0 0 0 0 
2411500000.0000000000 0.166822016239166287521200615629 -0.035840075463056557392160783593 0.002534362720325589179992675781 0.001877768314443529085872031104 0 0 0 0 
2411666666.6666665077 0.166792184114456204513388115629 -0.036753356456756591796875000000 0.002316337544471025900599814307 0.001768615096807480075238871997 0 0 0 0 
2411833333.3333334923 0.166533857583999606033486884371 -0.037806734442710883403737653907 0.002414033748209476904628134619 0.001723579713143408081651997144 0 0 0 0 
2412000000.0000000000 0.166393145918846102615518134371 -0.038874167948961257934570312500 0.002386512467637658119201660156 0.001529125613160430951359414209 0 0 0 0 
2412166666.6666665077 0.166186183691024808029013115629 -0.040022999048233032226562500000 0.002202891279011964797973632812 0.001265777274966239929199218750 0 0 0 0 
2412333333.3333334923 0.166146785020828302581463731258 -0.040823813527822501445729841407 0.002312467899173498153686523438 0.001317016896791755936266254956 0 0 0 0 
2412500000.0000000000 0.165557414293289212325888115629 -0.042149316519498832012136091407 0.002299985382705926895141601562 0.001214328571222722964045859229 0 0 0 0 
2412666666.6666665077 0.165418177843093899825888115629 -0.043265625834465026855468750000 0.002126315841451286835911416162 0.001026901649311185099958110278 0 0 0 0 
2412833333.3333334923 0.165200144052505493164062500000 -0.044265389442443847656250000000 0.002139518968760966820957802881 0.001015934394672513008117675781 0 0 0 0 
2413000000.0000000000 0.164766728878021212478799384371 -0.045205742120742797851562500000 0.001989727606996893882751464844 0.000876490725204348564147949219 0 0 0 0 
2413166666.6666665077 0.164448097348213195800781250000 -0.046404540538787841796875000000 0.001999132102355360984802246094 0.000990450382232666015625000000 0 0 0 0 
2413333333.3333334923 0.164150938391685513595419365629 -0.047519873827695846557617187500 0.002006652299314736886265420068 0.000989498570561408996582031250 0 0 0 0 
2413500000.0000000000 0.163927823305130004882812500000 -0.048485264182090759277343750000 0.001897453796118498065351176685 0.001011414919048547961591411060 0 0 0 0 
2413666666.6666665077 0.163589969277381896972656250000 -0.049591783434152603149414062500 0.001833263901062309958814311450 0.001030460582114756107330322266 0 0 0 0 
2413833333.3333334923 0.163126751780510004241619981258 -0.050593674182891852642018903907 0.001873579109087585969212197412 0.001069779158569871945622109521 0 0 0 0 
2414000000.0000000000 0.162745043635368402679119981258 -0.051743984222412109375000000000 0.001756919315084815025329589844 0.001053885556757450103759765625 0 0 0 0 
2414166666.6666665077 0.162606105208396911621093750000 -0.052752166986465447162668596093 0.001817787764593959071515727466 0.001167892361991107897517538916 0 0 0 0 
2414333333.3333334923 0.162269130349159212967080634371 -0.053318522870540618896484375000 0.001940302783623337962506938403 0.001247018692083657004712748950 0 0 0 0 
2414500000.0000000000 0.162145018577575711349325615629 -0.054352533072233200073242187500 0.002078548073768616156337118994 0.001096832449547947103615785913 0 0 0 0 
2414666666.6666665077 0.161764189600944491287393134371 -0.055338639765977859497070312500 0.001965657342225313186645507812 0.001155157806351781108258891528 0 0 0 0 
2414833333.3333334923 0.161668375134468106368856865629 -0.056342553347349166870117187500 0.002188078360632061958312988281 0.001209336216561496040941547925 0 0 0 0 
2415000000.0000000000 0.161496713757515009124432481258 -0.057186581194400787353515625000 0.002133511705324054198024130713 0.001227425760589540004730224609 0 0 0 0 
2415166666.6666665077 0.161513566970825195312500000000 -0.058221377432346337055246721093 0.002287184819579124884364462744 0.001039003953337668938877724756 0 0 0 0 
2415333333.3333334923 0.161519959568977411468182481258 -0.059356927871704101562500000000 0.002223948249593377113342285156 0.000982625875622034072875976562 0 0 0 0 
2415500000.0000000000 0.161328196525573702713174384371 -0.060343120247125632549245466407 0.002318647224456071853637695312 0.000902627711184322834014892578 0 0 0 0 
2415666666.6666665077 0.161143675446510287185830634371 -0.061355412006378166889231096093 0.002400310942903161048889160156 0.000877801503520458936691284180 0 0 0 0 
2415833333.3333334923 0.161114200949668912032919365629 -0.062454290688037872314453125000 0.002462244592607020898106240381 0.000822664296720176935195922852 0 0 0 0 
2416000000.0000000000 0.160806730389595003982705634371 -0.063497230410575866699218750000 0.002619507955387235121486044775 0.000605504028499126434326171875 0 0 0 0 
2416166666.6666665077 0.160884737968444796463174384371 -0.064644217491149902343750000000 0.002638782840222119851353310693 0.000745080469641834497451782227 0 0 0 0 
2416333333.3333334923 0.160543143749237088302450615629 -0.065597943961620330810546875000 0.002518048975616693930384970557 0.000522944261319935321807861328 0 0 0 0 
2416500000.0000000000 0.160402476787567110916299384371 -0.066891260445117950439453125000 0.002577019389718770980834960938 0.000500224879942834377288818359 0 0 0 0 
2416666666.6666665077 0.159954383969307001311932481258 -0.067799665033817291259765625000 0.002657562727108598189112997900 0.000474964879686012918322962628 0 0 0 0 
2416833333.3333334923 0.159773692488670404632244981258 -0.068937353789806365966796875000 0.002602868713438510894775390625 0.000330741371726617217063903809 0 0 0 0 
2417000000.0000000000 0.159298658370971707443075615629 -0.070006243884563446044921875000 0.002698677591979504065272665869 0.000262679765000939423411768781 0 0 0 0 
2417166666.6666665077 0.159041315317153902908486884371 -0.070942044258117675781250000000 0.002567449584603310065028525244 0.000232108053751289790302830829 0 0 0 0 
2417333333.3333334923 0.158597618341445895095986884371 -0.071647509932518005371093750000 0.002610521856695414023158408057 0.000082339131040498614311218262 0 0 0 0 
2417500000.0000000000 0.158167243003845187088174384371 -0.072711914777755737304687500000 0.002688478445634245872497558594 0.000035628010664368048310279846 0 0 0 0 
2417666666.6666665077 0.157972931861877413650674384371 -0.073252990841865539550781250000 0.002741748932749032974243164062 -0.000000736313268134836107492447 0 0 0 0 
2417833333.3333334923 0.157447591423988286774005018742 -0.074152767658233642578125000000 0.002614013152197002930882119287 -0.000041475919715594500303268433 0 0 0 0 
2418000000.0000000000 0.157107055187225286285723768742 -0.075119219720363616943359375000 0.002711983863264321847202920068 -0.000057778364862315356731414795 0 0 0 0 
2418166666.6666665077 0.156675741076469393631143134371 -0.075698018074035644531250000000 0.002887095557525753974914550781 -0.000074418690928723663091659546 0 0 0 0 
2418333333.3333334923 0.156523227691650390625000000000 -0.076566457748413085937500000000 0.002648447640240191979649209131 -0.000124024998513050404473981314 0 0 0 0 
2418500000.0000000000 0.155936047434806795974893134371 -0.077219836413860321044921875000 0.002816783497110009193420410156 -0.000273243640549480915069580078 0 0 0 0 
2418666666.6666665077 0.155694231390953091720419365629 -0.077973335981369018554687500000 0.002627179725095630125758505713 -0.000266168732196092605590820312 0 0 0 0 
2418833333.3333334923 0.155129611492157010177450615629 -0.078845635056495666503906250000 0.002756829373538494110107421875 -0.000562767789233475923538208008 0 0 0 0 
2419000000.0000000000 0.154619589447975186446981865629 -0.079382702708244323730468750000 0.002723386045545340018031454932 -0.000456738955108448917239588605 0 0 0 0 
2419166666.6666665077 0.154303088784217806717080634371 -0.080082207918167114257812500000 0.002762318355962634086608886719 -0.000503893650602549314498901367 0 0 0 0 
2419333333.3333334923 0.153742656111717196365518134371 -0.080705679953098297119140625000 0.002852774923667312102076865088 -0.000626169436145573854446411133 0 0 0 0 
2419500000.0000000000 0.153316423296928405761718750000 -0.081409834325313568115234375000 0.002763915807008742852451943506 -0.000567858864087611436843872070 0 0 0 0 
2419666666.6666665077 0.152847990393638610839843750000 -0.082192912697792053222656250000 0.002704710699617863135096884619 -0.000775278138462454080581665039 0 0 0 0 
2419833333.3333334923 0.152429327368736294845419365629 -0.082553334534168243408203125000 0.002910089911893010139465332031 -0.000878778635524213314056396484 0 0 0 0 
