# Version 1.00
#
freq[Hz];re:Trc1_S11;im:Trc1_S11;re:Trc2_S21;im:Trc2_S21;
2.400000000000000E+009;1.551180630922318E-001;1.065028682351112E-001;-9.285841952078044E-004;-4.550593148451299E-004;
2.400166666666667E+009;1.547214984893799E-001;1.040395051240921E-001;-7.946473779156804E-004;-3.892541571985930E-004;
2.400333333333334E+009;1.547897011041641E-001;1.020574048161507E-001;5.621360469376668E-005;-1.070123253157362E-004;
2.400500000000000E+009;1.545564383268356E-001;9.927293658256531E-002;-2.437048387946561E-004;2.014461824728642E-005;
2.400666666666667E+009;1.551134288311005E-001;9.688784182071686E-002;-5.084299482405186E-004;-1.226879772730172E-003;
2.400833333333334E+009;1.549085229635239E-001;9.370618313550949E-002;-1.076455926522613E-003;-8.008823497220874E-004;
2.401000000000000E+009;1.551118642091751E-001;9.074316173791885E-002;-1.328685553744435E-003;-4.521400551311672E-004;
2.401166666666667E+009;1.552074104547501E-001;8.823791891336441E-002;-1.386982970871031E-003;-3.317830560263246E-004;
2.401333333333334E+009;1.557782143354416E-001;8.545643091201782E-002;-1.565116690471768E-003;-2.410882152616978E-004;
2.401500000000000E+009;1.563927531242371E-001;8.244195580482483E-002;-1.583676086738706E-003;-2.119642449542880E-004;
2.401666666666667E+009;1.564486175775528E-001;7.973591238260269E-002;-1.647171680815518E-003;-2.588407733128406E-005;
2.401833333333334E+009;1.572408080101013E-001;7.710664719343185E-002;-1.795966527424753E-003;4.691506183007732E-005;
2.402000000000000E+009;1.581120193004608E-001;7.445832341909409E-002;-1.756164128892124E-003;1.964804105227813E-004;
2.402166666666667E+009;1.589442044496536E-001;7.194404304027557E-002;-1.801412203349173E-003;1.538196520414203E-004;
2.402333333333334E+009;1.599248349666596E-001;6.931833177804947E-002;-1.705089583992958E-003;2.994048700202256E-004;
2.402500000000000E+009;1.610252410173416E-001;6.675656884908676E-002;-1.922044320963323E-003;4.768345097545534E-004;
2.402666666666667E+009;1.622371971607208E-001;6.435517966747284E-002;-1.942754606716335E-003;5.557929980568588E-004;
2.402833333333334E+009;1.635605096817017E-001;6.203228980302811E-002;-1.907834899611771E-003;6.754653877578676E-004;
2.403000000000000E+009;1.649526357650757E-001;5.966140329837799E-002;-1.717048347927630E-003;7.101917872205377E-004;
2.403166666666667E+009;1.667472571134567E-001;5.744810402393341E-002;-1.726448768749833E-003;7.508504786528647E-004;
2.403333333333334E+009;1.681507378816605E-001;5.543035641312599E-002;-1.813601353205741E-003;9.280180092900991E-004;
2.403500000000000E+009;1.698627471923828E-001;5.341557040810585E-002;-1.775525393895805E-003;8.972657960839570E-004;
2.403666666666667E+009;1.716751754283905E-001;5.153158307075501E-002;-1.622339012101293E-003;9.536222787573934E-004;
2.403833333333334E+009;1.732932478189468E-001;4.970933496952057E-002;-1.806270447559655E-003;9.773672791197896E-004;
2.404000000000000E+009;1.747653484344482E-001;4.790878668427467E-002;-1.527032000012696E-003;1.182256150059402E-003;
2.404166666666667E+009;1.764915138483048E-001;4.643703624606133E-002;-1.550927059724927E-003;1.088753575459123E-003;
2.404333333333334E+009;1.781599223613739E-001;4.487823322415352E-002;-1.560855424031615E-003;1.331444131210446E-003;
2.404500000000000E+009;1.798091828823090E-001;4.357253015041351E-002;-1.471693045459688E-003;1.289804233238101E-003;
2.404666666666667E+009;1.813478916883469E-001;4.240581020712853E-002;-1.547376159578562E-003;1.300435513257980E-003;
2.404833333333334E+009;1.830427795648575E-001;4.146530106663704E-002;-1.433438155800104E-003;1.344816177152097E-003;
2.405000000000000E+009;1.844685226678848E-001;4.067894443869591E-002;-1.376572181470692E-003;1.323099364526570E-003;
2.405166666666667E+009;1.857548803091049E-001;4.001200944185257E-002;-1.376480562612414E-003;1.445903326384723E-003;
2.405333333333334E+009;1.872235089540482E-001;3.950642049312592E-002;-1.146261114627123E-003;1.573621993884444E-003;
2.405500000000000E+009;1.886723190546036E-001;3.911657258868218E-002;-1.268110587261617E-003;1.486364169977605E-003;
2.405666666666667E+009;1.897644549608231E-001;3.868491947650909E-002;-1.253071357496083E-003;1.618733047507703E-003;
2.405833333333334E+009;1.910956501960754E-001;3.851551190018654E-002;-1.363966264761984E-003;1.629194943234325E-003;
2.406000000000000E+009;1.919275969266892E-001;3.832466155290604E-002;-1.258909003809094E-003;1.775604090653360E-003;
2.406166666666667E+009;1.929951310157776E-001;3.799146041274071E-002;-1.186577253974974E-003;1.953559927642345E-003;
2.406333333333334E+009;1.938535571098328E-001;3.812633827328682E-002;-1.180167892016470E-003;1.927013392560184E-003;
2.406500000000000E+009;1.945873796939850E-001;3.809544444084168E-002;-9.638922056183219E-004;2.078366233035922E-003;
2.406666666666667E+009;1.951246857643127E-001;3.813189268112183E-002;-8.761772769503295E-004;2.162455348297954E-003;
2.406833333333334E+009;1.956140398979187E-001;3.810244053602219E-002;-7.810789393261075E-004;2.207593992352486E-003;
2.407000000000000E+009;1.959180831909180E-001;3.827904164791107E-002;-4.901385400444269E-004;2.228661673143506E-003;
2.407166666666667E+009;1.962584406137466E-001;3.807440027594566E-002;-5.440014065243304E-004;2.247730735689402E-003;
2.407333333333334E+009;1.961988806724548E-001;3.808809816837311E-002;-4.309262440074235E-004;2.344665816053748E-003;
2.407500000000000E+009;1.962221115827560E-001;3.815185278654099E-002;-3.173758159391582E-004;2.228901255875826E-003;
2.407666666666667E+009;1.960799694061279E-001;3.804561495780945E-002;-2.758469199761748E-004;2.284751972183585E-003;
2.407833333333334E+009;1.957396864891052E-001;3.777059540152550E-002;-1.663220609771088E-004;2.136224182322621E-003;
2.408000000000000E+009;1.956603378057480E-001;3.759197145700455E-002;-6.154374568723142E-005;2.296483144164085E-003;
2.408166666666667E+009;1.950386166572571E-001;3.723884001374245E-002;-6.453838977904525E-006;2.232769504189491E-003;
2.408333333333334E+009;1.945755481719971E-001;3.678527101874352E-002;1.989906741073355E-005;2.306431531906128E-003;
2.408500000000000E+009;1.938834488391876E-001;3.639915212988854E-002;6.310962635325268E-005;2.177905291318893E-003;
2.408666666666667E+009;1.931927353143692E-001;3.571697324514389E-002;2.463542623445392E-004;2.269987715408206E-003;
2.408833333333334E+009;1.925182044506073E-001;3.485777974128723E-002;4.356645222287625E-004;2.341816434636712E-003;
2.409000000000000E+009;1.916046738624573E-001;3.400886803865433E-002;4.353233962319791E-004;2.224985044449568E-003;
2.409166666666667E+009;1.906346082687378E-001;3.302331268787384E-002;5.713194841518998E-004;2.055082935839891E-003;
2.409333333333334E+009;1.896676272153854E-001;3.190647810697556E-002;6.867147167213261E-004;2.082720166072249E-003;
2.409500000000000E+009;1.885995864868164E-001;3.061078116297722E-002;7.682715076953173E-004;2.016233047470450E-003;
2.409666666666667E+009;1.876815557479858E-001;2.910490147769451E-002;7.144351839087904E-004;2.097797114402056E-003;
2.409833333333334E+009;1.865865588188171E-001;2.759904228150845E-002;8.725452935323119E-004;2.005119575187564E-003;
2.410000000000000E+009;1.856642812490463E-001;2.610523253679276E-002;1.047522411681712E-003;2.045641886070371E-003;
2.410166666666667E+009;1.846163123846054E-001;2.402980066835880E-002;1.039649709127843E-003;1.915629953145981E-003;
2.410333333333334E+009;1.837452799081802E-001;2.232810668647289E-002;1.144308364018798E-003;1.801115344278514E-003;
2.410500000000000E+009;1.828251332044601E-001;2.033876627683640E-002;1.214360003359616E-003;1.802985090762377E-003;
2.410666666666667E+009;1.819722801446915E-001;1.814390532672405E-002;1.198427635245025E-003;1.659795176237822E-003;
2.410833333333334E+009;1.811925917863846E-001;1.586446724832058E-002;1.400778070092201E-003;1.489388640038669E-003;
2.411000000000000E+009;1.805392354726791E-001;1.384079083800316E-002;1.250201254151762E-003;1.443366985768080E-003;
2.411166666666667E+009;1.800735741853714E-001;1.150570064783096E-002;1.417927676811814E-003;1.393567305058241E-003;
2.411333333333334E+009;1.794899106025696E-001;8.967037312686443E-003;1.398797845467925E-003;1.214380143210292E-003;
2.411500000000000E+009;1.790320426225662E-001;6.655010860413313E-003;1.411701436154544E-003;1.135254045948386E-003;
2.411666666666667E+009;1.788804978132248E-001;4.395210649818182E-003;1.348020741716027E-003;9.695639600977302E-004;
2.411833333333334E+009;1.786957681179047E-001;1.852042856626213E-003;1.487378496676683E-003;1.025090692564845E-003;
2.412000000000000E+009;1.785991489887238E-001;-9.008845663629472E-004;1.490292954258621E-003;7.573874900117517E-004;
2.412166666666667E+009;1.789485663175583E-001;-3.036903683096170E-003;1.555165159516037E-003;7.275880780071020E-004;
2.412333333333334E+009;1.789584755897522E-001;-5.452629644423723E-003;1.441973610781133E-003;6.224503740668297E-004;
2.412500000000000E+009;1.794902384281158E-001;-7.807590067386627E-003;1.267219660803676E-003;6.766984006389976E-004;
2.412666666666667E+009;1.801097095012665E-001;-1.036966685205698E-002;1.372180064208806E-003;3.559624310582876E-004;
2.412833333333334E+009;1.807636320590973E-001;-1.278586871922016E-002;1.223521539941430E-003;3.592392604332417E-004;
2.413000000000000E+009;1.813654899597168E-001;-1.493293419480324E-002;1.146364724263549E-003;2.311485877726227E-004;
2.413166666666667E+009;1.820793598890305E-001;-1.725175604224205E-002;1.155575620941818E-003;2.295386220794171E-004;
2.413333333333334E+009;1.833117157220841E-001;-1.942521706223488E-002;1.028196653351188E-003;3.654927713796496E-004;
2.413500000000000E+009;1.840166449546814E-001;-2.179048024117947E-002;1.059710863046348E-003;2.366837870795280E-004;
2.413666666666667E+009;1.850369721651077E-001;-2.395625784993172E-002;8.889717864803970E-004;2.819639048539102E-004;
2.413833333333334E+009;1.863303631544113E-001;-2.594196796417236E-002;9.017030242830515E-004;3.512463590595871E-004;
2.414000000000000E+009;1.872371733188629E-001;-2.774510532617569E-002;8.751528803259134E-004;3.150004777126014E-004;
2.414166666666667E+009;1.886705309152603E-001;-2.958226203918457E-002;7.907577091827989E-004;3.487202338874340E-004;
2.414333333333334E+009;1.897014230489731E-001;-3.147457540035248E-002;9.016462718136609E-004;4.949443973600864E-004;
2.414500000000000E+009;1.907925903797150E-001;-3.283143043518066E-002;6.971510010771453E-004;4.658387042582035E-004;
2.414666666666667E+009;1.919806897640228E-001;-3.418518602848053E-002;6.447895430028439E-004;3.174374287482351E-004;
2.414833333333334E+009;1.930695325136185E-001;-3.559565916657448E-002;6.259725778363645E-004;4.021684871986508E-004;
2.415000000000000E+009;1.941748410463333E-001;-3.687460720539093E-002;7.282508886419237E-004;3.316039510536939E-004;
2.415166666666667E+009;1.953736543655396E-001;-3.797183558344841E-002;6.566952797584236E-004;5.110012716613710E-004;
2.415333333333334E+009;1.964525282382965E-001;-3.884290158748627E-002;5.666603683494031E-004;4.642291169147939E-004;
2.415500000000000E+009;1.974879950284958E-001;-3.948235139250755E-002;7.410217658616602E-004;5.737093742936850E-004;
2.415666666666667E+009;1.984404027462006E-001;-4.031673446297646E-002;5.792667507193983E-004;6.180659402161837E-004;
2.415833333333334E+009;1.992915719747543E-001;-4.089232161641121E-002;4.926475812681019E-004;7.450346020050347E-004;
2.416000000000000E+009;2.000851780176163E-001;-4.146934673190117E-002;5.656403955072165E-004;7.634058711118996E-004;
2.416166666666667E+009;2.006747275590897E-001;-4.202255979180336E-002;7.817936711944640E-004;8.564052986912429E-004;
2.416333333333334E+009;2.011971771717072E-001;-4.231453314423561E-002;7.212514756247401E-004;8.379600476473570E-004;
2.416500000000000E+009;2.015677690505981E-001;-4.251877591013908E-002;8.705097134225071E-004;9.776770602911711E-004;
2.416666666666667E+009;2.019328474998474E-001;-4.280593618750572E-002;9.509663213975728E-004;8.769207634031773E-004;
2.416833333333334E+009;2.021358013153076E-001;-4.270290583372116E-002;9.969201637431979E-004;1.108980039134622E-003;
2.417000000000000E+009;2.022052705287933E-001;-4.307197034358978E-002;1.191216637380421E-003;9.736163192428649E-004;
2.417166666666667E+009;2.019533663988113E-001;-4.292352497577667E-002;1.406583818607032E-003;9.546084329485893E-004;
2.417333333333334E+009;2.015772461891174E-001;-4.278915375471115E-002;1.373694860376418E-003;8.683793130330741E-004;
2.417500000000000E+009;2.013823240995407E-001;-4.279533401131630E-002;1.416055718436837E-003;9.183293441310525E-004;
2.417666666666667E+009;2.006866484880447E-001;-4.257273301482201E-002;1.496975892223418E-003;7.443689974024892E-004;
2.417833333333334E+009;2.002075016498566E-001;-4.241757094860077E-002;1.672678743489087E-003;7.615159847773612E-004;
2.418000000000000E+009;1.995663791894913E-001;-4.213477298617363E-002;1.670110272243619E-003;6.935211713425815E-004;
2.418166666666667E+009;1.987664848566055E-001;-4.210210219025612E-002;1.583814155310392E-003;5.807120469398797E-004;
2.418333333333334E+009;1.978088468313217E-001;-4.202504828572273E-002;1.675561885349453E-003;5.595511756837368E-004;
2.418500000000000E+009;1.968140602111816E-001;-4.212561622262001E-002;1.793205155991018E-003;4.030083073303103E-004;
2.418666666666667E+009;1.958280205726624E-001;-4.196701571345329E-002;1.667990116402507E-003;4.279699642211199E-004;
2.418833333333334E+009;1.946353316307068E-001;-4.212663695216179E-002;1.740037696436048E-003;4.503629461396486E-004;
2.419000000000000E+009;1.932461112737656E-001;-4.230954125523567E-002;1.849539345130324E-003;4.758771974593401E-004;
2.419166666666667E+009;1.920015960931778E-001;-4.275273904204369E-002;1.876765047200024E-003;4.279154818505049E-004;
2.419333333333334E+009;1.906578689813614E-001;-4.319889098405838E-002;1.867125043645501E-003;2.830810262821615E-004;
2.419500000000000E+009;1.892009675502777E-001;-4.360352456569672E-002;2.007897943258286E-003;2.906009904108942E-004;
2.419666666666667E+009;1.876001656055450E-001;-4.438880085945129E-002;2.048434456810355E-003;2.527485194150358E-004;
2.419833333333334E+009;1.860001832246780E-001;-4.492144286632538E-002;2.031110925599933E-003;1.651173661230132E-004;
2.420000000000000E+009;1.844597011804581E-001;-4.603165388107300E-002;2.022019354626536E-003;5.762421642430127E-005;
2.420166666666667E+009;1.829492151737213E-001;-4.699542000889778E-002;2.316240454092622E-003;1.047022888087668E-004;
2.420333333333334E+009;1.813276410102844E-001;-4.833117127418518E-002;2.225271193310618E-003;7.918637129478157E-005;
2.420500000000000E+009;1.797149628400803E-001;-4.931612312793732E-002;2.352549694478512E-003;-5.054414577898569E-005;
2.420666666666667E+009;1.780254244804382E-001;-5.047371983528137E-002;2.365306951105595E-003;-3.219710779376328E-004;
2.420833333333334E+009;1.765029281377792E-001;-5.212415754795075E-002;2.499722642824054E-003;-4.992338945157826E-004;
2.421000000000000E+009;1.750587075948715E-001;-5.376378074288368E-002;2.659086836501956E-003;-6.341963890008628E-004;
2.421166666666667E+009;1.738099753856659E-001;-5.536276102066040E-002;2.569345757365227E-003;-8.272733539342880E-004;
2.421333333333334E+009;1.720121055841446E-001;-5.670056492090225E-002;2.656664932146668E-003;-1.043523894622922E-003;
2.421500000000000E+009;1.708171665668488E-001;-5.876839533448219E-002;2.602959284558892E-003;-1.295180642046034E-003;
2.421666666666667E+009;1.697651743888855E-001;-6.061422824859619E-002;2.482054289430380E-003;-1.409509801305831E-003;
2.421833333333334E+009;1.686152517795563E-001;-6.241096183657646E-002;2.438272815197706E-003;-1.455980353057385E-003;
2.422000000000000E+009;1.675173491239548E-001;-6.424039602279663E-002;2.346564549952745E-003;-1.698812353424728E-003;
2.422166666666667E+009;1.667344868183136E-001;-6.627450883388519E-002;2.130689099431038E-003;-1.909765298478305E-003;
2.422333333333334E+009;1.655824631452560E-001;-6.844365596771240E-002;1.995571656152606E-003;-2.128436928614974E-003;
2.422500000000000E+009;1.649597883224487E-001;-7.030802965164185E-002;1.960813300684094E-003;-2.243571681901813E-003;
2.422666666666667E+009;1.644291877746582E-001;-7.230681180953980E-002;1.901197130791843E-003;-2.414702670648694E-003;
2.422833333333334E+009;1.638807654380798E-001;-7.437997311353684E-002;1.661625457927585E-003;-2.488006372004747E-003;
2.423000000000000E+009;1.634229719638825E-001;-7.629131525754929E-002;1.469927839934826E-003;-2.444549463689327E-003;
2.423166666666667E+009;1.631163656711578E-001;-7.827656716108322E-002;1.235172036103904E-003;-2.603766042739153E-003;
2.423333333333334E+009;1.627896726131439E-001;-8.017479628324509E-002;9.145268704742193E-004;-2.597089158371091E-003;
2.423500000000000E+009;1.627415716648102E-001;-8.187408000230789E-002;7.146437419578433E-004;-2.687594620510936E-003;
2.423666666666667E+009;1.627456843852997E-001;-8.388860523700714E-002;6.850083591416478E-004;-2.639452461153269E-003;
2.423833333333334E+009;1.627488583326340E-001;-8.552274852991104E-002;5.366511177271605E-004;-2.600057050585747E-003;
2.424000000000000E+009;1.629659086465836E-001;-8.719638735055924E-002;3.163412038702518E-004;-2.644774736836553E-003;
2.424166666666667E+009;1.629791259765625E-001;-8.886783570051193E-002;2.191339444834739E-004;-2.404226223006845E-003;
2.424333333333334E+009;1.633302420377731E-001;-9.046594053506851E-002;-4.132102912990376E-005;-2.376678166911006E-003;
2.424500000000000E+009;1.635836809873581E-001;-9.194786846637726E-002;-3.012784873135388E-005;-2.452849177643657E-003;
2.424666666666667E+009;1.637951433658600E-001;-9.317185729742050E-002;-6.617802137043327E-005;-2.383698010817170E-003;
2.424833333333334E+009;1.644222587347031E-001;-9.454931318759918E-002;-1.659183617448434E-004;-2.094523049890995E-003;
2.425000000000000E+009;1.647362858057022E-001;-9.563309699296951E-002;-3.365215088706464E-004;-2.201704075559974E-003;
2.425166666666667E+009;1.650535613298416E-001;-9.675861895084381E-002;-5.962818395346403E-004;-2.201134106144309E-003;
2.425333333333334E+009;1.654149442911148E-001;-9.765654802322388E-002;-5.799354985356331E-004;-1.961952075362206E-003;
2.425500000000000E+009;1.658440530300140E-001;-9.860266000032425E-002;-7.397391018457711E-004;-1.899110153317452E-003;
2.425666666666667E+009;1.661492437124252E-001;-9.915828704833984E-002;-7.209065952338278E-004;-1.813894254155457E-003;
2.425833333333334E+009;1.665776968002319E-001;-1.000263914465904E-001;-8.839538204483688E-004;-1.766679110005498E-003;
2.426000000000000E+009;1.668976843357086E-001;-1.005517467856407E-001;-8.187135099433363E-004;-1.734418910928071E-003;
2.426166666666667E+009;1.672066450119019E-001;-1.009614691138268E-001;-1.010461477562785E-003;-1.671951147727668E-003;
2.426333333333334E+009;1.672515124082565E-001;-1.014409661293030E-001;-8.859041845425963E-004;-1.497801858931780E-003;
2.426500000000000E+009;1.677647531032562E-001;-1.017327606678009E-001;-1.040705712512136E-003;-1.309402519837022E-003;
2.426666666666667E+009;1.678647994995117E-001;-1.021174341440201E-001;-1.156348036602140E-003;-1.354439649730921E-003;
2.426833333333334E+009;1.682211309671402E-001;-1.023352369666100E-001;-9.828376350924373E-004;-1.223365194164217E-003;
2.427000000000000E+009;1.681897193193436E-001;-1.025069653987885E-001;-8.537168614566326E-004;-1.088813995011151E-003;
2.427166666666667E+009;1.681313663721085E-001;-1.025810986757278E-001;-1.003871555440128E-003;-9.922838071361184E-004;
2.427333333333334E+009;1.680198609828949E-001;-1.028757691383362E-001;-9.440929861739278E-004;-9.643615921959281E-004;
2.427500000000000E+009;1.678125262260437E-001;-1.031031832098961E-001;-1.070933183655143E-003;-9.369258186779916E-004;
2.427666666666667E+009;1.675616949796677E-001;-1.031084060668945E-001;-9.308324079029262E-004;-9.477044804953039E-004;
2.427833333333334E+009;1.670089811086655E-001;-1.033040210604668E-001;-9.577798191457987E-004;-7.564578554593027E-004;
