# Hz S RI R 50
2400000000.0000000000 0.172821640968322809417401231258 0.048728346824646003032643903907 0.004491971340030431747436523438 0.004129363689571619033813476562 0 0 0 0 
2400166666.6666665077 0.173219323158264187911825615629 0.048290673643350601196289062500 0.004401046782732009887695312500 0.003873028326779603958129882812 0 0 0 0 
2400333333.3333334923 0.173865720629692105392294365629 0.047218766063451766967773437500 0.004533792845904827117919921875 0.003905027406290173964259482275 0 0 0 0 
2400500000.0000000000 0.174290135502815302093182481258 0.046755515038967132568359375000 0.004374033305794000625610351562 0.003761023283004761175868368994 0 0 0 0 
2400666666.6666665077 0.174559906125068692306356865629 0.046021331101655960083007812500 0.004447878338396549224853515625 0.003617218462750316099879599463 0 0 0 0 
2400833333.3333334923 0.174890324473380986969317518742 0.045490618795156478881835937500 0.004390841349959374341482831738 0.003454005578532814979553222656 0 0 0 0 
2401000000.0000000000 0.175293713808059692382812500000 0.044725738465785980224609375000 0.004361071623861789703369140625 0.003572184359654784202575683594 0 0 0 0 
2401166666.6666665077 0.175378620624542208572549384371 0.044164042919874191284179687500 0.004487873986363410949707031250 0.003369810292497276826145791162 0 0 0 0 
2401333333.3333334923 0.175454959273338290115518134371 0.043406825512647628784179687500 0.004413155373185873031616210938 0.003306174883618950843811035156 0 0 0 0 
2401500000.0000000000 0.175672546029090909103231865629 0.042820215225219726562500000000 0.004176442045718432340140058301 0.003259396879002451896667480469 0 0 0 0 
2401666666.6666665077 0.175445899367332486251669365629 0.042162377387285232543945312500 0.004498572554439306259155273438 0.003297913586720823807957314600 0 0 0 0 
2401833333.3333334923 0.175678342580795288085937500000 0.041192300617694861675222028907 0.004518566653132438659667968750 0.003355316584929823875427246094 0 0 0 0 
2402000000.0000000000 0.175409466028213500976562500000 0.040484521538019180297851562500 0.004485417623072862625122070312 0.003323679557070136070251464844 0 0 0 0 
2402166666.6666665077 0.175387755036354092696981865629 0.039469432085752487182617187500 0.004584091715514659881591796875 0.003383485367521644072291708838 0 0 0 0 
2402333333.3333334923 0.175170674920082092285156250000 0.038651738315820687030832658593 0.005001040641218423843383789062 0.003308693412691355185267783057 0 0 0 0 
2402500000.0000000000 0.175190925598144503494424384371 0.037750113755464546894113908593 0.004994243849068880081176757812 0.003370429389178752899169921875 0 0 0 0 
2402666666.6666665077 0.174936488270759610275106865629 0.036688115447759628295898437500 0.005052410531789064407348632812 0.003182374872267245812657021631 0 0 0 0 
2402833333.3333334923 0.174711406230926513671875000000 0.035461526364088058471679687500 0.005185394547879695892333984375 0.003027984872460364861729287256 0 0 0 0 
2403000000.0000000000 0.174288183450698908050213731258 0.034290373325347900390625000000 0.005213341210037469863891601562 0.003068993333727120919468545068 0 0 0 0 
2403166666.6666665077 0.174143970012664794921875000000 0.033000145107507712627370466407 0.005648795049637556076049804688 0.002977617084980010986328125000 0 0 0 0 
2403333333.3333334923 0.173587098717689486404580634371 0.031726360321044921875000000000 0.005508522037416697415823652051 0.002848416101187468008754111182 0 0 0 0 
2403500000.0000000000 0.173306822776794405838174384371 0.030168429017066959035853201954 0.005829690489917994412893964551 0.002814849140122532844543457031 0 0 0 0 
2403666666.6666665077 0.172751590609550503829794365629 0.028540298342704769479771798046 0.006022876128554344177246093750 0.002601712709292768998387002100 0 0 0 0 
2403833333.3333334923 0.172611072659492492675781250000 0.026900611817836761474609375000 0.006059373728930950164794921875 0.002372779883444308800938271631 0 0 0 0 
2404000000.0000000000 0.172257483005523709396200615629 0.025392681360244750976562500000 0.006126412656158208847045898438 0.002425833139568566842320107568 0 0 0 0 
2404166666.6666665077 0.171804085373878506759481865629 0.023476671427488330495814139454 0.006389174144715070724487304688 0.002289644442498683929443359375 0 0 0 0 
2404333333.3333334923 0.171418219804763793945312500000 0.021831298246979709970494454296 0.006505311001092196378225995801 0.002074884716421366171595908057 0 0 0 0 
2404500000.0000000000 0.171085894107818603515625000000 0.019631208851933479309082031250 0.006532628554850816726684570312 0.001837483257986604950548481519 0 0 0 0 
2404666666.6666665077 0.170919433236122103592080634371 0.017934734001755710947056954296 0.006628784351050853729248046875 0.001566780381835997104644775391 0 0 0 0 
2404833333.3333334923 0.170531287789344787597656250000 0.016006821766495711589772810157 0.006745006423443555831909179688 0.001472524250857532024383544922 0 0 0 0 
2405000000.0000000000 0.170404002070426913162393134371 0.013975066132843489211112775195 0.006747979670763015747070312500 0.001358127105049788951873779297 0 0 0 0 
2405166666.6666665077 0.170264840126037597656250000000 0.011933169327676299703577811329 0.006930259522050619125366210938 0.001218106714077294089673686450 0 0 0 0 
2405333333.3333334923 0.170240327715873690506143134371 0.009851546026766300201416015625 0.006992372684180737409109784863 0.000908619957044720649719238281 0 0 0 0 
2405500000.0000000000 0.170254126191139193435830634371 0.008037674240767955780029296875 0.006993107497692108154296875000 0.000857916893437504768371582031 0 0 0 0 
2405666666.6666665077 0.170417636632919311523437500000 0.005929444916546344757080078125 0.007088197395205497741699218750 0.000444958335720002705424708234 0 0 0 0 
2405833333.3333334923 0.170341655611991910079794365629 0.003961704205721616744995117188 0.007200944703072310361380292676 0.000268760981271043419837951660 0 0 0 0 
2406000000.0000000000 0.170641914010047912597656250000 0.001882923417724668979644775391 0.007160387933254241943359375000 -0.000143690442200750112533569336 0 0 0 0 
2406166666.6666665077 0.170757070183753995040731865629 -0.000022560639990842901170253754 0.007350944913923740386962890625 0.000004487856131163425743579865 0 0 0 0 
2406333333.3333334923 0.171230852603912409026776231258 -0.002111296867951751188990927588 0.007398675661534070968627929688 -0.000213611798244528499528607779 0 0 0 0 
2406500000.0000000000 0.171587824821472195724325615629 -0.004097137600183486938476562500 0.007458310574293136596679687500 -0.000545874936506152153015136719 0 0 0 0 
2406666666.6666665077 0.171906486153602600097656250000 -0.006135063711553812026977539062 0.007501675747334957122802734375 -0.000853645149618387222290039062 0 0 0 0 
2406833333.3333334923 0.172446966171264703948651231258 -0.007961790077388286590576171875 0.007689584977924823760986328125 -0.001094976556487381891963339697 0 0 0 0 
2407000000.0000000000 0.173140719532966613769531250000 -0.009922797791659832000732421875 0.007649426814168691635131835938 -0.001451766467653214931488037109 0 0 0 0 
2407166666.6666665077 0.173770561814308194259481865629 -0.011790783144533630716344063671 0.007663439027965068817138671875 -0.001680700923316180922864604419 0 0 0 0 
2407333333.3333334923 0.174342796206474304199218750000 -0.013529187068343160801897617773 0.007601532619446516036987304688 -0.001964231021702290014979697119 0 0 0 0 
2407500000.0000000000 0.175073638558387811858807481258 -0.015358794480562210083007812500 0.007787064183503389358520507812 -0.002303775399923325018641806494 0 0 0 0 
2407666666.6666665077 0.175741791725158691406250000000 -0.017021501436829570425013358204 0.007761771325021982192993164062 -0.002547279931604862213134765625 0 0 0 0 
2407833333.3333334923 0.176448836922645596603231865629 -0.018783526495099071157435233204 0.007771755103021860122680664062 -0.002994796726852654977085732568 0 0 0 0 
2408000000.0000000000 0.177135050296783502776776231258 -0.020418165251612659799596016796 0.007722302805632352828979492188 -0.003344670170918107032775878906 0 0 0 0 
2408166666.6666665077 0.177938804030418395996093750000 -0.021763812750577930105189139454 0.007637549657374619570260332324 -0.003716880688443779945373535156 0 0 0 0 
2408333333.3333334923 0.178696557879447909256143134371 -0.023300295695662498474121093750 0.007571682333946228027343750000 -0.004340434912592172622680664062 0 0 0 0 
2408500000.0000000000 0.179352551698684692382812500000 -0.024850336834788318979283516796 0.007282055448740720748901367188 -0.004686327185481786727905273438 0 0 0 0 
2408666666.6666665077 0.179943248629570007324218750000 -0.026075707748532298696497733204 0.007138230837881565093994140625 -0.004973025526851415634155273438 0 0 0 0 
2408833333.3333334923 0.180411830544471712967080634371 -0.027305886149406429636021798046 0.006754332222044467926025390625 -0.005422406829893589019775390625 0 0 0 0 
2409000000.0000000000 0.180864140391349792480468750000 -0.028308939188718799245814139454 0.006683329585939645767211914062 -0.005689859390258789062500000000 0 0 0 0 
2409166666.6666665077 0.181355237960815401931924384371 -0.029422216117382049560546875000 0.006257597822695971402640058301 -0.006087599322199822339529706738 0 0 0 0 
2409333333.3333334923 0.181992143392562893966513115629 -0.030348338186740878713587576954 0.005886333994567394256591796875 -0.006207111757248640060424804688 0 0 0 0 
2409500000.0000000000 0.182170674204826410491619981258 -0.031236011534929278982142264454 0.005438562948256731033325195312 -0.006497721187770366668701171875 0 0 0 0 
2409666666.6666665077 0.182401552796363802810830634371 -0.031896721571683876728098283593 0.005284743849188089370727539062 -0.006723911967128515243530273438 0 0 0 0 
2409833333.3333334923 0.182632192969322204589843750000 -0.032324913889169692993164062500 0.005007087253034114837646484375 -0.006890650372952222824096679688 0 0 0 0 
2410000000.0000000000 0.182930037379264803787393134371 -0.032868698239326477050781250000 0.004718636628240346908569335938 -0.007107176352292299270629882812 0 0 0 0 
2410166666.6666665077 0.183256804943084689041299384371 -0.033387079834938049316406250000 0.004386119078844785690307617188 -0.007273745723068714141845703125 0 0 0 0 
2410333333.3333334923 0.183356732130050686935263115629 -0.033686362206935882568359375000 0.004022787325084208574776933887 -0.007163145113736391067504882812 0 0 0 0 
2410500000.0000000000 0.183343976736068697830361884371 -0.034289997071027762676198591407 0.003639838425442575974705361475 -0.007381172850728034973144531250 0 0 0 0 
2410666666.6666665077 0.183380395174026489257812500000 -0.034709963947534561157226562500 0.003374579129740595817565917969 -0.007593046873807907104492187500 0 0 0 0 
2410833333.3333334923 0.183345109224319513518963731258 -0.034754745662212371826171875000 0.003021660028025507926940917969 -0.007523343898355960845947265625 0 0 0 0 
2411000000.0000000000 0.183017507195472689529580634371 -0.034953210502862930297851562500 0.002751029562205075783970498193 -0.007757218554615974426269531250 0 0 0 0 
2411166666.6666665077 0.182834491133689908126669365629 -0.035542294383049011230468750000 0.002372223651036620140075683594 -0.007774384226649999618530273438 0 0 0 0 
2411333333.3333334923 0.182308271527290288727130018742 -0.035785984247922897338867187500 0.001858441159129142978070903247 -0.007885042577981948852539062500 0 0 0 0 
2411500000.0000000000 0.181986153125762911697549384371 -0.036138121038675308227539062500 0.001679653651081026034114218604 -0.007869296707212924957275390625 0 0 0 0 
2411666666.6666665077 0.181475460529327392578125000000 -0.036464650183916091918945312500 0.001376673346385359980939555591 -0.007828229106962680816650390625 0 0 0 0 
2411833333.3333334923 0.180821195244789095779580634371 -0.036896307021379470825195312500 0.000831137003842741250991821289 -0.007745364215224981307983398438 0 0 0 0 
2412000000.0000000000 0.179932117462158203125000000000 -0.037236317992210388183593750000 0.000566451752092689275741577148 -0.007843947038054466247558593750 0 0 0 0 
2412166666.6666665077 0.179306134581565912444744981258 -0.037899006158113479614257812500 0.000327505927998572587966918945 -0.007715428713709115982055664062 0 0 0 0 
2412333333.3333334923 0.178510323166847201248330634371 -0.038364402949810028076171875000 -0.000118204196041915606386722704 -0.007680229377001523971557617188 0 0 0 0 
2412500000.0000000000 0.177525535225868197342080634371 -0.038803428411483771587331403907 -0.000450681254733353907435816632 -0.007486152928322553634643554688 0 0 0 0 
2412666666.6666665077 0.176417931914329501053018134371 -0.039668586105108261108398437500 -0.000724011915735900402069091797 -0.007408452685922384262084960938 0 0 0 0 
2412833333.3333334923 0.175297841429710388183593750000 -0.040316525846719741821289062500 -0.000971451459918171167373657227 -0.007222296670079231262207031250 0 0 0 0 
2413000000.0000000000 0.174053400754928588867187500000 -0.040905836969614028930664062500 -0.001266652718186378912684775244 -0.007107243873178958892822265625 0 0 0 0 
2413166666.6666665077 0.172866165637969998458700615629 -0.041622437536716461181640625000 -0.001628570025786757902858115088 -0.006817733868956565856933593750 0 0 0 0 
2413333333.3333334923 0.171349570155143710037393134371 -0.042544845491647720336914062500 -0.001810697373002767996547079932 -0.006645326968282461166381835938 0 0 0 0 
2413500000.0000000000 0.170255452394485501388388115629 -0.043510023504495620727539062500 -0.002050433075055480003356933594 -0.006575333885848522186279296875 0 0 0 0 
2413666666.6666665077 0.169050842523574801345986884371 -0.044525709003210067749023437500 -0.002179330447688699202296591650 -0.006457067094743251800537109375 0 0 0 0 
2413833333.3333334923 0.167688578367233304122763115629 -0.045738939195871353149414062500 -0.002457524649798870086669921875 -0.006144095212221145629882812500 0 0 0 0 
2414000000.0000000000 0.166263759136200006683026231258 -0.046935085207223892211914062500 -0.002489454345777630805969238281 -0.005944690201431512832641601562 0 0 0 0 
2414166666.6666665077 0.164940699934959411621093750000 -0.048195980489253997802734375000 -0.002703191479668021202087402344 -0.005673635285347700119018554688 0 0 0 0 
2414333333.3333334923 0.163887903094291687011718750000 -0.049296032637357711791992187500 -0.002750414889305830001831054688 -0.005454055964946746826171875000 0 0 0 0 
2414500000.0000000000 0.163004010915756197830361884371 -0.050547141581773757934570312500 -0.002989174099639058113098144531 -0.005346206016838550567626953125 0 0 0 0 
2414666666.6666665077 0.161631241440773010253906250000 -0.052180524915456771850585937500 -0.003108067670837045149562216650 -0.005214747041463851928710937500 0 0 0 0 
2414833333.3333334923 0.160452395677566500564736884371 -0.053815122693777077411692033593 -0.002972336485981940789463662256 -0.004752016626298427581787109375 0 0 0 0 
2415000000.0000000000 0.159367606043815612792968750000 -0.055369567126035690307617187500 -0.003028638428077102141139365088 -0.004749729298055171966552734375 0 0 0 0 
2415166666.6666665077 0.158444851636886596679687500000 -0.056949418038129813457448591407 -0.003039888804778457121608115088 -0.004398776218295097351074218750 0 0 0 0 
2415333333.3333334923 0.157722264528274508377236884371 -0.058946888893842697143554687500 -0.003256103489547967910766601562 -0.004216894973069429397583007812 0 0 0 0 
2415500000.0000000000 0.156883642077446011642294365629 -0.060656763613224029541015625000 -0.002995355520397425131556845557 -0.004030836746096611022949218750 0 0 0 0 
2415666666.6666665077 0.156084477901458712478799384371 -0.062370438128709793090820312500 -0.002992499154061079025268554688 -0.003982488065958023071289062500 0 0 0 0 
2415833333.3333334923 0.155434474349021911621093750000 -0.064492076635360717773437500000 -0.002968939952552319006678915869 -0.003918130882084369659423828125 0 0 0 0 
2416000000.0000000000 0.154647812247276306152343750000 -0.066351026296615600585937500000 -0.002996095921844244003295898438 -0.003591631073504685921909951318 0 0 0 0 
2416166666.6666665077 0.154308557510376004318075615629 -0.068273283541202545166015625000 -0.002777314046397805213928222656 -0.003487252863124012947082519531 0 0 0 0 
2416333333.3333334923 0.153705239295959500411825615629 -0.070245727896690368652343750000 -0.002979430602863430976867675781 -0.003495412413030862808227539062 0 0 0 0 
2416500000.0000000000 0.153333440423011807540731865629 -0.072318702936172485351562500000 -0.002818073611706494851353310693 -0.003330180887132883071899414062 0 0 0 0 
2416666666.6666665077 0.152894765138626098632812500000 -0.074145615100860595703125000000 -0.002683560131117701964137411963 -0.003434448270127176804783486475 0 0 0 0 
2416833333.3333334923 0.152596354484558105468750000000 -0.076296411454677581787109375000 -0.002755978843197226958033896338 -0.003250744892284274101257324219 0 0 0 0 
2417000000.0000000000 0.152194783091545104980468750000 -0.078051552176475524902343750000 -0.002630993025377393202540732275 -0.003129971213638782934901572119 0 0 0 0 
2417166666.6666665077 0.152040705084800692459268134371 -0.079838819801807403564453125000 -0.002566823270171881155726767432 -0.003248325549066067175624228369 0 0 0 0 
2417333333.3333334923 0.151897162199020413497763115629 -0.081619285047054290771484375000 -0.002668990986421703858616494287 -0.003139958251267672018763876807 0 0 0 0 
2417500000.0000000000 0.151820272207260104080361884371 -0.083506278693675994873046875000 -0.002660211874172091917750693213 -0.003194288583472371101379394531 0 0 0 0 
2417666666.6666665077 0.151943385601043701171875000000 -0.084961161017417907714843750000 -0.002600667299702763991114951025 -0.003259718418121337890625000000 0 0 0 0 
2417833333.3333334923 0.151919260621070889571981865629 -0.086597129702568054199218750000 -0.002569875912740827040431357275 -0.003383812960237265066859579932 0 0 0 0 
2418000000.0000000000 0.151767626404762295821981865629 -0.088131256401538848876953125000 -0.002587194787338376045227050781 -0.003448707051575183868408203125 0 0 0 0 
2418166666.6666665077 0.151845857501029996017294365629 -0.089410297572612762451171875000 -0.002578819869086145920994423975 -0.003504332853481173949000693213 0 0 0 0 
2418333333.3333334923 0.152223512530326787750567518742 -0.090711280703544616699218750000 -0.002877876628190279006958007812 -0.003565034829080104827880859375 0 0 0 0 
2418500000.0000000000 0.152167022228240994552450615629 -0.091839432716369628906250000000 -0.002857939340174198150634765625 -0.003653480438515543937683105469 0 0 0 0 
2418666666.6666665077 0.152605235576629610916299384371 -0.092925436794757843017578125000 -0.003052785061299800872802734375 -0.003653262509033083915710449219 0 0 0 0 
2418833333.3333334923 0.152580529451370211502236884371 -0.093983694911003112792968750000 -0.003233953379094601111171103369 -0.003790082642808556990382529150 0 0 0 0 
2419000000.0000000000 0.152682423591613797286825615629 -0.094741687178611755371093750000 -0.003452388569712638854980468750 -0.003739431034773588180541992188 0 0 0 0 
2419166666.6666665077 0.153058275580406188964843750000 -0.095501534640789031982421875000 -0.003659722628071904182434082031 -0.003873927053064107894897460938 0 0 0 0 
2419333333.3333334923 0.153089791536331204513388115629 -0.095789849758148193359375000000 -0.003827485721558332009556435693 -0.003717634826898574829101562500 0 0 0 0 
2419500000.0000000000 0.153403431177139309982138115629 -0.096617698669433593750000000000 -0.004119353834539651870727539062 -0.003718958236277102990391396631 0 0 0 0 
2419666666.6666665077 0.153738677501678494552450615629 -0.096969805657863616943359375000 -0.004387037828564643859863281250 -0.003527909982949494881870888818 0 0 0 0 
2419833333.3333334923 0.153607949614524813553018134371 -0.097320072352886199951171875000 -0.004540499765425921353811933301 -0.003427804680541158156154013525 0 0 0 0 
