# Version 1.00
#
freq[Hz];re:Trc1_S11;im:Trc1_S11;re:Trc2_S21;im:Trc2_S21;
2.400000000000000E+009;1.551306247711182E-001;1.064148768782616E-001;-4.382432904094458E-003;-6.905079353600740E-003;
2.400166666666667E+009;1.548043787479401E-001;1.041304245591164E-001;-4.668070003390312E-003;-6.475527305155993E-003;
2.400333333333334E+009;1.547670364379883E-001;1.018100380897522E-001;-4.630283452570438E-003;-6.336255930364132E-003;
2.400500000000000E+009;1.547545343637466E-001;9.902406483888626E-002;-4.690230824053288E-003;-6.150249391794205E-003;
2.400666666666667E+009;1.549128741025925E-001;9.656140208244324E-002;-4.743615165352821E-003;-5.797091871500015E-003;
2.400833333333334E+009;1.547492742538452E-001;9.375940263271332E-002;-4.716266412287951E-003;-5.516493692994118E-003;
2.401000000000000E+009;1.550914496183395E-001;9.103117883205414E-002;-4.646724555641413E-003;-5.433124490082264E-003;
2.401166666666667E+009;1.550452858209610E-001;8.809921145439148E-002;-4.677791614085436E-003;-5.092727951705456E-003;
2.401333333333334E+009;1.554073095321655E-001;8.531530201435089E-002;-4.643139895051718E-003;-5.191442556679249E-003;
2.401500000000000E+009;1.559643000364304E-001;8.251570165157318E-002;-4.552720580250025E-003;-4.892633296549320E-003;
2.401666666666667E+009;1.562078297138214E-001;7.960449159145355E-002;-4.610511939972639E-003;-4.821119364351034E-003;
2.401833333333334E+009;1.567581295967102E-001;7.687102258205414E-002;-4.759900271892548E-003;-4.985737614333630E-003;
2.402000000000000E+009;1.576567888259888E-001;7.404763996601105E-002;-4.694656468927860E-003;-4.852809943258762E-003;
2.402166666666667E+009;1.584118753671646E-001;7.149522006511688E-002;-4.672135692089796E-003;-5.037908442318440E-003;
2.402333333333334E+009;1.594594419002533E-001;6.872262060642242E-002;-4.853512626141310E-003;-4.824894014745951E-003;
2.402500000000000E+009;1.606398373842239E-001;6.597653776407242E-002;-5.016982555389404E-003;-4.838763736188412E-003;
2.402666666666667E+009;1.616433560848236E-001;6.379367411136627E-002;-5.138751585036516E-003;-4.833505954593420E-003;
2.402833333333334E+009;1.629562526941299E-001;6.128396093845367E-002;-5.387964658439159E-003;-4.807332996279001E-003;
2.403000000000000E+009;1.645557731389999E-001;5.898895487189293E-002;-5.493146833032370E-003;-4.683424253016710E-003;
2.403166666666667E+009;1.661957949399948E-001;5.679969489574432E-002;-5.914237815886736E-003;-4.598093219101429E-003;
2.403333333333334E+009;1.673820912837982E-001;5.460549518465996E-002;-5.961142480373383E-003;-4.242170602083206E-003;
2.403500000000000E+009;1.692584604024887E-001;5.256661772727966E-002;-6.330788135528565E-003;-4.187501501291990E-003;
2.403666666666667E+009;1.709840744733810E-001;5.051875859498978E-002;-6.549491081386805E-003;-3.769725561141968E-003;
2.403833333333334E+009;1.725846976041794E-001;4.872783645987511E-002;-6.561492569744587E-003;-3.817833960056305E-003;
2.404000000000000E+009;1.741115301847458E-001;4.690787941217423E-002;-6.727681960910559E-003;-3.459834028035402E-003;
2.404166666666667E+009;1.760169863700867E-001;4.561751708388329E-002;-6.649599410593510E-003;-3.197900252416730E-003;
2.404333333333334E+009;1.776287257671356E-001;4.402015358209610E-002;-6.837797351181507E-003;-2.777180867269635E-003;
2.404500000000000E+009;1.793545633554459E-001;4.267103970050812E-002;-6.956708151847124E-003;-2.639345126226544E-003;
2.404666666666667E+009;1.807682514190674E-001;4.158096015453339E-002;-6.776594091206789E-003;-2.525705611333251E-003;
2.404833333333334E+009;1.825863569974899E-001;4.046711325645447E-002;-6.905821152031422E-003;-2.315529854968190E-003;
2.405000000000000E+009;1.838609129190445E-001;3.975412994623184E-002;-6.943535525351763E-003;-2.116576302796602E-003;
2.405166666666667E+009;1.854496747255325E-001;3.917966037988663E-002;-6.836878601461649E-003;-1.847776817157865E-003;
2.405333333333334E+009;1.868373304605484E-001;3.862003982067108E-002;-7.131115999072790E-003;-1.760525978170335E-003;
2.405500000000000E+009;1.882777363061905E-001;3.809862211346626E-002;-7.007926702499390E-003;-1.593029242940247E-003;
2.405666666666667E+009;1.895098090171814E-001;3.788430616259575E-002;-6.885635666549206E-003;-1.339878304861486E-003;
2.405833333333334E+009;1.907747834920883E-001;3.772025927901268E-002;-7.148636970669031E-003;-1.128202071413398E-003;
2.406000000000000E+009;1.917229890823364E-001;3.744447976350784E-002;-7.333118468523026E-003;-1.046664081513882E-003;
2.406166666666667E+009;1.927908360958099E-001;3.733323886990547E-002;-7.074786815792322E-003;-6.052411627024412E-004;
2.406333333333334E+009;1.937112063169479E-001;3.736835345625877E-002;-7.320942357182503E-003;-4.145286220591515E-004;
2.406500000000000E+009;1.944835036993027E-001;3.746089339256287E-002;-7.212873082607985E-003;-2.370321308262646E-004;
2.406666666666667E+009;1.949343085289002E-001;3.758391365408897E-002;-7.239569444209337E-003;5.603200042969547E-005;
2.406833333333334E+009;1.954383999109268E-001;3.743179887533188E-002;-7.155128289014101E-003;2.245107898488641E-004;
2.407000000000000E+009;1.957730501890183E-001;3.781550750136375E-002;-7.217921782284975E-003;5.464468267746270E-004;
2.407166666666667E+009;1.962242424488068E-001;3.766526654362679E-002;-7.171022705733776E-003;6.683110841549933E-004;
2.407333333333334E+009;1.960975378751755E-001;3.779804334044457E-002;-6.939359009265900E-003;1.044789678417146E-003;
2.407500000000000E+009;1.962190866470337E-001;3.801386803388596E-002;-6.856056861579418E-003;1.288268133066595E-003;
2.407666666666667E+009;1.960529237985611E-001;3.797840699553490E-002;-6.935775745660067E-003;1.417849329300225E-003;
2.407833333333334E+009;1.955235898494721E-001;3.793962299823761E-002;-6.687461398541927E-003;1.562983146868646E-003;
2.408000000000000E+009;1.955377757549286E-001;3.778466582298279E-002;-6.601031869649887E-003;1.646360033191741E-003;
2.408166666666667E+009;1.949335187673569E-001;3.747623041272163E-002;-6.476039066910744E-003;1.791709684766829E-003;
2.408333333333334E+009;1.945011615753174E-001;3.715553507208824E-002;-6.316122133284807E-003;1.969159580767155E-003;
2.408500000000000E+009;1.937588453292847E-001;3.681582957506180E-002;-6.239522248506546E-003;2.193542197346687E-003;
2.408666666666667E+009;1.932092458009720E-001;3.620087727904320E-002;-6.304738577455282E-003;2.086750697344542E-003;
2.408833333333334E+009;1.923158168792725E-001;3.543348237872124E-002;-6.018978543579578E-003;2.372200833633542E-003;
2.409000000000000E+009;1.914495825767517E-001;3.461807966232300E-002;-6.013740785419941E-003;2.360455691814423E-003;
2.409166666666667E+009;1.904397755861282E-001;3.351477161049843E-002;-5.856699310243130E-003;2.624299144372344E-003;
2.409333333333334E+009;1.895375102758408E-001;3.269311040639877E-002;-5.855929572135210E-003;2.675910713151097E-003;
2.409500000000000E+009;1.883022040128708E-001;3.124402463436127E-002;-5.754839163273573E-003;2.656095894053578E-003;
2.409666666666667E+009;1.873900592327118E-001;3.005215339362621E-002;-5.658105481415987E-003;2.786400960758328E-003;
2.409833333333334E+009;1.862246692180634E-001;2.843502350151539E-002;-5.672254133969545E-003;3.031764877960086E-003;
2.410000000000000E+009;1.853569895029068E-001;2.684400975704193E-002;-5.589562933892012E-003;2.952430397272110E-003;
2.410166666666667E+009;1.843547523021698E-001;2.505357936024666E-002;-5.500631406903267E-003;3.079672576859593E-003;
2.410333333333334E+009;1.832993477582932E-001;2.316878177225590E-002;-5.423455499112606E-003;3.077045781537890E-003;
2.410500000000000E+009;1.823260486125946E-001;2.135868184268475E-002;-5.335216876119375E-003;3.299449570477009E-003;
2.410666666666667E+009;1.813602298498154E-001;1.905909553170204E-002;-5.376219283789396E-003;3.507846733555198E-003;
2.410833333333334E+009;1.807698309421539E-001;1.680749468505383E-002;-5.472607910633087E-003;3.605353878811002E-003;
2.411000000000000E+009;1.800674051046372E-001;1.487851049751043E-002;-5.248203407973051E-003;3.669806290417910E-003;
2.411166666666667E+009;1.793077141046524E-001;1.241899281740189E-002;-5.139511078596115E-003;3.796870820224285E-003;
2.411333333333334E+009;1.789037883281708E-001;1.007727440446615E-002;-5.071559920907021E-003;3.930390812456608E-003;
2.411500000000000E+009;1.784828007221222E-001;7.642632815986872E-003;-4.917670041322708E-003;4.036951344460249E-003;
2.411666666666667E+009;1.781882643699646E-001;5.303532816469669E-003;-4.849073011428118E-003;4.096749704331160E-003;
2.411833333333334E+009;1.779225617647171E-001;2.783104078844190E-003;-4.835614468902350E-003;4.251271020621061E-003;
2.412000000000000E+009;1.780773997306824E-001;2.203944313805550E-004;-4.709844011813402E-003;4.362027626484633E-003;
2.412166666666667E+009;1.781118065118790E-001;-2.042532665655017E-003;-4.565339535474777E-003;4.539988003671169E-003;
2.412333333333334E+009;1.783366799354553E-001;-4.547711461782455E-003;-4.496990703046322E-003;4.584175068885088E-003;
2.412500000000000E+009;1.789068132638931E-001;-7.031803950667381E-003;-4.483264405280352E-003;4.738085437566042E-003;
2.412666666666667E+009;1.793327778577805E-001;-9.614224545657635E-003;-4.512204788625240E-003;4.754877183586359E-003;
2.412833333333334E+009;1.799364984035492E-001;-1.198876183480024E-002;-4.226045683026314E-003;5.023603793233633E-003;
2.413000000000000E+009;1.808459162712097E-001;-1.436767913401127E-002;-4.329171497374773E-003;4.996979143470526E-003;
2.413166666666667E+009;1.816009283065796E-001;-1.664242893457413E-002;-4.368608351796866E-003;5.197454243898392E-003;
2.413333333333334E+009;1.827910244464874E-001;-1.879599690437317E-002;-4.147409461438656E-003;5.194535013288260E-003;
2.413500000000000E+009;1.835524886846542E-001;-2.117790095508099E-002;-4.051978699862957E-003;5.657038185745478E-003;
2.413666666666667E+009;1.847952455282211E-001;-2.333739772439003E-002;-3.954363986849785E-003;5.842425394803286E-003;
2.413833333333334E+009;1.858978420495987E-001;-2.535512298345566E-002;-3.827713197097182E-003;5.937692709267139E-003;
2.414000000000000E+009;1.870074272155762E-001;-2.740242332220078E-002;-3.788356669247150E-003;6.134485360234976E-003;
2.414166666666667E+009;1.882403641939163E-001;-2.911453321576119E-002;-3.365345764905214E-003;6.505826488137245E-003;
2.414333333333334E+009;1.894683837890625E-001;-3.112347796559334E-002;-3.258146345615387E-003;6.563675589859486E-003;
2.414500000000000E+009;1.906594336032867E-001;-3.268561139702797E-002;-3.110975725576282E-003;6.738347932696343E-003;
2.414666666666667E+009;1.919870078563690E-001;-3.412327542901039E-002;-2.678582211956382E-003;6.818300578743219E-003;
2.414833333333334E+009;1.929901838302612E-001;-3.544170409440994E-002;-2.444450045004487E-003;7.140806876122952E-003;
2.415000000000000E+009;1.942268460988998E-001;-3.676929324865341E-002;-2.049542265012860E-003;7.239535450935364E-003;
2.415166666666667E+009;1.953534483909607E-001;-3.781335055828095E-002;-1.902741729281843E-003;7.335721980780363E-003;
2.415333333333334E+009;1.965143084526062E-001;-3.878891840577126E-002;-1.642825314775109E-003;7.285435218364000E-003;
2.415500000000000E+009;1.976052969694138E-001;-3.945410251617432E-002;-1.333083608187735E-003;7.487663533538580E-003;
2.415666666666667E+009;1.988240927457809E-001;-4.021429270505905E-002;-1.063024858012795E-003;7.557133212685585E-003;
2.415833333333334E+009;1.995129585266113E-001;-4.102849960327148E-002;-5.972012295387685E-004;7.621562108397484E-003;
2.416000000000000E+009;2.004419714212418E-001;-4.148497059941292E-002;-4.781982861459255E-004;7.547228131443262E-003;
2.416166666666667E+009;2.010651230812073E-001;-4.206137359142304E-002;-1.285576445297920E-006;7.694863248616457E-003;
2.416333333333334E+009;2.017901837825775E-001;-4.224882647395134E-002;2.773014130070806E-004;7.747441530227661E-003;
2.416500000000000E+009;2.023017853498459E-001;-4.252013564109802E-002;4.756077250931412E-004;7.562217768281698E-003;
2.416666666666667E+009;2.025798708200455E-001;-4.286050796508789E-002;9.267972200177610E-004;7.629540283232927E-003;
2.416833333333334E+009;2.027632892131805E-001;-4.279502481222153E-002;1.184874330647290E-003;7.549705449491739E-003;
2.417000000000000E+009;2.027921974658966E-001;-4.295131564140320E-002;1.424327259883285E-003;7.327420637011528E-003;
2.417166666666667E+009;2.026331126689911E-001;-4.287328943610191E-002;1.794833224266768E-003;7.421752903610468E-003;
2.417333333333334E+009;2.023438960313797E-001;-4.260371997952461E-002;2.064894884824753E-003;7.064297329634428E-003;
2.417500000000000E+009;2.021084427833557E-001;-4.262257367372513E-002;2.193132415413857E-003;7.031095679849386E-003;
2.417666666666667E+009;2.015835195779800E-001;-4.242086410522461E-002;2.453561872243881E-003;6.758204661309719E-003;
2.417833333333334E+009;2.011393904685974E-001;-4.227435216307640E-002;2.749215811491013E-003;6.648283451795578E-003;
2.418000000000000E+009;2.003709375858307E-001;-4.197680950164795E-002;2.959927078336477E-003;6.566205061972141E-003;
2.418166666666667E+009;1.995548307895660E-001;-4.200293123722076E-002;3.138239728286862E-003;6.298667751252651E-003;
2.418333333333334E+009;1.986823678016663E-001;-4.167387261986733E-002;3.396392567083240E-003;6.135188043117523E-003;
2.418500000000000E+009;1.976540833711624E-001;-4.169829562306404E-002;3.605973441153765E-003;5.958892870694399E-003;
2.418666666666667E+009;1.966790854930878E-001;-4.164868593215942E-002;3.713270882144570E-003;5.706503521651030E-003;
2.418833333333334E+009;1.954943537712097E-001;-4.187794029712677E-002;3.878679824993014E-003;5.369320977479219E-003;
2.419000000000000E+009;1.941785067319870E-001;-4.203108325600624E-002;4.066907800734043E-003;5.278010852634907E-003;
2.419166666666667E+009;1.927995532751083E-001;-4.223718494176865E-002;4.104475490748882E-003;4.999247845262289E-003;
2.419333333333334E+009;1.913564354181290E-001;-4.283713176846504E-002;4.299624823033810E-003;4.739047493785620E-003;
2.419500000000000E+009;1.897812783718109E-001;-4.309080541133881E-002;4.192222375422716E-003;4.572344478219748E-003;
2.419666666666667E+009;1.883283257484436E-001;-4.394002258777618E-002;4.234531428664923E-003;4.182530101388693E-003;
2.419833333333334E+009;1.866335868835449E-001;-4.469302669167519E-002;4.195539746433497E-003;4.036461934447289E-003;
2.420000000000000E+009;1.851022988557816E-001;-4.550219327211380E-002;4.089869558811188E-003;3.704245900735259E-003;
2.420166666666667E+009;1.834442019462585E-001;-4.641039296984673E-002;4.242217168211937E-003;3.758336417376995E-003;
2.420333333333334E+009;1.819150894880295E-001;-4.748139157891274E-002;3.982133232057095E-003;3.519509453326464E-003;
2.420500000000000E+009;1.802809983491898E-001;-4.891904443502426E-002;4.001928959041834E-003;3.493101568892598E-003;
2.420666666666667E+009;1.786143034696579E-001;-5.011028796434403E-002;3.955563530325890E-003;3.188754664734006E-003;
2.420833333333334E+009;1.769730150699616E-001;-5.150754749774933E-002;3.900242969393730E-003;3.242319682613015E-003;
2.421000000000000E+009;1.755921840667725E-001;-5.313128978013992E-002;3.753185272216797E-003;3.206850495189428E-003;
2.421166666666667E+009;1.742211431264877E-001;-5.486483499407768E-002;3.772274823859334E-003;3.261209232732654E-003;
2.421333333333334E+009;1.723178327083588E-001;-5.630297958850861E-002;3.674350678920746E-003;3.281883895397186E-003;
2.421500000000000E+009;1.711332499980927E-001;-5.836624652147293E-002;3.777268342673779E-003;3.185743000358343E-003;
2.421666666666667E+009;1.699727624654770E-001;-6.011847034096718E-002;3.725759452208877E-003;3.151111770421267E-003;
2.421833333333334E+009;1.688071489334106E-001;-6.214692071080208E-002;3.808047156780958E-003;3.260750323534012E-003;
2.422000000000000E+009;1.675716340541840E-001;-6.409532576799393E-002;3.857577452436090E-003;3.352609928697348E-003;
2.422166666666667E+009;1.668605059385300E-001;-6.612382084131241E-002;3.946468234062195E-003;3.227289300411940E-003;
2.422333333333334E+009;1.657962650060654E-001;-6.833129376173019E-002;4.046751651912928E-003;3.247694112360477E-003;
2.422500000000000E+009;1.650654077529907E-001;-7.002057880163193E-002;4.218487069010735E-003;3.244102932512760E-003;
2.422666666666667E+009;1.642681956291199E-001;-7.217339426279068E-002;4.275579005479813E-003;3.231591079384089E-003;
2.422833333333334E+009;1.639024168252945E-001;-7.427868992090225E-002;4.449747502803803E-003;3.255947958678007E-003;
2.423000000000000E+009;1.633845716714859E-001;-7.649023830890656E-002;4.535571206361055E-003;3.031621454283595E-003;
2.423166666666667E+009;1.630073785781860E-001;-7.830914855003357E-002;4.618138074874878E-003;2.945031737908721E-003;
2.423333333333334E+009;1.626357436180115E-001;-8.036392182111740E-002;4.869022872298956E-003;2.759361639618874E-003;
2.423500000000000E+009;1.626691669225693E-001;-8.215904235839844E-002;4.824929870665073E-003;2.611658303067088E-003;
2.423666666666667E+009;1.627011150121689E-001;-8.414489030838013E-002;5.058683920651674E-003;2.481455914676189E-003;
2.423833333333334E+009;1.625070571899414E-001;-8.581883460283279E-002;4.931084811687470E-003;2.267516916617751E-003;
2.424000000000000E+009;1.627827584743500E-001;-8.761440217494965E-002;5.143742077052593E-003;2.324315253645182E-003;
2.424166666666667E+009;1.629527509212494E-001;-8.925088495016098E-002;4.987180698662996E-003;2.229229779914022E-003;
2.424333333333334E+009;1.630616188049316E-001;-9.077218919992447E-002;5.251486320048571E-003;2.136740367859602E-003;
2.424500000000000E+009;1.634460091590881E-001;-9.241694211959839E-002;5.313615780323744E-003;2.040297025814652E-003;
2.424666666666667E+009;1.636818647384644E-001;-9.381201863288879E-002;5.314518231898546E-003;1.894874963909388E-003;
2.424833333333334E+009;1.642330139875412E-001;-9.504806250333786E-002;5.493264645338059E-003;1.672208076342940E-003;
2.425000000000000E+009;1.645620167255402E-001;-9.619545936584473E-002;5.601686891168356E-003;1.617709174752235E-003;
2.425166666666667E+009;1.649270653724670E-001;-9.721007198095322E-002;5.704078357666731E-003;1.604391727596521E-003;
2.425333333333334E+009;1.652802377939224E-001;-9.821707010269165E-002;5.894138012081385E-003;1.322305412031710E-003;
2.425500000000000E+009;1.656086593866348E-001;-9.924087673425674E-002;5.833539180457592E-003;1.191077055409551E-003;
2.425666666666667E+009;1.661384105682373E-001;-9.967254847288132E-002;6.084697786718607E-003;9.559392929077148E-004;
2.425833333333334E+009;1.665278822183609E-001;-1.005760878324509E-001;6.117591634392738E-003;7.772551034577191E-004;
2.426000000000000E+009;1.669877171516419E-001;-1.009758338332176E-001;6.224033422768116E-003;5.339465569704771E-004;
2.426166666666667E+009;1.673220098018646E-001;-1.014169082045555E-001;6.265499163419008E-003;2.791904262267053E-004;
2.426333333333334E+009;1.673764437437058E-001;-1.020301133394241E-001;6.293535698205233E-003;3.943464980693534E-005;
2.426500000000000E+009;1.679347008466721E-001;-1.021584570407867E-001;6.296291481703520E-003;-3.391539503354579E-004;
2.426666666666667E+009;1.680847406387329E-001;-1.024943813681603E-001;6.406127475202084E-003;-4.159191739745438E-004;
2.426833333333334E+009;1.684035658836365E-001;-1.027543246746063E-001;6.170013453811407E-003;-7.433600258082151E-004;
2.427000000000000E+009;1.685020625591278E-001;-1.029337346553803E-001;6.297442596405745E-003;-9.733831393532455E-004;
2.427166666666667E+009;1.684605479240418E-001;-1.029095947742462E-001;6.202860269695520E-003;-1.372127910144627E-003;
2.427333333333334E+009;1.683378666639328E-001;-1.031203940510750E-001;6.167973857372999E-003;-1.519264769740403E-003;
2.427500000000000E+009;1.681211441755295E-001;-1.033118069171906E-001;6.004842463880777E-003;-1.732185366563499E-003;
2.427666666666667E+009;1.677654236555100E-001;-1.032517701387405E-001;5.966778378933668E-003;-1.903075492009521E-003;
2.427833333333334E+009;1.674519628286362E-001;-1.034509614109993E-001;5.802264902740717E-003;-2.267291769385338E-003;
