# Version 1.00
#
freq[Hz];re:Trc1_S11;im:Trc1_S11;re:Trc2_S21;im:Trc2_S21;
2.400000000000000E+009;1.549751013517380E-001;1.069522574543953E-001;-4.403464030474424E-003;-6.837123539298773E-003;
2.400166666666667E+009;1.547973155975342E-001;1.045477017760277E-001;-4.415875766426325E-003;-6.454803049564362E-003;
2.400333333333334E+009;1.547475606203079E-001;1.022732928395271E-001;-4.732578992843628E-003;-6.251080427318811E-003;
2.400500000000000E+009;1.548205465078354E-001;9.953719377517700E-002;-4.721823148429394E-003;-6.024179980158806E-003;
2.400666666666667E+009;1.548772305250168E-001;9.712842106819153E-002;-4.822015762329102E-003;-5.881052929908037E-003;
2.400833333333334E+009;1.546344459056854E-001;9.421601146459580E-002;-4.616144113242626E-003;-5.505510140210390E-003;
2.401000000000000E+009;1.549431979656220E-001;9.148837625980377E-002;-4.612739663571119E-003;-5.328567232936621E-003;
2.401166666666667E+009;1.550138890743256E-001;8.857950568199158E-002;-4.693256225436926E-003;-5.176809616386890E-003;
2.401333333333334E+009;1.553994715213776E-001;8.573485910892487E-002;-4.573553334921598E-003;-5.028207320719957E-003;
2.401500000000000E+009;1.558785885572434E-001;8.283308893442154E-002;-4.508533980697393E-003;-4.970465786755085E-003;
2.401666666666667E+009;1.562699377536774E-001;8.008072525262833E-002;-4.427536856383085E-003;-5.000558681786060E-003;
2.401833333333334E+009;1.568742096424103E-001;7.725226879119873E-002;-4.400874488055706E-003;-4.929255694150925E-003;
2.402000000000000E+009;1.576013416051865E-001;7.444095611572266E-002;-4.525905940681696E-003;-4.953275900334120E-003;
2.402166666666667E+009;1.586325615644455E-001;7.198692113161087E-002;-4.716458730399609E-003;-5.009146872907877E-003;
2.402333333333334E+009;1.593196392059326E-001;6.909547001123428E-002;-4.807244054973126E-003;-4.998001735657454E-003;
2.402500000000000E+009;1.606368720531464E-001;6.652932614088059E-002;-5.069109611213207E-003;-4.924175795167685E-003;
2.402666666666667E+009;1.615844070911408E-001;6.415101140737534E-002;-5.051129497587681E-003;-4.974290262907744E-003;
2.402833333333334E+009;1.630349755287170E-001;6.164576113224030E-002;-5.381383467465639E-003;-4.687984939664602E-003;
2.403000000000000E+009;1.644657403230667E-001;5.930620804429054E-002;-5.561593919992447E-003;-4.480650182813406E-003;
2.403166666666667E+009;1.663513332605362E-001;5.710311979055405E-002;-5.791919305920601E-003;-4.679493606090546E-003;
2.403333333333334E+009;1.677735894918442E-001;5.503444001078606E-002;-5.996739491820335E-003;-4.401304293423891E-003;
2.403500000000000E+009;1.694052666425705E-001;5.304174497723579E-002;-6.164305377751589E-003;-4.088360816240311E-003;
2.403666666666667E+009;1.716448217630386E-001;5.127005651593208E-002;-6.251228973269463E-003;-3.981743473559618E-003;
2.403833333333334E+009;1.728184968233109E-001;4.903499782085419E-002;-6.315044593065977E-003;-3.801431274041534E-003;
2.404000000000000E+009;1.744140237569809E-001;4.740564897656441E-002;-6.427670828998089E-003;-3.374380059540272E-003;
2.404166666666667E+009;1.760690361261368E-001;4.577123001217842E-002;-6.701431702822447E-003;-3.121662186458707E-003;
2.404333333333334E+009;1.778350621461868E-001;4.445061087608337E-002;-6.846064236015081E-003;-2.884760731831193E-003;
2.404500000000000E+009;1.790967881679535E-001;4.333160445094109E-002;-6.871876306831837E-003;-2.839796477928758E-003;
2.404666666666667E+009;1.810067296028137E-001;4.179220646619797E-002;-6.758641917258501E-003;-2.676391741260886E-003;
2.404833333333334E+009;1.828445494174957E-001;4.088404029607773E-002;-7.012333255261183E-003;-2.420956967398524E-003;
2.405000000000000E+009;1.840663105249405E-001;3.996294736862183E-002;-6.868857424706221E-003;-2.046450274065137E-003;
2.405166666666667E+009;1.856318414211273E-001;3.949164599180222E-002;-7.056502625346184E-003;-1.957892673090100E-003;
2.405333333333334E+009;1.871635019779205E-001;3.896251693367958E-002;-6.883251946419478E-003;-1.783221028745174E-003;
2.405500000000000E+009;1.885818392038345E-001;3.844314441084862E-002;-7.102921605110169E-003;-1.592655200511217E-003;
2.405666666666667E+009;1.897737830877304E-001;3.808959573507309E-002;-6.994029972702265E-003;-1.350745907984674E-003;
2.405833333333334E+009;1.910814493894577E-001;3.779800981283188E-002;-7.094256579875946E-003;-1.174306846223772E-003;
2.406000000000000E+009;1.920474320650101E-001;3.762981295585632E-002;-7.269010413438082E-003;-9.490512893535197E-004;
2.406166666666667E+009;1.931081563234329E-001;3.752461820840836E-002;-7.260188460350037E-003;-6.525294738821685E-004;
2.406333333333334E+009;1.939646750688553E-001;3.765316307544708E-002;-7.284813560545445E-003;-5.559863056987524E-004;
2.406500000000000E+009;1.947171539068222E-001;3.753251209855080E-002;-7.420624606311321E-003;-2.715429291129112E-004;
2.406666666666667E+009;1.953482776880264E-001;3.767888247966766E-002;-7.212300319224596E-003;-8.555724343750626E-005;
2.406833333333334E+009;1.958579272031784E-001;3.757999837398529E-002;-7.220974192023277E-003;2.572352823335677E-004;
2.407000000000000E+009;1.962505728006363E-001;3.798033669590950E-002;-7.372305262833834E-003;5.667478544637561E-004;
2.407166666666667E+009;1.965019404888153E-001;3.769127652049065E-002;-7.313048001378775E-003;8.097091922536492E-004;
2.407333333333334E+009;1.964387148618698E-001;3.805572539567947E-002;-7.078059483319521E-003;9.127042721956968E-004;
2.407500000000000E+009;1.964105069637299E-001;3.805859759449959E-002;-7.001765072345734E-003;1.178545644506812E-003;
2.407666666666667E+009;1.964181959629059E-001;3.802912682294846E-002;-6.990378722548485E-003;1.400401350110769E-003;
2.407833333333334E+009;1.959559023380280E-001;3.797852247953415E-002;-6.679786834865809E-003;1.408532727509737E-003;
2.408000000000000E+009;1.959079056978226E-001;3.790302947163582E-002;-6.572104990482330E-003;1.672453712671995E-003;
2.408166666666667E+009;1.951977014541626E-001;3.754670917987824E-002;-6.560937501490116E-003;1.894056447781622E-003;
2.408333333333334E+009;1.947190910577774E-001;3.709822520613670E-002;-6.744655780494213E-003;2.020224928855896E-003;
2.408500000000000E+009;1.940519809722900E-001;3.673190250992775E-002;-6.421088241040707E-003;1.975434133782983E-003;
2.408666666666667E+009;1.934003531932831E-001;3.624943643808365E-002;-6.237596273422241E-003;2.237028675153852E-003;
2.408833333333334E+009;1.927109062671661E-001;3.556047379970551E-002;-6.206077989190817E-003;2.293572761118412E-003;
2.409000000000000E+009;1.917416304349899E-001;3.463274240493774E-002;-6.093951873481274E-003;2.458204515278339E-003;
2.409166666666667E+009;1.908310353755951E-001;3.361238166689873E-002;-5.937527865171433E-003;2.466606441885233E-003;
2.409333333333334E+009;1.898078024387360E-001;3.276361152529717E-002;-5.921861622482538E-003;2.508194884285331E-003;
2.409500000000000E+009;1.886442154645920E-001;3.144623711705208E-002;-5.906088277697563E-003;2.586992923170328E-003;
2.409666666666667E+009;1.877104043960571E-001;2.997492440044880E-002;-5.879303906112909E-003;2.701921155676246E-003;
2.409833333333334E+009;1.866197586059570E-001;2.855254150927067E-002;-5.790486000478268E-003;2.864409238100052E-003;
2.410000000000000E+009;1.855804175138474E-001;2.684461697936058E-002;-5.596921313554049E-003;2.855163533240557E-003;
2.410166666666667E+009;1.846237629652023E-001;2.513679303228855E-002;-5.645894445478916E-003;3.020825097337365E-003;
2.410333333333334E+009;1.835277974605560E-001;2.336361818015575E-002;-5.494382232427597E-003;3.204446751624346E-003;
2.410500000000000E+009;1.825262904167175E-001;2.139316312968731E-002;-5.645875819027424E-003;3.315145615488291E-003;
2.410666666666667E+009;1.817301362752914E-001;1.919837296009064E-002;-5.583371967077255E-003;3.499840153381228E-003;
2.410833333333334E+009;1.811649054288864E-001;1.689468882977963E-002;-5.402025766670704E-003;3.644081531092525E-003;
2.411000000000000E+009;1.804595738649368E-001;1.482176128774881E-002;-5.337095353752375E-003;3.662952454760671E-003;
2.411166666666667E+009;1.797416508197784E-001;1.258538663387299E-002;-5.389232188463211E-003;3.864699974656105E-003;
2.411333333333334E+009;1.791654676198959E-001;9.945191442966461E-003;-5.261428654193878E-003;3.993406891822815E-003;
2.411500000000000E+009;1.787340939044952E-001;7.682649418711662E-003;-4.987546242773533E-003;4.015577491372824E-003;
2.411666666666667E+009;1.786686182022095E-001;5.220577586442232E-003;-5.075718741863966E-003;4.253611434251070E-003;
2.411833333333334E+009;1.783285290002823E-001;2.780838171020150E-003;-4.889764823019505E-003;4.339841194450855E-003;
2.412000000000000E+009;1.784753650426865E-001;8.360663923667744E-005;-4.812863189727068E-003;4.461124073714018E-003;
2.412166666666667E+009;1.784415841102600E-001;-2.244672272354364E-003;-4.770314320921898E-003;4.599465522915125E-003;
2.412333333333334E+009;1.787276715040207E-001;-4.606036935001612E-003;-4.658382385969162E-003;4.504750948399305E-003;
2.412500000000000E+009;1.791335940361023E-001;-7.245894055813551E-003;-4.503176081925631E-003;4.836115054786205E-003;
2.412666666666667E+009;1.796790361404419E-001;-9.636379778385162E-003;-4.422829020768404E-003;4.827552009373903E-003;
2.412833333333334E+009;1.803606301546097E-001;-1.197905093431473E-002;-4.411106463521719E-003;5.038997158408165E-003;
2.413000000000000E+009;1.810361146926880E-001;-1.436583418399096E-002;-4.446331411600113E-003;5.024336278438568E-003;
2.413166666666667E+009;1.818090528249741E-001;-1.655808091163635E-002;-4.205616656690836E-003;5.200698040425777E-003;
2.413333333333334E+009;1.830350905656815E-001;-1.907519064843655E-002;-4.309321753680706E-003;5.431581288576126E-003;
2.413500000000000E+009;1.838425695896149E-001;-2.122910879552364E-002;-4.135613795369864E-003;5.590671673417091E-003;
2.413666666666667E+009;1.850760579109192E-001;-2.355950511991978E-002;-4.023599904030561E-003;6.019719876348972E-003;
2.413833333333334E+009;1.861979961395264E-001;-2.559043467044830E-002;-3.893427317962050E-003;6.194143556058407E-003;
2.414000000000000E+009;1.871192902326584E-001;-2.750162221491337E-002;-3.807906527072191E-003;6.422492209821940E-003;
2.414166666666667E+009;1.885976195335388E-001;-2.928376756608486E-002;-3.389809047803283E-003;6.720611825585365E-003;
2.414333333333334E+009;1.895442605018616E-001;-3.109796717762947E-002;-3.354213200509548E-003;6.647057831287384E-003;
2.414500000000000E+009;1.908235549926758E-001;-3.282782435417175E-002;-2.974526723846793E-003;6.896886508911848E-003;
2.414666666666667E+009;1.920349597930908E-001;-3.421263396739960E-002;-2.836306346580386E-003;7.070331834256649E-003;
2.414833333333334E+009;1.931742578744888E-001;-3.558656200766563E-002;-2.497574547305703E-003;7.230077870190144E-003;
2.415000000000000E+009;1.943624168634415E-001;-3.693456947803497E-002;-2.126776613295078E-003;7.244595326483250E-003;
2.415166666666667E+009;1.956713944673538E-001;-3.802950307726860E-002;-1.793009461835027E-003;7.389653939753771E-003;
2.415333333333334E+009;1.966851502656937E-001;-3.890498355031014E-002;-1.546459156088531E-003;7.519241422414780E-003;
2.415500000000000E+009;1.977330446243286E-001;-3.977207094430924E-002;-1.369997044093907E-003;7.554523181170225E-003;
2.415666666666667E+009;1.988085508346558E-001;-4.059430211782455E-002;-1.147285336628556E-003;7.587373722344637E-003;
2.415833333333334E+009;1.996631175279617E-001;-4.103078320622444E-002;-6.488072685897350E-004;7.683484815061092E-003;
2.416000000000000E+009;2.005096077919006E-001;-4.150282219052315E-002;-3.693360777106136E-004;7.643428631126881E-003;
2.416166666666667E+009;2.012507170438767E-001;-4.211318492889404E-002;-1.869965635705739E-004;7.749291136860848E-003;
2.416333333333334E+009;2.019036263227463E-001;-4.241196811199188E-002;6.024207323207520E-005;7.772857323288918E-003;
2.416500000000000E+009;2.023140937089920E-001;-4.264853894710541E-002;4.478479095268995E-004;7.807611487805843E-003;
2.416666666666667E+009;2.026695609092712E-001;-4.304497316479683E-002;7.845993386581540E-004;7.639235816895962E-003;
2.416833333333334E+009;2.027812451124191E-001;-4.293273761868477E-002;1.159155159257352E-003;7.613480091094971E-003;
2.417000000000000E+009;2.028170824050903E-001;-4.309850931167603E-002;1.538239768706262E-003;7.505421992391348E-003;
2.417166666666667E+009;2.026451081037521E-001;-4.300718754529953E-002;1.772157149389386E-003;7.378080859780312E-003;
2.417333333333334E+009;2.025225013494492E-001;-4.280854016542435E-002;2.086119726300240E-003;7.380759343504906E-003;
2.417500000000000E+009;2.022634148597717E-001;-4.276209697127342E-002;2.318910788744688E-003;7.035334594547749E-003;
2.417666666666667E+009;2.015524506568909E-001;-4.266916587948799E-002;2.515260595828295E-003;6.971201393753290E-003;
2.417833333333334E+009;2.012663781642914E-001;-4.245030879974365E-002;2.931404160335660E-003;6.828806828707457E-003;
2.418000000000000E+009;2.005621492862701E-001;-4.216478765010834E-002;3.064065240323544E-003;6.507931277155876E-003;
2.418166666666667E+009;1.996203213930130E-001;-4.219644889235497E-002;3.176759695634246E-003;6.491829641163349E-003;
2.418333333333334E+009;1.987964510917664E-001;-4.198421165347099E-002;3.357518697157502E-003;6.190808955579996E-003;
2.418500000000000E+009;1.977692693471909E-001;-4.201873391866684E-002;3.521761391311884E-003;5.810346920043230E-003;
2.418666666666667E+009;1.967964619398117E-001;-4.191697761416435E-002;3.728293348103762E-003;5.900582764297724E-003;
2.418833333333334E+009;1.953973770141602E-001;-4.196727275848389E-002;3.802153514698148E-003;5.595853086560965E-003;
2.419000000000000E+009;1.942028105258942E-001;-4.231400787830353E-002;3.958413843065500E-003;5.240089260041714E-003;
2.419166666666667E+009;1.928754597902298E-001;-4.249150678515434E-002;4.194350447505713E-003;5.186145193874836E-003;
2.419333333333334E+009;1.913976371288300E-001;-4.298301786184311E-002;4.057724960148335E-003;4.724968690425158E-003;
2.419500000000000E+009;1.898650676012039E-001;-4.335828498005867E-002;4.303903318941593E-003;4.632772877812386E-003;
2.419666666666667E+009;1.883898228406906E-001;-4.416643455624580E-002;4.315191879868507E-003;4.428214393556118E-003;
2.419833333333334E+009;1.866841167211533E-001;-4.490806907415390E-002;4.321891348809004E-003;4.151874221861363E-003;
2.420000000000000E+009;1.850915402173996E-001;-4.557713866233826E-002;4.444342572242022E-003;3.877085400745273E-003;
2.420166666666667E+009;1.834720075130463E-001;-4.671289399266243E-002;4.276905674487352E-003;3.806327236816287E-003;
2.420333333333334E+009;1.818899810314179E-001;-4.788341000676155E-002;4.077248740941286E-003;3.488089423626661E-003;
2.420500000000000E+009;1.801031380891800E-001;-4.914085194468498E-002;3.919900394976139E-003;3.449787851423025E-003;
2.420666666666667E+009;1.784864366054535E-001;-5.026429519057274E-002;4.028881900012493E-003;3.347570076584816E-003;
2.420833333333334E+009;1.769121736288071E-001;-5.184105783700943E-002;3.853309201076627E-003;3.242281731218100E-003;
2.421000000000000E+009;1.755337417125702E-001;-5.324705690145493E-002;3.848583670333028E-003;3.260876983404160E-003;
2.421166666666667E+009;1.740080565214157E-001;-5.502654612064362E-002;3.764959285035729E-003;3.249304136261344E-003;
2.421333333333334E+009;1.724222451448441E-001;-5.666828900575638E-002;3.703238209709525E-003;3.061580704525113E-003;
2.421500000000000E+009;1.710505336523056E-001;-5.845408141613007E-002;3.623232245445252E-003;3.109684679657221E-003;
2.421666666666667E+009;1.697932928800583E-001;-6.041756644845009E-002;3.803200321272016E-003;3.288025967776775E-003;
2.421833333333334E+009;1.686256080865860E-001;-6.226055324077606E-002;3.664635121822357E-003;3.348690923303366E-003;
2.422000000000000E+009;1.675915271043778E-001;-6.428409367799759E-002;3.753575496375561E-003;3.404574468731880E-003;
2.422166666666667E+009;1.666651368141174E-001;-6.644227355718613E-002;3.937787376344204E-003;3.293645801022649E-003;
2.422333333333334E+009;1.656615138053894E-001;-6.842753291130066E-002;4.024255089461803E-003;3.434923244640231E-003;
2.422500000000000E+009;1.648175567388535E-001;-7.032441347837448E-002;4.069872200489044E-003;3.197798505425453E-003;
2.422666666666667E+009;1.641679704189301E-001;-7.239907979965210E-002;4.204587079584599E-003;3.331953426823020E-003;
2.422833333333334E+009;1.635828018188477E-001;-7.441426068544388E-002;4.475036170333624E-003;3.105611074715853E-003;
2.423000000000000E+009;1.632835119962692E-001;-7.662129402160645E-002;4.638731945306063E-003;2.859588246792555E-003;
2.423166666666667E+009;1.627392917871475E-001;-7.848538458347321E-002;4.659428726881743E-003;3.001586301252246E-003;
2.423333333333334E+009;1.623934656381607E-001;-8.033522963523865E-002;4.855852574110031E-003;2.649552654474974E-003;
2.423500000000000E+009;1.624431610107422E-001;-8.208097517490387E-002;5.160992965102196E-003;2.636528806760907E-003;
2.423666666666667E+009;1.624876260757446E-001;-8.415340632200241E-002;5.174132995307446E-003;2.531549893319607E-003;
2.423833333333334E+009;1.624602377414703E-001;-8.592482656240463E-002;4.953928757458925E-003;2.556005259975791E-003;
2.424000000000000E+009;1.627344489097595E-001;-8.767029643058777E-002;5.189479328691959E-003;2.039107494056225E-003;
2.424166666666667E+009;1.626833826303482E-001;-8.917143940925598E-002;5.349935032427311E-003;2.202394651249051E-003;
2.424333333333334E+009;1.628542691469193E-001;-9.077018499374390E-002;5.268313921988010E-003;2.187408972531557E-003;
2.424500000000000E+009;1.631443947553635E-001;-9.244334697723389E-002;5.503739230334759E-003;1.929790829308331E-003;
2.424666666666667E+009;1.634401381015778E-001;-9.382757544517517E-002;5.544751416891813E-003;1.796914264559746E-003;
2.424833333333334E+009;1.640327572822571E-001;-9.510497003793716E-002;5.634423345327377E-003;1.695626880973578E-003;
2.425000000000000E+009;1.645592898130417E-001;-9.617368876934052E-002;5.634461063891649E-003;1.675824285484850E-003;
2.425166666666667E+009;1.648837029933929E-001;-9.732642769813538E-002;5.929436068981886E-003;1.398425549268723E-003;
2.425333333333334E+009;1.651030182838440E-001;-9.829621016979218E-002;5.937593989074230E-003;1.155068166553974E-003;
2.425500000000000E+009;1.656003147363663E-001;-9.915341436862946E-002;6.090802140533924E-003;1.007700804620981E-003;
2.425666666666667E+009;1.660927981138229E-001;-9.982180595397949E-002;6.096464581787586E-003;9.330258471891284E-004;
2.425833333333334E+009;1.663223206996918E-001;-1.006981655955315E-001;6.218470633029938E-003;5.452102050185204E-004;
2.426000000000000E+009;1.668200939893723E-001;-1.010452359914780E-001;6.292028352618218E-003;4.366500361356884E-004;
2.426166666666667E+009;1.671922504901886E-001;-1.015320941805840E-001;6.273073144257069E-003;2.513948711566627E-004;
2.426333333333334E+009;1.673499494791031E-001;-1.020295396447182E-001;6.340388208627701E-003;-1.754859404172748E-004;
2.426500000000000E+009;1.676407009363174E-001;-1.021903380751610E-001;6.475768052041531E-003;-2.485599543433636E-004;
2.426666666666667E+009;1.679396033287048E-001;-1.025480777025223E-001;6.292135454714298E-003;-6.866888725198805E-004;
2.426833333333334E+009;1.682442873716354E-001;-1.028708592057228E-001;6.274410523474217E-003;-9.134268620982766E-004;
2.427000000000000E+009;1.682118028402329E-001;-1.029783487319946E-001;6.204572506248951E-003;-1.100773690268397E-003;
2.427166666666667E+009;1.682760119438171E-001;-1.029698774218559E-001;6.214274093508720E-003;-1.535872928798199E-003;
2.427333333333334E+009;1.682665795087814E-001;-1.032434478402138E-001;6.021459121257067E-003;-1.682579866610467E-003;
2.427500000000000E+009;1.679697930812836E-001;-1.033821478486061E-001;5.902427714318037E-003;-1.876456430181861E-003;
2.427666666666667E+009;1.677279770374298E-001;-1.033147871494293E-001;5.747022107243538E-003;-2.015823964029551E-003;
2.427833333333334E+009;1.673804968595505E-001;-1.034185513854027E-001;5.770332645624876E-003;-2.322895918041468E-003;
