# Version 1.00
#
freq[Hz];re:Trc1_S11;im:Trc1_S11;re:Trc2_S21;im:Trc2_S21;
2.400000000000000E+009;1.729284524917603E-001;4.892367869615555E-002;-2.427369054203155E-006;-4.868995863944292E-003;
2.400166666666667E+009;1.735107451677322E-001;4.859407246112824E-002;-2.488649042788893E-004;-4.880046937614679E-003;
2.400333333333334E+009;1.740555167198181E-001;4.764151573181152E-002;-4.230116610415280E-004;-4.797229077666998E-003;
2.400500000000000E+009;1.744594424962997E-001;4.711439087986946E-002;-6.046498310752213E-004;-4.880385939031839E-003;
2.400666666666667E+009;1.747730076313019E-001;4.640283063054085E-002;-7.704668096266687E-004;-4.769656341522932E-003;
2.400833333333334E+009;1.749449372291565E-001;4.593531787395477E-002;-9.499568841420114E-004;-4.658339079469442E-003;
2.401000000000000E+009;1.755042225122452E-001;4.516424611210823E-002;-1.310536172240973E-003;-4.847921896725893E-003;
2.401166666666667E+009;1.754528135061264E-001;4.463563859462738E-002;-1.324697048403323E-003;-4.795759450644255E-003;
2.401333333333334E+009;1.756716072559357E-001;4.391780123114586E-002;-1.530715846456587E-003;-4.548965487629175E-003;
2.401500000000000E+009;1.759288907051086E-001;4.319887980818749E-002;-1.681661233305931E-003;-4.393623676151037E-003;
2.401666666666667E+009;1.759875565767288E-001;4.263595864176750E-002;-1.785948639735580E-003;-4.430915229022503E-003;
2.401833333333334E+009;1.758508086204529E-001;4.195027798414230E-002;-1.896785921417177E-003;-4.182077012956142E-003;
2.402000000000000E+009;1.756999790668488E-001;4.102484509348869E-002;-2.032087184488773E-003;-4.065401852130890E-003;
2.402166666666667E+009;1.755820214748383E-001;4.026843979954720E-002;-2.226565964519978E-003;-4.174245987087488E-003;
2.402333333333334E+009;1.754939556121826E-001;3.927832469344139E-002;-2.191546838730574E-003;-4.025925416499376E-003;
2.402500000000000E+009;1.756394803524017E-001;3.832411766052246E-002;-2.239568857476115E-003;-3.891238709911704E-003;
2.402666666666667E+009;1.751915663480759E-001;3.718803822994232E-002;-2.402350539341569E-003;-3.772150026634336E-003;
2.402833333333334E+009;1.749295741319656E-001;3.607024624943733E-002;-2.633585128933191E-003;-3.562754252925515E-003;
2.403000000000000E+009;1.746551096439362E-001;3.493547439575195E-002;-2.591172000393271E-003;-3.520940663293004E-003;
2.403166666666667E+009;1.744370460510254E-001;3.354331105947495E-002;-2.538037020713091E-003;-3.426280105486512E-003;
2.403333333333334E+009;1.742387413978577E-001;3.225151076912880E-002;-2.780296606943011E-003;-3.335921559482813E-003;
2.403500000000000E+009;1.738477647304535E-001;3.081627376377583E-002;-3.004522761330009E-003;-3.299692180007696E-003;
2.403666666666667E+009;1.734558492898941E-001;2.906006760895252E-002;-3.025380661711097E-003;-3.072316525503993E-003;
2.403833333333334E+009;1.729687005281448E-001;2.729950286448002E-002;-2.958240918815136E-003;-2.766767749562860E-003;
2.404000000000000E+009;1.727476865053177E-001;2.570531331002712E-002;-3.094846149906516E-003;-2.834774786606431E-003;
2.404166666666667E+009;1.723145693540573E-001;2.358624152839184E-002;-3.082851646468043E-003;-2.644547028467059E-003;
2.404333333333334E+009;1.718090623617172E-001;2.199787646532059E-002;-3.079349175095558E-003;-2.645493717864156E-003;
2.404500000000000E+009;1.716158539056778E-001;1.988408714532852E-002;-3.215356497094035E-003;-2.498270012438297E-003;
2.404666666666667E+009;1.713493019342423E-001;1.817806623876095E-002;-3.247262677177787E-003;-2.349906601011753E-003;
2.404833333333334E+009;1.712713241577148E-001;1.611110195517540E-002;-3.156822174787521E-003;-2.140634227544069E-003;
2.405000000000000E+009;1.709866672754288E-001;1.421098038554192E-002;-3.228104207664728E-003;-1.998047344386578E-003;
2.405166666666667E+009;1.708864867687225E-001;1.220523659139872E-002;-3.185801906511188E-003;-1.835780800320208E-003;
2.405333333333334E+009;1.708825230598450E-001;9.997980669140816E-003;-3.131095785647631E-003;-1.783215440809727E-003;
2.405500000000000E+009;1.707928925752640E-001;8.010664023458958E-003;-3.225784050300717E-003;-1.722946995869279E-003;
2.405666666666667E+009;1.709166467189789E-001;6.133310962468386E-003;-3.190164454281330E-003;-1.577388844452798E-003;
2.405833333333334E+009;1.709635704755783E-001;4.014384001493454E-003;-3.097669221460819E-003;-1.506664091721177E-003;
2.406000000000000E+009;1.712939888238907E-001;1.855246839113534E-003;-2.965207677334547E-003;-1.413045916706324E-003;
2.406166666666667E+009;1.714464575052261E-001;-7.944860408315435E-005;-2.975982613861561E-003;-1.378961838781834E-003;
2.406333333333334E+009;1.720371097326279E-001;-2.181246643885970E-003;-3.093753475695849E-003;-1.397518673911691E-003;
2.406500000000000E+009;1.722614616155624E-001;-4.180123563855887E-003;-2.912960015237331E-003;-1.153527875430882E-003;
2.406666666666667E+009;1.726058274507523E-001;-6.060751155018807E-003;-2.986543346196413E-003;-1.141678425483406E-003;
2.406833333333334E+009;1.733337193727493E-001;-8.118343539535999E-003;-2.965850755572319E-003;-1.285977661609650E-003;
2.407000000000000E+009;1.738511025905609E-001;-1.014395616948605E-002;-2.918010810390115E-003;-1.196008757688105E-003;
2.407166666666667E+009;1.746162027120590E-001;-1.185535360127688E-002;-2.861544722691178E-003;-1.010787324048579E-003;
2.407333333333334E+009;1.751709133386612E-001;-1.385618653148413E-002;-2.862128196284175E-003;-1.049600192345679E-003;
2.407500000000000E+009;1.758998930454254E-001;-1.562129054218531E-002;-2.929525449872017E-003;-9.676638292148709E-004;
2.407666666666667E+009;1.766293197870255E-001;-1.732982508838177E-002;-2.760710660368204E-003;-1.040291041135788E-003;
2.407833333333334E+009;1.771923154592514E-001;-1.922625489532948E-002;-2.845073817297816E-003;-9.590048575773835E-004;
2.408000000000000E+009;1.779616326093674E-001;-2.083799801766872E-002;-2.899593906477094E-003;-8.378627244383097E-004;
2.408166666666667E+009;1.785849332809448E-001;-2.223328873515129E-002;-2.837884472683072E-003;-7.808806258253753E-004;
2.408333333333334E+009;1.795439273118973E-001;-2.381014451384544E-002;-2.874514786526561E-003;-8.479722891934216E-004;
2.408500000000000E+009;1.800092458724976E-001;-2.510144189000130E-002;-2.859531203284860E-003;-7.522019441239536E-004;
2.408666666666667E+009;1.808123290538788E-001;-2.648933604359627E-002;-2.839536173269153E-003;-7.158108637668192E-004;
2.408833333333334E+009;1.811760962009430E-001;-2.773057855665684E-002;-2.893561962991953E-003;-7.385572534985840E-004;
2.409000000000000E+009;1.817430108785629E-001;-2.890062332153320E-002;-2.834990387782455E-003;-6.185895181261003E-004;
2.409166666666667E+009;1.822274774312973E-001;-2.976934053003788E-002;-2.796075306832790E-003;-6.265625124797225E-004;
2.409333333333334E+009;1.827818900346756E-001;-3.075214102864265E-002;-2.714100759476423E-003;-6.863673916086555E-004;
2.409500000000000E+009;1.830625683069229E-001;-3.174069151282311E-002;-2.721186960116029E-003;-6.555740255862474E-004;
2.409666666666667E+009;1.833242177963257E-001;-3.223377093672752E-002;-2.780738053843379E-003;-5.373714375309646E-004;
2.409833333333334E+009;1.835750788450241E-001;-3.289571404457092E-002;-2.844826551154256E-003;-6.893709651194513E-004;
2.410000000000000E+009;1.838710606098175E-001;-3.343165293335915E-002;-2.817533677443862E-003;-6.209884304553270E-004;
2.410166666666667E+009;1.839791387319565E-001;-3.392930328845978E-002;-2.845138777047396E-003;-6.316123763099313E-004;
2.410333333333334E+009;1.840620487928391E-001;-3.436945751309395E-002;-3.062924137338996E-003;-6.285866838879883E-004;
2.410500000000000E+009;1.840075105428696E-001;-3.480496630072594E-002;-2.938441233709455E-003;-4.963914398103952E-004;
2.410666666666667E+009;1.839539110660553E-001;-3.537094220519066E-002;-3.037090878933668E-003;-7.538316422142088E-004;
2.410833333333334E+009;1.839722990989685E-001;-3.544763475656509E-002;-3.234985517337918E-003;-7.714154198765755E-004;
2.411000000000000E+009;1.837160587310791E-001;-3.579732403159142E-002;-3.345302073284984E-003;-6.729899323545396E-004;
2.411166666666667E+009;1.833204030990601E-001;-3.610607609152794E-002;-3.332355059683323E-003;-6.448089843615890E-004;
2.411333333333334E+009;1.828198432922363E-001;-3.644657135009766E-002;-3.535178955644369E-003;-5.327131366357207E-004;
2.411500000000000E+009;1.823843121528626E-001;-3.696218132972717E-002;-3.635214874520898E-003;-5.072619533166289E-004;
2.411666666666667E+009;1.818707734346390E-001;-3.716376796364784E-002;-3.868988249450922E-003;-4.106274573132396E-004;
2.411833333333334E+009;1.810592114925385E-001;-3.755958005785942E-002;-4.098778590559959E-003;-1.172291013062932E-004;
2.412000000000000E+009;1.806372851133347E-001;-3.801497071981430E-002;-4.038695711642504E-003;-5.596746632363647E-005;
2.412166666666667E+009;1.794617623090744E-001;-3.855761885643005E-002;-4.035674966871738E-003;-1.315929057454923E-005;
2.412333333333334E+009;1.787029653787613E-001;-3.889985010027885E-002;-4.244805779308081E-003;3.888146893586963E-004;
2.412500000000000E+009;1.774690151214600E-001;-3.949858620762825E-002;-4.343055654317141E-003;5.956732784397900E-004;
2.412666666666667E+009;1.764707416296005E-001;-4.013843834400177E-002;-4.482020623981953E-003;8.069268660619855E-004;
2.412833333333334E+009;1.752052456140518E-001;-4.085410758852959E-002;-4.376375582069159E-003;8.986892062239349E-004;
2.413000000000000E+009;1.742076724767685E-001;-4.154655709862709E-002;-4.252251703292131E-003;1.175441546365619E-003;
2.413166666666667E+009;1.726862043142319E-001;-4.221215471625328E-002;-4.215417429804802E-003;1.239285222254694E-003;
2.413333333333334E+009;1.714538335800171E-001;-4.320482909679413E-002;-4.155604634433985E-003;1.700357999652624E-003;
2.413500000000000E+009;1.701646149158478E-001;-4.397554323077202E-002;-4.132605623453856E-003;1.848777639679611E-003;
2.413666666666667E+009;1.688733696937561E-001;-4.505807161331177E-002;-4.089417401701212E-003;2.006557071581483E-003;
2.413833333333334E+009;1.675318330526352E-001;-4.611697793006897E-002;-3.835549578070641E-003;2.207153476774693E-003;
2.414000000000000E+009;1.661504954099655E-001;-4.734013974666596E-002;-3.667187178507447E-003;2.379511017352343E-003;
2.414166666666667E+009;1.651448309421539E-001;-4.841686785221100E-002;-3.813338233157992E-003;2.554449485614896E-003;
2.414333333333334E+009;1.638150960206986E-001;-4.993408173322678E-002;-3.607088001444936E-003;2.615848090499640E-003;
2.414500000000000E+009;1.627307087182999E-001;-5.131793022155762E-002;-3.436558647081256E-003;2.718509640544653E-003;
2.414666666666667E+009;1.614741533994675E-001;-5.261198803782463E-002;-3.165674395859242E-003;2.819529501721263E-003;
2.414833333333334E+009;1.602461040019989E-001;-5.408528447151184E-002;-3.173979232087731E-003;2.724670805037022E-003;
2.415000000000000E+009;1.592105776071549E-001;-5.582469329237938E-002;-2.995152259245515E-003;2.842822577804327E-003;
2.415166666666667E+009;1.583157330751419E-001;-5.751175060868263E-002;-2.787361852824688E-003;3.001264762133360E-003;
2.415333333333334E+009;1.575320065021515E-001;-5.926394090056419E-002;-2.659746911376715E-003;3.024296602234244E-003;
2.415500000000000E+009;1.567014306783676E-001;-6.106674671173096E-002;-2.576703671365976E-003;2.971248468384147E-003;
2.415666666666667E+009;1.558910012245178E-001;-6.273280084133148E-002;-2.392380731180310E-003;3.031954169273377E-003;
2.415833333333334E+009;1.553008556365967E-001;-6.470482796430588E-002;-2.171199303120375E-003;3.168989438563585E-003;
2.416000000000000E+009;1.544227153062820E-001;-6.678634881973267E-002;-2.191402483731508E-003;3.200380131602287E-003;
2.416166666666667E+009;1.541842669248581E-001;-6.870979070663452E-002;-2.016799291595817E-003;3.161954926326871E-003;
2.416333333333334E+009;1.535688191652298E-001;-7.058645039796829E-002;-1.938450150191784E-003;3.250808222219348E-003;
2.416500000000000E+009;1.531047224998474E-001;-7.259808480739594E-002;-1.902644289657474E-003;3.208408830687404E-003;
2.416666666666667E+009;1.526813805103302E-001;-7.440298795700073E-002;-1.787054468877614E-003;3.251511137932539E-003;
2.416833333333334E+009;1.525002866983414E-001;-7.647453248500824E-002;-1.549159758724272E-003;3.228568239137530E-003;
2.417000000000000E+009;1.520365327596664E-001;-7.839470356702805E-002;-1.360243302769959E-003;3.130675060674548E-003;
2.417166666666667E+009;1.518917977809906E-001;-8.018284291028976E-002;-1.463351771235466E-003;3.282812656834722E-003;
2.417333333333334E+009;1.518847346305847E-001;-8.191764354705811E-002;-1.272496883757412E-003;3.156327642500401E-003;
2.417500000000000E+009;1.517336666584015E-001;-8.391980826854706E-002;-1.077198772691190E-003;3.027989529073238E-003;
2.417666666666667E+009;1.518769860267639E-001;-8.531203120946884E-002;-9.996317094191909E-004;2.884318819269538E-003;
2.417833333333334E+009;1.517940461635590E-001;-8.693911880254746E-002;-8.182632736861706E-004;2.920179162174463E-003;
2.418000000000000E+009;1.518796086311340E-001;-8.847699314355850E-002;-8.098389953374863E-004;2.657940145581961E-003;
2.418166666666667E+009;1.519667059183121E-001;-8.973221480846405E-002;-5.820581573061645E-004;2.516832901164889E-003;
2.418333333333334E+009;1.522378623485565E-001;-9.104052186012268E-002;-5.531907663680613E-004;2.440078416839242E-003;
2.418500000000000E+009;1.523414701223373E-001;-9.233070909976959E-002;-7.219110848382115E-004;2.283087698742747E-003;
2.418666666666667E+009;1.526678800582886E-001;-9.335395693778992E-002;-6.552736158482730E-004;2.266834490001202E-003;
2.418833333333334E+009;1.526491940021515E-001;-9.446898102760315E-002;-7.802691543474793E-004;2.218685811385512E-003;
2.419000000000000E+009;1.528097093105316E-001;-9.517915546894074E-002;-7.264457526616752E-004;1.975039485841990E-003;
2.419166666666667E+009;1.530012786388397E-001;-9.599369764328003E-002;-8.848379366099834E-004;1.919041154906154E-003;
2.419333333333334E+009;1.531876623630524E-001;-9.633503109216690E-002;-9.189359843730927E-004;1.807278953492641E-003;
2.419500000000000E+009;1.532001793384552E-001;-9.707932919263840E-002;-1.088915509171784E-003;1.731476746499538E-003;
2.419666666666667E+009;1.535238325595856E-001;-9.748864918947220E-002;-1.258646836504340E-003;1.753276563249528E-003;
2.419833333333334E+009;1.535786241292954E-001;-9.748996049165726E-002;-1.424305723048747E-003;1.781518454663456E-003;
2.420000000000000E+009;1.540077626705170E-001;-9.781737625598908E-002;-1.610321807675064E-003;1.761004794389010E-003;
2.420166666666667E+009;1.538780778646469E-001;-9.797333925962448E-002;-1.763697480782867E-003;1.954685430973768E-003;
2.420333333333334E+009;1.539856195449829E-001;-9.777680039405823E-002;-1.905918470583856E-003;2.044693101197481E-003;
2.420500000000000E+009;1.539623439311981E-001;-9.766095131635666E-002;-2.005899092182517E-003;2.184526994824410E-003;
2.420666666666667E+009;1.540246903896332E-001;-9.754136204719544E-002;-2.132155699655414E-003;2.227195072919130E-003;
2.420833333333334E+009;1.539544165134430E-001;-9.735251963138580E-002;-2.233247738331556E-003;2.516543492674828E-003;
2.421000000000000E+009;1.537124514579773E-001;-9.699679911136627E-002;-2.458203816786408E-003;2.690510591492057E-003;
2.421166666666667E+009;1.536560952663422E-001;-9.662429988384247E-002;-2.563490532338619E-003;2.885825000703335E-003;
2.421333333333334E+009;1.534439176321030E-001;-9.648282825946808E-002;-2.661736682057381E-003;3.124835435301065E-003;
2.421500000000000E+009;1.529112607240677E-001;-9.604359418153763E-002;-2.617707243189216E-003;3.320390125736594E-003;
2.421666666666667E+009;1.523813158273697E-001;-9.567943215370178E-002;-2.721367636695504E-003;3.728383919224143E-003;
2.421833333333334E+009;1.520719826221466E-001;-9.539911895990372E-002;-2.680067904293537E-003;4.011979326605797E-003;
2.422000000000000E+009;1.513515114784241E-001;-9.487231820821762E-002;-2.547067357227206E-003;4.444651305675507E-003;
2.422166666666667E+009;1.505016833543778E-001;-9.495072066783905E-002;-2.535216975957155E-003;4.681597463786602E-003;
2.422333333333334E+009;1.499935239553452E-001;-9.444055706262589E-002;-2.408305648714304E-003;5.127327982336283E-003;
2.422500000000000E+009;1.488440334796906E-001;-9.419497847557068E-002;-2.299831248819828E-003;5.336825735867024E-003;
2.422666666666667E+009;1.476733535528183E-001;-9.392831474542618E-002;-2.036821329966188E-003;5.783248692750931E-003;
2.422833333333334E+009;1.466869562864304E-001;-9.386792778968811E-002;-1.721564098261297E-003;5.930228624492884E-003;
2.423000000000000E+009;1.455596834421158E-001;-9.362959861755371E-002;-1.604840741492808E-003;6.346571724861860E-003;
2.423166666666667E+009;1.444155275821686E-001;-9.372193366289139E-002;-1.140991807915270E-003;6.631513591855764E-003;
2.423333333333334E+009;1.430148184299469E-001;-9.359631687402725E-002;-7.777126738801599E-004;6.843906361609697E-003;
2.423500000000000E+009;1.415753215551376E-001;-9.377402067184448E-002;-3.259966615587473E-004;6.978431716561317E-003;
2.423666666666667E+009;1.400257647037506E-001;-9.390760958194733E-002;5.300211341818795E-005;7.302874233573675E-003;
2.423833333333334E+009;1.389208436012268E-001;-9.438067674636841E-002;4.553411854431033E-004;7.351668085902929E-003;
2.424000000000000E+009;1.371546387672424E-001;-9.450992196798325E-002;9.743542759679258E-004;7.464146707206965E-003;
2.424166666666667E+009;1.355675458908081E-001;-9.491077065467835E-002;1.223976723849773E-003;7.422000635415316E-003;
2.424333333333334E+009;1.343162357807159E-001;-9.522464126348496E-002;1.776470569893718E-003;7.464280351996422E-003;
2.424500000000000E+009;1.328274756669998E-001;-9.588481485843658E-002;2.241953508928418E-003;7.436034735292196E-003;
2.424666666666667E+009;1.314911842346191E-001;-9.639162570238113E-002;2.608897164463997E-003;7.453343365341425E-003;
2.424833333333334E+009;1.298847049474716E-001;-9.718219190835953E-002;3.099512774497271E-003;7.173473481088877E-003;
2.425000000000000E+009;1.285474300384522E-001;-9.819217026233673E-002;3.576192306354642E-003;6.947800051420927E-003;
2.425166666666667E+009;1.269905418157578E-001;-9.911850839853287E-002;4.000341054052115E-003;6.898767314851284E-003;
2.425333333333334E+009;1.257615387439728E-001;-1.000347882509232E-001;4.578900989145041E-003;6.617750972509384E-003;
2.425500000000000E+009;1.246648356318474E-001;-1.011647507548332E-001;4.731414839625359E-003;6.163080688565970E-003;
2.425666666666667E+009;1.231810301542282E-001;-1.025179103016853E-001;5.209365393966436E-003;5.895474925637245E-003;
2.425833333333334E+009;1.222597658634186E-001;-1.037830039858818E-001;5.475033540278673E-003;5.577807780355215E-003;
2.426000000000000E+009;1.211934611201286E-001;-1.051509678363800E-001;5.846902728080750E-003;5.192853044718504E-003;
2.426166666666667E+009;1.203130707144737E-001;-1.065866053104401E-001;5.833812523633242E-003;4.789177794009447E-003;
2.426333333333334E+009;1.192006394267082E-001;-1.079824715852737E-001;6.099891383200884E-003;4.265900235623121E-003;
2.426500000000000E+009;1.184814348816872E-001;-1.094964742660523E-001;6.333541590720415E-003;3.967483993619680E-003;
2.426666666666667E+009;1.179311424493790E-001;-1.109350845217705E-001;6.402575410902500E-003;3.545094514265657E-003;
2.426833333333334E+009;1.171969026327133E-001;-1.125704720616341E-001;6.300994660705328E-003;3.317370777949691E-003;
2.427000000000000E+009;1.166425347328186E-001;-1.142456829547882E-001;6.414371076971293E-003;2.896455815061927E-003;
2.427166666666667E+009;1.160098761320114E-001;-1.157351061701775E-001;6.391843315213919E-003;2.481951145455241E-003;
2.427333333333334E+009;1.156338751316071E-001;-1.174676269292831E-001;6.300847511738539E-003;2.158891409635544E-003;
2.427500000000000E+009;1.153960749506950E-001;-1.190579831600189E-001;6.168943364173174E-003;1.791627262718976E-003;
2.427666666666667E+009;1.151137501001358E-001;-1.206802353262901E-001;6.047630682587624E-003;1.527674030512571E-003;
