# Version 1.00
#
freq[Hz];re:Trc1_S11;im:Trc1_S11;re:Trc2_S21;im:Trc2_S21;
2.400000000000000E+009;1.561016291379929E-001;1.057883277535439E-001;3.914188593626022E-003;-2.559567335993052E-003;
2.400166666666667E+009;1.560512483119965E-001;1.034329906105995E-001;3.778595710173249E-003;-2.692018868401647E-003;
2.400333333333334E+009;1.562575250864029E-001;1.010341942310333E-001;3.675663145259023E-003;-2.535007661208510E-003;
2.400500000000000E+009;1.564261615276337E-001;9.850349277257919E-002;3.887181868776679E-003;-2.674428047612310E-003;
2.400666666666667E+009;1.568730920553207E-001;9.626824408769608E-002;3.779128193855286E-003;-2.786167897284031E-003;
2.400833333333334E+009;1.569222509860992E-001;9.356664121150971E-002;3.971175290644169E-003;-2.818781416863203E-003;
2.401000000000000E+009;1.572822630405426E-001;9.078548103570938E-002;3.858513198792934E-003;-3.023566678166390E-003;
2.401166666666667E+009;1.574745178222656E-001;8.813945204019547E-002;3.806498367339373E-003;-3.002234036102891E-003;
2.401333333333334E+009;1.581232547760010E-001;8.553744852542877E-002;3.862576326355338E-003;-3.087623510509729E-003;
2.401500000000000E+009;1.585071980953217E-001;8.273546397686005E-002;3.930867649614811E-003;-3.236389486119151E-003;
2.401666666666667E+009;1.589974910020828E-001;8.029447495937347E-002;3.890800289809704E-003;-3.412643680348992E-003;
2.401833333333334E+009;1.595733463764191E-001;7.750163972377777E-002;4.015708807855845E-003;-3.679911373183131E-003;
2.402000000000000E+009;1.603915244340897E-001;7.512896507978439E-002;3.737452905625105E-003;-3.717204555869103E-003;
2.402166666666667E+009;1.610546857118607E-001;7.272548973560333E-002;3.656726330518723E-003;-4.156500566750765E-003;
2.402333333333334E+009;1.621197909116745E-001;7.012210041284561E-002;3.762215143069625E-003;-4.172659944742918E-003;
2.402500000000000E+009;1.633061766624451E-001;6.785176694393158E-002;3.495127893984318E-003;-4.425965249538422E-003;
2.402666666666667E+009;1.643449515104294E-001;6.572277843952179E-002;3.219758160412312E-003;-4.741497803479433E-003;
2.402833333333334E+009;1.656616181135178E-001;6.332081556320190E-002;3.067614976316690E-003;-4.703191574662924E-003;
2.403000000000000E+009;1.668475270271301E-001;6.129815056920052E-002;2.823733258992434E-003;-4.926957655698061E-003;
2.403166666666667E+009;1.684620231389999E-001;5.911740660667419E-002;2.554560313001275E-003;-4.974022042006254E-003;
2.403333333333334E+009;1.698579937219620E-001;5.709910392761231E-002;2.467058598995209E-003;-4.969898611307144E-003;
2.403500000000000E+009;1.713846176862717E-001;5.522105842828751E-002;2.153601264581084E-003;-4.986258223652840E-003;
2.403666666666667E+009;1.730768829584122E-001;5.352181941270828E-002;2.154254587367177E-003;-4.828388337045908E-003;
2.403833333333334E+009;1.744203269481659E-001;5.175279453396797E-002;1.829038141295314E-003;-4.848651587963104E-003;
2.404000000000000E+009;1.757296472787857E-001;5.015533789992333E-002;1.750952913425863E-003;-4.740376956760883E-003;
2.404166666666667E+009;1.773738265037537E-001;4.866763949394226E-002;1.755121513269842E-003;-4.856483079493046E-003;
2.404333333333334E+009;1.788279265165329E-001;4.715255275368691E-002;1.728666014969349E-003;-4.856239538639784E-003;
2.404500000000000E+009;1.803340464830399E-001;4.587995260953903E-002;1.656637992709875E-003;-5.026994738727808E-003;
2.404666666666667E+009;1.816576868295670E-001;4.488173499703407E-002;1.651248196139932E-003;-4.895806778222323E-003;
2.404833333333334E+009;1.831785291433334E-001;4.364766925573349E-002;1.576254493556917E-003;-5.084489937871695E-003;
2.405000000000000E+009;1.843239217996597E-001;4.298949614167213E-002;1.417195657268167E-003;-5.281026940792799E-003;
2.405166666666667E+009;1.857271045446396E-001;4.231829568743706E-002;1.281413715332747E-003;-5.380634218454361E-003;
2.405333333333334E+009;1.867993026971817E-001;4.165729507803917E-002;1.075926003977656E-003;-5.668976809829474E-003;
2.405500000000000E+009;1.880618333816528E-001;4.123533517122269E-002;9.378616814501584E-004;-5.547231528908014E-003;
2.405666666666667E+009;1.889881193637848E-001;4.074078425765038E-002;7.826497894711793E-004;-5.571575835347176E-003;
2.405833333333334E+009;1.902799904346466E-001;4.029044881463051E-002;4.993016482330859E-004;-5.922147538512945E-003;
2.406000000000000E+009;1.911814808845520E-001;4.023764654994011E-002;3.394723753444850E-004;-5.843413993716240E-003;
2.406166666666667E+009;1.919983476400375E-001;3.986669704318047E-002;-3.446958726271987E-005;-5.848054308444262E-003;
2.406333333333334E+009;1.928735226392746E-001;3.968997672200203E-002;-1.730465301079676E-004;-5.672738887369633E-003;
2.406500000000000E+009;1.934409588575363E-001;3.958598524332047E-002;-1.313772081630305E-004;-5.884426180273294E-003;
2.406666666666667E+009;1.939826607704163E-001;3.956132382154465E-002;-5.181060405448079E-004;-5.614145193248987E-003;
2.406833333333334E+009;1.944209486246109E-001;3.926309198141098E-002;-7.487544789910317E-004;-5.596913397312164E-003;
2.407000000000000E+009;1.945719569921494E-001;3.934350237250328E-002;-7.772332755848765E-004;-5.508394446223974E-003;
2.407166666666667E+009;1.949351429939270E-001;3.891870751976967E-002;-8.994903764687479E-004;-5.660858005285263E-003;
2.407333333333334E+009;1.948945224285126E-001;3.892577812075615E-002;-1.039262511767447E-003;-5.509418901056051E-003;
2.407500000000000E+009;1.949021220207214E-001;3.893651813268662E-002;-1.105998293496668E-003;-5.499345716089010E-003;
2.407666666666667E+009;1.950305104255676E-001;3.866591304540634E-002;-1.181599567644298E-003;-5.507625639438629E-003;
2.407833333333334E+009;1.945678740739822E-001;3.830762207508087E-002;-1.316819689236581E-003;-5.434541031718254E-003;
2.408000000000000E+009;1.946191936731339E-001;3.798966482281685E-002;-1.419509295374155E-003;-5.327302962541580E-003;
2.408166666666667E+009;1.940048336982727E-001;3.747574239969254E-002;-1.578378607518971E-003;-5.268028005957604E-003;
2.408333333333334E+009;1.936944127082825E-001;3.692148998379707E-002;-1.679931650869548E-003;-5.414102226495743E-003;
2.408500000000000E+009;1.930741816759110E-001;3.648638725280762E-002;-1.758661703206599E-003;-5.568735767155886E-003;
2.408666666666667E+009;1.926853805780411E-001;3.573914244771004E-002;-1.898211077786982E-003;-5.370451603084803E-003;
2.408833333333334E+009;1.919860392808914E-001;3.489676117897034E-002;-1.997436163946986E-003;-5.430958233773708E-003;
2.409000000000000E+009;1.913009881973267E-001;3.393652662634850E-002;-1.945670577697456E-003;-5.302464123815298E-003;
2.409166666666667E+009;1.905127763748169E-001;3.269610926508904E-002;-2.171857049688697E-003;-5.460195243358612E-003;
2.409333333333334E+009;1.897194832563400E-001;3.184088319540024E-002;-2.394914394244552E-003;-5.328209139406681E-003;
2.409500000000000E+009;1.890469491481781E-001;3.042786754667759E-002;-2.484032185748220E-003;-5.441033281385899E-003;
2.409666666666667E+009;1.880702376365662E-001;2.907424047589302E-002;-2.655127784237266E-003;-5.488388240337372E-003;
2.409833333333334E+009;1.871177107095718E-001;2.759901806712151E-002;-2.755918772891164E-003;-5.422833375632763E-003;
2.410000000000000E+009;1.864555776119232E-001;2.593148499727249E-002;-2.914168639108539E-003;-5.468601826578379E-003;
2.410166666666667E+009;1.856356710195541E-001;2.413327433168888E-002;-3.282674355432391E-003;-5.526981782168150E-003;
2.410333333333334E+009;1.849276721477509E-001;2.245216071605682E-002;-3.356060246005654E-003;-5.484496708959341E-003;
2.410500000000000E+009;1.840922683477402E-001;2.053980156779289E-002;-3.484893823042512E-003;-5.409165285527706E-003;
2.410666666666667E+009;1.834432482719421E-001;1.822421886026859E-002;-3.682841081172228E-003;-5.318458192050457E-003;
2.410833333333334E+009;1.828325986862183E-001;1.647302508354187E-002;-4.011263139545918E-003;-5.320001393556595E-003;
2.411000000000000E+009;1.821717023849487E-001;1.422750670462847E-002;-4.197245929390192E-003;-5.109748337417841E-003;
2.411166666666667E+009;1.817719638347626E-001;1.214449945837259E-002;-4.205896984785795E-003;-5.154495593160391E-003;
2.411333333333334E+009;1.814608573913574E-001;9.791805408895016E-003;-4.746813327074051E-003;-5.104654934257269E-003;
2.411500000000000E+009;1.810769736766815E-001;7.524244021624327E-003;-5.029169376939535E-003;-5.039808806031942E-003;
2.411666666666667E+009;1.809133142232895E-001;5.493748001754284E-003;-4.890582989901304E-003;-4.785237368196249E-003;
2.411833333333334E+009;1.806837767362595E-001;3.356363391503692E-003;-5.228179972618818E-003;-4.615471698343754E-003;
2.412000000000000E+009;1.809037625789642E-001;7.789667579345405E-004;-5.547064356505871E-003;-4.543975461274386E-003;
2.412166666666667E+009;1.809648573398590E-001;-1.333210035227239E-003;-5.832991562783718E-003;-4.281667526811361E-003;
2.412333333333334E+009;1.814114153385162E-001;-3.595250425860286E-003;-6.004102528095245E-003;-4.201130010187626E-003;
2.412500000000000E+009;1.818038821220398E-001;-5.906159989535809E-003;-6.151194218546152E-003;-4.133349750190973E-003;
2.412666666666667E+009;1.823431700468063E-001;-8.125958964228630E-003;-6.490842904895544E-003;-3.867233172059059E-003;
2.412833333333334E+009;1.831189990043640E-001;-1.027272269129753E-002;-6.619008723646402E-003;-3.669846337288618E-003;
2.413000000000000E+009;1.837660968303680E-001;-1.259676460176706E-002;-7.000090554356575E-003;-3.398532280698419E-003;
2.413166666666667E+009;1.845109909772873E-001;-1.447369810193777E-002;-7.084262557327747E-003;-3.032772336155176E-003;
2.413333333333334E+009;1.853985488414764E-001;-1.651657186448574E-002;-7.320003584027290E-003;-2.729522064328194E-003;
2.413500000000000E+009;1.863016337156296E-001;-1.876103878021240E-002;-7.476924452930689E-003;-2.341325161978602E-003;
2.413666666666667E+009;1.873150020837784E-001;-2.079306542873383E-002;-7.519458886235952E-003;-1.991717377677560E-003;
2.413833333333334E+009;1.883722841739655E-001;-2.257530018687248E-002;-7.764490321278572E-003;-1.498662168160081E-003;
2.414000000000000E+009;1.894291192293167E-001;-2.444127015769482E-002;-7.822148501873016E-003;-1.098285662010312E-003;
2.414166666666667E+009;1.906577199697495E-001;-2.602294273674488E-002;-7.839869707822800E-003;-6.592368590645492E-004;
2.414333333333334E+009;1.915984302759171E-001;-2.785958908498287E-002;-7.810585666447878E-003;-3.919080772902817E-004;
2.414500000000000E+009;1.926915496587753E-001;-2.918142825365067E-002;-7.668628357350826E-003;2.371415575908031E-005;
2.414666666666667E+009;1.938055902719498E-001;-3.063675202429295E-002;-7.649851962924004E-003;4.405311192385852E-004;
2.414833333333334E+009;1.948978006839752E-001;-3.206238150596619E-002;-7.382825948297977E-003;6.351413903757930E-004;
2.415000000000000E+009;1.957684308290482E-001;-3.328376635909081E-002;-7.373752538114786E-003;9.782066335901618E-004;
2.415166666666667E+009;1.969086527824402E-001;-3.446171060204506E-002;-7.271828129887581E-003;1.288476050831378E-003;
2.415333333333334E+009;1.980571150779724E-001;-3.533450886607170E-002;-7.129460573196411E-003;1.427716691978276E-003;
2.415500000000000E+009;1.988404989242554E-001;-3.614690527319908E-002;-6.925469264388084E-003;1.667366479523480E-003;
2.415666666666667E+009;1.997000873088837E-001;-3.700199723243713E-002;-6.849587429314852E-003;1.853748108260334E-003;
2.415833333333334E+009;2.004789263010025E-001;-3.764247149229050E-002;-6.643486209213734E-003;2.211999148130417E-003;
2.416000000000000E+009;2.010923922061920E-001;-3.839649260044098E-002;-6.622260436415672E-003;2.545967698097229E-003;
2.416166666666667E+009;2.018013149499893E-001;-3.902274742722511E-002;-6.379007827490568E-003;2.849662909284234E-003;
2.416333333333334E+009;2.022332549095154E-001;-3.937712311744690E-002;-6.202633492648602E-003;2.978176111355424E-003;
2.416500000000000E+009;2.026941478252411E-001;-3.977307304739952E-002;-5.876611452549696E-003;3.136217826977372E-003;
2.416666666666667E+009;2.028756737709045E-001;-4.022576659917831E-002;-5.653953179717064E-003;3.347988473251462E-003;
2.416833333333334E+009;2.028543949127197E-001;-4.050328955054283E-002;-5.494945216923952E-003;3.428088733926415E-003;
2.417000000000000E+009;2.029585391283035E-001;-4.084908217191696E-002;-5.210659466683865E-003;3.609930397942662E-003;
2.417166666666667E+009;2.025942057371140E-001;-4.090072214603424E-002;-5.014084279537201E-003;3.688746131956577E-003;
2.417333333333334E+009;2.022732794284821E-001;-4.087128117680550E-002;-4.762171767652035E-003;3.724941518157721E-003;
2.417500000000000E+009;2.019043117761612E-001;-4.122518375515938E-002;-4.512961022555828E-003;3.785066306591034E-003;
2.417666666666667E+009;2.014662027359009E-001;-4.119478538632393E-002;-4.522151313722134E-003;3.705412615090609E-003;
2.417833333333334E+009;2.009662091732025E-001;-4.105414822697640E-002;-4.179916810244322E-003;3.675225889310241E-003;
2.418000000000000E+009;2.003480643033981E-001;-4.110135510563850E-002;-4.042207729071379E-003;3.659703070297837E-003;
2.418166666666667E+009;1.995579600334168E-001;-4.123798012733460E-002;-3.966893069446087E-003;3.668130375444889E-003;
2.418333333333334E+009;1.986640989780426E-001;-4.119440913200378E-002;-3.736758604645729E-003;3.742249915376306E-003;
2.418500000000000E+009;1.976212114095688E-001;-4.146175459027290E-002;-3.827018663287163E-003;3.660640213638544E-003;
2.418666666666667E+009;1.968822926282883E-001;-4.159906506538391E-002;-3.629357786849141E-003;3.637068439275026E-003;
2.418833333333334E+009;1.955420672893524E-001;-4.196121916174889E-002;-3.512901253998280E-003;3.427991410717368E-003;
2.419000000000000E+009;1.944748461246491E-001;-4.223155230283737E-002;-3.415489569306374E-003;3.557731164619327E-003;
2.419166666666667E+009;1.932192146778107E-001;-4.276460409164429E-002;-3.581465920433402E-003;3.607552498579025E-003;
2.419333333333334E+009;1.920218765735626E-001;-4.337896034121513E-002;-3.428552765399218E-003;3.594090696424246E-003;
2.419500000000000E+009;1.906099319458008E-001;-4.404734820127487E-002;-3.351662307977676E-003;3.462873166427016E-003;
2.419666666666667E+009;1.891645342111588E-001;-4.490227997303009E-002;-3.291217144578695E-003;3.546612104400992E-003;
2.419833333333334E+009;1.877743154764175E-001;-4.550463333725929E-002;-3.335570916533470E-003;3.627137513831258E-003;
2.420000000000000E+009;1.863462030887604E-001;-4.651072993874550E-002;-3.478833707049489E-003;3.618577960878611E-003;
2.420166666666667E+009;1.848047673702240E-001;-4.756275564432144E-002;-3.430837066844106E-003;3.594566835090518E-003;
2.420333333333334E+009;1.833660304546356E-001;-4.860696941614151E-002;-3.564274637028575E-003;3.611122025176883E-003;
2.420500000000000E+009;1.818095743656158E-001;-5.030123516917229E-002;-3.505046945065260E-003;3.754470264539123E-003;
2.420666666666667E+009;1.804029345512390E-001;-5.123167112469673E-002;-3.574668429791927E-003;3.792693372815847E-003;
2.420833333333334E+009;1.790338754653931E-001;-5.283229425549507E-002;-3.638054244220257E-003;4.060666542500258E-003;
2.421000000000000E+009;1.777929067611694E-001;-5.436536669731140E-002;-3.480569925159216E-003;4.035241436213255E-003;
2.421166666666667E+009;1.764631420373917E-001;-5.605059489607811E-002;-3.607231192290783E-003;4.290645942091942E-003;
2.421333333333334E+009;1.747883558273315E-001;-5.740386247634888E-002;-3.621324896812439E-003;4.478118848055601E-003;
2.421500000000000E+009;1.737864762544632E-001;-5.935438349843025E-002;-3.657029476016760E-003;4.840473644435406E-003;
2.421666666666667E+009;1.725612282752991E-001;-6.102574616670609E-002;-3.549475455656648E-003;5.131064448505640E-003;
2.421833333333334E+009;1.714759916067123E-001;-6.299197673797607E-002;-3.346038749441505E-003;4.990063607692719E-003;
2.422000000000000E+009;1.705022752285004E-001;-6.456860899925232E-002;-3.456437727436423E-003;5.366333294659853E-003;
2.422166666666667E+009;1.697677671909332E-001;-6.656288355588913E-002;-3.127421485260129E-003;5.810239352285862E-003;
2.422333333333334E+009;1.688884198665619E-001;-6.854771822690964E-002;-2.976553980261087E-003;5.864837672561407E-003;
2.422500000000000E+009;1.680240035057068E-001;-7.044402509927750E-002;-2.803991548717022E-003;6.044369656592608E-003;
2.422666666666667E+009;1.673955619335175E-001;-7.226818054914475E-002;-2.578569576144218E-003;6.331788841634989E-003;
2.422833333333334E+009;1.669775843620300E-001;-7.406435906887054E-002;-2.414846559986472E-003;6.240493152290583E-003;
2.423000000000000E+009;1.664707064628601E-001;-7.631976157426834E-002;-2.126997336745262E-003;6.481664720922709E-003;
2.423166666666667E+009;1.660567373037338E-001;-7.806617021560669E-002;-1.958800479769707E-003;6.678130012005568E-003;
2.423333333333334E+009;1.656975597143173E-001;-7.991380989551544E-002;-1.721493201330304E-003;6.768331862986088E-003;
2.423500000000000E+009;1.658398061990738E-001;-8.154880255460739E-002;-1.597207039594650E-003;6.949361879378557E-003;
2.423666666666667E+009;1.657382994890213E-001;-8.333858847618103E-002;-1.260846853256226E-003;7.017971482127905E-003;
2.423833333333334E+009;1.656336039304733E-001;-8.496549725532532E-002;-1.146291382610798E-003;7.049393840134144E-003;
2.424000000000000E+009;1.656749397516251E-001;-8.672328293323517E-002;-7.204411085695028E-004;7.196120917797089E-003;
2.424166666666667E+009;1.656698137521744E-001;-8.828041702508926E-002;-4.341733874753118E-004;7.126223295927048E-003;
2.424333333333334E+009;1.657626181840897E-001;-8.968256413936615E-002;-2.552348596509546E-004;7.358583156019449E-003;
2.424500000000000E+009;1.661383509635925E-001;-9.146424382925034E-002;1.049890561262146E-004;7.449432276189327E-003;
2.424666666666667E+009;1.661776751279831E-001;-9.276770055294037E-002;3.911409294232726E-004;7.519348524510860E-003;
2.424833333333334E+009;1.666680872440338E-001;-9.397033601999283E-002;9.287062566727400E-004;7.543298881500959E-003;
2.425000000000000E+009;1.668864786624908E-001;-9.512753039598465E-002;1.111403922550380E-003;7.539146114140749E-003;
2.425166666666667E+009;1.671623587608337E-001;-9.639447927474976E-002;1.511458540335298E-003;7.517448160797358E-003;
2.425333333333334E+009;1.673250496387482E-001;-9.727229177951813E-002;1.972607802599669E-003;7.294226903468370E-003;
2.425500000000000E+009;1.675895452499390E-001;-9.835539758205414E-002;2.272300422191620E-003;7.306840736418963E-003;
2.425666666666667E+009;1.680037677288055E-001;-9.887640178203583E-002;2.539831912145019E-003;7.151809521019459E-003;
2.425833333333334E+009;1.680023223161697E-001;-9.974212199449539E-002;2.813267288729549E-003;6.866156123578548E-003;
2.426000000000000E+009;1.683610826730728E-001;-1.002924442291260E-001;3.158251754939556E-003;6.712336558848620E-003;
2.426166666666667E+009;1.685799062252045E-001;-1.009771376848221E-001;3.380683017894626E-003;6.654856260865927E-003;
2.426333333333334E+009;1.685706675052643E-001;-1.014825254678726E-001;3.806645050644875E-003;6.249096244573593E-003;
2.426500000000000E+009;1.689366698265076E-001;-1.018670052289963E-001;3.941699862480164E-003;6.194688379764557E-003;
2.426666666666667E+009;1.690217256546021E-001;-1.022454127669334E-001;4.165757447481155E-003;5.809622816741467E-003;
2.426833333333334E+009;1.691492199897766E-001;-1.025630384683609E-001;4.267632029950619E-003;5.567347165197134E-003;
2.427000000000000E+009;1.690820604562759E-001;-1.028717830777168E-001;4.559713415801525E-003;5.226647481322289E-003;
2.427166666666667E+009;1.690700948238373E-001;-1.031051427125931E-001;4.723747260868549E-003;5.089868325740099E-003;
2.427333333333334E+009;1.687614172697067E-001;-1.034726575016975E-001;4.869679920375347E-003;4.835218191146851E-003;
2.427500000000000E+009;1.686141192913055E-001;-1.037364825606346E-001;4.908048547804356E-003;4.488236270844936E-003;
2.427666666666667E+009;1.682298630475998E-001;-1.038771569728851E-001;4.837249405682087E-003;4.402317106723785E-003;
