# Version 1.00
#
freq[Hz];re:Trc1_S11;im:Trc1_S11;re:Trc2_S21;im:Trc2_S21;
2.400000000000000E+009;1.580283194780350E-001;1.127485111355782E-001;-8.821541443467140E-003;2.315336751053110E-004;
2.400166666666667E+009;1.573819667100906E-001;1.105191782116890E-001;-8.769231848418713E-003;5.569343920797110E-004;
2.400333333333334E+009;1.570562720298767E-001;1.083407402038574E-001;-8.532368578016758E-003;8.732875576242805E-004;
2.400500000000000E+009;1.567714214324951E-001;1.056916862726212E-001;-8.596577681601048E-003;1.304408186115325E-003;
2.400666666666667E+009;1.564956158399582E-001;1.032828167080879E-001;-8.339096792042255E-003;1.562725286930800E-003;
2.400833333333334E+009;1.561299413442612E-001;1.004371345043182E-001;-8.242652751505375E-003;1.745668938383460E-003;
2.401000000000000E+009;1.560324281454086E-001;9.749435633420944E-002;-8.164014667272568E-003;2.176612382754684E-003;
2.401166666666667E+009;1.557203829288483E-001;9.485205262899399E-002;-7.960265502333641E-003;2.364575630053878E-003;
2.401333333333334E+009;1.556983143091202E-001;9.186925739049912E-002;-7.931704632937908E-003;2.508659847080708E-003;
2.401500000000000E+009;1.558444499969482E-001;8.878085762262344E-002;-7.789642084389925E-003;2.798331901431084E-003;
2.401666666666667E+009;1.557570844888687E-001;8.561705052852631E-002;-7.410907652229071E-003;3.091633552685380E-003;
2.401833333333334E+009;1.560203135013580E-001;8.285685628652573E-002;-7.434223778545857E-003;3.377827815711498E-003;
2.402000000000000E+009;1.567174792289734E-001;7.982964813709259E-002;-7.358111906796694E-003;3.387102391570807E-003;
2.402166666666667E+009;1.572091430425644E-001;7.699725776910782E-002;-7.240935694426298E-003;3.836185904219747E-003;
2.402333333333334E+009;1.577669382095337E-001;7.382687926292419E-002;-6.991650443524122E-003;3.831480862572789E-003;
2.402500000000000E+009;1.587707102298737E-001;7.114711403846741E-002;-6.745142862200737E-003;4.021867644041777E-003;
2.402666666666667E+009;1.594507396221161E-001;6.823443621397018E-002;-6.505855359137058E-003;4.363270942121744E-003;
2.402833333333334E+009;1.607201248407364E-001;6.550034135580063E-002;-6.320498418062925E-003;4.484690260142088E-003;
2.403000000000000E+009;1.619447469711304E-001;6.271225214004517E-002;-6.123815197497606E-003;4.797783680260181E-003;
2.403166666666667E+009;1.634783744812012E-001;6.019246950745583E-002;-5.986258853226900E-003;5.025942809879780E-003;
2.403333333333334E+009;1.649635732173920E-001;5.750148743391037E-002;-5.693631246685982E-003;5.066897254437208E-003;
2.403500000000000E+009;1.666900813579559E-001;5.509933084249497E-002;-5.534240044653416E-003;5.163062829524279E-003;
2.403666666666667E+009;1.683246940374374E-001;5.288445577025414E-002;-5.166561808437109E-003;5.448852200061083E-003;
2.403833333333334E+009;1.700868755578995E-001;5.062260851264000E-002;-4.902572836726904E-003;5.575407762080431E-003;
2.404000000000000E+009;1.716545820236206E-001;4.844076931476593E-002;-4.770593252032995E-003;5.613332148641348E-003;
2.404166666666667E+009;1.734476834535599E-001;4.653690010309219E-002;-4.538905341178179E-003;5.834763869643211E-003;
2.404333333333334E+009;1.753805279731751E-001;4.457185789942741E-002;-4.335235804319382E-003;5.786929745227099E-003;
2.404500000000000E+009;1.771032661199570E-001;4.288920015096664E-002;-3.996808547526598E-003;5.925983656197786E-003;
2.404666666666667E+009;1.788041293621063E-001;4.144497960805893E-002;-3.781036706641316E-003;6.128762848675251E-003;
2.404833333333334E+009;1.806197464466095E-001;4.008357599377632E-002;-3.531723981723189E-003;6.118877325206995E-003;
2.405000000000000E+009;1.823275089263916E-001;3.921396285295487E-002;-3.334722016006708E-003;6.096415687352419E-003;
2.405166666666667E+009;1.839417070150375E-001;3.823816031217575E-002;-3.141027642413974E-003;6.039168220013380E-003;
2.405333333333334E+009;1.856759190559387E-001;3.739706054329872E-002;-2.797469729557633E-003;6.135801319032908E-003;
2.405500000000000E+009;1.873807758092880E-001;3.675551712512970E-002;-2.394522773101926E-003;5.978638306260109E-003;
2.405666666666667E+009;1.889881044626236E-001;3.627422079443932E-002;-2.244894625619054E-003;6.158792879432440E-003;
2.405833333333334E+009;1.904235333204269E-001;3.584329411387444E-002;-1.934615196660161E-003;5.988569464534521E-003;
2.406000000000000E+009;1.918082982301712E-001;3.569078445434570E-002;-1.827273285016418E-003;5.846003070473671E-003;
2.406166666666667E+009;1.931778341531754E-001;3.548977524042130E-002;-1.533892587758601E-003;5.926597863435745E-003;
2.406333333333334E+009;1.945047527551651E-001;3.539775684475899E-002;-1.522458740510047E-003;5.792940966784954E-003;
2.406500000000000E+009;1.955131590366364E-001;3.559852764010429E-002;-1.355756307020783E-003;5.755645222961903E-003;
2.406666666666667E+009;1.965183019638062E-001;3.567420318722725E-002;-1.413337769918144E-003;5.645500030368567E-003;
2.406833333333334E+009;1.973292678594589E-001;3.580114617943764E-002;-1.064010080881417E-003;5.461522378027439E-003;
2.407000000000000E+009;1.979788392782211E-001;3.618570044636726E-002;-1.011106651276350E-003;5.528714973479509E-003;
2.407166666666667E+009;1.988214552402496E-001;3.616520762443543E-002;-1.088229357264936E-003;5.486329551786184E-003;
2.407333333333334E+009;1.990889757871628E-001;3.665617480874062E-002;-9.121167240664363E-004;5.398998968303204E-003;
2.407500000000000E+009;1.992573589086533E-001;3.699368610978127E-002;-7.948328275233507E-004;5.308611784130335E-003;
2.407666666666667E+009;1.995384097099304E-001;3.725147619843483E-002;-6.960587343201041E-004;5.090602673590183E-003;
2.407833333333334E+009;1.992991417646408E-001;3.730874881148338E-002;-6.956268334761262E-004;5.242048762738705E-003;
2.408000000000000E+009;1.995512992143631E-001;3.754585981369019E-002;-6.149655091576278E-004;5.189876537770033E-003;
2.408166666666667E+009;1.991187632083893E-001;3.760829940438271E-002;-5.430288729257882E-004;5.060443188995123E-003;
2.408333333333334E+009;1.989655196666718E-001;3.752558678388596E-002;-4.930234281346202E-004;5.191450472921133E-003;
2.408500000000000E+009;1.983379423618317E-001;3.765831515192986E-002;-5.809935391880572E-004;5.116664338856936E-003;
2.408666666666667E+009;1.978385597467423E-001;3.741971775889397E-002;-4.148547013755888E-004;4.972286056727171E-003;
2.408833333333334E+009;1.970823407173157E-001;3.721680119633675E-002;-6.410830537788570E-004;5.083594936877489E-003;
2.409000000000000E+009;1.963677555322647E-001;3.670800477266312E-002;-3.804922744166106E-004;4.986766725778580E-003;
2.409166666666667E+009;1.953403502702713E-001;3.625670820474625E-002;-4.496882611420006E-004;5.089784506708384E-003;
2.409333333333334E+009;1.943850666284561E-001;3.550248965620995E-002;-3.883504832629114E-004;5.192820448428392E-003;
2.409500000000000E+009;1.932406723499298E-001;3.467749059200287E-002;-3.803899744525552E-004;5.323441233485937E-003;
2.409666666666667E+009;1.921346485614777E-001;3.348929435014725E-002;-3.812481591012329E-004;5.555814132094383E-003;
2.409833333333334E+009;1.908107101917267E-001;3.250543400645256E-002;-2.622115134727210E-004;5.523922853171825E-003;
2.410000000000000E+009;1.897048056125641E-001;3.124754689633846E-002;-1.732544187689200E-004;5.587806925177574E-003;
2.410166666666667E+009;1.884441971778870E-001;2.949263341724873E-002;1.985540620808024E-005;5.804763175547123E-003;
2.410333333333334E+009;1.872068643569946E-001;2.814966998994350E-002;3.277900395914912E-004;5.827520973980427E-003;
2.410500000000000E+009;1.861557215452194E-001;2.635957300662994E-002;4.511402512434870E-004;6.068400572985411E-003;
2.410666666666667E+009;1.847841143608093E-001;2.431726083159447E-002;6.152830901555717E-004;5.960529204457998E-003;
2.410833333333334E+009;1.839140057563782E-001;2.237312495708466E-002;9.334296337328851E-004;6.211313419044018E-003;
2.411000000000000E+009;1.828664541244507E-001;2.029469609260559E-002;9.544994099996984E-004;6.066780537366867E-003;
2.411166666666667E+009;1.818320304155350E-001;1.824054867029190E-002;1.213484676554799E-003;6.040203850716353E-003;
2.411333333333334E+009;1.808857619762421E-001;1.568849757313728E-002;1.405588351190090E-003;6.090372335165739E-003;
2.411500000000000E+009;1.801679432392120E-001;1.324460096657276E-002;1.623942633159459E-003;6.155740935355425E-003;
2.411666666666667E+009;1.798914670944214E-001;1.094769593328238E-002;1.841114833950996E-003;6.082894280552864E-003;
2.411833333333334E+009;1.792177110910416E-001;8.520562201738358E-003;2.081950195133686E-003;6.005643866956234E-003;
2.412000000000000E+009;1.788858920335770E-001;5.721244029700756E-003;2.312142169103026E-003;5.924832075834274E-003;
2.412166666666667E+009;1.786679625511169E-001;3.382793162018061E-003;2.373236464336515E-003;5.953358951956034E-003;
2.412333333333334E+009;1.784501075744629E-001;6.908291834406555E-004;2.669528126716614E-003;5.828211084008217E-003;
2.412500000000000E+009;1.787240058183670E-001;-2.048211637884378E-003;2.876201644539833E-003;5.773919634521008E-003;
2.412666666666667E+009;1.789042502641678E-001;-4.662248771637678E-003;3.156761871650815E-003;5.573524627834559E-003;
2.412833333333334E+009;1.793912500143051E-001;-7.399824913591147E-003;3.209052840247750E-003;5.496715661138296E-003;
2.413000000000000E+009;1.798508316278458E-001;-9.813305921852589E-003;3.411799436435103E-003;5.261537618935108E-003;
2.413166666666667E+009;1.803213506937027E-001;-1.232239883393049E-002;3.626063000410795E-003;5.125991068780422E-003;
2.413333333333334E+009;1.812509298324585E-001;-1.511805877089500E-002;3.675041720271111E-003;5.032929126173258E-003;
2.413500000000000E+009;1.820249408483505E-001;-1.777330227196217E-002;3.763633547350764E-003;4.912781994789839E-003;
2.413666666666667E+009;1.831424683332443E-001;-2.015274204313755E-002;4.086534958332777E-003;4.690047353506088E-003;
2.413833333333334E+009;1.840593963861466E-001;-2.244144305586815E-002;4.184023477137089E-003;4.604234360158444E-003;
2.414000000000000E+009;1.852084398269653E-001;-2.471558935940266E-002;4.219640512019396E-003;4.449150990694761E-003;
2.414166666666667E+009;1.864533126354218E-001;-2.688995376229286E-002;4.339858889579773E-003;4.277504980564117E-003;
2.414333333333334E+009;1.876825839281082E-001;-2.920981310307980E-002;4.414077382534742E-003;4.257641267031431E-003;
2.414500000000000E+009;1.889448761940002E-001;-3.090885095298290E-002;4.585640970617533E-003;4.096601158380508E-003;
2.414666666666667E+009;1.901463717222214E-001;-3.291678428649902E-002;4.715804010629654E-003;3.682674141600728E-003;
2.414833333333334E+009;1.914432942867279E-001;-3.454393148422241E-002;4.878475796431303E-003;3.935422748327255E-003;
2.415000000000000E+009;1.927420794963837E-001;-3.599702939391136E-002;5.086153745651245E-003;3.707276657223702E-003;
2.415166666666667E+009;1.943205893039703E-001;-3.745413199067116E-002;5.090412683784962E-003;3.537710290402174E-003;
2.415333333333334E+009;1.955857127904892E-001;-3.869425505399704E-002;5.146817769855261E-003;3.315489040687680E-003;
2.415500000000000E+009;1.968922615051270E-001;-3.954103961586952E-002;5.285925231873989E-003;3.099314169958234E-003;
2.415666666666667E+009;1.981679201126099E-001;-4.072757065296173E-002;5.411080084741116E-003;2.892324933782220E-003;
2.415833333333334E+009;1.993154436349869E-001;-4.154206439852715E-002;5.418046843260527E-003;2.741857431828976E-003;
2.416000000000000E+009;2.004383504390717E-001;-4.226919263601303E-002;5.505532026290894E-003;2.516422420740128E-003;
2.416166666666667E+009;2.015176713466644E-001;-4.299345985054970E-002;5.328701809048653E-003;2.172684995457530E-003;
2.416333333333334E+009;2.023992091417313E-001;-4.332897439599037E-002;5.400571040809155E-003;2.323257969692349E-003;
2.416500000000000E+009;2.031742334365845E-001;-4.377882555127144E-002;5.664431490004063E-003;2.044353168457747E-003;
2.416666666666667E+009;2.038501650094986E-001;-4.413957893848419E-002;5.636155605316162E-003;1.860425574705005E-003;
2.416833333333334E+009;2.043700218200684E-001;-4.419024288654327E-002;5.611141677945852E-003;1.828239299356937E-003;
2.417000000000000E+009;2.047509551048279E-001;-4.427790269255638E-002;5.657150875777006E-003;1.588566927239299E-003;
2.417166666666667E+009;2.047134190797806E-001;-4.418268054723740E-002;5.499848630279303E-003;1.508935703895986E-003;
2.417333333333334E+009;2.047737538814545E-001;-4.391809925436974E-002;5.756135564297438E-003;1.311787054874003E-003;
2.417500000000000E+009;2.048910409212112E-001;-4.373631626367569E-002;5.739538464695215E-003;1.180483144707978E-003;
2.417666666666667E+009;2.046338617801666E-001;-4.344051331281662E-002;5.755899008363485E-003;8.942076819948852E-004;
2.417833333333334E+009;2.045169621706009E-001;-4.319694265723229E-002;5.750351585447788E-003;7.486477843485773E-004;
2.418000000000000E+009;2.041062116622925E-001;-4.271252080798149E-002;5.804156418889761E-003;5.188999930396676E-004;
2.418166666666667E+009;2.033766955137253E-001;-4.239919781684876E-002;5.923031829297543E-003;5.515951197594404E-004;
2.418333333333334E+009;2.026956677436829E-001;-4.192537441849709E-002;5.864315200597048E-003;2.514970256015658E-004;
2.418500000000000E+009;2.018819004297257E-001;-4.175114631652832E-002;5.841733422130346E-003;5.630763553199358E-005;
2.418666666666667E+009;2.011332511901856E-001;-4.129113256931305E-002;5.951678380370140E-003;-7.358747825492173E-005;
2.418833333333334E+009;2.000858336687088E-001;-4.117555171251297E-002;5.858351476490498E-003;-4.792433173861355E-004;
2.419000000000000E+009;1.987760812044144E-001;-4.104844108223915E-002;5.702670663595200E-003;-5.343235097825527E-004;
2.419166666666667E+009;1.976336240768433E-001;-4.102633520960808E-002;5.632880609482527E-003;-5.507528549060226E-004;
2.419333333333334E+009;1.960959732532501E-001;-4.122775793075562E-002;5.569261033087969E-003;-7.971924496814609E-004;
2.419500000000000E+009;1.946394890546799E-001;-4.133041575551033E-002;5.329329054802656E-003;-9.478086722083390E-004;
2.419666666666667E+009;1.929754167795181E-001;-4.182334989309311E-002;5.495469551533461E-003;-1.091765239834786E-003;
2.419833333333334E+009;1.913745254278183E-001;-4.216210171580315E-002;5.321396980434656E-003;-1.229512155987322E-003;
2.420000000000000E+009;1.896578371524811E-001;-4.285757616162300E-002;5.226099397987127E-003;-1.296025351621211E-003;
2.420166666666667E+009;1.879272162914276E-001;-4.333805665373802E-002;5.177248269319534E-003;-1.372476108372212E-003;
2.420333333333334E+009;1.859844923019409E-001;-4.433441162109375E-002;5.095828324556351E-003;-1.430093310773373E-003;
2.420500000000000E+009;1.841145306825638E-001;-4.537170752882958E-002;5.023669917136431E-003;-1.419653766788542E-003;
2.420666666666667E+009;1.824782639741898E-001;-4.625613242387772E-002;5.057698115706444E-003;-1.475234981626272E-003;
2.420833333333334E+009;1.805790364742279E-001;-4.760875180363655E-002;4.922477528452873E-003;-1.565696089528501E-003;
2.421000000000000E+009;1.787823736667633E-001;-4.903343319892883E-002;4.848020616918802E-003;-1.646999968215823E-003;
2.421166666666667E+009;1.771191060543060E-001;-5.060014128684998E-002;4.896818660199642E-003;-1.798042212612927E-003;
2.421333333333334E+009;1.752092540264130E-001;-5.203682184219360E-002;4.878283478319645E-003;-1.952506485395134E-003;
2.421500000000000E+009;1.735541075468063E-001;-5.391474068164825E-002;4.797205328941345E-003;-1.989368116483092E-003;
2.421666666666667E+009;1.718787550926209E-001;-5.568229779601097E-002;4.788390360772610E-003;-2.030587755143642E-003;
2.421833333333334E+009;1.704400926828384E-001;-5.755256488919258E-002;4.821291659027338E-003;-2.248787553980947E-003;
2.422000000000000E+009;1.690078228712082E-001;-5.940211191773415E-002;4.857458639889956E-003;-2.275057835504413E-003;
2.422166666666667E+009;1.676882654428482E-001;-6.166565418243408E-002;4.724598489701748E-003;-2.538715722039342E-003;
2.422333333333334E+009;1.664877086877823E-001;-6.368223577737808E-002;4.673732910305262E-003;-2.643584506586194E-003;
2.422500000000000E+009;1.653719842433929E-001;-6.582660228013992E-002;4.554849117994309E-003;-2.727856626734138E-003;
2.422666666666667E+009;1.643909960985184E-001;-6.779225170612335E-002;4.409935325384140E-003;-2.798393135890365E-003;
2.422833333333334E+009;1.636551916599274E-001;-7.000034302473068E-002;4.415221046656370E-003;-2.776215318590403E-003;
2.423000000000000E+009;1.630833446979523E-001;-7.229152321815491E-002;4.403581377118826E-003;-2.973030786961317E-003;
2.423166666666667E+009;1.624208539724350E-001;-7.457399368286133E-002;4.202032927423716E-003;-3.120291279628873E-003;
2.423333333333334E+009;1.618701219558716E-001;-7.671315222978592E-002;4.252016544342041E-003;-3.118636319413781E-003;
2.423500000000000E+009;1.618326008319855E-001;-7.876692712306976E-002;4.223223775625229E-003;-3.207745263352990E-003;
2.423666666666667E+009;1.615411937236786E-001;-8.102118968963623E-002;4.111905116587877E-003;-3.382885828614235E-003;
2.423833333333334E+009;1.616002470254898E-001;-8.308622241020203E-002;4.100018646568060E-003;-3.473335644230247E-003;
2.424000000000000E+009;1.615875065326691E-001;-8.529173582792282E-002;3.963284194469452E-003;-3.556536277756095E-003;
2.424166666666667E+009;1.616134792566299E-001;-8.698885887861252E-002;3.983554895967245E-003;-3.771451069042087E-003;
2.424333333333334E+009;1.617493331432343E-001;-8.888210356235504E-002;3.783970838412643E-003;-3.808381501585245E-003;
2.424500000000000E+009;1.623324751853943E-001;-9.100636094808579E-002;3.815206931903958E-003;-3.774097422137857E-003;
2.424666666666667E+009;1.624638140201569E-001;-9.246993064880371E-002;3.637151559814811E-003;-3.988679498434067E-003;
2.424833333333334E+009;1.631029844284058E-001;-9.409008920192719E-002;3.639668691903353E-003;-4.050760529935360E-003;
2.425000000000000E+009;1.634662449359894E-001;-9.561794251203537E-002;3.558890894055367E-003;-4.060950595885515E-003;
2.425166666666667E+009;1.641032993793488E-001;-9.703464061021805E-002;3.371086437255144E-003;-4.436149261891842E-003;
2.425333333333334E+009;1.645680963993073E-001;-9.825234860181809E-002;3.366095945239067E-003;-4.362246487289667E-003;
2.425500000000000E+009;1.652874052524567E-001;-9.940685331821442E-002;3.340011229738593E-003;-4.704279825091362E-003;
2.425666666666667E+009;1.658085435628891E-001;-1.003488525748253E-001;3.100312314927578E-003;-4.711953923106194E-003;
2.425833333333334E+009;1.664057970046997E-001;-1.015138477087021E-001;2.885551657527685E-003;-4.726975224912167E-003;
2.426000000000000E+009;1.671682000160217E-001;-1.020055785775185E-001;2.862451132386923E-003;-4.957523662596941E-003;
2.426166666666667E+009;1.678041517734528E-001;-1.026829257607460E-001;2.658610930666328E-003;-5.056500900536776E-003;
2.426333333333334E+009;1.682805418968201E-001;-1.034028008580208E-001;2.384001854807138E-003;-5.166545510292053E-003;
2.426500000000000E+009;1.690726876258850E-001;-1.036363169550896E-001;2.326697343960404E-003;-5.214420147240162E-003;
2.426666666666667E+009;1.696208268404007E-001;-1.041075661778450E-001;2.087613102048636E-003;-5.295929033309221E-003;
2.426833333333334E+009;1.701688319444656E-001;-1.045078784227371E-001;1.857158844359219E-003;-5.324979312717915E-003;
2.427000000000000E+009;1.705406755208969E-001;-1.047145724296570E-001;1.824096194468439E-003;-5.549626424908638E-003;
2.427166666666667E+009;1.709165126085281E-001;-1.048108488321304E-001;1.678999629803002E-003;-5.339462310075760E-003;
2.427333333333334E+009;1.711893975734711E-001;-1.050113961100578E-001;1.524974242784083E-003;-5.519593134522438E-003;
2.427500000000000E+009;1.713231950998306E-001;-1.051660552620888E-001;1.446180045604706E-003;-5.484162829816341E-003;
2.427666666666667E+009;1.713413298130035E-001;-1.051331982016563E-001;1.112634199671447E-003;-5.659257061779499E-003;
2.427833333333334E+009;1.713374257087708E-001;-1.051360517740250E-001;1.044178265146911E-003;-5.642534699290991E-003;
