# Hz S RI R 
2400000000.0000000000 0.155115708708763094803018134371 0.105389818549156202842631557814 -0.003824195126071571870091103662 -0.004418903961777687072753906250 0 0 0 0 
2400166666.6666665077 0.154571965336799593826455634371 0.103226840496063204666299384371 -0.004179235082119703292846679688 -0.004474350716918706893920898438 0 0 0 0 
2400333333.3333334923 0.154194623231887789627236884371 0.101343780755996704101562500000 -0.004398973658680915832519531250 -0.004374245181679725646972656250 0 0 0 0 
2400500000.0000000000 0.154707282781601007659588731258 0.098614096641540527343750000000 -0.004584836773574352264404296875 -0.004327643662691116333007812500 0 0 0 0 
2400666666.6666665077 0.154842630028724698165731865629 0.095829494297504425048828125000 -0.004828547127544879913330078125 -0.004324275068938732147216796875 0 0 0 0 
2400833333.3333334923 0.154127359390258789062500000000 0.093485668301582336425781250000 -0.005191656295210123062133789062 -0.004344378132373095426077558301 0 0 0 0 
2401000000.0000000000 0.154489040374755887130575615629 0.090728707611560821533203125000 -0.005394940264523029327392578125 -0.004162289202213287353515625000 0 0 0 0 
2401166666.6666665077 0.154524311423301696777343750000 0.087704703211784362792968750000 -0.005478833802044391632080078125 -0.004008992109447717666625976562 0 0 0 0 
2401333333.3333334923 0.154955670237541198730468750000 0.084966696798801422119140625000 -0.005746587179601193341726972363 -0.003873605281114577813389443506 0 0 0 0 
2401500000.0000000000 0.155204892158508300781250000000 0.081983171403408050537109375000 -0.006163533311337232589721679688 -0.003745860885828733010532998193 0 0 0 0 
2401666666.6666665077 0.155680030584335299392861884371 0.079219847917556762695312500000 -0.006776156835258007049560546875 -0.003515242598950862884521484375 0 0 0 0 
2401833333.3333334923 0.156205311417579706390057481258 0.076450750231742858886718750000 -0.006933048833161593350882245801 -0.003193888580426574187037802588 0 0 0 0 
2402000000.0000000000 0.156794026494026211837606865629 0.073804892599582672119140625000 -0.006403984967619180679321289062 -0.003496881574392319159266806494 0 0 0 0 
2402166666.6666665077 0.157691359519958496093750000000 0.071188569068908691406250000000 -0.007780604530125856399536132812 -0.002150149550288916067836142432 0 0 0 0 
2402333333.3333334923 0.158461585640907287597656250000 0.068546243011951446533203125000 -0.007139934692531824111938476562 -0.002310215029865502877476357568 0 0 0 0 
2402500000.0000000000 0.159873411059379605392294365629 0.066227443516254425048828125000 -0.008527022786438465118408203125 -0.002804782474413514137268066406 0 0 0 0 
2402666666.6666665077 0.161012277007102994064169365629 0.063677772879600524902343750000 -0.008415096439421176910400390625 -0.001306929276324809031245566260 0 0 0 0 
2402833333.3333334923 0.162042379379272488693075615629 0.061489257961511611938476562500 -0.007608440704643726348876953125 -0.001879753894172609069226909106 0 0 0 0 
2403000000.0000000000 0.163483709096908597091513115629 0.059049360454082489013671875000 -0.006898310966789721575265215137 -0.000973438436631113290786743164 0 0 0 0 
2403166666.6666665077 0.165337815880775507171307481258 0.056844118982553482055664062500 -0.008248700760304927825927734375 -0.000789200596045702695846557617 0 0 0 0 
2403333333.3333334923 0.166601553559303311446981865629 0.054645311087369918823242187500 -0.008447133004665374755859375000 -0.000490900129079818725585937500 0 0 0 0 
2403500000.0000000000 0.168392777442932101150674384371 0.052885107696056372905690778907 -0.008302595466375350952148437500 0.000105042723589576794348578181 0 0 0 0 
2403666666.6666665077 0.170240297913551302810830634371 0.050796132534742362285573591407 -0.008331109769642353057861328125 0.000346720626112073714106959210 0 0 0 0 
2403833333.3333334923 0.171887278556823702713174384371 0.049116909503936767578125000000 -0.008240801282227039337158203125 0.000895268283784389495849609375 0 0 0 0 
2404000000.0000000000 0.173428446054458590408486884371 0.047356937080621719360351562500 -0.008208648301661014556884765625 0.001427636248990892930271767725 0 0 0 0 
2404166666.6666665077 0.175332546234130887130575615629 0.045957915484905242919921875000 -0.008110247552394866943359375000 0.001778273843228816986083984375 0 0 0 0 
2404333333.3333334923 0.176960512995719909667968750000 0.044604133814573287963867187500 -0.008037133142352104187011718750 0.002209428697824478149414062500 0 0 0 0 
2404500000.0000000000 0.178631424903869601150674384371 0.043107192963361740112304687500 -0.007788574788719415664672851562 0.002427123254165052933933877100 0 0 0 0 
2404666666.6666665077 0.180388391017913790603799384371 0.042024828493595123291015625000 -0.007575938478112220764160156250 0.002721353201195598082301474463 0 0 0 0 
2404833333.3333334923 0.182064533233642605880575615629 0.040659479796886437152902971093 -0.007319453172385692596435546875 0.002973747672513126893284463037 0 0 0 0 
2405000000.0000000000 0.183468028903007507324218750000 0.040146086364984512329101562500 -0.007069930899888277053833007812 0.003285239683464169935939169775 0 0 0 0 
2405166666.6666665077 0.184950858354568509200888115629 0.039472017437219619750976562500 -0.007058648858219385147094726562 0.003504397347569466070887900244 0 0 0 0 
2405333333.3333334923 0.186450973153114291092080634371 0.039064750075340270996093750000 -0.006721872370690107345581054688 0.003742496250197290940525673975 0 0 0 0 
2405500000.0000000000 0.187893167138099698165731865629 0.038610730320215232158620466407 -0.006693574134260416030883789062 0.003830621950328350067138671875 0 0 0 0 
2405666666.6666665077 0.189031645655631991287393134371 0.038259249180555336689035783593 -0.006260711699724197387695312500 0.004161129239946603775024414062 0 0 0 0 
2405833333.3333334923 0.190377905964851407150106865629 0.037886183708906166767160783593 -0.006044270470738410949707031250 0.004294093232601881027221679688 0 0 0 0 
2406000000.0000000000 0.191355645656585693359375000000 0.037709996104240417480468750000 -0.005999505985528230667114257812 0.004655084572732448577880859375 0 0 0 0 
2406166666.6666665077 0.192192867398261996170205634371 0.037612974643707282329518903907 -0.005710939411073923110961914062 0.004565586801618337631225585938 0 0 0 0 
2406333333.3333334923 0.193356782197952298263388115629 0.037659578025341026996652971093 -0.005474023520946502685546875000 0.004937986843287944793701171875 0 0 0 0 
2406500000.0000000000 0.193995088338851900955361884371 0.037812996655702590942382812500 -0.005196377169340848922729492188 0.005159401800483465194702148438 0 0 0 0 
2406666666.6666665077 0.194693088531494112869424384371 0.037763033062219619750976562500 -0.004908858332782983779907226562 0.005180352367460727691650390625 0 0 0 0 
2406833333.3333334923 0.195276856422424288650674384371 0.037822771817445761943776716407 -0.004804792348295450210571289062 0.005149966105818749341482831738 0 0 0 0 
2407000000.0000000000 0.195483416318893404861611884371 0.038114309310913092876393903907 -0.004436695948243141174316406250 0.005175365600734949111938476562 0 0 0 0 
2407166666.6666665077 0.195844024419784601409588731258 0.037987161427736282348632812500 -0.004276604857295751571655273438 0.005352753680199384689331054688 0 0 0 0 
2407333333.3333334923 0.195927724242210388183593750000 0.038192298263311393047292341407 -0.004050478804856538772583007812 0.005324965342879295349121093750 0 0 0 0 
2407500000.0000000000 0.195882409811019897460937500000 0.038293428719043731689453125000 -0.003651759354397654967067099463 0.005542811006307601928710937500 0 0 0 0 
2407666666.6666665077 0.195804923772811889648437500000 0.038170881569385528564453125000 -0.003555211471393703980686806787 0.005395380780100821581368730762 0 0 0 0 
2407833333.3333334923 0.195276662707328796386718750000 0.038152813911437988281250000000 -0.003210930852219461961033486475 0.005494245328009128570556640625 0 0 0 0 
2408000000.0000000000 0.195455774664878900725994981258 0.037963353097438812255859375000 -0.003100502537563443183898925781 0.005485195666551589965820312500 0 0 0 0 
2408166666.6666665077 0.194724783301353510100994981258 0.037819322198629379272460937500 -0.002821879461407661004307412256 0.005465379450470209121704101562 0 0 0 0 
2408333333.3333334923 0.194431126117706298828125000000 0.037420708686113357543945312500 -0.002796502551063894791844033350 0.005314137320965529355520917676 0 0 0 0 
2408500000.0000000000 0.193726480007171603103799384371 0.036920234560966491699218750000 -0.002428130945190786881687783350 0.005208106245845556259155273438 0 0 0 0 
2408666666.6666665077 0.193055763840675409515057481258 0.036309089511632919311523437500 -0.002374087693169713020324707031 0.005212048068642616271972656250 0 0 0 0 
2408833333.3333334923 0.192424550652503995040731865629 0.035720430314540863037109375000 -0.002285375492647289796116494287 0.005339710973203182220458984375 0 0 0 0 
2409000000.0000000000 0.191388562321662902832031250000 0.034830175340175628662109375000 -0.002273972146213055090663290869 0.005165113601833581924438476562 0 0 0 0 
2409166666.6666665077 0.190612763166427612304687500000 0.033901721239089972759206403907 -0.002121807308867574171779013525 0.005236701574176549911499023438 0 0 0 0 
2409333333.3333334923 0.189731121063232394119424384371 0.032809559255838387226145158593 -0.002176771871745585961582802881 0.005103875417262315750122070312 0 0 0 0 
2409500000.0000000000 0.188488781452179010589276231258 0.031532399356365196918527971093 -0.001947333104908465905430459131 0.005073031876236200332641601562 0 0 0 0 
2409666666.6666665077 0.187565341591834994217080634371 0.030159769579768180847167968750 -0.001961358590051531791687011719 0.005037080962210893630981445312 0 0 0 0 
2409833333.3333334923 0.186473935842514010330361884371 0.028629980981349948537806326954 -0.001950322650372982025146484375 0.005156371742486953735351562500 0 0 0 0 
2410000000.0000000000 0.185650393366813687423544365629 0.026787843555212020874023437500 -0.001807252876460551998735737378 0.005233651958405972394461347363 0 0 0 0 
2410166666.6666665077 0.184601888060569790939169365629 0.025104265660047531127929687500 -0.001670142984949051900150918115 0.005200249142944812774658203125 0 0 0 0 
2410333333.3333334923 0.183608859777450589279013115629 0.023285983130335811269739920704 -0.001821551122702657959581684644 0.005363843869417905807495117188 0 0 0 0 
2410500000.0000000000 0.182615146040916387359942518742 0.021326707676053050649622733204 -0.001631208695471286990522075122 0.005183858331292867660522460938 0 0 0 0 
2410666666.6666665077 0.181671798229217501541299384371 0.018900899216532710683802420704 -0.001422296976670623042462993091 0.005398949142545461654663085938 0 0 0 0 
2410833333.3333334923 0.181105464696884210784588731258 0.016795497387647628784179687500 -0.001261123688891530036926269531 0.005396223627030850324148847363 0 0 0 0 
2411000000.0000000000 0.180317267775535611251669365629 0.014737993478775019209892072070 -0.001230021123774349906324077075 0.005366519093513488769531250000 0 0 0 0 
2411166666.6666665077 0.179501459002494812011718750000 0.012409923598170280456542968750 -0.001136897248215972943546914209 0.005339049734175205230712890625 0 0 0 0 
2411333333.3333334923 0.178980723023414611816406250000 0.009781773202121257781982421875 -0.000971420609857887029647827148 0.005483617074787616729736328125 0 0 0 0 
2411500000.0000000000 0.178494840860366793533486884371 0.007492355071008205413818359375 -0.000795302737969905138015747070 0.005357184913009405136108398438 0 0 0 0 
2411666666.6666665077 0.178368031978607205489950615629 0.005144266877323389053344726562 -0.000777593464590609073638916016 0.005278172902762889862060546875 0 0 0 0 
2411833333.3333334923 0.178167596459388705154580634371 0.002734290203079580827000283350 -0.000565514841582626104354858398 0.005426783580332995328421308301 0 0 0 0 
2412000000.0000000000 0.178178668022155789474325615629 0.000169283463037572801113128662 -0.000552038138266652822494506836 0.005400505382567644119262695312 0 0 0 0 
2412166666.6666665077 0.178325235843658502776776231258 -0.002191122155636548995971679688 -0.000405137019697576815455836163 0.005245517008006572723388671875 0 0 0 0 
2412333333.3333334923 0.178506284952163696289062500000 -0.004584394395351409912109375000 -0.000393688591429963707923889160 0.005385514814406633377075195312 0 0 0 0 
2412500000.0000000000 0.179088220000267001053018134371 -0.007228413131088018417358398438 -0.000265961658442392999499720441 0.005404579918831586837768554688 0 0 0 0 
2412666666.6666665077 0.179478675127029391189736884371 -0.009763545356690883636474609375 -0.000351448426954448223114013672 0.005252364557236433029174804688 0 0 0 0 
2412833333.3333334923 0.180305227637291010100994981258 -0.012198898941278459376325038477 -0.000218800298171117901802062988 0.005332438740879297256469726562 0 0 0 0 
2413000000.0000000000 0.181085452437400790115518134371 -0.014375039376318459946602068555 -0.000172595508047379607528132306 0.005427894182503223419189453125 0 0 0 0 
2413166666.6666665077 0.181923389434814508636151231258 -0.016733430325984958303431326954 -0.000191671322681941092014312744 0.005533245392143726348876953125 0 0 0 0 
2413333333.3333334923 0.182967171072959899902343750000 -0.019269384443759921682337576954 -0.000018772456314763988962377242 0.005806646309792996320242597363 0 0 0 0 
2413500000.0000000000 0.183734804391860989669638115629 -0.021535549312829971313476562500 0.000048353005695389576930592196 0.005816965829581022262573242188 0 0 0 0 
2413666666.6666665077 0.184984371066093389313067518742 -0.023771256208419799804687500000 0.000208710102015174898222246713 0.005971867591142654418945312500 0 0 0 0 
2413833333.3333334923 0.186073973774910000900106865629 -0.025711350142955780029296875000 0.000446157908299937790066319598 0.006052173208445310592651367188 0 0 0 0 
2414000000.0000000000 0.187087431550025912185830634371 -0.027711845934391021728515625000 0.000609826878644526004791259766 0.006078761536628007888793945312 0 0 0 0 
2414166666.6666665077 0.188427552580833407303018134371 -0.029599113389849659311314766796 0.000947486492805182933807373047 0.006120417732745409011840820312 0 0 0 0 
2414333333.3333334923 0.189518511295318603515625000000 -0.031362488865852362895925153907 0.001161587075330317020416259766 0.006200108211487531661987304688 0 0 0 0 
2414500000.0000000000 0.190778195858001708984375000000 -0.032925732433795928955078125000 0.001302915858104825019836425781 0.006222639698535203933715820312 0 0 0 0 
2414666666.6666665077 0.191931456327438410003338731258 -0.034312359988689422607421875000 0.001534353825263679027557373047 0.006187910679727792739868164062 0 0 0 0 
2414833333.3333334923 0.193178191781044006347656250000 -0.035653118044137961650807966407 0.001601588563062251047847128760 0.006112630944699048995971679688 0 0 0 0 
2415000000.0000000000 0.194203689694404602050781250000 -0.037132333964109420776367187500 0.001892686123028397993800497900 0.006123277824372053146362304688 0 0 0 0 
2415166666.6666665077 0.195480078458786010742187500000 -0.038110196590423577045481096093 0.002066480461508036093470908057 0.005838171578943729400634765625 0 0 0 0 
2415333333.3333334923 0.196551948785781888107138115629 -0.039137307554483406757395158593 0.002384276129305363135096884619 0.005915171466767787933349609375 0 0 0 0 
2415500000.0000000000 0.197676211595535306075888115629 -0.039733365178108222270925153907 0.002662783954292536215541220557 0.005839561112225055694580078125 0 0 0 0 
2415666666.6666665077 0.198666751384735107421875000000 -0.040673326700925827026367187500 0.002665033796802163124084472656 0.005701039917767047882080078125 0 0 0 0 
2415833333.3333334923 0.199522420763969393631143134371 -0.041144337505102157592773437500 0.002899249084293841881992959131 0.005662653595209121704101562500 0 0 0 0 
2416000000.0000000000 0.200339391827583312988281250000 -0.041801467537879936908762346093 0.003080109832808374924900673975 0.005571763031184673309326171875 0 0 0 0 
2416166666.6666665077 0.201052099466323908050213731258 -0.042256589978933327411692033593 0.003136881161481142044067382812 0.005549586843699216842651367188 0 0 0 0 
2416333333.3333334923 0.201734319329261807540731865629 -0.042481049895286560058593750000 0.003368170000612736181971884619 0.005594850983470678329467773438 0 0 0 0 
2416500000.0000000000 0.202169775962829589843750000000 -0.042784411460161209106445312500 0.003491113660857080979588173975 0.005496733821928501129150390625 0 0 0 0 
2416666666.6666665077 0.202515468001365689376669365629 -0.043072845786809921264648437500 0.003727062605321406884434365381 0.005362161900848150253295898438 0 0 0 0 
2416833333.3333334923 0.202548295259475708007812500000 -0.043069213628768920898437500000 0.003765896428376435799839638818 0.005368908401578664779663085938 0 0 0 0 
2417000000.0000000000 0.202623516321182306487713731258 -0.043196495622396469116210937500 0.004070242401212453842163085938 0.005348974373191595077514648438 0 0 0 0 
2417166666.6666665077 0.202372267842292813400106865629 -0.042933359742164611816406250000 0.004195018671452999114990234375 0.005177319515496492385864257812 0 0 0 0 
2417333333.3333334923 0.202183723449707003494424384371 -0.042756401002407067035715471093 0.004350828938186168670654296875 0.005051469430327416333670331738 0 0 0 0 
2417500000.0000000000 0.201990753412246704101562500000 -0.042761988937854766845703125000 0.004705049097537994384765625000 0.005078097339719533920288085938 0 0 0 0 
2417666666.6666665077 0.201484099030494689941406250000 -0.042602546513080596923828125000 0.004646355286240577697753906250 0.005032625049352645874023437500 0 0 0 0 
2417833333.3333334923 0.201098844408989008147869981258 -0.042326755821704871440847028907 0.005050540436059237393850995801 0.004905874375253915786743164062 0 0 0 0 
2418000000.0000000000 0.200360879302024813553018134371 -0.042085431516170501708984375000 0.005355926696211099624633789062 0.004653391428291797637939453125 0 0 0 0 
2418166666.6666665077 0.199465215206146212478799384371 -0.041919808834791176532785783593 0.005581290461122989654541015625 0.004635797347873449325561523438 0 0 0 0 
2418333333.3333334923 0.198544576764106805999432481258 -0.041704855859279632568359375000 0.005732342135161161422729492188 0.004450934007763862609863281250 0 0 0 0 
2418500000.0000000000 0.197552368044853210449218750000 -0.041872430592775351787526716407 0.005935295019298791885375976562 0.004241425544023513793945312500 0 0 0 0 
2418666666.6666665077 0.196615636348724392989950615629 -0.041571930050849921489675153907 0.006115890108048915863037109375 0.004089399706572294235229492188 0 0 0 0 
2418833333.3333334923 0.195386603474617004394531250000 -0.041946116834878921508789062500 0.006137498188763856887817382812 0.003773362375795840783360146631 0 0 0 0 
2419000000.0000000000 0.194056436419486999511718750000 -0.042034514248371117328684221093 0.006304451730102300643920898438 0.003576894290745257897617959131 0 0 0 0 
2419166666.6666665077 0.192658215761184692382812500000 -0.042333964258432388305664062500 0.006525068543851375579833984375 0.003376743989065289931056357275 0 0 0 0 
2419333333.3333334923 0.191288068890571594238281250000 -0.042825821787118911743164062500 0.006593319587409496307373046875 0.003221517428755760192871093750 0 0 0 0 
2419500000.0000000000 0.189889058470726013183593750000 -0.043243337422609329223632812500 0.006664426531642675399780273438 0.002839946188032627105712890625 0 0 0 0 
2419666666.6666665077 0.188263833522796603103799384371 -0.044030532240867621684987653907 0.006824827753007411956787109375 0.002673593349754809899571084131 0 0 0 0 
2419833333.3333334923 0.186694294214248712737713731258 -0.044719945639371871948242187500 0.006882797926664352416992187500 0.002314862329512834982631064307 0 0 0 0 
