# Version 1.00
#
freq[Hz];re:Trc1_S11;im:Trc1_S11;re:Trc2_S21;im:Trc2_S21;
2.400000000000000E+009;1.555515825748444E-001;1.108172312378883E-001;-2.616184530779719E-003;5.081737414002419E-003;
2.400166666666667E+009;1.550891101360321E-001;1.085606962442398E-001;-2.607346745207906E-003;5.517144687473774E-003;
2.400333333333334E+009;1.549798548221588E-001;1.064087972044945E-001;-2.366799162700772E-003;5.604702048003674E-003;
2.400500000000000E+009;1.544713377952576E-001;1.036079600453377E-001;-2.296486869454384E-003;5.961862392723560E-003;
2.400666666666667E+009;1.542020142078400E-001;1.011169925332069E-001;-1.949273049831390E-003;6.014000624418259E-003;
2.400833333333334E+009;1.540885865688324E-001;9.833655506372452E-002;-1.848845393396914E-003;6.170773878693581E-003;
2.401000000000000E+009;1.539756506681442E-001;9.538104385137558E-002;-1.575470552779734E-003;6.457897368818522E-003;
2.401166666666667E+009;1.537911295890808E-001;9.238015115261078E-002;-1.243093400262296E-003;6.526824552565813E-003;
2.401333333333334E+009;1.540120542049408E-001;8.972768485546112E-002;-9.040049044415355E-004;6.687744520604610E-003;
2.401500000000000E+009;1.539511382579804E-001;8.652611821889877E-002;-6.988178938627243E-004;6.625446956604719E-003;
2.401666666666667E+009;1.540474593639374E-001;8.363301306962967E-002;-4.627525049727410E-004;6.674309261143208E-003;
2.401833333333334E+009;1.542418301105499E-001;8.037102222442627E-002;-5.374403190216981E-005;6.642575375735760E-003;
2.402000000000000E+009;1.550120264291763E-001;7.748042792081833E-002;1.863816869445145E-004;6.718223914504051E-003;
2.402166666666667E+009;1.556287258863449E-001;7.500563561916351E-002;6.352355703711510E-004;6.714136339724064E-003;
2.402333333333334E+009;1.564578115940094E-001;7.185278087854385E-002;5.866202409379184E-004;6.717734038829804E-003;
2.402500000000000E+009;1.573549062013626E-001;6.906785815954208E-002;1.137108542025089E-003;6.704919971525669E-003;
2.402666666666667E+009;1.584337353706360E-001;6.651984900236130E-002;1.291655004024506E-003;6.606801878660917E-003;
2.402833333333334E+009;1.596929430961609E-001;6.386420130729675E-002;1.644744072109461E-003;6.548793055117130E-003;
2.403000000000000E+009;1.610231548547745E-001;6.136494502425194E-002;1.917068730108440E-003;6.279245484620333E-003;
2.403166666666667E+009;1.625862121582031E-001;5.907424911856651E-002;2.309657400473952E-003;6.176254246383905E-003;
2.403333333333334E+009;1.639971137046814E-001;5.657966062426567E-002;2.548597287386656E-003;6.207102909684181E-003;
2.403500000000000E+009;1.657058298587799E-001;5.415099859237671E-002;2.851250348612666E-003;6.041220854967833E-003;
2.403666666666667E+009;1.677959263324738E-001;5.203065276145935E-002;3.140535904094577E-003;5.741749424487352E-003;
2.403833333333334E+009;1.693309396505356E-001;4.988903924822807E-002;3.209716174751520E-003;5.364966578781605E-003;
2.404000000000000E+009;1.710259169340134E-001;4.795725271105766E-002;3.291032975539565E-003;5.330231506377459E-003;
2.404166666666667E+009;1.729354262351990E-001;4.622552171349526E-002;3.438956104218960E-003;5.114410538226366E-003;
2.404333333333334E+009;1.746041476726532E-001;4.455169662833214E-002;3.632712177932262E-003;4.888354800641537E-003;
2.404500000000000E+009;1.765786856412888E-001;4.297168925404549E-002;3.596015973016620E-003;4.914030898362398E-003;
2.404666666666667E+009;1.783757358789444E-001;4.179645329713821E-002;3.722004359588027E-003;4.666598979383707E-003;
2.404833333333334E+009;1.803165823221207E-001;4.057441651821137E-002;3.819277044385672E-003;4.426661878824234E-003;
2.405000000000000E+009;1.818242222070694E-001;3.974205628037453E-002;4.086325410753489E-003;4.382432438433170E-003;
2.405166666666667E+009;1.835051774978638E-001;3.914568573236466E-002;4.090704489499331E-003;4.251617006957531E-003;
2.405333333333334E+009;1.852313131093979E-001;3.843162953853607E-002;4.410296212881804E-003;4.234904889017344E-003;
2.405500000000000E+009;1.868424862623215E-001;3.797011077404022E-002;4.459612537175417E-003;4.023320507258177E-003;
2.405666666666667E+009;1.883414536714554E-001;3.749112784862518E-002;4.504706244915724E-003;3.772946540266275E-003;
2.405833333333334E+009;1.899950355291367E-001;3.732547163963318E-002;4.695971962064505E-003;3.616613568738103E-003;
2.406000000000000E+009;1.911945939064026E-001;3.722328320145607E-002;4.904152825474739E-003;3.289956599473953E-003;
2.406166666666667E+009;1.925032287836075E-001;3.717770799994469E-002;4.967974498867989E-003;3.030233783647418E-003;
2.406333333333334E+009;1.937465965747833E-001;3.719783574342728E-002;5.063138436526060E-003;2.843758556991816E-003;
2.406500000000000E+009;1.947493255138397E-001;3.744488209486008E-002;5.287383217364550E-003;2.600303851068020E-003;
2.406666666666667E+009;1.956512629985809E-001;3.769448027014732E-002;5.214321427047253E-003;2.448641695082188E-003;
2.406833333333334E+009;1.963543742895126E-001;3.783246874809265E-002;5.304596852511168E-003;2.206236356869340E-003;
2.407000000000000E+009;1.967970281839371E-001;3.837584331631661E-002;5.321701522916555E-003;1.742627937346697E-003;
2.407166666666667E+009;1.974177360534668E-001;3.845391049981117E-002;5.138420034199953E-003;1.645092386752367E-003;
2.407333333333334E+009;1.976211220026016E-001;3.889249637722969E-002;5.015654489398003E-003;1.429183175787330E-003;
2.407500000000000E+009;1.977990120649338E-001;3.913432732224464E-002;4.962889011949301E-003;1.360929105430841E-003;
2.407666666666667E+009;1.979198455810547E-001;3.933010622859001E-002;5.063336342573166E-003;1.002209726721048E-003;
2.407833333333334E+009;1.976361721754074E-001;3.969398885965347E-002;5.020290147513151E-003;9.323183330707252E-004;
2.408000000000000E+009;1.976945847272873E-001;3.983250632882118E-002;4.889006726443768E-003;7.556013879366219E-004;
2.408166666666667E+009;1.971510350704193E-001;3.989341109991074E-002;4.820755217224360E-003;6.475853733718395E-004;
2.408333333333334E+009;1.968275755643845E-001;3.967026248574257E-002;4.843010567128658E-003;5.619805306196213E-004;
2.408500000000000E+009;1.962283998727799E-001;3.978902101516724E-002;4.862364847213030E-003;3.704695263877511E-004;
2.408666666666667E+009;1.955554485321045E-001;3.973940387368202E-002;4.894922021776438E-003;1.711438089841977E-004;
2.408833333333334E+009;1.946896910667419E-001;3.914402797818184E-002;4.764797165989876E-003;1.604083954589441E-004;
2.409000000000000E+009;1.937565803527832E-001;3.868266567587853E-002;4.514338448643684E-003;1.595361682120711E-004;
2.409166666666667E+009;1.927364468574524E-001;3.804706782102585E-002;4.498696886003017E-003;-5.241242979536764E-005;
2.409333333333334E+009;1.918234825134277E-001;3.719174861907959E-002;4.374350886791945E-003;-2.104041050188243E-004;
2.409500000000000E+009;1.905288100242615E-001;3.627419844269753E-002;4.398233722895384E-003;-1.602679258212447E-004;
2.409666666666667E+009;1.894726157188416E-001;3.508398309350014E-002;4.237229470163584E-003;-1.757627906044945E-004;
2.409833333333334E+009;1.881905049085617E-001;3.389337286353111E-002;4.245903808623552E-003;-2.515891683287919E-004;
2.410000000000000E+009;1.870902031660080E-001;3.244180232286453E-002;4.285998176783323E-003;-2.302980428794399E-004;
2.410166666666667E+009;1.858629435300827E-001;3.095468506217003E-002;4.090596456080675E-003;-3.312601184006780E-004;
2.410333333333334E+009;1.847279220819473E-001;2.937022782862186E-002;4.273435566574335E-003;-4.016771272290498E-004;
2.410500000000000E+009;1.835431307554245E-001;2.759705856442452E-002;3.965015988796949E-003;-3.909183142241091E-004;
2.410666666666667E+009;1.823664605617523E-001;2.549702301621437E-002;4.194431472569704E-003;-2.695916919037700E-004;
2.410833333333334E+009;1.816915422677994E-001;2.330778166651726E-002;4.178221803158522E-003;-5.242809420451522E-004;
2.411000000000000E+009;1.805030256509781E-001;2.108009345829487E-002;4.327841568738222E-003;-6.178865442052484E-004;
2.411166666666667E+009;1.796122938394547E-001;1.905058510601521E-002;4.383216146379709E-003;-5.684222560375929E-004;
2.411333333333334E+009;1.789243519306183E-001;1.657437905669212E-002;4.159122239798307E-003;-6.622693035751581E-004;
2.411500000000000E+009;1.782723069190979E-001;1.405971031636000E-002;4.225126933306456E-003;-8.788173436187208E-004;
2.411666666666667E+009;1.776908040046692E-001;1.165784988552332E-002;4.337555728852749E-003;-8.773415465839207E-004;
2.411833333333334E+009;1.774738729000092E-001;9.164175018668175E-003;4.182614851742983E-003;-8.898263331502676E-004;
2.412000000000000E+009;1.772194802761078E-001;6.538755260407925E-003;4.422181751579046E-003;-1.083925599232316E-003;
2.412166666666667E+009;1.771170198917389E-001;4.071238916367292E-003;4.315786994993687E-003;-1.131922472268343E-003;
2.412333333333334E+009;1.772236377000809E-001;1.253023045137525E-003;4.286716226488352E-003;-1.327995792962611E-003;
2.412500000000000E+009;1.776823252439499E-001;-1.303420169278979E-003;4.296200815588236E-003;-1.371481805108488E-003;
2.412666666666667E+009;1.779322624206543E-001;-4.105218686163425E-003;4.354090895503759E-003;-1.441880012862384E-003;
2.412833333333334E+009;1.786029785871506E-001;-6.694356910884380E-003;4.427369683980942E-003;-1.676373183727264E-003;
2.413000000000000E+009;1.792711615562439E-001;-9.103171527385712E-003;4.371829330921173E-003;-1.766592497006059E-003;
2.413166666666667E+009;1.801268160343170E-001;-1.163926068693399E-002;4.328546114265919E-003;-1.953942468389869E-003;
2.413333333333334E+009;1.811054944992065E-001;-1.421818882226944E-002;4.605122841894627E-003;-2.287923591211438E-003;
2.413500000000000E+009;1.819770187139511E-001;-1.677006669342518E-002;4.484483040869236E-003;-2.370480913668871E-003;
2.413666666666667E+009;1.832326352596283E-001;-1.935886405408382E-002;4.251966718584299E-003;-2.625251188874245E-003;
2.413833333333334E+009;1.844490170478821E-001;-2.147917263209820E-002;4.261509981006384E-003;-2.881945343688130E-003;
2.414000000000000E+009;1.854702085256577E-001;-2.372504584491253E-002;4.100610967725515E-003;-3.080721711739898E-003;
2.414166666666667E+009;1.869296431541443E-001;-2.582060545682907E-002;3.956527914851904E-003;-3.222956787794828E-003;
2.414333333333334E+009;1.881225109100342E-001;-2.807366475462914E-002;3.812356153503060E-003;-3.397004911676049E-003;
2.414500000000000E+009;1.895236372947693E-001;-2.977905422449112E-002;3.767066402360797E-003;-3.588011255487800E-003;
2.414666666666667E+009;1.910047829151154E-001;-3.135607391595841E-002;3.403985174372792E-003;-3.886599792167544E-003;
2.414833333333334E+009;1.924604475498200E-001;-3.309638798236847E-002;3.380886046215892E-003;-3.826497122645378E-003;
2.415000000000000E+009;1.936514228582382E-001;-3.458492085337639E-002;3.107553580775857E-003;-3.895416855812073E-003;
2.415166666666667E+009;1.952008754014969E-001;-3.595972806215286E-002;3.117385320365429E-003;-3.965224139392376E-003;
2.415333333333334E+009;1.965709924697876E-001;-3.709279000759125E-002;2.860720502212644E-003;-4.040619824081659E-003;
2.415500000000000E+009;1.979720592498779E-001;-3.786521777510643E-002;2.759460825473070E-003;-3.978190943598747E-003;
2.415666666666667E+009;1.993308961391449E-001;-3.894229978322983E-002;2.523978706449270E-003;-4.214231856167316E-003;
2.415833333333334E+009;2.005441635847092E-001;-3.960084915161133E-002;2.650303766131401E-003;-4.300149623304606E-003;
2.416000000000000E+009;2.014958411455154E-001;-4.026091843843460E-002;2.450584666803479E-003;-4.327064380049706E-003;
2.416166666666667E+009;2.025814801454544E-001;-4.096836969256401E-002;2.169712446630001E-003;-4.554153420031071E-003;
2.416333333333334E+009;2.034929245710373E-001;-4.121301323175430E-002;2.180226612836123E-003;-4.641192033886910E-003;
2.416500000000000E+009;2.043420672416687E-001;-4.153537005186081E-002;1.923872390761972E-003;-4.548875615000725E-003;
2.416666666666667E+009;2.049357593059540E-001;-4.188570752739906E-002;1.678832224570215E-003;-4.745919257402420E-003;
2.416833333333334E+009;2.053173929452896E-001;-4.190886765718460E-002;1.533113885670900E-003;-4.757083486765623E-003;
2.417000000000000E+009;2.057719379663467E-001;-4.211132973432541E-002;1.289644045755267E-003;-4.831296857446432E-003;
2.417166666666667E+009;2.057835012674332E-001;-4.187722504138947E-002;9.276381460949779E-004;-4.845538176596165E-003;
2.417333333333334E+009;2.056364119052887E-001;-4.168868437409401E-002;5.886320141144097E-004;-4.889719653874636E-003;
2.417500000000000E+009;2.057378739118576E-001;-4.161870479583740E-002;4.549031727947295E-004;-4.629726056009531E-003;
2.417666666666667E+009;2.053727358579636E-001;-4.119178652763367E-002;4.003458598162979E-004;-4.688767250627279E-003;
2.417833333333334E+009;2.052462995052338E-001;-4.085638001561165E-002;2.131247019860894E-004;-4.528337623924017E-003;
2.418000000000000E+009;2.046969234943390E-001;-4.049386456608772E-002;2.870001117116772E-005;-4.652693402022123E-003;
2.418166666666667E+009;2.041040062904358E-001;-4.022721946239471E-002;-5.266373409540393E-005;-4.530950915068388E-003;
2.418333333333334E+009;2.033091187477112E-001;-3.980016708374023E-002;-1.780943275662139E-004;-4.394015297293663E-003;
2.418500000000000E+009;2.023041099309921E-001;-3.969063609838486E-002;-2.405423147138208E-004;-4.292908590286970E-003;
2.418666666666667E+009;2.015914022922516E-001;-3.938204422593117E-002;-2.269926044391468E-004;-4.226506687700748E-003;
2.418833333333334E+009;2.004022300243378E-001;-3.938366100192070E-002;-4.932417650707066E-004;-4.146713297814131E-003;
2.419000000000000E+009;1.991724520921707E-001;-3.930468112230301E-002;-4.595314967446029E-004;-4.163443110883236E-003;
2.419166666666667E+009;1.977984607219696E-001;-3.953457623720169E-002;-6.717036012560129E-004;-4.202343523502350E-003;
2.419333333333334E+009;1.963603943586350E-001;-3.971608728170395E-002;-6.842127186246216E-004;-4.004460759460926E-003;
2.419500000000000E+009;1.949882954359055E-001;-4.002572968602181E-002;-7.395461434498429E-004;-4.050399642437697E-003;
2.419666666666667E+009;1.933468580245972E-001;-4.046535119414330E-002;-7.455011364072561E-004;-3.964276518672705E-003;
2.419833333333334E+009;1.915710121393204E-001;-4.101465642452240E-002;-8.563387673348188E-004;-3.959112800657749E-003;
2.420000000000000E+009;1.898901015520096E-001;-4.185294359922409E-002;-8.474207133986056E-004;-3.908658400177956E-003;
2.420166666666667E+009;1.881897598505020E-001;-4.253230988979340E-002;-1.097264583222568E-003;-3.972913604229689E-003;
2.420333333333334E+009;1.861772090196610E-001;-4.370356351137161E-002;-1.093884115107358E-003;-3.850734326988459E-003;
2.420500000000000E+009;1.844205558300018E-001;-4.486015066504479E-002;-1.332677085883915E-003;-3.843049285933375E-003;
2.420666666666667E+009;1.826320588588715E-001;-4.592243954539299E-002;-1.260875957086682E-003;-3.790398593991995E-003;
2.420833333333334E+009;1.806376427412033E-001;-4.722481593489647E-002;-1.355857937596738E-003;-3.680955618619919E-003;
2.421000000000000E+009;1.791072338819504E-001;-4.901110753417015E-002;-1.347336103208363E-003;-3.665193682536483E-003;
2.421166666666667E+009;1.774679869413376E-001;-5.038603767752647E-002;-1.505736261606216E-003;-3.824300365522504E-003;
2.421333333333334E+009;1.756502687931061E-001;-5.200874432921410E-002;-1.534918206743896E-003;-3.738885745406151E-003;
2.421500000000000E+009;1.740206778049469E-001;-5.391360446810722E-002;-1.639809110201895E-003;-3.684613620862365E-003;
2.421666666666667E+009;1.726683378219605E-001;-5.597236752510071E-002;-1.715750549919903E-003;-3.718114690855146E-003;
2.421833333333334E+009;1.711440831422806E-001;-5.774613097310066E-002;-1.882079755887389E-003;-3.653138410300016E-003;
2.422000000000000E+009;1.698403209447861E-001;-5.995145812630653E-002;-1.961332047358155E-003;-3.672345308586955E-003;
2.422166666666667E+009;1.687612086534500E-001;-6.209879368543625E-002;-1.991104800254107E-003;-3.677114145830274E-003;
2.422333333333334E+009;1.675081998109818E-001;-6.430337578058243E-002;-2.243663882836700E-003;-3.571166424080730E-003;
2.422500000000000E+009;1.665402501821518E-001;-6.625276803970337E-002;-2.455045469105244E-003;-3.644607029855251E-003;
2.422666666666667E+009;1.657388955354691E-001;-6.864467263221741E-002;-2.549801487475634E-003;-3.435738617554307E-003;
2.422833333333334E+009;1.649504601955414E-001;-7.071491330862045E-002;-2.717244904488325E-003;-3.310812637209892E-003;
2.423000000000000E+009;1.644622087478638E-001;-7.314860075712204E-002;-2.645572880282998E-003;-3.387942677363753E-003;
2.423166666666667E+009;1.639035493135452E-001;-7.548278570175171E-002;-2.896714024245739E-003;-3.161461325362325E-003;
2.423333333333334E+009;1.635076105594635E-001;-7.766263186931610E-002;-2.960039768368006E-003;-3.043178468942642E-003;
2.423500000000000E+009;1.633328646421433E-001;-7.954525202512741E-002;-3.094113431870937E-003;-3.038410795852542E-003;
2.423666666666667E+009;1.634890437126160E-001;-8.178663253784180E-002;-2.974311122670770E-003;-2.993108937516809E-003;
2.423833333333334E+009;1.633492410182953E-001;-8.379664272069931E-002;-3.122528083622456E-003;-2.639582147821784E-003;
2.424000000000000E+009;1.634355187416077E-001;-8.599389344453812E-002;-3.123047994449735E-003;-2.532812999561429E-003;
2.424166666666667E+009;1.634392142295837E-001;-8.772431313991547E-002;-3.197172656655312E-003;-2.570484066382051E-003;
2.424333333333334E+009;1.638480126857758E-001;-8.966261148452759E-002;-3.323954297229648E-003;-2.667353255674243E-003;
2.424500000000000E+009;1.642195731401444E-001;-9.143825620412827E-002;-3.455861005932093E-003;-2.437872113659978E-003;
2.424666666666667E+009;1.644684076309204E-001;-9.308291226625443E-002;-3.467050381004810E-003;-2.309695119038224E-003;
2.424833333333334E+009;1.650373935699463E-001;-9.466799348592758E-002;-3.542475402355194E-003;-2.113457070663571E-003;
2.425000000000000E+009;1.655859202146530E-001;-9.609335660934448E-002;-3.690767101943493E-003;-2.145571634173393E-003;
2.425166666666667E+009;1.660829335451126E-001;-9.742857515811920E-002;-3.769522067159414E-003;-2.025799127295613E-003;
2.425333333333334E+009;1.665085852146149E-001;-9.858213365077972E-002;-3.915684297680855E-003;-1.847662497311831E-003;
2.425500000000000E+009;1.671372950077057E-001;-9.973833709955216E-002;-4.023569170385599E-003;-1.664322568103671E-003;
2.425666666666667E+009;1.677408218383789E-001;-1.005129143595696E-001;-3.812409238889813E-003;-1.594999339431524E-003;
2.425833333333334E+009;1.682497113943100E-001;-1.015230268239975E-001;-3.957294393330813E-003;-1.381867215968669E-003;
2.426000000000000E+009;1.689262837171555E-001;-1.020953059196472E-001;-3.978578839451075E-003;-1.230596797540784E-003;
2.426166666666667E+009;1.694480180740356E-001;-1.027859300374985E-001;-4.065033514052630E-003;-1.201326376758516E-003;
2.426333333333334E+009;1.697646975517273E-001;-1.034008339047432E-001;-4.056234844028950E-003;-8.565300959162414E-004;
2.426500000000000E+009;1.704684197902679E-001;-1.036368981003761E-001;-4.070804920047522E-003;-8.079041726887226E-004;
2.426666666666667E+009;1.708686947822571E-001;-1.040031313896179E-001;-3.909503109753132E-003;-7.366903591901064E-004;
2.426833333333334E+009;1.714573502540588E-001;-1.042833775281906E-001;-4.022420849651098E-003;-5.644860211759806E-004;
2.427000000000000E+009;1.716102659702301E-001;-1.044529229402542E-001;-4.074675496667624E-003;-4.677319375332445E-004;
2.427166666666667E+009;1.719931364059448E-001;-1.044772714376450E-001;-3.926149103790522E-003;-2.527567266952246E-004;
2.427333333333334E+009;1.720517575740814E-001;-1.046474575996399E-001;-3.983784932643175E-003;-1.161033287644386E-004;
2.427500000000000E+009;1.719177961349487E-001;-1.047956421971321E-001;-3.958845511078835E-003;1.471194264013320E-004;
2.427666666666667E+009;1.718905866146088E-001;-1.047355309128761E-001;-3.768828930333257E-003;8.828708359942539E-007;
