# Version 1.00
#
freq[Hz];re:Trc1_S11;im:Trc1_S11;re:Trc2_S21;im:Trc2_S21;
2.400000000000000E+009;1.576759219169617E-001;1.124554798007011E-001;3.974968101829290E-003;-5.594814196228981E-003;
2.400166666666667E+009;1.572715342044830E-001;1.100760623812676E-001;3.041214076802135E-003;-5.963278003036976E-003;
2.400333333333334E+009;1.567778885364533E-001;1.078649908304215E-001;3.205420682206750E-003;-5.863834172487259E-003;
2.400500000000000E+009;1.560877114534378E-001;1.049030125141144E-001;3.825593274086714E-003;-4.796977620571852E-003;
2.400666666666667E+009;1.559909582138062E-001;1.028904467821121E-001;4.241249989718199E-003;-5.956211593002081E-003;
2.400833333333334E+009;1.556495726108551E-001;9.992164373397827E-002;3.039482282474637E-003;-6.234924308955669E-003;
2.401000000000000E+009;1.555896401405335E-001;9.698124229907990E-002;3.371565137058497E-003;-5.893680267035961E-003;
2.401166666666667E+009;1.552759408950806E-001;9.402117133140564E-002;3.028731793165207E-003;-6.169826723635197E-003;
2.401333333333334E+009;1.552153527736664E-001;9.132166206836700E-002;3.154510399326682E-003;-7.081815041601658E-003;
2.401500000000000E+009;1.553639322519302E-001;8.843935281038284E-002;2.961664460599423E-003;-7.431823294609785E-003;
2.401666666666667E+009;1.554835736751556E-001;8.514823764562607E-002;2.715325448662043E-003;-7.646131329238415E-003;
2.401833333333334E+009;1.555709838867188E-001;8.206075429916382E-002;2.269019372761250E-003;-7.917582057416439E-003;
2.402000000000000E+009;1.561070978641510E-001;7.904458791017532E-002;1.927485223859549E-003;-7.953359745442867E-003;
2.402166666666667E+009;1.566644012928009E-001;7.620842754840851E-002;1.392820733599365E-003;-8.045133203268051E-003;
2.402333333333334E+009;1.573128998279572E-001;7.302239537239075E-002;8.800895302556455E-004;-8.343277499079704E-003;
2.402500000000000E+009;1.583945155143738E-001;7.027199119329453E-002;5.747792311012745E-004;-8.396309800446034E-003;
2.402666666666667E+009;1.590757966041565E-001;6.764631718397141E-002;1.142799919762183E-005;-8.438404649496079E-003;
2.402833333333334E+009;1.603489667177200E-001;6.479099392890930E-002;-5.556784453801811E-004;-8.225400000810623E-003;
2.403000000000000E+009;1.616186052560806E-001;6.194083020091057E-002;-9.851672220975161E-004;-8.131317794322968E-003;
2.403166666666667E+009;1.631357073783875E-001;5.936295539140701E-002;-1.366963260807097E-003;-8.093019947409630E-003;
2.403333333333334E+009;1.645711511373520E-001;5.664402619004250E-002;-1.838072203099728E-003;-7.846157997846603E-003;
2.403500000000000E+009;1.662946343421936E-001;5.429459363222122E-002;-2.432345645502210E-003;-7.654261775314808E-003;
2.403666666666667E+009;1.679774671792984E-001;5.212643742561340E-002;-2.565213944762945E-003;-7.200815249234438E-003;
2.403833333333334E+009;1.695370674133301E-001;4.985725134611130E-002;-2.908586524426937E-003;-6.970535498112440E-003;
2.404000000000000E+009;1.712732464075089E-001;4.766299575567246E-002;-3.259775927290320E-003;-6.651789881289005E-003;
2.404166666666667E+009;1.731860190629959E-001;4.577965289354324E-002;-3.468962386250496E-003;-6.292903330177069E-003;
2.404333333333334E+009;1.749424189329147E-001;4.395366087555885E-002;-3.570218803361058E-003;-6.068145390599966E-003;
2.404500000000000E+009;1.768718063831329E-001;4.231132194399834E-002;-3.581042401492596E-003;-5.614928435534239E-003;
2.404666666666667E+009;1.786089539527893E-001;4.091663658618927E-002;-3.698055865243077E-003;-5.326978396624327E-003;
2.404833333333334E+009;1.805525720119476E-001;3.961580246686935E-002;-3.737800754606724E-003;-4.925240762531757E-003;
2.405000000000000E+009;1.821617484092712E-001;3.867532312870026E-002;-3.723806235939264E-003;-4.851358942687511E-003;
2.405166666666667E+009;1.839217245578766E-001;3.777583315968514E-002;-3.691072110086680E-003;-4.712745081633329E-003;
2.405333333333334E+009;1.855659931898117E-001;3.701209276914597E-002;-3.714337712153792E-003;-4.413824528455734E-003;
2.405500000000000E+009;1.873150914907455E-001;3.639962896704674E-002;-3.867713501676917E-003;-4.226817283779383E-003;
2.405666666666667E+009;1.889726221561432E-001;3.586830571293831E-002;-3.841064404696226E-003;-4.053477663546801E-003;
2.405833333333334E+009;1.903827190399170E-001;3.571216762065888E-002;-3.894696012139320E-003;-3.967409022152424E-003;
2.406000000000000E+009;1.918370127677918E-001;3.557266294956207E-002;-3.823346691206098E-003;-3.844397608190775E-003;
2.406166666666667E+009;1.931372284889221E-001;3.531992807984352E-002;-3.810707014054060E-003;-3.727507311850786E-003;
2.406333333333334E+009;1.944468617439270E-001;3.543884679675102E-002;-4.000808577984572E-003;-3.485766472294927E-003;
2.406500000000000E+009;1.957671940326691E-001;3.549161553382874E-002;-3.989988006651402E-003;-3.311566077172756E-003;
2.406666666666667E+009;1.966512948274612E-001;3.558698296546936E-002;-3.736449172720313E-003;-3.208936192095280E-003;
2.406833333333334E+009;1.975028514862061E-001;3.587212786078453E-002;-4.068059381097555E-003;-3.152024699375033E-003;
2.407000000000000E+009;1.980622708797455E-001;3.617290034890175E-002;-3.951055463403463E-003;-2.920506987720728E-003;
2.407166666666667E+009;1.987968683242798E-001;3.624761849641800E-002;-4.013316240161657E-003;-2.751732477918267E-003;
2.407333333333334E+009;1.991920620203018E-001;3.663159534335136E-002;-4.048271570354700E-003;-2.647601766511798E-003;
2.407500000000000E+009;1.992749869823456E-001;3.704297170042992E-002;-4.016133490949869E-003;-2.667884575203061E-003;
2.407666666666667E+009;1.995485126972199E-001;3.724253177642822E-002;-3.965946845710278E-003;-2.617164980620146E-003;
2.407833333333334E+009;1.994006782770157E-001;3.750826790928841E-002;-3.908456303179264E-003;-2.434597350656986E-003;
2.408000000000000E+009;1.995352357625961E-001;3.757525980472565E-002;-3.752912161871791E-003;-2.259526867419481E-003;
2.408166666666667E+009;1.990280002355576E-001;3.793513029813767E-002;-3.728845855221152E-003;-2.190955448895693E-003;
2.408333333333334E+009;1.987197995185852E-001;3.768122568726540E-002;-3.687268588691950E-003;-2.000514883548021E-003;
2.408500000000000E+009;1.981148421764374E-001;3.782074898481369E-002;-3.571798559278250E-003;-2.050985349342227E-003;
2.408666666666667E+009;1.976546198129654E-001;3.769451752305031E-002;-3.531666705384851E-003;-2.055986318737268E-003;
2.408833333333334E+009;1.968942135572434E-001;3.736131638288498E-002;-3.577376948669553E-003;-1.948796678334475E-003;
2.409000000000000E+009;1.959490478038788E-001;3.678332269191742E-002;-3.499198937788606E-003;-1.940214075148106E-003;
2.409166666666667E+009;1.949584633111954E-001;3.627967834472656E-002;-3.444657428190112E-003;-1.944378949701786E-003;
2.409333333333334E+009;1.939232647418976E-001;3.557618334889412E-002;-3.454283811151981E-003;-2.002898603677750E-003;
2.409500000000000E+009;1.925776600837708E-001;3.472668305039406E-002;-3.587687853723764E-003;-1.938590547069907E-003;
2.409666666666667E+009;1.916163563728333E-001;3.368270024657250E-002;-3.401009598746896E-003;-1.956177409738302E-003;
2.409833333333334E+009;1.902150660753250E-001;3.251184895634651E-002;-3.707126947119832E-003;-1.939741428941488E-003;
2.410000000000000E+009;1.891054511070252E-001;3.127949312329292E-002;-3.443310270085931E-003;-2.033922122791410E-003;
2.410166666666667E+009;1.877817511558533E-001;2.976425550878048E-002;-3.532931674271822E-003;-2.053949283435941E-003;
2.410333333333334E+009;1.865801364183426E-001;2.819545753300190E-002;-3.498292760923505E-003;-1.982297282665968E-003;
2.410500000000000E+009;1.853864789009094E-001;2.655369043350220E-002;-3.595586400479078E-003;-2.040333580225706E-003;
2.410666666666667E+009;1.842263787984848E-001;2.435810677707195E-002;-3.729550633579493E-003;-2.030530711635947E-003;
2.410833333333334E+009;1.831007897853851E-001;2.238204702734947E-002;-3.681850852444768E-003;-2.084016334265471E-003;
2.411000000000000E+009;1.821045130491257E-001;2.014487795531750E-002;-3.704386297613382E-003;-2.053514122962952E-003;
2.411166666666667E+009;1.809138357639313E-001;1.812989823520184E-002;-3.879903815686703E-003;-2.275901148095727E-003;
2.411333333333334E+009;1.801013946533203E-001;1.558185555040836E-002;-4.057618789374828E-003;-2.361019840463996E-003;
2.411500000000000E+009;1.794341951608658E-001;1.307389605790377E-002;-4.116744268685579E-003;-2.359767444431782E-003;
2.411666666666667E+009;1.788655370473862E-001;1.087895873934031E-002;-4.365615081042051E-003;-2.336128614842892E-003;
2.411833333333334E+009;1.780601143836975E-001;8.501470088958740E-003;-4.535429645329714E-003;-2.388694323599339E-003;
2.412000000000000E+009;1.780185997486115E-001;5.632799118757248E-003;-4.761903081089258E-003;-2.310773124918342E-003;
2.412166666666667E+009;1.776953190565109E-001;3.331949701532722E-003;-4.952808376401663E-003;-2.228974131867290E-003;
2.412333333333334E+009;1.775312721729279E-001;5.956882960163057E-004;-5.167170427739620E-003;-2.083632629364729E-003;
2.412500000000000E+009;1.778038144111633E-001;-2.103307051584125E-003;-5.513332784175873E-003;-2.013420453295112E-003;
2.412666666666667E+009;1.781647950410843E-001;-4.903756547719240E-003;-5.691912956535816E-003;-1.755789853632450E-003;
2.412833333333334E+009;1.786034703254700E-001;-7.418058346956968E-003;-5.995974410325289E-003;-1.646794262342155E-003;
2.413000000000000E+009;1.791595965623856E-001;-1.003592461347580E-002;-6.235965527594090E-003;-1.433842116966844E-003;
2.413166666666667E+009;1.795740127563477E-001;-1.260551624000073E-002;-6.424047984182835E-003;-1.100230612792075E-003;
2.413333333333334E+009;1.805535256862640E-001;-1.534836739301682E-002;-6.671627517789602E-003;-9.294828632846475E-004;
2.413500000000000E+009;1.815502047538757E-001;-1.772343367338181E-002;-6.828048266470432E-003;-4.046947869937867E-004;
2.413666666666667E+009;1.825291812419891E-001;-2.026195079088211E-002;-7.035607006400824E-003;-1.048326666932553E-004;
2.413833333333334E+009;1.835756450891495E-001;-2.249823696911335E-002;-7.030406966805458E-003;2.268270327476785E-004;
2.414000000000000E+009;1.847420781850815E-001;-2.480748295783997E-002;-7.070352323353291E-003;6.283243419602513E-004;
2.414166666666667E+009;1.859250962734222E-001;-2.698092162609100E-002;-6.923329085111618E-003;1.155495410785079E-003;
2.414333333333334E+009;1.873227655887604E-001;-2.916673570871353E-002;-6.981281563639641E-003;1.427107956260443E-003;
2.414500000000000E+009;1.886576563119888E-001;-3.104491159319878E-002;-6.681902799755335E-003;1.731323194690049E-003;
2.414666666666667E+009;1.899878084659576E-001;-3.284966945648193E-002;-6.604894530028105E-003;2.160880947485566E-003;
2.414833333333334E+009;1.913336217403412E-001;-3.448385745286942E-002;-6.415644660592079E-003;2.540575806051493E-003;
2.415000000000000E+009;1.925385892391205E-001;-3.605772182345390E-002;-6.282754242420197E-003;2.705416409298778E-003;
2.415166666666667E+009;1.940971761941910E-001;-3.741640225052834E-002;-6.171068176627159E-003;2.842253539711237E-003;
2.415333333333334E+009;1.955459713935852E-001;-3.873901814222336E-002;-5.900783929973841E-003;3.049787366762757E-003;
2.415500000000000E+009;1.968498677015305E-001;-3.947287797927856E-002;-5.743987858295441E-003;3.226881148293614E-003;
2.415666666666667E+009;1.982082128524780E-001;-4.060813039541245E-002;-5.571346264332533E-003;3.469693241640925E-003;
2.415833333333334E+009;1.994453221559525E-001;-4.139776900410652E-002;-5.417881067842245E-003;3.806876018643379E-003;
2.416000000000000E+009;2.004024386405945E-001;-4.215031117200851E-002;-5.392121616750956E-003;3.831118810921907E-003;
2.416166666666667E+009;2.015237212181091E-001;-4.283326864242554E-002;-5.155542399734259E-003;4.086489323526621E-003;
2.416333333333334E+009;2.024447023868561E-001;-4.314935952425003E-002;-4.916012752801180E-003;4.305721260607243E-003;
2.416500000000000E+009;2.032360136508942E-001;-4.345834255218506E-002;-4.792502149939537E-003;4.595857579261065E-003;
2.416666666666667E+009;2.039140909910202E-001;-4.387318715453148E-002;-4.693276714533567E-003;4.669930785894394E-003;
2.416833333333334E+009;2.044426053762436E-001;-4.381069913506508E-002;-4.351829178631306E-003;4.923042375594378E-003;
2.417000000000000E+009;2.049617767333984E-001;-4.389733076095581E-002;-4.031321033835411E-003;4.932463169097900E-003;
2.417166666666667E+009;2.049073725938797E-001;-4.362903907895088E-002;-3.778287442401052E-003;5.221827886998653E-003;
2.417333333333334E+009;2.051674574613571E-001;-4.347898066043854E-002;-3.645985387265682E-003;5.200316663831472E-003;
2.417500000000000E+009;2.051092386245728E-001;-4.328624531626701E-002;-3.200607141479850E-003;5.333548877388239E-003;
2.417666666666667E+009;2.048668265342712E-001;-4.295679554343224E-002;-2.960431156679988E-003;5.421778652817011E-003;
2.417833333333334E+009;2.046765983104706E-001;-4.253984242677689E-002;-2.715501002967358E-003;5.489508621394634E-003;
2.418000000000000E+009;2.042536735534668E-001;-4.210915789008141E-002;-2.470981562510133E-003;5.331008695065975E-003;
2.418166666666667E+009;2.036245912313461E-001;-4.175307601690292E-002;-2.181054325774312E-003;5.361665505915880E-003;
2.418333333333334E+009;2.029664963483810E-001;-4.137033224105835E-002;-2.027100883424282E-003;5.389442201703787E-003;
2.418500000000000E+009;2.021167427301407E-001;-4.111922904849052E-002;-1.677448279224336E-003;5.277003161609173E-003;
2.418666666666667E+009;2.013332545757294E-001;-4.058439657092094E-002;-1.642972347326577E-003;5.221975501626730E-003;
2.418833333333334E+009;2.000939100980759E-001;-4.049389064311981E-002;-1.373474253341556E-003;5.185297690331936E-003;
2.419000000000000E+009;1.990170776844025E-001;-4.038535058498383E-002;-1.155340461991727E-003;5.069741513580084E-003;
2.419166666666667E+009;1.976126879453659E-001;-4.037075489759445E-002;-9.961366886273027E-004;5.011713597923517E-003;
2.419333333333334E+009;1.961886137723923E-001;-4.048639908432961E-002;-8.363155648112297E-004;4.822500515729189E-003;
2.419500000000000E+009;1.946963220834732E-001;-4.059426859021187E-002;-8.097087848000228E-004;4.661931190639734E-003;
2.419666666666667E+009;1.930731981992722E-001;-4.112967848777771E-002;-6.324950372800231E-004;4.802837502211332E-003;
2.419833333333334E+009;1.911720186471939E-001;-4.144236817955971E-002;-6.283598486334086E-004;4.598392639309168E-003;
2.420000000000000E+009;1.896107047796249E-001;-4.200357198715210E-002;-6.003941525705159E-004;4.497170448303223E-003;
2.420166666666667E+009;1.877390891313553E-001;-4.265537858009338E-002;-5.677623557858169E-004;4.559605382382870E-003;
2.420333333333334E+009;1.860596090555191E-001;-4.369961470365524E-002;-5.157182458788157E-004;4.498598631471396E-003;
2.420500000000000E+009;1.840895563364029E-001;-4.471426829695702E-002;-4.444048681762070E-004;4.420402459800243E-003;
2.420666666666667E+009;1.822642236948013E-001;-4.556662589311600E-002;-4.312536329962313E-004;4.584952723234892E-003;
2.420833333333334E+009;1.803765445947647E-001;-4.699099436402321E-002;-2.645672939252108E-004;4.455098882317543E-003;
2.421000000000000E+009;1.786488443613052E-001;-4.838076233863831E-002;-3.282572724856436E-004;4.427934065461159E-003;
2.421166666666667E+009;1.769622117280960E-001;-4.993887990713120E-002;-2.884020796045661E-004;4.489433951675892E-003;
2.421333333333334E+009;1.750569194555283E-001;-5.139070004224777E-002;-1.455868186894804E-004;4.601464141160250E-003;
2.421500000000000E+009;1.732452362775803E-001;-5.342815816402435E-002;1.185548680950888E-004;4.568287637084723E-003;
2.421666666666667E+009;1.718796491622925E-001;-5.511133745312691E-002;6.203615339472890E-005;4.471783526241779E-003;
2.421833333333334E+009;1.702602803707123E-001;-5.703300982713699E-002;3.419795830268413E-004;4.428554791957140E-003;
2.422000000000000E+009;1.689996272325516E-001;-5.896740406751633E-002;2.797253255266696E-004;4.418298136442900E-003;
2.422166666666667E+009;1.676731854677200E-001;-6.135446205735207E-002;4.179805400781333E-004;4.372626077383757E-003;
2.422333333333334E+009;1.664753854274750E-001;-6.338752806186676E-002;6.542587652802467E-004;4.504263401031494E-003;
2.422500000000000E+009;1.653850525617600E-001;-6.537123024463654E-002;5.867789150215685E-004;4.537252243608236E-003;
2.422666666666667E+009;1.643931269645691E-001;-6.762878596782684E-002;7.402723422273994E-004;4.307683557271957E-003;
2.422833333333334E+009;1.638189554214478E-001;-6.994459033012390E-002;8.129950147122145E-004;4.193922970443964E-003;
2.423000000000000E+009;1.631031632423401E-001;-7.217744737863541E-002;7.908411789685488E-004;4.156116861850023E-003;
2.423166666666667E+009;1.624215692281723E-001;-7.434740662574768E-002;1.021779025904834E-003;4.106958396732807E-003;
2.423333333333334E+009;1.621093899011612E-001;-7.676653563976288E-002;9.739028173498809E-004;3.925921861082315E-003;
2.423500000000000E+009;1.619006544351578E-001;-7.887820154428482E-002;1.075815991498530E-003;3.802531398832798E-003;
2.423666666666667E+009;1.619773805141449E-001;-8.118569850921631E-002;1.061710878275335E-003;3.876617178320885E-003;
2.423833333333334E+009;1.618515253067017E-001;-8.318172395229340E-002;1.007461687549949E-003;3.940727096050978E-003;
2.424000000000000E+009;1.618679314851761E-001;-8.528520166873932E-002;1.040312345139682E-003;3.784809028729796E-003;
2.424166666666667E+009;1.619878709316254E-001;-8.730716258287430E-002;1.094438717700541E-003;3.823150880634785E-003;
2.424333333333334E+009;1.623371690511704E-001;-8.895663917064667E-002;1.004954683594406E-003;3.754913574084640E-003;
2.424500000000000E+009;1.627951115369797E-001;-9.113430231809616E-002;1.066855737008154E-003;3.938745707273483E-003;
2.424666666666667E+009;1.630976051092148E-001;-9.285179525613785E-002;1.080178306438029E-003;3.862954676151276E-003;
2.424833333333334E+009;1.637860238552094E-001;-9.453575313091278E-002;1.186858396977186E-003;3.944704774767160E-003;
2.425000000000000E+009;1.641384065151215E-001;-9.595965594053268E-002;1.143470755778253E-003;3.857403760775924E-003;
2.425166666666667E+009;1.647335290908814E-001;-9.740701317787170E-002;1.274610054679215E-003;4.042270127683878E-003;
2.425333333333334E+009;1.653199493885040E-001;-9.856723994016647E-002;1.403319532983005E-003;4.101994447410107E-003;
2.425500000000000E+009;1.659891605377197E-001;-9.997347742319107E-002;1.514937495812774E-003;4.066350404173136E-003;
2.425666666666667E+009;1.667316704988480E-001;-1.007983312010765E-001;1.423908630385995E-003;4.283961839973927E-003;
2.425833333333334E+009;1.671660691499710E-001;-1.019025221467018E-001;1.819404191337526E-003;4.238062072545290E-003;
2.426000000000000E+009;1.680038571357727E-001;-1.025403887033463E-001;1.938472036272287E-003;4.341064020991325E-003;
2.426166666666667E+009;1.686430871486664E-001;-1.031585559248924E-001;2.078752499073744E-003;4.366338718682528E-003;
2.426333333333334E+009;1.691039800643921E-001;-1.039081066846848E-001;2.114133676514030E-003;4.575358703732491E-003;
2.426500000000000E+009;1.697841584682465E-001;-1.043145284056664E-001;2.330197021365166E-003;4.401307087391615E-003;
2.426666666666667E+009;1.703567057847977E-001;-1.047490835189819E-001;2.569796517491341E-003;4.369223490357399E-003;
2.426833333333334E+009;1.709340512752533E-001;-1.050549671053886E-001;2.847164636477828E-003;4.301700275391340E-003;
2.427000000000000E+009;1.712911278009415E-001;-1.052779182791710E-001;2.930728252977133E-003;4.295205231755972E-003;
2.427166666666667E+009;1.717004030942917E-001;-1.053445711731911E-001;3.081124741584063E-003;4.331778269261122E-003;
2.427333333333334E+009;1.718255132436752E-001;-1.056428179144859E-001;3.345813602209091E-003;4.152269102632999E-003;
2.427500000000000E+009;1.720618903636932E-001;-1.057012677192688E-001;3.556665964424610E-003;4.140312317758799E-003;
2.427666666666667E+009;1.720559448003769E-001;-1.057184636592865E-001;3.631988773122430E-003;3.957460168749094E-003;
