# Version 1.00
#
freq[Hz];re:Trc1_S11;im:Trc1_S11;re:Trc2_S21;im:Trc2_S21;
2.400000000000000E+009;1.575918197631836E-001;1.125228852033615E-001;3.925227560102940E-003;-5.783391650766134E-003;
2.400166666666667E+009;1.570867449045181E-001;1.102575510740280E-001;3.846317064017057E-003;-5.700172856450081E-003;
2.400333333333334E+009;1.567792445421219E-001;1.079978272318840E-001;3.874465590342879E-003;-5.822316277772188E-003;
2.400500000000000E+009;1.564560085535049E-001;1.055340766906738E-001;3.871158696711063E-003;-5.909148138016462E-003;
2.400666666666667E+009;1.561077535152435E-001;1.029141545295715E-001;3.664831165224314E-003;-6.039702799171209E-003;
2.400833333333334E+009;1.556342542171478E-001;1.002162545919418E-001;3.636258887127042E-003;-6.219012197107077E-003;
2.401000000000000E+009;1.556128710508347E-001;9.721525758504868E-002;3.624109551310539E-003;-6.616953294724226E-003;
2.401166666666667E+009;1.552237272262573E-001;9.441718459129334E-002;3.280224511399865E-003;-7.082789670675993E-003;
2.401333333333334E+009;1.554144322872162E-001;9.158190339803696E-002;3.238101489841938E-003;-7.135315798223019E-003;
2.401500000000000E+009;1.553778946399689E-001;8.827136456966400E-002;2.846401184797287E-003;-7.464048452675343E-003;
2.401666666666667E+009;1.553460806608200E-001;8.532044291496277E-002;2.519658068194985E-003;-7.700739428400993E-003;
2.401833333333334E+009;1.556584984064102E-001;8.231042325496674E-002;2.212874358519912E-003;-7.841345854103565E-003;
2.402000000000000E+009;1.562493592500687E-001;7.928685098886490E-002;1.791917486116290E-003;-8.093003183603287E-003;
2.402166666666667E+009;1.567887663841248E-001;7.645358890295029E-002;1.405666349455714E-003;-8.165601640939713E-003;
2.402333333333334E+009;1.574460715055466E-001;7.315487414598465E-002;9.033645037561655E-004;-8.309545926749706E-003;
2.402500000000000E+009;1.585166901350021E-001;7.039055228233337E-002;4.773593391291797E-004;-8.291375823318958E-003;
2.402666666666667E+009;1.593662649393082E-001;6.776953488588333E-002;-2.185842049584608E-006;-8.226306177675724E-003;
2.402833333333334E+009;1.605127751827240E-001;6.483028829097748E-002;-4.516886838246137E-004;-8.283146657049656E-003;
2.403000000000000E+009;1.618887186050415E-001;6.206872314214706E-002;-9.636082686483860E-004;-8.164554834365845E-003;
2.403166666666667E+009;1.635071784257889E-001;5.958409607410431E-002;-1.509733265265822E-003;-8.010285906493664E-003;
2.403333333333334E+009;1.648107469081879E-001;5.691234394907951E-002;-1.881213276647031E-003;-7.960730232298374E-003;
2.403500000000000E+009;1.663364320993424E-001;5.435880273580551E-002;-2.282913075760007E-003;-7.639059796929359E-003;
2.403666666666667E+009;1.682994961738586E-001;5.219953507184982E-002;-2.693642396479845E-003;-7.293608505278826E-003;
2.403833333333334E+009;1.699120998382568E-001;4.983017966151238E-002;-2.769104205071926E-003;-7.004492916166782E-003;
2.404000000000000E+009;1.715770959854126E-001;4.781357571482658E-002;-3.191432915627956E-003;-6.662411615252495E-003;
2.404166666666667E+009;1.733827441930771E-001;4.603068158030510E-002;-3.525330219417810E-003;-6.154522299766541E-003;
2.404333333333334E+009;1.752224564552307E-001;4.417340084910393E-002;-3.497093450278044E-003;-5.973507650196552E-003;
2.404500000000000E+009;1.770121455192566E-001;4.250945150852203E-002;-3.602459095418453E-003;-5.700061097741127E-003;
2.404666666666667E+009;1.789072006940842E-001;4.098907113075256E-002;-3.559564007446170E-003;-5.285268183797598E-003;
2.404833333333334E+009;1.807242631912231E-001;3.972504660487175E-002;-3.618826158344746E-003;-5.225627683103085E-003;
2.405000000000000E+009;1.823934465646744E-001;3.878616914153099E-002;-3.602894721552730E-003;-4.847426898777485E-003;
2.405166666666667E+009;1.840689480304718E-001;3.789684921503067E-002;-3.881520126014948E-003;-4.724063444882631E-003;
2.405333333333334E+009;1.857227832078934E-001;3.742649033665657E-002;-3.769170027226210E-003;-4.550257697701454E-003;
2.405500000000000E+009;1.874700188636780E-001;3.656619414687157E-002;-3.685805248096585E-003;-4.300561267882586E-003;
2.405666666666667E+009;1.891087889671326E-001;3.622377291321755E-002;-3.870958462357521E-003;-4.088473506271839E-003;
2.405833333333334E+009;1.905771344900131E-001;3.586152195930481E-002;-3.849116619676352E-003;-4.096452612429857E-003;
2.406000000000000E+009;1.920163035392761E-001;3.573832288384438E-002;-3.949996083974838E-003;-3.788142465054989E-003;
2.406166666666667E+009;1.933526545763016E-001;3.552666679024696E-002;-4.041630774736404E-003;-3.679371671751142E-003;
2.406333333333334E+009;1.947517544031143E-001;3.556303679943085E-002;-4.026035778224468E-003;-3.641608636826277E-003;
2.406500000000000E+009;1.958769261837006E-001;3.559427335858345E-002;-4.117459990084171E-003;-3.497118130326271E-003;
2.406666666666667E+009;1.969236582517624E-001;3.577525168657303E-002;-4.112258087843657E-003;-3.295411821454763E-003;
2.406833333333334E+009;1.977306455373764E-001;3.606610745191574E-002;-4.133508075028658E-003;-3.040606155991554E-003;
2.407000000000000E+009;1.983574181795120E-001;3.636227175593376E-002;-4.102215636521578E-003;-3.027457743883133E-003;
2.407166666666667E+009;1.991420537233353E-001;3.643179684877396E-002;-3.899941686540842E-003;-2.872568555176258E-003;
2.407333333333334E+009;1.993997991085053E-001;3.693735599517822E-002;-3.996882122009993E-003;-2.674528164789081E-003;
2.407500000000000E+009;1.995596736669540E-001;3.724649176001549E-002;-3.972146660089493E-003;-2.626851433888078E-003;
2.407666666666667E+009;1.997954398393631E-001;3.746258839964867E-002;-3.874497255310416E-003;-2.314708894118667E-003;
2.407833333333334E+009;1.997359544038773E-001;3.768162056803703E-002;-3.984211944043636E-003;-2.332071308046579E-003;
2.408000000000000E+009;1.997023969888687E-001;3.799252212047577E-002;-3.860642202198505E-003;-2.364347688853741E-003;
2.408166666666667E+009;1.994292736053467E-001;3.796242922544479E-002;-3.701355541124940E-003;-2.235251246020198E-003;
2.408333333333334E+009;1.991645693778992E-001;3.781111538410187E-002;-3.719381056725979E-003;-1.884760684333742E-003;
2.408500000000000E+009;1.985043585300446E-001;3.789968416094780E-002;-3.502361942082644E-003;-1.993618207052350E-003;
2.408666666666667E+009;1.979185491800308E-001;3.783852979540825E-002;-3.466733032837510E-003;-1.969200326129794E-003;
2.408833333333334E+009;1.972652226686478E-001;3.741260617971420E-002;-3.576004179194570E-003;-2.008057665079832E-003;
2.409000000000000E+009;1.962938755750656E-001;3.691053017973900E-002;-3.438863437622786E-003;-1.917918445542455E-003;
2.409166666666667E+009;1.952301710844040E-001;3.639501333236694E-002;-3.345217090100050E-003;-2.005831571295857E-003;
2.409333333333334E+009;1.942648738622665E-001;3.582261502742767E-002;-3.516268916428089E-003;-1.968916738405824E-003;
2.409500000000000E+009;1.929725557565689E-001;3.480277583003044E-002;-3.621811047196388E-003;-2.126523992046714E-003;
2.409666666666667E+009;1.918923109769821E-001;3.376081585884094E-002;-3.505613422021270E-003;-1.931302947923541E-003;
2.409833333333334E+009;1.906635910272598E-001;3.253879398107529E-002;-3.464332548901439E-003;-2.010035328567028E-003;
2.410000000000000E+009;1.894849985837936E-001;3.135554492473602E-002;-3.603804856538773E-003;-2.017301740124822E-003;
2.410166666666667E+009;1.882819831371307E-001;2.962945960462093E-002;-3.747775452211499E-003;-2.025864087045193E-003;
2.410333333333334E+009;1.870573908090591E-001;2.809510938823223E-002;-3.638496156781912E-003;-1.996356761083007E-003;
2.410500000000000E+009;1.855957359075546E-001;2.641647681593895E-002;-3.695119637995958E-003;-2.092441311106086E-003;
2.410666666666667E+009;1.845753341913223E-001;2.422639355063438E-002;-3.706462914124131E-003;-2.025160240009427E-003;
2.410833333333334E+009;1.836204081773758E-001;2.230227552354336E-002;-3.646992146968842E-003;-2.226064680144191E-003;
2.411000000000000E+009;1.823368072509766E-001;2.012568525969982E-002;-3.792075207456946E-003;-2.192598069086671E-003;
2.411166666666667E+009;1.814653575420380E-001;1.801767945289612E-002;-4.014167468994856E-003;-2.345522399991751E-003;
2.411333333333334E+009;1.805266588926315E-001;1.552095916122198E-002;-4.196666646748781E-003;-2.284914255142212E-003;
2.411500000000000E+009;1.796157658100128E-001;1.308336760848761E-002;-4.242494702339172E-003;-2.269093878567219E-003;
2.411666666666667E+009;1.791439354419708E-001;1.078089699149132E-002;-4.331838339567184E-003;-2.292996039614081E-003;
2.411833333333334E+009;1.784311830997467E-001;8.279234170913696E-003;-4.568923730403185E-003;-2.276228507980704E-003;
2.412000000000000E+009;1.783310770988464E-001;5.492136813700199E-003;-4.853296093642712E-003;-2.199298935011029E-003;
2.412166666666667E+009;1.781546920537949E-001;3.024432575330138E-003;-4.939322825521231E-003;-2.316260244697332E-003;
2.412333333333334E+009;1.780072152614594E-001;4.516534099821001E-004;-5.270742345601320E-003;-2.072757575660944E-003;
2.412500000000000E+009;1.780547052621841E-001;-2.349309390410781E-003;-5.505631677806377E-003;-2.093177288770676E-003;
2.412666666666667E+009;1.784834563732147E-001;-5.076663568615913E-003;-5.841467063874006E-003;-1.829749206081033E-003;
2.412833333333334E+009;1.788838654756546E-001;-7.700209040194750E-003;-6.036174949258566E-003;-1.761715160682797E-003;
2.413000000000000E+009;1.793882846832275E-001;-1.038653030991554E-002;-6.143620237708092E-003;-1.357954577542841E-003;
2.413166666666667E+009;1.801762580871582E-001;-1.278790272772312E-002;-6.611502729356289E-003;-1.108411233872175E-003;
2.413333333333334E+009;1.809523403644562E-001;-1.535684335976839E-002;-6.708588451147080E-003;-8.081395062617958E-004;
2.413500000000000E+009;1.818439811468124E-001;-1.800476945936680E-002;-6.665933411568403E-003;-5.072057247161865E-004;
2.413666666666667E+009;1.829122602939606E-001;-2.054386213421822E-002;-6.925870198756456E-003;-6.735535862389952E-005;
2.413833333333334E+009;1.839792132377625E-001;-2.265778556466103E-002;-6.718417163938284E-003;2.774888707790524E-004;
2.414000000000000E+009;1.851010620594025E-001;-2.517972700297833E-002;-6.779098883271217E-003;6.941133178770542E-004;
2.414166666666667E+009;1.864806860685349E-001;-2.716854587197304E-002;-7.087058853358030E-003;1.130720134824514E-003;
2.414333333333334E+009;1.874900609254837E-001;-2.964497730135918E-002;-6.851961370557547E-003;1.563471741974354E-003;
2.414500000000000E+009;1.890241205692291E-001;-3.123729117214680E-002;-6.762851029634476E-003;1.770041184499860E-003;
2.414666666666667E+009;1.902070194482803E-001;-3.330837935209274E-002;-6.571304984390736E-003;2.176034729927778E-003;
2.414833333333334E+009;1.916970163583756E-001;-3.490850701928139E-002;-6.392175331711769E-003;2.412588568404317E-003;
2.415000000000000E+009;1.929702460765839E-001;-3.635527566075325E-002;-6.265850272029638E-003;2.785160439088941E-003;
2.415166666666667E+009;1.944234818220139E-001;-3.777787461876869E-002;-5.953073501586914E-003;2.917385427281261E-003;
2.415333333333334E+009;1.957950443029404E-001;-3.892147541046143E-002;-5.853903945535421E-003;3.194331191480160E-003;
2.415500000000000E+009;1.971798390150070E-001;-3.998564928770065E-002;-5.587976425886154E-003;3.353632520884275E-003;
2.415666666666667E+009;1.985314786434174E-001;-4.100009799003601E-002;-5.604806356132031E-003;3.506900276988745E-003;
2.415833333333334E+009;1.995601505041122E-001;-4.181713610887528E-002;-5.370353814214468E-003;3.767964895814657E-003;
2.416000000000000E+009;2.006458640098572E-001;-4.246878623962402E-002;-5.382131319493055E-003;3.890471067279577E-003;
2.416166666666667E+009;2.017379105091095E-001;-4.316201433539391E-002;-5.056642927229404E-003;4.122605547308922E-003;
2.416333333333334E+009;2.027331739664078E-001;-4.354885965585709E-002;-4.927917849272490E-003;4.267745185643435E-003;
2.416500000000000E+009;2.035369426012039E-001;-4.382082819938660E-002;-4.758047405630350E-003;4.547426477074623E-003;
2.416666666666667E+009;2.041471451520920E-001;-4.425680264830589E-002;-4.681910388171673E-003;4.738441202789545E-003;
2.416833333333334E+009;2.045482099056244E-001;-4.425426945090294E-002;-4.231236409395933E-003;4.875976592302322E-003;
2.417000000000000E+009;2.050251364707947E-001;-4.439313337206841E-002;-4.134952556341887E-003;5.133168771862984E-003;
2.417166666666667E+009;2.050034105777741E-001;-4.405547678470612E-002;-3.788211382925510E-003;5.160030443221331E-003;
2.417333333333334E+009;2.051586508750916E-001;-4.383889585733414E-002;-3.354598302394152E-003;5.311785265803337E-003;
2.417500000000000E+009;2.052157521247864E-001;-4.379190132021904E-002;-3.291864180937409E-003;5.364156328141689E-003;
2.417666666666667E+009;2.050335854291916E-001;-4.328154772520065E-002;-3.036276903003454E-003;5.408029071986675E-003;
2.417833333333334E+009;2.047520130872726E-001;-4.291340336203575E-002;-2.789398189634085E-003;5.468288902193308E-003;
2.418000000000000E+009;2.042709439992905E-001;-4.242008179426193E-002;-2.393713220953941E-003;5.378962960094214E-003;
2.418166666666667E+009;2.037268280982971E-001;-4.213541001081467E-002;-2.125569619238377E-003;5.299645941704512E-003;
2.418333333333334E+009;2.029616534709930E-001;-4.169683903455734E-002;-1.958444947376847E-003;5.401161033660173E-003;
2.418500000000000E+009;2.021437138319016E-001;-4.142786189913750E-002;-1.744979526847601E-003;5.362740252166987E-003;
2.418666666666667E+009;2.014958411455154E-001;-4.102782905101776E-002;-1.445016474463046E-003;5.198606755584478E-003;
2.418833333333334E+009;2.002315074205399E-001;-4.080484807491303E-002;-1.322030206210911E-003;5.090998485684395E-003;
2.419000000000000E+009;1.988646835088730E-001;-4.084774106740952E-002;-1.077795051969588E-003;5.045466125011444E-003;
2.419166666666667E+009;1.976570934057236E-001;-4.084433987736702E-002;-9.363404824398458E-004;5.018484313040972E-003;
2.419333333333334E+009;1.962314695119858E-001;-4.094927757978439E-002;-9.193000150844455E-004;4.929535556584597E-003;
2.419500000000000E+009;1.946612149477005E-001;-4.117989540100098E-002;-8.243378833867610E-004;4.780416376888752E-003;
2.419666666666667E+009;1.929834485054016E-001;-4.161707311868668E-002;-7.824684143997729E-004;4.661541432142258E-003;
2.419833333333334E+009;1.912706792354584E-001;-4.199159145355225E-002;-6.055794656276703E-004;4.579235799610615E-003;
2.420000000000000E+009;1.897211223840714E-001;-4.251856356859207E-002;-6.051032687537372E-004;4.624994006007910E-003;
2.420166666666667E+009;1.878482252359390E-001;-4.312859848141670E-002;-4.733201640192419E-004;4.497850313782692E-003;
2.420333333333334E+009;1.860502958297730E-001;-4.412060230970383E-002;-4.725285107269883E-004;4.417941905558109E-003;
2.420500000000000E+009;1.841381043195725E-001;-4.518312960863113E-002;-5.040583782829344E-004;4.492472857236862E-003;
2.420666666666667E+009;1.822165995836258E-001;-4.617806896567345E-002;-3.802933497354388E-004;4.388323053717613E-003;
2.420833333333334E+009;1.803992688655853E-001;-4.738436639308929E-002;-3.664062824100256E-004;4.441892728209496E-003;
2.421000000000000E+009;1.785193681716919E-001;-4.875580966472626E-002;-3.413138038013130E-004;4.530672449618578E-003;
2.421166666666667E+009;1.767648458480835E-001;-5.051197484135628E-002;-1.912759616971016E-004;4.599263891577721E-003;
2.421333333333334E+009;1.748448312282562E-001;-5.183006823062897E-002;-2.492315543349832E-004;4.496980458498001E-003;
2.421500000000000E+009;1.732353568077087E-001;-5.376801267266274E-002;-5.523133950191550E-005;4.575672093778849E-003;
2.421666666666667E+009;1.717632859945297E-001;-5.552757531404495E-002;-5.932244675932452E-005;4.436855204403400E-003;
2.421833333333334E+009;1.701886355876923E-001;-5.764024704694748E-002;1.098328139050864E-004;4.422216676175594E-003;
2.422000000000000E+009;1.688050627708435E-001;-5.953278765082359E-002;3.569379914551973E-004;4.326116293668747E-003;
2.422166666666667E+009;1.676005423069000E-001;-6.169844046235085E-002;3.747602168004960E-004;4.460456781089306E-003;
2.422333333333334E+009;1.663590818643570E-001;-6.385774910449982E-002;5.138905835337937E-004;4.363365471363068E-003;
2.422500000000000E+009;1.652220189571381E-001;-6.579842418432236E-002;5.547531764023006E-004;4.315995145589113E-003;
2.422666666666667E+009;1.642393320798874E-001;-6.812792271375656E-002;6.786774611100555E-004;4.267271608114243E-003;
2.422833333333334E+009;1.635878384113312E-001;-7.031830400228500E-002;7.005769293755293E-004;4.219342954456806E-003;
2.423000000000000E+009;1.629124581813812E-001;-7.263433188199997E-002;8.081787382252514E-004;4.161769989877939E-003;
2.423166666666667E+009;1.623391211032867E-001;-7.477145642042160E-002;1.045488053932786E-003;3.971292637288570E-003;
2.423333333333334E+009;1.618661284446716E-001;-7.711726427078247E-002;1.068015000782907E-003;3.908559679985046E-003;
2.423500000000000E+009;1.616816967725754E-001;-7.921467721462250E-002;1.094156061299145E-003;3.785093780606985E-003;
2.423666666666667E+009;1.617313027381897E-001;-8.139710873365402E-002;9.747159783728421E-004;3.855550428852439E-003;
2.423833333333334E+009;1.615209877490997E-001;-8.344468474388123E-002;1.022692420519888E-003;3.681440372020006E-003;
2.424000000000000E+009;1.616918891668320E-001;-8.561950176954269E-002;1.107996678911150E-003;3.962431102991104E-003;
2.424166666666667E+009;1.616394966840744E-001;-8.757235854864121E-002;1.056191744282842E-003;3.734064521268010E-003;
2.424333333333334E+009;1.619921773672104E-001;-8.954864740371704E-002;1.093693659640849E-003;3.885455429553986E-003;
2.424500000000000E+009;1.623448282480240E-001;-9.158106148242950E-002;1.048480975441635E-003;3.798134857788682E-003;
2.424666666666667E+009;1.627318561077118E-001;-9.326282143592835E-002;1.099927816540003E-003;3.829402616247535E-003;
2.424833333333334E+009;1.632774770259857E-001;-9.473001211881638E-002;1.124255126342177E-003;3.713130019605160E-003;
2.425000000000000E+009;1.638958603143692E-001;-9.623996168375015E-002;1.114221056923270E-003;3.891374915838242E-003;
2.425166666666667E+009;1.643654853105545E-001;-9.764509648084641E-002;1.142386812716723E-003;3.990817815065384E-003;
2.425333333333334E+009;1.648926883935928E-001;-9.891086816787720E-002;1.391906407661736E-003;4.050448536872864E-003;
2.425500000000000E+009;1.656069159507752E-001;-1.002207919955254E-001;1.351366168819368E-003;4.191246349364519E-003;
2.425666666666667E+009;1.662776768207550E-001;-1.010509207844734E-001;1.573070534504950E-003;4.282944370061159E-003;
2.425833333333334E+009;1.667680293321610E-001;-1.022275090217590E-001;1.679850392974913E-003;4.292960744351149E-003;
2.426000000000000E+009;1.674488782882690E-001;-1.028469130396843E-001;1.822529593482614E-003;4.230528138577938E-003;
2.426166666666667E+009;1.681566536426544E-001;-1.034310385584831E-001;1.957337372004986E-003;4.271727520972490E-003;
2.426333333333334E+009;1.686923056840897E-001;-1.040383428335190E-001;2.129756379872561E-003;4.414392635226250E-003;
2.426500000000000E+009;1.694120764732361E-001;-1.043642386794090E-001;2.358473604544997E-003;4.336684010922909E-003;
2.426666666666667E+009;1.699766963720322E-001;-1.048879325389862E-001;2.549894852563739E-003;4.464432131499052E-003;
2.426833333333334E+009;1.705066263675690E-001;-1.051474660634995E-001;2.723918529227376E-003;4.254861734807491E-003;
2.427000000000000E+009;1.708915531635284E-001;-1.053567454218864E-001;2.949529560282826E-003;4.262670874595642E-003;
2.427166666666667E+009;1.712400913238525E-001;-1.054412499070168E-001;3.140340559184551E-003;4.260255023837090E-003;
2.427333333333334E+009;1.714815199375153E-001;-1.056753173470497E-001;3.268013475462794E-003;4.141208250075579E-003;
2.427500000000000E+009;1.715250015258789E-001;-1.057418957352638E-001;3.446365939453244E-003;3.956672269850969E-003;
2.427666666666667E+009;1.716260164976120E-001;-1.056182384490967E-001;3.642568131908774E-003;3.895509755238891E-003;
