# Version 1.00
#
freq[Hz];re:Trc1_S11;im:Trc1_S11;re:Trc2_S21;im:Trc2_S21;
2.400000000000000E+009;1.544290632009506E-001;1.069722175598145E-001;-2.588757546618581E-003;-4.790300037711859E-003;
2.400166666666667E+009;1.546895653009415E-001;1.042970642447472E-001;-3.360213013365865E-003;-4.564351402223110E-003;
2.400333333333334E+009;1.547748297452927E-001;1.018343716859818E-001;-3.575521288439632E-003;-4.144758451730013E-003;
2.400500000000000E+009;1.550107449293137E-001;9.888864308595657E-002;-4.018611274659634E-003;-3.952100407332182E-003;
2.400666666666667E+009;1.551688909530640E-001;9.788383543491364E-002;-3.987235948443413E-003;-4.467068705707789E-003;
2.400833333333334E+009;1.542283743619919E-001;9.395848214626312E-002;-3.727372270077467E-003;-3.601375268772245E-003;
2.401000000000000E+009;1.548878103494644E-001;9.094421565532684E-002;-4.223184194415808E-003;-3.150669159367681E-003;
2.401166666666667E+009;1.551156789064407E-001;8.817067742347717E-002;-4.550590179860592E-003;-2.979773562401533E-003;
2.401333333333334E+009;1.556747108697891E-001;8.542264997959137E-002;-4.379137884825468E-003;-2.861576620489359E-003;
2.401500000000000E+009;1.560305058956146E-001;8.243533968925476E-002;-4.512398969382048E-003;-2.487114863470197E-003;
2.401666666666667E+009;1.563786268234253E-001;7.951281219720841E-002;-4.408046137541533E-003;-2.331454074010253E-003;
2.401833333333334E+009;1.569750607013702E-001;7.690850645303726E-002;-4.383764695376158E-003;-2.070456743240356E-003;
2.402000000000000E+009;1.578596830368042E-001;7.404221594333649E-002;-4.285883158445358E-003;-1.990447985008359E-003;
2.402166666666667E+009;1.586243808269501E-001;7.146460562944412E-002;-4.489503800868988E-003;-1.744098146446049E-003;
2.402333333333334E+009;1.594898849725723E-001;6.883519887924194E-002;-4.317953251302242E-003;-1.599970622919500E-003;
2.402500000000000E+009;1.607415527105331E-001;6.635598093271256E-002;-4.443308338522911E-003;-1.668777666054666E-003;
2.402666666666667E+009;1.618467569351196E-001;6.396400183439255E-002;-4.384066443890333E-003;-1.510575646534562E-003;
2.402833333333334E+009;1.632766276597977E-001;6.145712360739708E-002;-4.313569515943527E-003;-1.467924681492150E-003;
2.403000000000000E+009;1.645307093858719E-001;5.895595625042915E-002;-4.427026025950909E-003;-1.253674621693790E-003;
2.403166666666667E+009;1.663867235183716E-001;5.683141574263573E-002;-4.508587531745434E-003;-1.227436237968504E-003;
2.403333333333334E+009;1.678550839424133E-001;5.467924848198891E-002;-4.419359844177961E-003;-1.098083914257586E-003;
2.403500000000000E+009;1.696552038192749E-001;5.244466289877892E-002;-4.588401410728693E-003;-8.322579669766128E-004;
2.403666666666667E+009;1.712968200445175E-001;5.047744512557983E-002;-4.698150791227818E-003;-6.510794628411531E-004;
2.403833333333334E+009;1.728081256151199E-001;4.862181469798088E-002;-4.783363081514835E-003;-2.717847528401762E-004;
2.404000000000000E+009;1.745239347219467E-001;4.694873467087746E-002;-4.535750485956669E-003;-2.116205869242549E-004;
2.404166666666667E+009;1.763342767953873E-001;4.562709480524063E-002;-4.656610079109669E-003;7.827760418877006E-005;
2.404333333333334E+009;1.779198199510574E-001;4.407511278986931E-002;-4.585231654345989E-003;3.979461616836488E-004;
2.404500000000000E+009;1.794831305742264E-001;4.254108294844627E-002;-4.377043340355158E-003;6.949366070330143E-004;
2.404666666666667E+009;1.811574995517731E-001;4.136652126908302E-002;-4.219335969537497E-003;7.133028702810407E-004;
2.404833333333334E+009;1.828462034463882E-001;4.041346162557602E-002;-4.118681885302067E-003;9.648090344853699E-004;
2.405000000000000E+009;1.841808110475540E-001;3.975373506546021E-002;-4.022974986582995E-003;1.049470156431198E-003;
2.405166666666667E+009;1.856450885534287E-001;3.915641456842423E-002;-4.031779244542122E-003;1.346384058706462E-003;
2.405333333333334E+009;1.871055066585541E-001;3.876115754246712E-002;-3.777700476348400E-003;1.435139914974570E-003;
2.405500000000000E+009;1.885055899620056E-001;3.817448392510414E-002;-3.412327961996198E-003;1.458605285733938E-003;
2.405666666666667E+009;1.896994113922119E-001;3.785888478159905E-002;-3.440099768340588E-003;1.564596081152558E-003;
2.405833333333334E+009;1.910333931446075E-001;3.750546649098396E-002;-3.101061098277569E-003;1.707628485746682E-003;
2.406000000000000E+009;1.920018494129181E-001;3.738974779844284E-002;-2.966168569400907E-003;1.722408575005829E-003;
2.406166666666667E+009;1.929761767387390E-001;3.711235150694847E-002;-2.923830412328243E-003;1.651996979489923E-003;
2.406333333333334E+009;1.939502656459808E-001;3.732675313949585E-002;-2.836983185261488E-003;1.591465203091502E-003;
2.406500000000000E+009;1.946548372507095E-001;3.736579418182373E-002;-2.795894863083959E-003;1.997163752093911E-003;
2.406666666666667E+009;1.954411119222641E-001;3.724366798996925E-002;-1.749612041749060E-003;1.723635941743851E-003;
2.406833333333334E+009;1.959832906723023E-001;3.729337081313133E-002;-1.244393060915172E-003;1.792708993889391E-003;
2.407000000000000E+009;1.961756795644760E-001;3.773061558604240E-002;-2.398264128714800E-003;1.712148427031934E-003;
2.407166666666667E+009;1.965912431478500E-001;3.736410662531853E-002;-1.711598364636302E-003;1.877725473605096E-003;
2.407333333333334E+009;1.964726597070694E-001;3.755154833197594E-002;-1.512261223979294E-003;1.686089788563550E-003;
2.407500000000000E+009;1.962214112281799E-001;3.772474080324173E-002;-2.097219694405794E-003;1.019506133161485E-003;
2.407666666666667E+009;1.963210701942444E-001;3.774232044816017E-002;-1.852051238529384E-003;1.394819351844490E-003;
2.407833333333334E+009;1.957568675279617E-001;3.755036741495132E-002;-1.623547170311213E-003;1.168348127976060E-003;
2.408000000000000E+009;1.958225071430206E-001;3.743587061762810E-002;-1.620769617147744E-003;9.910640073940158E-004;
2.408166666666667E+009;1.949502676725388E-001;3.712783753871918E-002;-1.613391214050353E-003;9.237945196218789E-004;
2.408333333333334E+009;1.945604979991913E-001;3.676754608750343E-002;-1.630569924600422E-003;9.226674446836114E-004;
2.408500000000000E+009;1.939112097024918E-001;3.640599176287651E-002;-1.602526055648923E-003;7.378166192211211E-004;
2.408666666666667E+009;1.932190656661987E-001;3.590016812086105E-002;-1.604597433470190E-003;4.561868845485151E-004;
2.408833333333334E+009;1.924606710672379E-001;3.506711870431900E-002;-1.829657820053399E-003;6.179920164868236E-004;
2.409000000000000E+009;1.915416121482849E-001;3.427023813128471E-002;-1.869099680334330E-003;5.856702337041497E-004;
2.409166666666667E+009;1.906001269817352E-001;3.310128673911095E-002;-2.028078073635697E-003;2.902708947658539E-004;
2.409333333333334E+009;1.895107924938202E-001;3.237135708332062E-002;-2.257775515317917E-003;3.384104929864407E-004;
2.409500000000000E+009;1.883449107408524E-001;3.097069077193737E-002;-2.232434460893273E-003;6.093526608310640E-004;
2.409666666666667E+009;1.874848902225494E-001;2.959876693785191E-002;-2.505684737116098E-003;5.561279249377549E-004;
2.409833333333334E+009;1.862193197011948E-001;2.817549183964729E-002;-2.393046161159873E-003;7.363433251157403E-004;
2.410000000000000E+009;1.853672564029694E-001;2.644261904060841E-002;-2.564102178439498E-003;7.986821001395583E-004;
2.410166666666667E+009;1.841207742691040E-001;2.473092637956142E-002;-2.575462684035301E-003;1.049275510013104E-003;
2.410333333333334E+009;1.832444965839386E-001;2.320746332406998E-002;-2.600200241431594E-003;1.069743302650750E-003;
2.410500000000000E+009;1.822210997343063E-001;2.103271521627903E-002;-2.541451714932919E-003;1.143848523497582E-003;
2.410666666666667E+009;1.813457459211350E-001;1.876607351005077E-002;-2.523804781958461E-003;1.269285101443529E-003;
2.410833333333334E+009;1.806190013885498E-001;1.641978509724140E-002;-2.498608781024814E-003;1.535202260129154E-003;
2.411000000000000E+009;1.799041628837585E-001;1.448431424796581E-002;-2.450149506330490E-003;1.503019710071385E-003;
2.411166666666667E+009;1.792286783456802E-001;1.217818539589644E-002;-2.395143499597907E-003;1.557360985316336E-003;
2.411333333333334E+009;1.787592023611069E-001;9.517721831798554E-003;-2.365251537412405E-003;1.645323238335550E-003;
2.411500000000000E+009;1.781745105981827E-001;7.397647481411696E-003;-2.130679320544004E-003;1.657543354667723E-003;
2.411666666666667E+009;1.779795736074448E-001;4.974847659468651E-003;-2.185907447710633E-003;1.679279608651996E-003;
2.411833333333334E+009;1.776755303144455E-001;2.571501769125462E-003;-2.156112575903535E-003;1.754315220750868E-003;
2.412000000000000E+009;1.780013442039490E-001;-1.027574471663684E-004;-2.258189953863621E-003;1.829289831221104E-003;
2.412166666666667E+009;1.779365539550781E-001;-2.383580431342125E-003;-2.121443860232830E-003;1.736951409839094E-003;
2.412333333333334E+009;1.782099157571793E-001;-4.866926465183497E-003;-2.243268769234419E-003;1.667426200583577E-003;
2.412500000000000E+009;1.787986606359482E-001;-7.405889220535755E-003;-2.217819681391120E-003;1.623700954951346E-003;
2.412666666666667E+009;1.791623979806900E-001;-9.819809347391129E-003;-2.109915949404240E-003;1.593313878402114E-003;
2.412833333333334E+009;1.797713935375214E-001;-1.225227676331997E-002;-2.377054188400507E-003;1.699188025668263E-003;
2.413000000000000E+009;1.806600987911224E-001;-1.459322404116392E-002;-2.349461894482374E-003;1.715972437523305E-003;
2.413166666666667E+009;1.813681870698929E-001;-1.672887429594994E-002;-2.574066398665309E-003;1.841260818764567E-003;
2.413333333333334E+009;1.824008226394653E-001;-1.919389143586159E-002;-2.424156758934259E-003;1.936181099154055E-003;
2.413500000000000E+009;1.831842958927155E-001;-2.130313776433468E-002;-2.636150689795613E-003;2.126190112903714E-003;
2.413666666666667E+009;1.845111399888992E-001;-2.362487092614174E-002;-2.640782855451107E-003;2.256877487525344E-003;
2.413833333333334E+009;1.854576319456101E-001;-2.547468617558479E-002;-2.867978531867266E-003;2.482885029166937E-003;
2.414000000000000E+009;1.867706477642059E-001;-2.750255540013313E-002;-2.789746504276991E-003;2.737043425440788E-003;
2.414166666666667E+009;1.879667937755585E-001;-2.927643619477749E-002;-2.806860953569412E-003;2.948753535747528E-003;
2.414333333333334E+009;1.891482770442963E-001;-3.117473423480988E-002;-2.618691883981228E-003;3.150936216115952E-003;
2.414500000000000E+009;1.903526782989502E-001;-3.259097039699554E-002;-2.590684453025460E-003;3.510328708216548E-003;
2.414666666666667E+009;1.916949152946472E-001;-3.410232067108154E-002;-2.367697656154633E-003;3.822900354862213E-003;
2.414833333333334E+009;1.927285045385361E-001;-3.553751483559609E-002;-2.238097134977579E-003;3.813036484643817E-003;
2.415000000000000E+009;1.939318776130676E-001;-3.658938035368919E-002;-1.971968216821551E-003;4.111754242330790E-003;
2.415166666666667E+009;1.951588243246079E-001;-3.781196847558022E-002;-1.742327585816383E-003;4.121125675737858E-003;
2.415333333333334E+009;1.963706612586975E-001;-3.864941745996475E-002;-1.528598251752555E-003;4.346235655248165E-003;
2.415500000000000E+009;1.976082473993301E-001;-3.934576734900475E-002;-1.390358083881438E-003;4.467339254915714E-003;
2.415666666666667E+009;1.984925419092178E-001;-4.015384614467621E-002;-1.181492232717574E-003;4.594722762703896E-003;
2.415833333333334E+009;1.993743628263474E-001;-4.070782661437988E-002;-8.505145087838173E-004;4.430955275893211E-003;
2.416000000000000E+009;2.002137452363968E-001;-4.130466282367706E-002;-6.618013139814138E-004;4.401062149554491E-003;
2.416166666666667E+009;2.010257542133331E-001;-4.189882054924965E-002;-5.487095331773162E-004;4.532280378043652E-003;
2.416333333333334E+009;2.015931755304337E-001;-4.211324825882912E-002;1.946785232576076E-005;4.626471549272537E-003;
2.416500000000000E+009;2.021348923444748E-001;-4.230555519461632E-002;-2.077425233437680E-005;4.514880012720823E-003;
2.416666666666667E+009;2.024865150451660E-001;-4.254619777202606E-002;2.569732023403049E-004;4.554503597319126E-003;
2.416833333333334E+009;2.027104794979096E-001;-4.260253533720970E-002;3.514453419484198E-004;4.614097531884909E-003;
2.417000000000000E+009;2.027642279863358E-001;-4.277244210243225E-002;4.693001683335751E-004;4.493733402341604E-003;
2.417166666666667E+009;2.026326358318329E-001;-4.267122969031334E-002;8.547840407118201E-004;4.280007444322109E-003;
2.417333333333334E+009;2.023227214813232E-001;-4.244331642985344E-002;1.145321642979980E-003;4.287425894290209E-003;
2.417500000000000E+009;2.020190507173538E-001;-4.240122810006142E-002;1.125884242355824E-003;4.150875378400087E-003;
2.417666666666667E+009;2.015685588121414E-001;-4.233001172542572E-002;1.186858047731221E-003;4.204323980957270E-003;
2.417833333333334E+009;2.010182738304138E-001;-4.204775765538216E-002;1.455499208532274E-003;3.990515135228634E-003;
2.418000000000000E+009;2.004914730787277E-001;-4.182651266455650E-002;1.691076555289328E-003;3.861188655719161E-003;
2.418166666666667E+009;1.996014565229416E-001;-4.178321734070778E-002;1.713452162221074E-003;3.780852071940899E-003;
2.418333333333334E+009;1.987438052892685E-001;-4.152901098132134E-002;1.901462092064321E-003;3.705053357407451E-003;
2.418500000000000E+009;1.977708786725998E-001;-4.147696495056152E-002;1.999930012971163E-003;3.501650644466281E-003;
2.418666666666667E+009;1.968230754137039E-001;-4.153813421726227E-002;2.222203416749835E-003;3.420132910832763E-003;
2.418833333333334E+009;1.954460293054581E-001;-4.173964262008667E-002;2.330049406737089E-003;3.217297839000821E-003;
2.419000000000000E+009;1.942744404077530E-001;-4.190092533826828E-002;2.219527261331677E-003;3.231116104871035E-003;
2.419166666666667E+009;1.929660290479660E-001;-4.213862493634224E-002;2.390095265582204E-003;3.005231963470578E-003;
2.419333333333334E+009;1.913801580667496E-001;-4.273283109068871E-002;2.404164290055633E-003;2.899081446230412E-003;
2.419500000000000E+009;1.899157613515854E-001;-4.310766607522965E-002;2.647008979693055E-003;2.904454711824656E-003;
2.419666666666667E+009;1.883409917354584E-001;-4.390670731663704E-002;2.595801837742329E-003;2.604935783892870E-003;
2.419833333333334E+009;1.868944168090820E-001;-4.461221396923065E-002;2.574238693341613E-003;2.536226063966751E-003;
2.420000000000000E+009;1.851319968700409E-001;-4.543522000312805E-002;2.510010497644544E-003;2.506322925910354E-003;
2.420166666666667E+009;1.836856603622437E-001;-4.640699550509453E-002;2.603542292490602E-003;2.142201410606504E-003;
2.420333333333334E+009;1.819892078638077E-001;-4.761002957820892E-002;2.651673508808017E-003;2.150894841179252E-003;
2.420500000000000E+009;1.801988333463669E-001;-4.891332238912582E-002;2.627494279295206E-003;1.924578216858208E-003;
2.420666666666667E+009;1.787141412496567E-001;-5.003401637077332E-002;2.615934237837791E-003;1.784353516995907E-003;
2.420833333333334E+009;1.769507378339768E-001;-5.183749273419380E-002;2.617715857923031E-003;1.751845586113632E-003;
2.421000000000000E+009;1.755433529615402E-001;-5.317954719066620E-002;2.453407272696495E-003;1.491815783083439E-003;
2.421166666666667E+009;1.740273386240006E-001;-5.500463396310806E-002;2.464852994307876E-003;1.491636154241860E-003;
2.421333333333334E+009;1.723272949457169E-001;-5.633773654699326E-002;2.498775254935026E-003;1.225617248564959E-003;
2.421500000000000E+009;1.711175143718720E-001;-5.844932794570923E-002;2.254066988825798E-003;1.235818373970687E-003;
2.421666666666667E+009;1.697729527950287E-001;-6.018787622451782E-002;2.239180030301213E-003;1.310041756369174E-003;
2.421833333333334E+009;1.686915457248688E-001;-6.223172694444656E-002;2.064500236883760E-003;1.104935305193067E-003;
2.422000000000000E+009;1.676652878522873E-001;-6.412034481763840E-002;1.913339132443070E-003;1.215966884046793E-003;
2.422166666666667E+009;1.666999310255051E-001;-6.613277643918991E-002;1.910876249894500E-003;1.197414938360453E-003;
2.422333333333334E+009;1.657132804393768E-001;-6.828755140304565E-002;1.959904795512557E-003;1.064433599822223E-003;
2.422500000000000E+009;1.650213748216629E-001;-7.015039771795273E-002;1.850563334301114E-003;1.195946708321571E-003;
2.422666666666667E+009;1.643269211053848E-001;-7.219936698675156E-002;1.925797900184989E-003;1.316300942562521E-003;
2.422833333333334E+009;1.639073342084885E-001;-7.425887882709503E-002;1.857659313827753E-003;1.224120263941586E-003;
2.423000000000000E+009;1.632892489433289E-001;-7.643768936395645E-002;1.886050682514906E-003;1.372129656374455E-003;
2.423166666666667E+009;1.628360748291016E-001;-7.822733372449875E-002;1.901329378597438E-003;1.453529461286962E-003;
2.423333333333334E+009;1.627672314643860E-001;-8.038159459829330E-002;1.988446805626154E-003;1.358474954031408E-003;
2.423500000000000E+009;1.624751389026642E-001;-8.210280537605286E-002;1.968304626643658E-003;1.430558739230037E-003;
2.423666666666667E+009;1.626327633857727E-001;-8.405920118093491E-002;1.957094762474299E-003;1.363432151265442E-003;
2.423833333333334E+009;1.625066101551056E-001;-8.578170090913773E-002;1.995381200686097E-003;1.546525396406651E-003;
2.424000000000000E+009;1.626720428466797E-001;-8.757219463586807E-002;2.014284720644355E-003;1.472415169700980E-003;
2.424166666666667E+009;1.626186370849609E-001;-8.917915076017380E-002;2.102507278323174E-003;1.438535051420331E-003;
2.424333333333334E+009;1.630760580301285E-001;-9.073057025671005E-002;2.008601557463408E-003;1.517177210189402E-003;
2.424500000000000E+009;1.633524447679520E-001;-9.241420030593872E-002;2.198477974161506E-003;1.589073915965855E-003;
2.424666666666667E+009;1.636318415403366E-001;-9.379135817289352E-002;2.207068260759115E-003;1.601058407686651E-003;
2.424833333333334E+009;1.642819046974182E-001;-9.496451169252396E-002;2.227652817964554E-003;1.553388545289636E-003;
2.425000000000000E+009;1.645944118499756E-001;-9.621932357549667E-002;2.236109459772706E-003;1.585256424732506E-003;
2.425166666666667E+009;1.648939698934555E-001;-9.729765355587006E-002;2.360971877351403E-003;1.570218708366156E-003;
2.425333333333334E+009;1.652806997299194E-001;-9.813707321882248E-002;2.387022832408547E-003;1.558335032314062E-003;
2.425500000000000E+009;1.656929552555084E-001;-9.911090880632401E-002;2.544777467846870E-003;1.763507490977645E-003;
2.425666666666667E+009;1.661972701549530E-001;-9.983266144990921E-002;2.733143512159586E-003;1.655345549806953E-003;
2.425833333333334E+009;1.665103137493134E-001;-1.005861982703209E-001;2.890709787607193E-003;1.617013011127710E-003;
2.426000000000000E+009;1.669920086860657E-001;-1.010827496647835E-001;3.009531414136291E-003;1.425850903615356E-003;
2.426166666666667E+009;1.672610491514206E-001;-1.015903055667877E-001;3.061690367758274E-003;1.219974132254720E-003;
2.426333333333334E+009;1.674422025680542E-001;-1.019661054015160E-001;3.076211083680391E-003;1.276513561606407E-003;
2.426500000000000E+009;1.679296940565109E-001;-1.023135334253311E-001;3.378245048224926E-003;1.162377651780844E-003;
2.426666666666667E+009;1.680358201265335E-001;-1.026133149862289E-001;3.206522669643164E-003;1.050742110237479E-003;
2.426833333333334E+009;1.684111207723618E-001;-1.028071194887161E-001;3.389769699424505E-003;1.005985075607896E-003;
2.427000000000000E+009;1.682239025831223E-001;-1.029493138194084E-001;3.360838629305363E-003;8.643105393275619E-004;
2.427166666666667E+009;1.683449298143387E-001;-1.030529737472534E-001;3.433475736528635E-003;7.217375095933676E-004;
2.427333333333334E+009;1.682338565587997E-001;-1.034154817461968E-001;3.537680720910430E-003;6.817447138018906E-004;
2.427500000000000E+009;1.678968518972397E-001;-1.034694015979767E-001;3.624662058427930E-003;5.413652979768813E-004;
2.427666666666667E+009;1.676451265811920E-001;-1.035007163882256E-001;3.789044218137860E-003;5.073631764389575E-004;
2.427833333333334E+009;1.673012077808380E-001;-1.036368682980537E-001;3.837754949927330E-003;4.560794041026384E-004;
