# Hz S RI R 
2400000000.0000000000 0.169027581810951205154580634371 0.045814763754606246948242187500 -0.005195559933781623840332031250 0.000361151207471266388893127441 0 0 0 0 
2400166666.6666665077 0.170033603906631497482138115629 0.044917665421962738037109375000 -0.004918813705444335937500000000 0.000464579235995188409655970441 0 0 0 0 
2400333333.3333334923 0.170986458659172113616619981258 0.043733432888984680175781250000 -0.005005464423447847366333007812 0.000534307269845157861709594727 0 0 0 0 
2400500000.0000000000 0.171731874346733093261718750000 0.042773287743330001831054687500 -0.005074407439678907394409179688 0.000602381303906440734863281250 0 0 0 0 
2400666666.6666665077 0.172706574201583890060263115629 0.041662715375423431396484375000 -0.005152149125933647155761718750 0.001038297312334180095075297778 0 0 0 0 
2400833333.3333334923 0.173638090491294888595419365629 0.041054334491491317749023437500 -0.005127470474690198898315429688 0.000925890228245407342910766602 0 0 0 0 
2401000000.0000000000 0.174493402242660494705361884371 0.040081024169921881938893903907 -0.005134261678904294967651367188 0.001062917639501393058179545825 0 0 0 0 
2401166666.6666665077 0.175086066126823397537393134371 0.039380986243486397480051408593 -0.005101993680000305175781250000 0.001388656208291650035260844653 0 0 0 0 
2401333333.3333334923 0.175859332084655789474325615629 0.038829386234283447265625000000 -0.004927989561110734939575195312 0.001543291728012263991712260669 0 0 0 0 
2401500000.0000000000 0.176613613963127108474893134371 0.038103211671113967895507812500 -0.005246672313660383224487304688 0.001703624031506479003308940356 0 0 0 0 
2401666666.6666665077 0.177300006151199313064736884371 0.037686653435230262065847028907 -0.005124250892549753189086914062 0.001869868836365639946581196362 0 0 0 0 
2401833333.3333334923 0.177824243903160095214843750000 0.036975089460611343383789062500 -0.004970530048012734326834394238 0.002138739451766014099121093750 0 0 0 0 
2402000000.0000000000 0.178113728761673001388388115629 0.036452103406190872192382812500 -0.005031055305153132352347089551 0.002435094676911830902099609375 0 0 0 0 
2402166666.6666665077 0.178460374474525507171307481258 0.035636033862829208374023437500 -0.004990975372493267059326171875 0.002773696323856710953953408350 0 0 0 0 
2402333333.3333334923 0.178792759776115389724893134371 0.035194303840398788452148437500 -0.004869790282100439071655273438 0.002838998334482312202453613281 0 0 0 0 
2402500000.0000000000 0.179374858736991910079794365629 0.034634310752153396606445312500 -0.004934164695441722869873046875 0.003050458151847124099731445312 0 0 0 0 
2402666666.6666665077 0.179433390498161288162393134371 0.034046214073896408081054687500 -0.004740808624774217605590820312 0.003206070745363831953761435400 0 0 0 0 
2402833333.3333334923 0.179536417126655606368856865629 0.033510472625494003295898437500 -0.004546226002275943756103515625 0.003586363978683948950526572119 0 0 0 0 
2403000000.0000000000 0.179619222879409790039062500000 0.032662816345691680908203125000 -0.004352104850113391876220703125 0.003722434630617498917820595850 0 0 0 0 
2403166666.6666665077 0.179708495736122103592080634371 0.031881164759397506713867187500 -0.004373904783278703689575195312 0.003922736272215843200683593750 0 0 0 0 
2403333333.3333334923 0.179885506629943903167401231258 0.031114114448428150522252266796 -0.004176870919764041900634765625 0.004198479000478982925415039062 0 0 0 0 
2403500000.0000000000 0.179583966732025201995526231258 0.030231220647692680358886718750 -0.003869659733027220206019736182 0.004134729504585266113281250000 0 0 0 0 
2403666666.6666665077 0.179324313998222406585369981258 0.029310263693332668649693673046 -0.003699844237416983084437704932 0.004473165608942508697509765625 0 0 0 0 
2403833333.3333334923 0.179265901446342496017294365629 0.028139330446720119821568673046 -0.003513450268656014962437295068 0.004619619343429803848266601562 0 0 0 0 
2404000000.0000000000 0.178776696324348505218182481258 0.027199648320674899709681326954 -0.003218275029212235970738076318 0.004826995078474283218383789062 0 0 0 0 
2404166666.6666665077 0.178332209587097195724325615629 0.026136634871363639831542968750 -0.002950403606519103050231933594 0.004975848365575075149536132812 0 0 0 0 
2404333333.3333334923 0.177884027361869812011718750000 0.024784089997410770761510079296 -0.002944982843473554091212607275 0.005113653838634490966796875000 0 0 0 0 
2404500000.0000000000 0.177307412028312710861044365629 0.023561282083392139780064766796 -0.002679421566426753997802734375 0.005178228951990604400634765625 0 0 0 0 
2404666666.6666665077 0.176967561244964599609375000000 0.022045483812689781188964843750 -0.002428458072245121002197265625 0.005208639893680810928344726562 0 0 0 0 
2404833333.3333334923 0.176338940858840886871661268742 0.020723178982734680175781250000 -0.002122500678524374961853027344 0.005350906401872634887695312500 0 0 0 0 
2405000000.0000000000 0.176055490970611600021200615629 0.019146379083395000803013985546 -0.001866472652181982994079589844 0.005239790305495262145996093750 0 0 0 0 
2405166666.6666665077 0.175640150904655512054119981258 0.017609786242246631277064139454 -0.001625441480427979989292763818 0.005312594585120677947998046875 0 0 0 0 
2405333333.3333334923 0.175257012248039301116619981258 0.015919080004096031188964843750 -0.001342104049399494907976460034 0.005273560527712106704711914062 0 0 0 0 
2405500000.0000000000 0.174795165657997103592080634371 0.014189074747264390427559099805 -0.000841102970298379659652709961 0.005357390735298395156860351562 0 0 0 0 
2405666666.6666665077 0.174421712756156893631143134371 0.012600841000676160294502459180 -0.000784001778811216354370117188 0.005274436902254819869995117188 0 0 0 0 
2405833333.3333334923 0.173786938190460205078125000000 0.010821790434420110529889491602 -0.000628776731900870800018310547 0.005348614417016506195068359375 0 0 0 0 
2406000000.0000000000 0.173756882548332186599893134371 0.008791707456111907958984375000 -0.000343232706654816920131129132 0.005163077730685473355765058301 0 0 0 0 
2406166666.6666665077 0.173358857631683405120526231258 0.007053008768707513809204101562 -0.000056488170230295509099960327 0.004920190665870904922485351562 0 0 0 0 
2406333333.3333334923 0.173364073038101196289062500000 0.005017074756324291229248046875 0.000025010112949530590662752458 0.004958834033459424972534179688 0 0 0 0 
2406500000.0000000000 0.173058822751045199295205634371 0.002900236751884222030639648438 0.000278494262602180188328343524 0.004787438549101352691650390625 0 0 0 0 
2406666666.6666665077 0.172914460301399203201455634371 0.001032038708217442035675048828 0.000454436900326982086330968036 0.004655250813812016573434160449 0 0 0 0 
2406833333.3333334923 0.172963693737983703613281250000 -0.000975303119048476219177246094 0.000625194981694221496582031250 0.004533602390438318252563476562 0 0 0 0 
2407000000.0000000000 0.172972783446312006194744981258 -0.003173813456669449806213378906 0.000619971717242151498794555664 0.004434492904692888259887695312 0 0 0 0 
2407166666.6666665077 0.173177942633628900725994981258 -0.005252298898994922637939453125 0.000864157977048307657241821289 0.004339335486292839050292968750 0 0 0 0 
2407333333.3333334923 0.173225224018096896072549384371 -0.007450859993696212768554687500 0.000892978860065340995788574219 0.004280648194253444671630859375 0 0 0 0 
2407500000.0000000000 0.173556640744209289550781250000 -0.009649936109781265258789062500 0.001020571449771523909327841650 0.004054578021168708801269531250 0 0 0 0 
2407666666.6666665077 0.173761308193206787109375000000 -0.011632403358817100524902343750 0.001052601146511733965632773291 0.004008017946034669876098632812 0 0 0 0 
2407833333.3333334923 0.174009278416633605957031250000 -0.013691060245037080592145350977 0.001216651755385101058362651294 0.003813213668763637976405478369 0 0 0 0 
2408000000.0000000000 0.174349457025528009612713731258 -0.015902411192655559885045235546 0.001092062680982053063036274487 0.003743554931133985953090048682 0 0 0 0 
2408166666.6666665077 0.174724280834197998046875000000 -0.017958527430891990661621093750 0.001349433907307683987858437646 0.003800764912739396095275878906 0 0 0 0 
2408333333.3333334923 0.175252869725227411468182481258 -0.019875384867191321636159528907 0.001489341957494616942164755713 0.003731032833456993103027343750 0 0 0 0 
2408500000.0000000000 0.175553336739540100097656250000 -0.021926140412688258779505545704 0.001525438274256885051727294922 0.003550108522176742987391806494 0 0 0 0 
2408666666.6666665077 0.175899490714073208907919365629 -0.023827105760574340820312500000 0.001481998944655060984967875903 0.003412929829210042953491210938 0 0 0 0 
2408833333.3333334923 0.176258176565170288085937500000 -0.025578295812010768545130545704 0.001616725116036831898930214990 0.003427745774388312859776162256 0 0 0 0 
2409000000.0000000000 0.176604852080345209319744981258 -0.027160177007317539560338204296 0.001703335437923670031903911060 0.003236611606553196907043457031 0 0 0 0 
2409166666.6666665077 0.177016973495483398437500000000 -0.028801431879401210439661795704 0.001650632126256823973414755713 0.003304435173049569129943847656 0 0 0 0 
2409333333.3333334923 0.177602723240852411468182481258 -0.030262645334005359304407889454 0.001717161270789802074432373047 0.003175240708515048027038574219 0 0 0 0 
2409500000.0000000000 0.177901089191436795333700615629 -0.031846400350332260131835937500 0.001710050040856003978131938403 0.003084997646510601043701171875 0 0 0 0 
2409666666.6666665077 0.178144037723541287521200615629 -0.032938599586486823345143903907 0.001851923298090695901157998193 0.003008158411830664114711142432 0 0 0 0 
2409833333.3333334923 0.178661152720451410491619981258 -0.033994693309068679809570312500 0.001954127335920929908752441406 0.002865978050976992087123251807 0 0 0 0 
2410000000.0000000000 0.179140686988830594161825615629 -0.035046201199293136596679687500 0.001836211886256932995439838940 0.003064307617023586793186806787 0 0 0 0 
2410166666.6666665077 0.179583549499511690994424384371 -0.035919632762670516967773437500 0.001966175390407443046569824219 0.002919157035648822784423828125 0 0 0 0 
2410333333.3333334923 0.179928809404373196700888115629 -0.036654550582170493389089216407 0.001932469429448246955871582031 0.002859582193195819854736328125 0 0 0 0 
2410500000.0000000000 0.180508077144622802734375000000 -0.037501789629459381103515625000 0.001896283007226883931400918115 0.002641353290528059005737304688 0 0 0 0 
2410666666.6666665077 0.180766642093658502776776231258 -0.038323551416397101665456403907 0.001971068792045115990879677881 0.002783543895930051803588867188 0 0 0 0 
2410833333.3333334923 0.181134536862373407561932481258 -0.038796093314886093139648437500 0.002038984559476376013514853369 0.002670015906915069060084677588 0 0 0 0 
2411000000.0000000000 0.181327000260353088378906250000 -0.039340827614068991924245466407 0.001978999702259898185729980469 0.002658538985997437997105263818 0 0 0 0 
2411166666.6666665077 0.181473180651664706131143134371 -0.040083818137645721435546875000 0.002103882143273950056788779150 0.002659317106008530096766806494 0 0 0 0 
2411333333.3333334923 0.181803703308105496505575615629 -0.040489822626113891601562500000 0.002193378750234841866734170068 0.002512265462428330941441201318 0 0 0 0 
2411500000.0000000000 0.181737110018730191329794365629 -0.041095811873674392700195312500 0.002161253243684769110438681494 0.002652222989127039909362792969 0 0 0 0 
2411666666.6666665077 0.181902676820755004882812500000 -0.041406080126762390136718750000 0.002242789836600422859191894531 0.002555536571890116171595908057 0 0 0 0 
2411833333.3333334923 0.181655928492546109298544365629 -0.041534125804901123046875000000 0.002300785155966877937316894531 0.002617597114294766946079873193 0 0 0 0 
2412000000.0000000000 0.181621745228767395019531250000 -0.042175296694040298461914062500 0.002391079906374216079711914062 0.002389784436672925949096679688 0 0 0 0 
2412166666.6666665077 0.181383624672889709472656250000 -0.042615942656993872905690778907 0.002353397663682699203491210938 0.002389971166849135918858193506 0 0 0 0 
2412333333.3333334923 0.181195080280304010589276231258 -0.042938232421875000000000000000 0.002325427485629916191101074219 0.002661512698978186087367392432 0 0 0 0 
2412500000.0000000000 0.180375695228576687911825615629 -0.043190419673919677734375000000 0.002334471559152007102966308594 0.002500722184777259826660156250 0 0 0 0 
2412666666.6666665077 0.179838269948959406097088731258 -0.043786678463220603252370466407 0.002630186500027776198146201025 0.002472246531397103829624795068 0 0 0 0 
2412833333.3333334923 0.179231882095336886306924384371 -0.044066205620765692974050153907 0.002699173055589199066162109375 0.002409086795523763136622763525 0 0 0 0 
2413000000.0000000000 0.178583160042762811858807481258 -0.044273070991039283061940778907 0.002700313692912458939793252100 0.002373788040131330923793173682 0 0 0 0 
2413166666.6666665077 0.177524119615554809570312500000 -0.044834829866886138916015625000 0.002926770364865661101100302588 0.002390007022768259048461914062 0 0 0 0 
2413333333.3333334923 0.176646605134010287185830634371 -0.045358609408140182495117187500 0.003046143334358931021449423682 0.002392386086285113854649209131 0 0 0 0 
2413500000.0000000000 0.175656571984291104415731865629 -0.045620076358318328857421875000 0.003208770882338285012486123193 0.002232124563306570053100585938 0 0 0 0 
2413666666.6666665077 0.174722179770469693282919365629 -0.046316776424646377563476562500 0.003496032906696199937107705225 0.002210521837696433067321777344 0 0 0 0 
2413833333.3333334923 0.173587262630462701995526231258 -0.046614401042461402202565778907 0.003647034987807273864746093750 0.002277469960972667174098349463 0 0 0 0 
2414000000.0000000000 0.172369658946990994552450615629 -0.047392498701810836791992187500 0.003718109335750340981724404443 0.002191380830481648011448525537 0 0 0 0 
2414166666.6666665077 0.171353891491890009124432481258 -0.047974281013011932373046875000 0.003810349153354763984680175781 0.001868746476247906901715922778 0 0 0 0 
2414333333.3333334923 0.170086115598678588867187500000 -0.048857938498258590698242187500 0.003921689465641975402832031250 0.001837349031120538928388286060 0 0 0 0 
2414500000.0000000000 0.168999731540679903885049384371 -0.049572471529245376586914062500 0.003955603111535310745239257812 0.001818084740079938931706093896 0 0 0 0 
2414666666.6666665077 0.167857423424720791915731865629 -0.050416294485330581665039062500 0.004003785084933043393606855176 0.001568040577694774107692099463 0 0 0 0 
2414833333.3333334923 0.166484877467155512054119981258 -0.051629427820444107055664062500 0.004348677583038806915283203125 0.001436522463336586952209472656 0 0 0 0 
2415000000.0000000000 0.165244355797767611404580634371 -0.052607379853725433349609375000 0.004435969516634941101074218750 0.001121576875448226928710937500 0 0 0 0 
2415166666.6666665077 0.164011254906654413421307481258 -0.053902156651020050048828125000 0.004436673130840063095092773438 0.000936356256715953350067138672 0 0 0 0 
2415333333.3333334923 0.163041278719902010818643134371 -0.055161822587251663208007812500 0.004562209360301494598388671875 0.000785220356192439794540405273 0 0 0 0 
2415500000.0000000000 0.161815211176872308929119981258 -0.056488741189241409301757812500 0.004480339121073484420776367188 0.000538973079528659582138061523 0 0 0 0 
2415666666.6666665077 0.160591736435890197753906250000 -0.057820368558168411254882812500 0.004709051921963691711425781250 0.000355961994500830823748988019 0 0 0 0 
2415833333.3333334923 0.159589856863021906097088731258 -0.059516288340091712261159528907 0.004575263708829879760742187500 -0.000024007291358429938554763794 0 0 0 0 
2416000000.0000000000 0.158359035849571200271768134371 -0.061125293374061577533762346093 0.004673190414905548095703125000 -0.000249055039603263085514622821 0 0 0 0 
2416166666.6666665077 0.157647699117660494705361884371 -0.062860846519470214843750000000 0.004735190421342849731445312500 -0.000412138295359909480244237079 0 0 0 0 
2416333333.3333334923 0.156584367156028803069744981258 -0.064458779990673065185546875000 0.004718276672065258026123046875 -0.000626782071776688098907470703 0 0 0 0 
2416500000.0000000000 0.155703827738761901855468750000 -0.066397301852703094482421875000 0.004539286252111197385306073926 -0.000933754257857799530029296875 0 0 0 0 
2416666666.6666665077 0.154777288436889703948651231258 -0.068128541111946105957031250000 0.004391132388263940811157226562 -0.001082857837900518937351845850 0 0 0 0 
2416833333.3333334923 0.154098197817802401443643134371 -0.070159472525119781494140625000 0.004358035512268543243408203125 -0.001296408940106629891636513818 0 0 0 0 
2417000000.0000000000 0.153091281652450589279013115629 -0.072067327797412872314453125000 0.004233447834849357604980468750 -0.001365618081763386943219829028 0 0 0 0 
2417166666.6666665077 0.152432546019554110428018134371 -0.073821470141410827636718750000 0.004023419693112373352050781250 -0.001726882881484925963758159106 0 0 0 0 
2417333333.3333334923 0.151905491948127802093182481258 -0.075832329690456390380859375000 0.003934052772819995880126953125 -0.001856136368587613105773925781 0 0 0 0 
2417500000.0000000000 0.151386275887489291092080634371 -0.077725693583488464355468750000 0.003734771860763431029078818213 -0.001850659144110978083369589697 0 0 0 0 
2417666666.6666665077 0.151053667068481500823651231258 -0.079480923712253570556640625000 0.003582230070605874061584472656 -0.002149236388504505157470703125 0 0 0 0 
2417833333.3333334923 0.150595009326934786697549384371 -0.081257916986942291259765625000 0.003307225182652473016026162256 -0.002262760419398545785191201318 0 0 0 0 
2418000000.0000000000 0.150092065334320096114950615629 -0.083253793418407440185546875000 0.003425505710765718980076455225 -0.002470566658303142027613974463 0 0 0 0 
2418166666.6666665077 0.149917408823967007736044365629 -0.084897354245185852050781250000 0.003286400809884070916416787256 -0.002483307383954524993896484375 0 0 0 0 
2418333333.3333334923 0.149860769510269192794638115629 -0.086710333824157714843750000000 0.002989791100844740867614746094 -0.002631123177707194848301552881 0 0 0 0 
2418500000.0000000000 0.149628117680549593826455634371 -0.088218018412590026855468750000 0.002918838057667016983032226562 -0.002713485853746532960178994287 0 0 0 0 
2418666666.6666665077 0.149774327874183710296307481258 -0.089692398905754089355468750000 0.002604071749374270005467080225 -0.002921339590102434158325195312 0 0 0 0 
2418833333.3333334923 0.149595320224761990646200615629 -0.091285578906536102294921875000 0.002490464132279158072230673682 -0.002953005256131290955784463037 0 0 0 0 
2419000000.0000000000 0.149401724338531494140625000000 -0.092626735568046569824218750000 0.002258421853184700012207031250 -0.002927865134552121162414550781 0 0 0 0 
2419166666.6666665077 0.149704962968826293945312500000 -0.093810379505157470703125000000 0.002102349419146776199340820312 -0.003144545480608940124511718750 0 0 0 0 
2419333333.3333334923 0.149730294942855807205361884371 -0.094781391322612762451171875000 0.001829741406254469914677285303 -0.003036822425201534791233681787 0 0 0 0 
2419500000.0000000000 0.149786859750747708419638115629 -0.095917299389839172363281250000 0.001590389991179109053370810400 -0.002937935991212726073024130713 0 0 0 0 
2419666666.6666665077 0.150137230753898592849893134371 -0.096953466534614562988281250000 0.001596938003785908005358051831 -0.002996083814650774002075195312 0 0 0 0 
2419833333.3333334923 0.150269597768783597091513115629 -0.097662165760993957519531250000 0.001197445555590092918993305737 -0.002885874360799788995030068506 0 0 0 0 
