# Hz S RI R 
2400000000.0000000000 0.155093818902969388107138115629 0.106597207486629499961772182814 0.000395996699808165376812535419 -0.005009805783629417419433593750 0 0 0 0 
2400166666.6666665077 0.154875695705413790603799384371 0.104120098054408999344033759371 0.000371680740499868988990783691 -0.004855006467550992965698242188 0 0 0 0 
2400333333.3333334923 0.155010193586349487304687500000 0.101756863296031993537660298443 0.000315516837872564792633056641 -0.004856752231717109680175781250 0 0 0 0 
2400500000.0000000000 0.155001848936080904861611884371 0.098943628370761871337890625000 0.000329718372086062973171788348 -0.004818525165319442749023437500 0 0 0 0 
2400666666.6666665077 0.155031368136405889313067518742 0.096706926822662353515625000000 0.000388735788874328082233983173 -0.004777275957167148590087890625 0 0 0 0 
2400833333.3333334923 0.154970571398735101897869981258 0.093619383871555328369140625000 0.000246305920882150476605015887 -0.004464718513190746307373046875 0 0 0 0 
2401000000.0000000000 0.155150383710861206054687500000 0.090973004698753356933593750000 0.000312973483232781291007995605 -0.004719735123217105865478515625 0 0 0 0 
2401166666.6666665077 0.155261874198913601974325615629 0.088222011923789978027343750000 0.000317922618705779314041137695 -0.004703171551227569580078125000 0 0 0 0 
2401333333.3333334923 0.155787706375122098068075615629 0.085470952093601226806640625000 0.000160436407895758802264613019 -0.004682854283601045608520507812 0 0 0 0 
2401500000.0000000000 0.156156525015830993652343750000 0.082514218986034393310546875000 0.000040945516957435756921768188 -0.004635459277778863906860351562 0 0 0 0 
2401666666.6666665077 0.156557261943817110916299384371 0.079771012067794799804687500000 0.000213326507946476313188829965 -0.004794067237526178359985351562 0 0 0 0 
2401833333.3333334923 0.156932860612869290450888115629 0.077207140624523162841796875000 -0.000045263583160704001784324646 -0.004846470896154642105102539062 0 0 0 0 
2402000000.0000000000 0.157950639724731500823651231258 0.074633814394474029541015625000 -0.000063835410401225090026855469 -0.004973768256604672345633222363 0 0 0 0 
2402166666.6666665077 0.158802852034568786621093750000 0.071896992623805999755859375000 -0.000123345715110190212726593018 -0.004780811723321676254272460938 0 0 0 0 
2402333333.3333334923 0.159936547279357910156250000000 0.069207862019538879394531250000 -0.000224183502723462906762799673 -0.005025176331400871276855468750 0 0 0 0 
2402500000.0000000000 0.160952180624008206466513115629 0.066740453243255615234375000000 -0.000453545129857957417338770734 -0.005022996570914983749389648438 0 0 0 0 
2402666666.6666665077 0.162222281098365811446981865629 0.064613059163093566894531250000 -0.000500914640724658966064453125 -0.004977532662451267242431640625 0 0 0 0 
2402833333.3333334923 0.163483813405036898513955634371 0.062155287712812416767160783593 -0.000710402207914739847183227539 -0.005002938210964202880859375000 0 0 0 0 
2403000000.0000000000 0.164824292063713101486044365629 0.059680879116058349609375000000 -0.001035785651765763976453471606 -0.004984633997082710266113281250 0 0 0 0 
2403166666.6666665077 0.166646182537078912933026231258 0.057523269206285476684570312500 -0.001234671217389404990552592700 -0.005012505687773227691650390625 0 0 0 0 
2403333333.3333334923 0.168123453855514498611611884371 0.055434156209230422973632812500 -0.001534585491754115061519003760 -0.004783225245773792266845703125 0 0 0 0 
2403500000.0000000000 0.169814705848693903167401231258 0.053442571312189102172851562500 -0.001655104104429482980015420068 -0.004741807933896780014038085938 0 0 0 0 
2403666666.6666665077 0.171575114130973788162393134371 0.051669992506504058837890625000 -0.001734885270707309029222797925 -0.004710358567535877227783203125 0 0 0 0 
2403833333.3333334923 0.173206388950347900390625000000 0.049666963517665863037109375000 -0.001743915374390780925750732422 -0.004448557738214731216430664062 0 0 0 0 
2404000000.0000000000 0.174908250570297213455361884371 0.047817215323448181152343750000 -0.001876377617008984088897705078 -0.004204540513455867767333984375 0 0 0 0 
2404166666.6666665077 0.176615893840789794921875000000 0.046330787241458892822265625000 -0.002070745686069130897521972656 -0.004127353895455598831176757812 0 0 0 0 
2404333333.3333334923 0.178136527538299588302450615629 0.044896837323904037475585937500 -0.001859583775512873909593891675 -0.004078543744981288909912109375 0 0 0 0 
2404500000.0000000000 0.179677784442901611328125000000 0.043627437204122543334960937500 -0.001945606316439806981327675928 -0.004017401020973920822143554688 0 0 0 0 
2404666666.6666665077 0.181512564420700100997763115629 0.042544163763523101806640625000 -0.001863006851635873100878071362 -0.003876317059621214866638183594 0 0 0 0 
2404833333.3333334923 0.183015435934066800216513115629 0.041261963546276092529296875000 -0.001915565575473010973689413916 -0.003876726608723402023315429688 0 0 0 0 
2405000000.0000000000 0.184399753808975191970986884371 0.040536150336265557025949846093 -0.002119547221809626059291220557 -0.003919613081961870193481445312 0 0 0 0 
2405166666.6666665077 0.185896486043930109222088731258 0.039976920932531356811523437500 -0.001996204489842056794407509912 -0.003773681586608291105983115088 0 0 0 0 
2405333333.3333334923 0.187245115637779208084268134371 0.039437964558601379394531250000 -0.002188757760450243949890136719 -0.003996639046818017959594726562 0 0 0 0 
2405500000.0000000000 0.188686668872833307464276231258 0.038838911801576607440988908593 -0.002231378341093658967259072412 -0.003852193709462881088256835938 0 0 0 0 
2405666666.6666665077 0.189933955669403103927450615629 0.038464076817035681987722028907 -0.002431275555863976912257529150 -0.003864479018375277952906943213 0 0 0 0 
2405833333.3333334923 0.191043972969055203536825615629 0.038204990327358252788503278907 -0.002399030374363065199611044775 -0.003839851589873433113098144531 0 0 0 0 
2406000000.0000000000 0.192159578204154996017294365629 0.038067787885665886615793596093 -0.002649482805281877951381064307 -0.003759052837267518043518066406 0 0 0 0 
2406166666.6666665077 0.192912861704826410491619981258 0.037873946130275733257253278907 -0.002807474927976727919337607275 -0.003800040576606988906860351562 0 0 0 0 
2406333333.3333334923 0.193916231393814086914062500000 0.037810888141393661499023437500 -0.002914516720920801162719726562 -0.003589547239243983788731240381 0 0 0 0 
2406500000.0000000000 0.194539248943328912933026231258 0.037766251713037490844726562500 -0.003033711342141031785252236475 -0.003511691233143209977390908350 0 0 0 0 
2406666666.6666665077 0.195125058293342590332031250000 0.037771616131067282939870466407 -0.002994910581037402153015136719 -0.003245789092034101919886923682 0 0 0 0 
2406833333.3333334923 0.195658609271049499511718750000 0.037718940526247031475026716407 -0.003131473669782280921936035156 -0.003195603145286440849304199219 0 0 0 0 
2407000000.0000000000 0.195832580327987698654013115629 0.037949174642562873149831403907 -0.003184642409905790848972939600 -0.003066094359382987022399902344 0 0 0 0 
2407166666.6666665077 0.196353122591972406585369981258 0.037737384438514709472656250000 -0.003174556186422706084010458838 -0.003019460476934909820556640625 0 0 0 0 
2407333333.3333334923 0.196142956614494295974893134371 0.037824753671884536743164062500 -0.003092653118073939843418740381 -0.002872645854949951171875000000 0 0 0 0 
2407500000.0000000000 0.196082442998886108398437500000 0.037923440337181091308593750000 -0.003098219633102416992187500000 -0.002931958530098199844360351562 0 0 0 0 
2407666666.6666665077 0.196081280708312988281250000000 0.037770181894302368164062500000 -0.003146794158965349197387695312 -0.002586966613307594819309853662 0 0 0 0 
2407833333.3333334923 0.195668965578079195877236884371 0.037544950842857360839843750000 -0.003150991164147853851318359375 -0.002631410723552107810974121094 0 0 0 0 
2408000000.0000000000 0.195426911115646390060263115629 0.037296772003173828125000000000 -0.003154260339215397834777832031 -0.002489988226443529129028320312 0 0 0 0 
2408166666.6666665077 0.194955885410308810135049384371 0.037138972431421279907226562500 -0.002983174286782741980311728369 -0.002484164433553814888000488281 0 0 0 0 
2408333333.3333334923 0.194452479481697110275106865629 0.036510746926069259643554687500 -0.003036380046978592872619628906 -0.002508913399651647047755576025 0 0 0 0 
2408500000.0000000000 0.193763092160224886795205634371 0.036128990352153778076171875000 -0.003184656845405697822570800781 -0.002456608694046736197230673682 0 0 0 0 
2408666666.6666665077 0.193095356225967407226562500000 0.035601101815700531005859375000 -0.003065588651224970817565917969 -0.002475565997883677916285849463 0 0 0 0 
2408833333.3333334923 0.192393049597740201095419365629 0.034830268472433090209960937500 -0.003078054636716843085048056494 -0.002471265383064746856689453125 0 0 0 0 
2409000000.0000000000 0.191397100687027005294638115629 0.033720344305038452148437500000 -0.003238834673538804054260253906 -0.002340113045647739930393838037 0 0 0 0 
2409166666.6666665077 0.190419822931289700607138115629 0.032746523618698120117187500000 -0.003107259050011634826660156250 -0.002406172221526503996608115088 0 0 0 0 
2409333333.3333334923 0.189433574676513699630575615629 0.031737271696329116821289062500 -0.003200725885108112855198525537 -0.002356942277401686148402548682 0 0 0 0 
2409500000.0000000000 0.188284218311309786697549384371 0.030453555285930630075474923046 -0.003291611559689044952392578125 -0.002527177101001143889186240088 0 0 0 0 
2409666666.6666665077 0.187340691685676602462606865629 0.028966221958398818969726562500 -0.003320413641631602807285927881 -0.002505925018340349197387695312 0 0 0 0 
2409833333.3333334923 0.186300441622734097579794365629 0.027503171935677528381347656250 -0.003387101227417587800266884912 -0.002407019259408115906956338037 0 0 0 0 
2410000000.0000000000 0.185433328151702908614950615629 0.025888545438647270202636718750 -0.003480850020423531965968466650 -0.002394038485363125801086425781 0 0 0 0 
2410166666.6666665077 0.184318497776985196212606865629 0.024193275719881061208704764454 -0.003608644008636475043055868994 -0.002367098582908511161804199219 0 0 0 0 
2410333333.3333334923 0.183394566178321810623330634371 0.022480670362710949289342110546 -0.003726650727912784056422568213 -0.002537189750000834898707724463 0 0 0 0 
2410500000.0000000000 0.182450652122497586349325615629 0.020313052460551258432408516796 -0.003752437187358736991882324219 -0.002292141318321228027343750000 0 0 0 0 
2410666666.6666665077 0.181568264961242703536825615629 0.018126040697097778320312500000 -0.003967606928199529647827148438 -0.002406143350526690916774130713 0 0 0 0 
2410833333.3333334923 0.180825516581535311599893134371 0.015957815572619441640833670704 -0.003772678552195429801940917969 -0.002098065102472900910618447412 0 0 0 0 
2411000000.0000000000 0.180161595344543512542401231258 0.013770908117294309788714024023 -0.004186320584267377853393554688 -0.002113837283104658126831054688 0 0 0 0 
2411166666.6666665077 0.179569199681281987945880018742 0.011580987833440300333043282421 -0.004233268089592456817626953125 -0.001862716861069201989414834131 0 0 0 0 
2411333333.3333334923 0.179126858711242703536825615629 0.009053172543644905090332031250 -0.004306978546082974347586347363 -0.001886782469227910041809082031 0 0 0 0 
2411500000.0000000000 0.178568691015243502517861884371 0.006894731428474187850952148438 -0.004457056056708098325247480176 -0.001781716826371849016902304541 0 0 0 0 
2411666666.6666665077 0.178380101919174194335937500000 0.004436416551470757398123456738 -0.004512265324592590332031250000 -0.001689226133748888969421386719 0 0 0 0 
2411833333.3333334923 0.177979201078414889236611884371 0.002012381562963128089904785156 -0.004743406549096108350271894238 -0.001675001461990178065059042822 0 0 0 0 
2412000000.0000000000 0.178231567144393893142861884371 -0.000519445864483714103698730469 -0.004764112643897533416748046875 -0.001538584940135478973388671875 0 0 0 0 
2412166666.6666665077 0.178500011563301086425781250000 -0.002638074336573481993434286963 -0.004773028660565614700317382812 -0.001497093820944428010227822412 0 0 0 0 
2412333333.3333334923 0.178654059767723111251669365629 -0.005147153045982122421264648438 -0.004945152439177036285400390625 -0.001516416785307228998896933447 0 0 0 0 
2412500000.0000000000 0.179093569517135592361611884371 -0.007473056204617024335379316113 -0.004986825399100781354422284863 -0.001317570218816400007960654150 0 0 0 0 
2412666666.6666665077 0.179616630077362088302450615629 -0.009914007969200611114501953125 -0.005204134620726109418387128613 -0.000984969898127019405364990234 0 0 0 0 
2412833333.3333334923 0.180228382349014309982138115629 -0.012372941710054869215995587695 -0.005222022999078035354614257812 -0.001041572657413780906079936450 0 0 0 0 
2413000000.0000000000 0.180995672941207913497763115629 -0.014656988903880119323730468750 -0.005447278264909982681274414062 -0.000780150876380503177642822266 0 0 0 0 
2413166666.6666665077 0.181845828890800503829794365629 -0.016832962632179260253906250000 -0.005507674533873797330374433301 -0.000615251425188034772872924805 0 0 0 0 
2413333333.3333334923 0.182827949523925809005575615629 -0.019145542755722999572753906250 -0.005592811852693557739257812500 -0.000284694920992478674084263934 0 0 0 0 
2413500000.0000000000 0.183664590120315607268963731258 -0.021307816728949550283411795704 -0.005711161531507968902587890625 0.000002817829908963175998304644 0 0 0 0 
2413666666.6666665077 0.184788718819618197342080634371 -0.023424737155437469482421875000 -0.005762412678450345993041992188 0.000201475253561511608675280161 0 0 0 0 
2413833333.3333334923 0.185856848955154391189736884371 -0.025186492130160331726074218750 -0.005782483145594596862792968750 0.000540668144822120666503906250 0 0 0 0 
2414000000.0000000000 0.186938285827636690994424384371 -0.027261201292276378976842110546 -0.005800512619316577911376953125 0.000843850837554782629013061523 0 0 0 0 
2414166666.6666665077 0.188260272145271301269531250000 -0.029004983603954318654993826954 -0.005790385883301497373099042676 0.001111550955101848082301474463 0 0 0 0 
2414333333.3333334923 0.189341515302658108810263115629 -0.030951751396059989929199218750 -0.005760028958320617675781250000 0.001413753256201744079589843750 0 0 0 0 
2414500000.0000000000 0.190599694848060607910156250000 -0.032169848680496222759206403907 -0.005515764001756907376761152051 0.001697032363153994083404541016 0 0 0 0 
2414666666.6666665077 0.191742703318595886230468750000 -0.033761978149414062500000000000 -0.005452357698231936368460370801 0.001865335740149020931841206128 0 0 0 0 
2414833333.3333334923 0.192916169762611389160156250000 -0.035097882151603698730468750000 -0.005459389649331569671630859375 0.002052005147561430931091308594 0 0 0 0 
2415000000.0000000000 0.193952053785324096679687500000 -0.036335635930299758911132812500 -0.005216917023062705993652343750 0.002366304397583007812500000000 0 0 0 0 
2415166666.6666665077 0.195166826248169000823651231258 -0.037494435906410217285156250000 -0.005182118620723485946655273438 0.002446456812322140173671103369 0 0 0 0 
2415333333.3333334923 0.196285963058471707443075615629 -0.038335569202899932861328125000 -0.004941882565617561340332031250 0.002625151537358760833740234375 0 0 0 0 
2415500000.0000000000 0.197455152869224603850994981258 -0.038993686437606811523437500000 -0.004680537618696689605712890625 0.002779289381578565077540732275 0 0 0 0 
2415666666.6666665077 0.198424994945526095291299384371 -0.039757162332534790039062500000 -0.004621261730790138244628906250 0.002977112075313926176783896338 0 0 0 0 
2415833333.3333334923 0.199329286813735989669638115629 -0.040398947894573211669921875000 -0.004519050009548664093017578125 0.003309833118692040009739541162 0 0 0 0 
2416000000.0000000000 0.200023293495178194900674384371 -0.041103392839431762695312500000 -0.004415681585669518384451581738 0.003366525750607252120971679688 0 0 0 0 
2416166666.6666665077 0.200689271092414911468182481258 -0.041526943445205688476562500000 -0.004122406709939241409301757812 0.003484806045889853997471474756 0 0 0 0 
2416333333.3333334923 0.201222032308578491210937500000 -0.041708372533321380615234375000 -0.003865212434902787208557128906 0.003585455939173697991612099756 0 0 0 0 
2416500000.0000000000 0.201817870140075711349325615629 -0.042125642299652099609375000000 -0.003632558276876807212829589844 0.003853125730529427962062216650 0 0 0 0 
2416666666.6666665077 0.202064096927642794510049384371 -0.042461350560188293457031250000 -0.003542464459314941926243447412 0.003880150616168975830078125000 0 0 0 0 
2416833333.3333334923 0.202208727598190307617187500000 -0.042419660836458213115651716407 -0.003124559530988336043116904150 0.003857050091028213934657431494 0 0 0 0 
2417000000.0000000000 0.202339455485343905349893134371 -0.042629472911357879638671875000 -0.002969416091218591170070029150 0.003969880286604166030883789062 0 0 0 0 
2417166666.6666665077 0.201998174190521212478799384371 -0.042568113654851913452148437500 -0.002761038253083825111389160156 0.003743738168850541114807128906 0 0 0 0 
2417333333.3333334923 0.201822787523269708831463731258 -0.042542133480310440063476562500 -0.002496469300240277810337685693 0.003775763558223844008204794775 0 0 0 0 
2417500000.0000000000 0.201521098613739013671875000000 -0.042463112622499472881276716407 -0.002347799018025397820713662256 0.003622647142037748856785439600 0 0 0 0 
2417666666.6666665077 0.200880095362663296798544365629 -0.042259804904460906982421875000 -0.002130595501512289047241210938 0.003463374683633447127101279150 0 0 0 0 
2417833333.3333334923 0.200497463345527704436932481258 -0.042035777121782302856445312500 -0.002096583368256688117980957031 0.003404102055355906920192099463 0 0 0 0 
2418000000.0000000000 0.199767440557479886154013115629 -0.041962392628192901611328125000 -0.001932176761329174041748046875 0.003547527594491838975193642725 0 0 0 0 
2418166666.6666665077 0.198994442820549011230468750000 -0.041889928281307220458984375000 -0.001916368142701684994938515771 0.003444741247221827940699911963 0 0 0 0 
2418333333.3333334923 0.198060333728790310958700615629 -0.041735291481018073345143903907 -0.001828208332881331010105752100 0.003189044771715999083278036963 0 0 0 0 
2418500000.0000000000 0.197055190801620511154013115629 -0.041747920215129852294921875000 -0.001785420230589807033538818359 0.003126258263364433808567666162 0 0 0 0 
2418666666.6666665077 0.196190327405929593185263115629 -0.041759438812732696533203125000 -0.001605062629096210002899169922 0.003192233620211482048034667969 0 0 0 0 
2418833333.3333334923 0.194850042462348910232705634371 -0.041921295225620269775390625000 -0.001804968342185020013096474756 0.003096286673098803000209189307 0 0 0 0 
2419000000.0000000000 0.193576216697692898849325615629 -0.042121008038520812988281250000 -0.001879809424281120083452534253 0.002983315847814083099365234375 0 0 0 0 
2419166666.6666665077 0.192352503538131713867187500000 -0.042436163872480392456054687500 -0.001691537792794405980351113428 0.002923344727605580849888466943 0 0 0 0 
2419333333.3333334923 0.190916255116462707519531250000 -0.042990762740373611450195312500 -0.001693352358415723063825297778 0.002892774296924471855163574219 0 0 0 0 
2419500000.0000000000 0.189408943057060186188067518742 -0.043450616300106048583984375000 -0.001752872369252145073534321362 0.002850612625479698181152343750 0 0 0 0 
2419666666.6666665077 0.187909647822380093673544365629 -0.044225096702575676654856096093 -0.001756763202138245105743408203 0.002959679812192916870117187500 0 0 0 0 
2419833333.3333334923 0.186216861009597806075888115629 -0.044840823858976357196848283593 -0.001905167941004038073896098560 0.002841112902387977080104208838 0 0 0 0 
