# Hz S RI R 50
2400000000.0000000000 0.173197403550148010253906250000 0.049052223563194281841237653907 0.004733299836516380310058593750 0.005624131299555301666259765625 0 0 0 0 
2400166666.6666665077 0.173882812261581393142861884371 0.048561800271272659301757812500 0.004894448909908533096313476562 0.005396229214966297149658203125 0 0 0 0 
2400333333.3333334923 0.174158349633216913421307481258 0.047916617244482040405273437500 0.005161000881344079971313476562 0.005180062726140022277832031250 0 0 0 0 
2400500000.0000000000 0.174603089690208407303018134371 0.047126241028308868408203125000 0.005225918721407651901245117188 0.005101643968373537063598632812 0 0 0 0 
2400666666.6666665077 0.174851715564727810958700615629 0.046414282172918319702148437500 0.005282391328364610671997070312 0.004658280406147241592407226562 0 0 0 0 
2400833333.3333334923 0.175168499350547790527343750000 0.045801810920238501811940778907 0.005249621346592903137207031250 0.004487643484026193618774414062 0 0 0 0 
2401000000.0000000000 0.175342664122581509689169365629 0.045280478894710540771484375000 0.005388731136918067932128906250 0.004383910447359085083007812500 0 0 0 0 
2401166666.6666665077 0.175412371754646301269531250000 0.044612634927034378051757812500 0.005534248892217875394339277051 0.004169039428234100341796875000 0 0 0 0 
2401333333.3333334923 0.175476893782615689376669365629 0.043811157345771789550781250000 0.005413931794464588165283203125 0.003994227852672339353079511426 0 0 0 0 
2401500000.0000000000 0.175459131598472595214843750000 0.043253868818283081054687500000 0.005525902379304170608520507812 0.003812029259279369874241494287 0 0 0 0 
2401666666.6666665077 0.175558507442474392989950615629 0.042499233037233352661132812500 0.005690433084964752197265625000 0.003709743032231926918029785156 0 0 0 0 
2401833333.3333334923 0.175524532794952392578125000000 0.041701667010784149169921875000 0.005885334219783545407767011426 0.003473640419542789892909384619 0 0 0 0 
2402000000.0000000000 0.175145164132118197342080634371 0.040950965136289596557617187500 0.005983334034681320190429687500 0.003319727489724754853489541162 0 0 0 0 
2402166666.6666665077 0.175054714083671597579794365629 0.039930369704961776733398437500 0.006029692944139242172241210938 0.002958717057481408119201660156 0 0 0 0 
2402333333.3333334923 0.174912765622139004806356865629 0.039001185446977622295339216407 0.006119997706264257431030273438 0.002700226614251732826232910156 0 0 0 0 
2402500000.0000000000 0.174883440136909512618856865629 0.037963066250085830688476562500 0.006148156244307756423950195312 0.002642234787344932989833212744 0 0 0 0 
2402666666.6666665077 0.174500152468681307693643134371 0.036913741379976272583007812500 0.006271851714700459566598222949 0.002366363769397139982936240088 0 0 0 0 
2402833333.3333334923 0.174198299646377591232138115629 0.035664893686771392822265625000 0.005961420480161905288696289062 0.002102677943184971809387207031 0 0 0 0 
2403000000.0000000000 0.173962458968162508865518134371 0.034489672631025307392160783593 0.006322886329144239425659179688 0.001921207527630030892015766675 0 0 0 0 
2403166666.6666665077 0.173707291483879089355468750000 0.032995752990245819091796875000 0.006240341812372207641601562500 0.001739553059451282024383544922 0 0 0 0 
2403333333.3333334923 0.173379048705101013183593750000 0.031536888331174850463867187500 0.006429593078792095184326171875 0.001386842690408230044721293872 0 0 0 0 
2403500000.0000000000 0.172858193516731289962606865629 0.029860733076930049550989920704 0.006221282761543989181518554688 0.001122029498219490051269531250 0 0 0 0 
2403666666.6666665077 0.172477960586547907073651231258 0.028368180617690089834193045704 0.006263684481382369995117187500 0.001017226837575436072108603369 0 0 0 0 
2403833333.3333334923 0.172227472066879300216513115629 0.026685589924454689025878906250 0.006170864216983318328857421875 0.000700060103554278612136840820 0 0 0 0 
2404000000.0000000000 0.171935364603996304611044365629 0.024882959201931949960728829296 0.005989661905914545059204101562 0.000584981986321508884429931641 0 0 0 0 
2404166666.6666665077 0.171598136425018310546875000000 0.023183548822999000549316406250 0.006162786390632390975952148438 0.000495067448355257511138916016 0 0 0 0 
2404333333.3333334923 0.171104207634925786774005018742 0.021325433626770969736119454296 0.006083570420742034912109375000 0.000148176244692876907900133676 0 0 0 0 
2404500000.0000000000 0.170721441507339505294638115629 0.019363513216376311565358747657 0.005940434988588094711303710938 -0.000035526976716937497258186340 0 0 0 0 
2404666666.6666665077 0.170531183481216402908486884371 0.017411615699529651296595389454 0.005899759475141763687133789062 -0.000307192938635125810473841534 0 0 0 0 
2404833333.3333334923 0.170372575521469088455361884371 0.015484588220715519296666329296 0.005944245029240846633911132812 -0.000370638561435043811798095703 0 0 0 0 
2405000000.0000000000 0.170300796627998407561932481258 0.013422087766230109823206717579 0.005647693760693073272705078125 -0.000507707300130277872085571289 0 0 0 0 
2405166666.6666665077 0.170096293091773986816406250000 0.011470142751932140695592110546 0.005570335313677787780761718750 -0.000732478976715356111526489258 0 0 0 0 
2405333333.3333334923 0.170154184103012112716513115629 0.009263113141059875488281250000 0.005670388229191303253173828125 -0.000846152601297944784164428711 0 0 0 0 
2405500000.0000000000 0.170092016458511408050213731258 0.007372498977929353713989257812 0.005482359789311885833740234375 -0.000986169092357158660888671875 0 0 0 0 
2405666666.6666665077 0.170187234878540011306924384371 0.005396331660449504852294921875 0.005441914778202772140502929688 -0.001022064709104598002192831885 0 0 0 0 
2405833333.3333334923 0.170315816998481805999432481258 0.003422232111915946006774902344 0.005324964411556720733642578125 -0.001238452736288309097290039062 0 0 0 0 
2406000000.0000000000 0.170713767409324701507244981258 0.001283975900150835947749472510 0.005368851590901613235473632812 -0.001146857161074877002118754810 0 0 0 0 
2406166666.6666665077 0.170864254236221313476562500000 -0.000686910818330943584442138672 0.005045648664236068725585937500 -0.001325644552707671902300190503 0 0 0 0 
2406333333.3333334923 0.171474561095237704178018134371 -0.002667672466486691994907998193 0.005093123298138380050659179688 -0.001483318163082004027125693213 0 0 0 0 
2406500000.0000000000 0.171701416373252896407919365629 -0.004772015381604433059692382812 0.004920675884932279586791992188 -0.001441473141312598965288471753 0 0 0 0 
2406666666.6666665077 0.172122240066528292556924384371 -0.006679880432784557342529296875 0.005007343366742134094238281250 -0.001719827880151570060132670825 0 0 0 0 
2406833333.3333334923 0.172860935330390902420205634371 -0.008459702134132385253906250000 0.004954440519213677319998456738 -0.001752261887304485061048198169 0 0 0 0 
2407000000.0000000000 0.173417404294014004806356865629 -0.010445120744407180440882498829 0.004877461120486260327810956738 -0.001779526704922318892237997900 0 0 0 0 
2407166666.6666665077 0.174252301454544095138388115629 -0.012153653427958490199078944727 0.004777112044394016265869140625 -0.001988119678571819825413369287 0 0 0 0 
2407333333.3333334923 0.174693822860717801193075615629 -0.014029895886778829747210117773 0.004975011572241783142089843750 -0.001998047111555933952331542969 0 0 0 0 
2407500000.0000000000 0.175643816590309087555255018742 -0.015717223286628719675084298046 0.004977671895176172256469726562 -0.002250905381515622138977050781 0 0 0 0 
2407666666.6666665077 0.176310166716575594803018134371 -0.017343644052743908273717110546 0.004861029796302318572998046875 -0.002499281428754330115077353369 0 0 0 0 
2407833333.3333334923 0.176990717649459811111611884371 -0.019138546660542491567591483204 0.004899938590824604034423828125 -0.002715245354920626120326376807 0 0 0 0 
2408000000.0000000000 0.177760899066925104339276231258 -0.020599355921149250375767891796 0.004855130333453416824340820312 -0.002901441650465130805969238281 0 0 0 0 
2408166666.6666665077 0.178449273109436007400674384371 -0.021947685629129409790039062500 0.004794828128069639205932617188 -0.002941346960142254829406738281 0 0 0 0 
2408333333.3333334923 0.179263383150100708007812500000 -0.023266775533556941640833670704 0.004598357714712619781494140625 -0.003393044462427496910095214844 0 0 0 0 
2408500000.0000000000 0.179808631539344787597656250000 -0.024798100814223289489746093750 0.004483587574213743209838867188 -0.003483433043584227995631552588 0 0 0 0 
2408666666.6666665077 0.180413141846656799316406250000 -0.025971541181206699716588204296 0.004191170446574687957763671875 -0.003581736702471971945521689307 0 0 0 0 
2408833333.3333334923 0.180934503674507113357705634371 -0.027122024446725848806361014454 0.004130735527724027633666992188 -0.003975059371441602706909179688 0 0 0 0 
2409000000.0000000000 0.181475013494491604904013115629 -0.028083838522434241558034528907 0.003809498855844140052795410156 -0.004067194648087024688720703125 0 0 0 0 
2409166666.6666665077 0.181976571679115295410156250000 -0.029096039012074470520019531250 0.003752442542463541030883789062 -0.004469520878046751022338867188 0 0 0 0 
2409333333.3333334923 0.182568222284316988845986884371 -0.030012268573045730590820312500 0.003414118662476540045497275244 -0.004518221132457256317138671875 0 0 0 0 
2409500000.0000000000 0.182868868112564086914062500000 -0.030831567943096160888671875000 0.003169001080095767974853515625 -0.004610672593116760253906250000 0 0 0 0 
2409666666.6666665077 0.183184519410133389571981865629 -0.031377952545881271362304687500 0.002797152381390333175659179688 -0.004631803836673498153686523438 0 0 0 0 
2409833333.3333334923 0.183398663997650201995526231258 -0.031872734427452087402343750000 0.002555165439844131903407431494 -0.004709444940090178575997637012 0 0 0 0 
2410000000.0000000000 0.183687418699264498611611884371 -0.032253053039312362670898437500 0.002298320410773158073425292969 -0.004820526577532291412353515625 0 0 0 0 
2410166666.6666665077 0.183794081211090087890625000000 -0.032862175256013870239257812500 0.001962563255801796913146972656 -0.004855483770370483398437500000 0 0 0 0 
2410333333.3333334923 0.183647245168685913085937500000 -0.033228073269128799438476562500 0.001721524749882519028307270581 -0.004626901820302009582519531250 0 0 0 0 
2410500000.0000000000 0.183809012174606295486611884371 -0.033592969179153442382812500000 0.001364970463328063921687460791 -0.004594364203512668609619140625 0 0 0 0 
2410666666.6666665077 0.183498427271843012054119981258 -0.033946972340345382690429687500 0.001325709163211286067962646484 -0.004635106772184371948242187500 0 0 0 0 
2410833333.3333334923 0.183540448546409606933593750000 -0.034162692725658416748046875000 0.000904909684322774410247802734 -0.004451633896678686141967773438 0 0 0 0 
2411000000.0000000000 0.183386906981468200683593750000 -0.034583866596221916889231096093 0.000743012526072561740875244141 -0.004351284354925155639648437500 0 0 0 0 
2411166666.6666665077 0.183012306690216092208700615629 -0.035128965973854071880300153907 0.000496957916766405105590820312 -0.004244061652570962905883789062 0 0 0 0 
2411333333.3333334923 0.182572469115257290939169365629 -0.035014919936656951904296875000 0.000255304068559780716896057129 -0.003993973601609469327444745801 0 0 0 0 
2411500000.0000000000 0.182063192129135104080361884371 -0.035691417753696441650390625000 0.000023368189431494098493849107 -0.003736847080290317969081259619 0 0 0 0 
2411666666.6666665077 0.181657239794731112381143134371 -0.036063872277736656879465471093 -0.000079813682532403618097305298 -0.003690159646794199943542480469 0 0 0 0 
2411833333.3333334923 0.180754333734512301345986884371 -0.036328356713056557392160783593 -0.000192824591067619594648638315 -0.003261687932536005973815917969 0 0 0 0 
2412000000.0000000000 0.180094689130783108810263115629 -0.036915887147188186645507812500 -0.000291867763735354000895899640 -0.003147766692563890977146767725 0 0 0 0 
2412166666.6666665077 0.179157838225364712814169365629 -0.037500012665987021709401716407 -0.000277955754427239298820495605 -0.002789010060951114134547568213 0 0 0 0 
2412333333.3333334923 0.178322896361351013183593750000 -0.038003813475370407104492187500 -0.000318976904964074492454528809 -0.002556744730100036101100302588 0 0 0 0 
2412500000.0000000000 0.177361235022544888595419365629 -0.038576129823923110961914062500 -0.000209940495551563799381256104 -0.002208455465734004974365234375 0 0 0 0 
2412666666.6666665077 0.176136717200279208084268134371 -0.039277091622352600097656250000 -0.000183180134627036804526728497 -0.002031495096161961989161826025 0 0 0 0 
2412833333.3333334923 0.174872651696205111404580634371 -0.040115583688020713115651716407 -0.000172898129676468697473248892 -0.001882985699921845956089638818 0 0 0 0 
2413000000.0000000000 0.173625126481056213378906250000 -0.040753610432147979736328125000 0.000049112877604784437198231356 -0.001678230357356369929072714697 0 0 0 0 
2413166666.6666665077 0.172566264867782592773437500000 -0.041594449430704116821289062500 0.000243976697674952501624506818 -0.001524349558167159991023398291 0 0 0 0 
2413333333.3333334923 0.171030908823013305664062500000 -0.042653616517782211303710937500 0.000403906014980748295783996582 -0.001360542722977698066114116138 0 0 0 0 
2413500000.0000000000 0.169836089015006991287393134371 -0.043735027313232421875000000000 0.000714769412297755479812622070 -0.001105821691453457095502543872 0 0 0 0 
2413666666.6666665077 0.168521940708160400390625000000 -0.044658944010734558105468750000 0.000902094703633338212966918945 -0.001333289896138011975529336084 0 0 0 0 
2413833333.3333334923 0.167229712009429903885049384371 -0.045752469450235366821289062500 0.001186688547022640921949077075 -0.001079669571481645107269287109 0 0 0 0 
2414000000.0000000000 0.165727093815803500076455634371 -0.046868097037076950073242187500 0.001476798090152443105813051538 -0.001230411464348434968235634912 0 0 0 0 
2414166666.6666665077 0.164613842964172391036825615629 -0.048258271068334579467773437500 0.001633524312637745900395058740 -0.001116736442781985022901225513 0 0 0 0 
2414333333.3333334923 0.163430154323577908614950615629 -0.049540817737579352642018903907 0.001900667324662208990809775244 -0.001229967921972274997113871997 0 0 0 0 
2414500000.0000000000 0.162518113851547213455361884371 -0.051076695322990417480468750000 0.002062879735603928999659872900 -0.001435156911611557006835937500 0 0 0 0 
2414666666.6666665077 0.161167740821838406661825615629 -0.052473995834589011455495466407 0.002306927228346467018127441406 -0.001662781811319292025325156104 0 0 0 0 
2414833333.3333334923 0.160115629434585599044638115629 -0.054177645593881607055664062500 0.002435925882309675216674804688 -0.001942911185324192047119140625 0 0 0 0 
2415000000.0000000000 0.159057244658470209319744981258 -0.055744092911481857299804687500 0.002652980154380201859715127100 -0.002151718595996499061584472656 0 0 0 0 
2415166666.6666665077 0.158045873045921297928018134371 -0.057395633310079581523854841407 0.002796153537929058074951171875 -0.002396197756752371788024902344 0 0 0 0 
2415333333.3333334923 0.157363191246986389160156250000 -0.059364918619394302368164062500 0.002710629021748899979832314600 -0.002662149257957934899571084131 0 0 0 0 
2415500000.0000000000 0.156522318720817593673544365629 -0.061050157994031913066823591407 0.002810780191794037818908691406 -0.002786527154967188835144042969 0 0 0 0 
2415666666.6666665077 0.155782058835029602050781250000 -0.062848471105098724365234375000 0.002814762759953736825230263818 -0.003036103211343287987949990381 0 0 0 0 
2415833333.3333334923 0.155209347605705288986044365629 -0.064852818846702575683593750000 0.002928924979642034010646201025 -0.003527275752276182174682617188 0 0 0 0 
2416000000.0000000000 0.154428601264953613281250000000 -0.066817097365856170654296875000 0.002873243764042853875401162256 -0.003680714638903737068176269531 0 0 0 0 
2416166666.6666665077 0.154170751571655301193075615629 -0.068782851099967956542968750000 0.002518450375646353201625204932 -0.003999988548457623395437909863 0 0 0 0 
2416333333.3333334923 0.153653115034103393554687500000 -0.070576846599578857421875000000 0.002573211444541811943054199219 -0.004200244322419167432303144238 0 0 0 0 
2416500000.0000000000 0.153261795639991788009481865629 -0.072724401950836181640625000000 0.002549021271988749937770224463 -0.004674353636801242828369140625 0 0 0 0 
2416666666.6666665077 0.152841374278068486969317518742 -0.074521422386169433593750000000 0.002411286812275648117065429688 -0.004686474334448575973510742188 0 0 0 0 
2416833333.3333334923 0.152751639485359191894531250000 -0.076514527201652526855468750000 0.002162715420126914978027343750 -0.005054960027337074279785156250 0 0 0 0 
2417000000.0000000000 0.152394577860832186599893134371 -0.078458227217197418212890625000 0.002048787428066134886500693213 -0.005090131890028715133666992188 0 0 0 0 
2417166666.6666665077 0.152190744876861600021200615629 -0.080113761126995086669921875000 0.001897737849503756003138876807 -0.005324186291545630368704511426 0 0 0 0 
2417333333.3333334923 0.152162045240402193924111884371 -0.081858485937118530273437500000 0.001596813322976232008693076025 -0.005644250195473433408255292676 0 0 0 0 
2417500000.0000000000 0.152151733636856106857138115629 -0.083765394985675811767578125000 0.001434703823179007010218954932 -0.005654683802276849746704101562 0 0 0 0 
2417666666.6666665077 0.152289301156997708419638115629 -0.085143178701400756835937500000 0.001166514935903250954271626050 -0.005896084010601043701171875000 0 0 0 0 
2417833333.3333334923 0.152307108044624300857705634371 -0.086613737046718597412109375000 0.001155118225142359950421977466 -0.005941329989582300186157226562 0 0 0 0 
2418000000.0000000000 0.152241408824920709808026231258 -0.088173910975456237792968750000 0.000792389269918203353881835938 -0.006278708111494779586791992188 0 0 0 0 
2418166666.6666665077 0.152464210987091092208700615629 -0.089506454765796661376953125000 0.000572057731915265321731567383 -0.006427456159144639968872070312 0 0 0 0 
2418333333.3333334923 0.152862235903739901443643134371 -0.090882949531078338623046875000 0.000367406057193875312805175781 -0.006623818073421716690063476562 0 0 0 0 
2418500000.0000000000 0.152931928634643610198651231258 -0.091940909624099731445312500000 0.000087669977801851928234100342 -0.006632255855947732925415039062 0 0 0 0 
2418666666.6666665077 0.153237298130989102462606865629 -0.092996858060359954833984375000 -0.000318923150189220905303955078 -0.006808208301663398742675781250 0 0 0 0 
2418833333.3333334923 0.153219074010848999023437500000 -0.093919605016708374023437500000 -0.000592615106143057346343994141 -0.006977037061005830764770507812 0 0 0 0 
2419000000.0000000000 0.153411149978637695312500000000 -0.094719618558883666992187500000 -0.000957031210418790578842163086 -0.007100286427885293960571289062 0 0 0 0 
2419166666.6666665077 0.153700381517410306075888115629 -0.095435187220573425292968750000 -0.001346155069768429019330668872 -0.007262030150741338729858398438 0 0 0 0 
2419333333.3333334923 0.153749421238899203201455634371 -0.095973141491413116455078125000 -0.001769890775904058976414345850 -0.007180440239608287811279296875 0 0 0 0 
2419500000.0000000000 0.153996035456657409667968750000 -0.096531994640827178955078125000 -0.002087090397253632979152060400 -0.007159362081438302993774414062 0 0 0 0 
2419666666.6666665077 0.154369011521339388748330634371 -0.097011618316173553466796875000 -0.002387621439993381933925009619 -0.007216511759907007217407226562 0 0 0 0 
2419833333.3333334923 0.154239892959594698806924384371 -0.097112335264682769775390625000 -0.002749820239841938018798828125 -0.007088710088282824429983808301 0 0 0 0 
