# Hz S RI R 
2400000000.0000000000 0.163504078984260586837606865629 0.051700554788112640380859375000 0.001342888223007320924046181787 0.004756589885801076889038085938 0 0 0 0 
2400166666.6666665077 0.163486495614051791092080634371 0.050140302628278732299804687500 0.001475951867178082899806357275 0.004865919705480337142944335938 0 0 0 0 
2400333333.3333334923 0.163288608193397494217080634371 0.048416096717119216918945312500 0.001648675533942878029466938550 0.004982883110642433166503906250 0 0 0 0 
2400500000.0000000000 0.163337588310241699218750000000 0.046500463038682937622070312500 0.001781614264473319053649902344 0.004846066702157258987426757812 0 0 0 0 
2400666666.6666665077 0.163313299417495699783486884371 0.044698350131511688232421875000 0.001772148883901536898372031104 0.005015010014176368713378906250 0 0 0 0 
2400833333.3333334923 0.163232162594795199295205634371 0.042862806469202041625976562500 0.002022044267505406899693154443 0.005100117530673742294311523438 0 0 0 0 
2401000000.0000000000 0.163366511464119013030682481258 0.041080113500356667255442033593 0.002259232336655259132385253906 0.004934124182909727096557617188 0 0 0 0 
2401166666.6666665077 0.163623660802841186523437500000 0.039016250520944602275807966407 0.002602594206109642982482910156 0.005216108635067939758300781250 0 0 0 0 
2401333333.3333334923 0.163359776139259310623330634371 0.037117987871170037006418596093 0.002946425229310988946201943506 0.004966969601809979352469159863 0 0 0 0 
2401500000.0000000000 0.163658529520034790039062500000 0.035048689693212509155273437500 0.003073685336858034133911132812 0.005086773540824651718139648438 0 0 0 0 
2401666666.6666665077 0.163876980543136596679687500000 0.033402785658836371684987653907 0.003262343816459178924560546875 0.004928875714540481567382812500 0 0 0 0 
2401833333.3333334923 0.164213374257087707519531250000 0.031189074739813811565358747657 0.003560167038813232941868447412 0.004934912081807851791381835938 0 0 0 0 
2402000000.0000000000 0.164248660206794711013955634371 0.029167223721742630004882812500 0.003860381664708257155177451025 0.004692312330007553100585937500 0 0 0 0 
2402166666.6666665077 0.164808660745620699783486884371 0.027330851182341579092005545704 0.004026982933282852172851562500 0.004747972823679447174072265625 0 0 0 0 
2402333333.3333334923 0.165151387453079195877236884371 0.025535194203257560729980468750 0.004517685621976852416992187500 0.004670709837228059768676757812 0 0 0 0 
2402500000.0000000000 0.165631294250488309005575615629 0.023684408515691760671595389454 0.004425887949764729413504316113 0.004630979616194964322561933301 0 0 0 0 
2402666666.6666665077 0.166125014424324007888955634371 0.022136582061648368835449218750 0.004950755741447210311889648438 0.004350517876446247100830078125 0 0 0 0 
2402833333.3333334923 0.166788622736930902679119981258 0.020503390580415729177454764454 0.005166888236999511718750000000 0.004222473129630088806152343750 0 0 0 0 
2403000000.0000000000 0.167214438319206210037393134371 0.018792012706398960458775704296 0.005262147169560194015502929688 0.003854531329125165939331054688 0 0 0 0 
2403166666.6666665077 0.167818367481231689453125000000 0.017078531906008720397949218750 0.005377921275794506072998046875 0.003932805731892585754394531250 0 0 0 0 
2403333333.3333334923 0.168543010950088500976562500000 0.015753993764519691467285156250 0.005727127660065889358520507812 0.003641017246991395950317382812 0 0 0 0 
2403500000.0000000000 0.169077068567276000976562500000 0.014330369420349599665631679102 0.005939899943768978118896484375 0.003359808120876551108119345557 0 0 0 0 
2403666666.6666665077 0.169772729277610806564169365629 0.012752326205372810363769531250 0.006150275934487581253051757812 0.002984322374686599211451865088 0 0 0 0 
2403833333.3333334923 0.170661315321922302246093750000 0.011502119712531570089319998829 0.006304702255874872207641601562 0.002859281841665505929234170068 0 0 0 0 
2404000000.0000000000 0.171369135379791287521200615629 0.010264662094414230691930001171 0.006617298815399408340454101562 0.002431031316518784003016806494 0 0 0 0 
2404166666.6666665077 0.172009110450744601150674384371 0.008958746679127216339111328125 0.006563147064298391342163085938 0.002080114791169763045070029150 0 0 0 0 
2404333333.3333334923 0.172844722867011996170205634371 0.007894393987953662872314453125 0.006757806520909070968627929688 0.001869634608738123936894082178 0 0 0 0 
2404500000.0000000000 0.173529163002967806717080634371 0.006800106260925531387329101562 0.006825372111052274703979492188 0.001397232525050640106201171875 0 0 0 0 
2404666666.6666665077 0.174333393573760986328125000000 0.005923337768763303756713867188 0.006820333190262317657470703125 0.001289243693463504097582172925 0 0 0 0 
2404833333.3333334923 0.174905821681022588531817518742 0.005176281556487082567696855762 0.006768299732357264432425214551 0.000813934311736375093460083008 0 0 0 0 
2405000000.0000000000 0.175530433654785211761151231258 0.004249508958309888839721679688 0.006768573541194201383108808301 0.000630647176876664161682128906 0 0 0 0 
2405166666.6666665077 0.176227465271949795821981865629 0.003489689435809851126429892432 0.006973641458898782730102539062 0.000294761208351701498031616211 0 0 0 0 
2405333333.3333334923 0.177049547433853204925213731258 0.002841436536982655958888388525 0.006794322747737169265747070312 -0.000041152703488478437066078186 0 0 0 0 
2405500000.0000000000 0.177559852600097711761151231258 0.002344908891245723204371786963 0.006771964952349662780761718750 -0.000280971202300861477851867676 0 0 0 0 
2405666666.6666665077 0.177965968847274808029013115629 0.001813219510950148105621337891 0.006860701832920312881469726562 -0.000596868048887699842453002930 0 0 0 0 
2405833333.3333334923 0.178436160087585504729901231258 0.001376104424707591967341757666 0.006646627094596624374389648438 -0.000755198183469474315643310547 0 0 0 0 
2406000000.0000000000 0.178931236267089788238848768742 0.000761772738769650459289550781 0.006601389963179826736450195312 -0.001122232642956078052520751953 0 0 0 0 
2406166666.6666665077 0.179084047675132806975994981258 0.000530649558641016483306884766 0.006526869721710681915283203125 -0.001283983699977397918701171875 0 0 0 0 
2406333333.3333334923 0.179549187421798706054687500000 0.000078006291005294770002365112 0.006326091010123491287231445312 -0.001604552380740642981288290869 0 0 0 0 
2406500000.0000000000 0.179808408021926907638388115629 -0.000212885774089954793453216553 0.006330587435513734817504882812 -0.001905287732370197989820170825 0 0 0 0 
2406666666.6666665077 0.179762020707130404373330634371 -0.000523825176060199737548828125 0.006199993193149566650390625000 -0.001927673118188977024675678784 0 0 0 0 
2406833333.3333334923 0.180080130696296691894531250000 -0.000962861988227814435958862305 0.005945627577602863311767578125 -0.002226205775514245033264160156 0 0 0 0 
2407000000.0000000000 0.180107399821281405349893134371 -0.001310362480580806949018168872 0.005965388845652341842651367188 -0.002417813986539841131923056494 0 0 0 0 
2407166666.6666665077 0.180253207683563204666299384371 -0.001582772703841329054591513525 0.005885564256459475430960370801 -0.002730887848883866830113076318 0 0 0 0 
2407333333.3333334923 0.180022090673446710784588731258 -0.002118509495630859894993447412 0.005837252829223871231079101562 -0.002880703657865523858311318506 0 0 0 0 
2407500000.0000000000 0.179833322763442993164062500000 -0.002379562705755234198329306494 0.005665104370564222335815429688 -0.002921504899859427972080849756 0 0 0 0 
2407666666.6666665077 0.179621085524558993240518134371 -0.002971107605844736099243164062 0.005346140824258328351492597363 -0.003221187274903059005737304688 0 0 0 0 
2407833333.3333334923 0.179258897900581387618856865629 -0.003464182140305637879612588037 0.005419703200459480285644531250 -0.003305592574179172949550009619 0 0 0 0 
2408000000.0000000000 0.178950414061546297928018134371 -0.004095103591680526733398437500 0.005152306053787469863891601562 -0.003505091182887554168701171875 0 0 0 0 
2408166666.6666665077 0.178511828184127807617187500000 -0.004498167894780635833740234375 0.005098573397845029830932617188 -0.003695563180372118949890136719 0 0 0 0 
2408333333.3333334923 0.178237214684486389160156250000 -0.005223954562097787857055664062 0.005090286955237388610839843750 -0.003780390601605176925659179688 0 0 0 0 
2408500000.0000000000 0.177699089050292996505575615629 -0.006042922381311655044555664062 0.004705853760242462158203125000 -0.004037985112518072128295898438 0 0 0 0 
2408666666.6666665077 0.177182093262672396560830634371 -0.006953951902687549591064453125 0.004753628745675086975097656250 -0.004187194164842367172241210938 0 0 0 0 
2408833333.3333334923 0.176192715764045687576455634371 -0.007815418764948844909667968750 0.004552694503217936429495527051 -0.004278183914721012115478515625 0 0 0 0 
2409000000.0000000000 0.175640866160392788986044365629 -0.008746420033276081085205078125 0.004467252176254987716674804688 -0.004350500646978616714477539062 0 0 0 0 
2409166666.6666665077 0.175179362297058105468750000000 -0.009502560831606388092041015625 0.004145397804677486419677734375 -0.004434583708643913269042968750 0 0 0 0 
2409333333.3333334923 0.174434483051300104339276231258 -0.010672061704099180048932460352 0.003868147730827331976649618994 -0.004669883288443089398855878613 0 0 0 0 
2409500000.0000000000 0.173790097236633300781250000000 -0.012034095823764799290667149023 0.003773721400648355917689658057 -0.004657472949475049972534179688 0 0 0 0 
2409666666.6666665077 0.173020422458648709396200615629 -0.013110435567796230316162109375 0.003635442582890390916111611475 -0.004799672402441501617431640625 0 0 0 0 
2409833333.3333334923 0.172233939170837402343750000000 -0.014439752325415609532366367773 0.003528026165440679030177451025 -0.004855192732065916061401367188 0 0 0 0 
2410000000.0000000000 0.171650037169456509689169365629 -0.015748202800750728952428048046 0.003446561284363269805908203125 -0.004998688120394945144653320312 0 0 0 0 
2410166666.6666665077 0.170993521809577886383380018742 -0.017382668331265449523925781250 0.003074557753279805183410644531 -0.004986889194697141647338867188 0 0 0 0 
2410333333.3333334923 0.170347496867179898361044365629 -0.018867311999201781536061872657 0.003015225986018776893615722656 -0.005093613173812627792358398438 0 0 0 0 
2410500000.0000000000 0.169818684458732604980468750000 -0.020541323348879810678502266796 0.002872395329177380041835165869 -0.005145446863025426864624023438 0 0 0 0 
2410666666.6666665077 0.169088691473007202148437500000 -0.022202942520380020141601562500 0.002734801964834332899806357275 -0.005135986953973770141601562500 0 0 0 0 
2410833333.3333334923 0.168661862611770602127236884371 -0.023913430050015449523925781250 0.002669245470315217971801757812 -0.005317379720509052276611328125 0 0 0 0 
2411000000.0000000000 0.167922779917717007736044365629 -0.025577761232852939260462576954 0.002528888173401356177089072119 -0.005336132366210222244262695312 0 0 0 0 
2411166666.6666665077 0.167631119489669799804687500000 -0.027457239106297489511510079296 0.002168088220059872107264853369 -0.005318061448633670806884765625 0 0 0 0 
2411333333.3333334923 0.167300239205360412597656250000 -0.029271883890032771718958670704 0.002166685881093143983128213037 -0.005478832870721817016601562500 0 0 0 0 
2411500000.0000000000 0.166913703083992004394531250000 -0.031227603554725650442103201954 0.001943075098097323937657021631 -0.005641514901071786880493164062 0 0 0 0 
2411666666.6666665077 0.166804477572441101074218750000 -0.032969109714031219482421875000 0.001949938829056919054744101416 -0.005541200749576091766357421875 0 0 0 0 
2411833333.3333334923 0.166586071252822903732138115629 -0.034873027354478842998464216407 0.001702147303149103901506733472 -0.005686196498572826385498046875 0 0 0 0 
2412000000.0000000000 0.166534617543220492263955634371 -0.036841660737991333007812500000 0.001586316619068383953691792065 -0.005734279286116361618041992188 0 0 0 0 
2412166666.6666665077 0.166363701224327087402343750000 -0.038663573563098907470703125000 0.001458174898289144039154052734 -0.005873885005712509155273437500 0 0 0 0 
2412333333.3333334923 0.166603907942771911621093750000 -0.040591262280941009521484375000 0.001288519706577063040492392432 -0.005843015387654305371756269238 0 0 0 0 
2412500000.0000000000 0.166395783424377413650674384371 -0.042493198066949837421457658593 0.000946300977375358343124389648 -0.005880850367248058319091796875 0 0 0 0 
2412666666.6666665077 0.166538462042808504959268134371 -0.044544342905282967304270158593 0.000750629522372037172317504883 -0.006002847570925951004028320312 0 0 0 0 
2412833333.3333334923 0.166789039969444302657919365629 -0.046374216675758361816406250000 0.000591803458519279956817626953 -0.006100952159613370895385742188 0 0 0 0 
2413000000.0000000000 0.166954994201660211761151231258 -0.048161610960960388183593750000 0.000465589168015867525905054913 -0.005922232288867235183715820312 0 0 0 0 
2413166666.6666665077 0.167114689946174593826455634371 -0.049779821187257766723632812500 0.000247381511144339984089451923 -0.006131825968623161315917968750 0 0 0 0 
2413333333.3333334923 0.167536988854408291915731865629 -0.051492512226104743267018903907 -0.000167307895026169690206804819 -0.006112653296440839767456054688 0 0 0 0 
2413500000.0000000000 0.167862072587013189117755018742 -0.053044289350509636615793596093 -0.000267925119260325973660069598 -0.006078184582293033599853515625 0 0 0 0 
2413666666.6666665077 0.168323367834091186523437500000 -0.054921712726354598999023437500 -0.000539756612852215766906738281 -0.006112436763942241668701171875 0 0 0 0 
2413833333.3333334923 0.168546393513679504394531250000 -0.056244686245918266986887346093 -0.000712034932803362607955932617 -0.006238068919628859433645917676 0 0 0 0 
2414000000.0000000000 0.168682605028152493575888115629 -0.057887934148311621929128278907 -0.001142277033068239905713725513 -0.006063989829272031784057617188 0 0 0 0 
2414166666.6666665077 0.169359982013702392578125000000 -0.059009447693824768066406250000 -0.001336619374342262961743998950 -0.005935711786150932312011718750 0 0 0 0 
2414333333.3333334923 0.169963598251342801193075615629 -0.060336768627166748046875000000 -0.001681951456703246073481894385 -0.006116566248238086700439453125 0 0 0 0 
2414500000.0000000000 0.170495912432670593261718750000 -0.061596911400556557392160783593 -0.001871145679615437984466552734 -0.006054070312529802322387695312 0 0 0 0 
2414666666.6666665077 0.170661225914955111404580634371 -0.062603183090686798095703125000 -0.002004095353186130957362509619 -0.005879125092178583145141601562 0 0 0 0 
2414833333.3333334923 0.171258464455604608733807481258 -0.063626676797866821289062500000 -0.002130778739228845076320029150 -0.005898014176636934280395507812 0 0 0 0 
2415000000.0000000000 0.171508610248565701583700615629 -0.064616419374942779541015625000 -0.002349013229832053184509277344 -0.005695676431059837341308593750 0 0 0 0 
2415166666.6666665077 0.171823859214782687088174384371 -0.065539285540580749511718750000 -0.002741316566243768172023154150 -0.005554048810154199600219726562 0 0 0 0 
2415333333.3333334923 0.172303169965743990799111884371 -0.066328696906566619873046875000 -0.002861135406419634819030761719 -0.005363749340176582336425781250 0 0 0 0 
2415500000.0000000000 0.172707661986351013183593750000 -0.067021541297435760498046875000 -0.003153403289616107940673828125 -0.005354717373847961425781250000 0 0 0 0 
2415666666.6666665077 0.172797501087188692947549384371 -0.067511528730392456054687500000 -0.003297386690974235968348837744 -0.005191858857870101928710937500 0 0 0 0 
2415833333.3333334923 0.173023626208305386642294365629 -0.068094834685325622558593750000 -0.003524431725963950157165527344 -0.005066850688308477401733398438 0 0 0 0 
2416000000.0000000000 0.172964155673980712890625000000 -0.068649902939796447753906250000 -0.003711387515068054199218750000 -0.004787446465343236923217773438 0 0 0 0 
2416166666.6666665077 0.173318549990653991699218750000 -0.069127351045608520507812500000 -0.003800508799031376838684082031 -0.004812004975974559783935546875 0 0 0 0 
2416333333.3333334923 0.173263579607009887695312500000 -0.069402389228343963623046875000 -0.004082521423697471618652343750 -0.004352101124823093414306640625 0 0 0 0 
2416500000.0000000000 0.173206120729446411132812500000 -0.069808125495910644531250000000 -0.004286087583750486373901367188 -0.004334446974098682403564453125 0 0 0 0 
2416666666.6666665077 0.172974273562431307693643134371 -0.070040673017501831054687500000 -0.004414152354001998901367187500 -0.004269485361874104413504316113 0 0 0 0 
2416833333.3333334923 0.172876417636871310135049384371 -0.070317707955837249755859375000 -0.004515304695814847946166992188 -0.004001340363174676895141601562 0 0 0 0 
2417000000.0000000000 0.172339871525764493087606865629 -0.070614673197269439697265625000 -0.004576842300593852996826171875 -0.003723828587681055068969726562 0 0 0 0 
2417166666.6666665077 0.172008633613586398025674384371 -0.070771008729934692382812500000 -0.004802952520549297332763671875 -0.003482025815173984007594443213 0 0 0 0 
2417333333.3333334923 0.171532347798347500900106865629 -0.071026585996150970458984375000 -0.004969456233084201812744140625 -0.003303563455119729042053222656 0 0 0 0 
2417500000.0000000000 0.170881509780883789062500000000 -0.071366056799888610839843750000 -0.004995044320821762084960937500 -0.003063350683078169822692871094 0 0 0 0 
2417666666.6666665077 0.170385405421256991287393134371 -0.071337677538394927978515625000 -0.005004675127565860748291015625 -0.002925648819655179977416992188 0 0 0 0 
2417833333.3333334923 0.169648095965385409256143134371 -0.071653589606285095214843750000 -0.005079423543065786361694335938 -0.002716945484280585808994912256 0 0 0 0 
2418000000.0000000000 0.168620869517326410491619981258 -0.071907579898834228515625000000 -0.005149115342646837234497070312 -0.002573289908468722863438271631 0 0 0 0 
2418166666.6666665077 0.167681649327278109451455634371 -0.072265125811100006103515625000 -0.005134238861501216888427734375 -0.002213540952652692794799804688 0 0 0 0 
2418333333.3333334923 0.167101308703422601897869981258 -0.072567820549011230468750000000 -0.005256128497421742352957441113 -0.002061583334580063819885253906 0 0 0 0 
2418500000.0000000000 0.165936991572380093673544365629 -0.072808362543582916259765625000 -0.005187071859836578369140625000 -0.001844745245762168927433632959 0 0 0 0 
2418666666.6666665077 0.164998501539230402190838731258 -0.073319874703884124755859375000 -0.005415928084403275576119707324 -0.001556716742925345897674560547 0 0 0 0 
2418833333.3333334923 0.163622707128524808029013115629 -0.073851689696311950683593750000 -0.005278823431581258773803710938 -0.001280516502447426102281879956 0 0 0 0 
2419000000.0000000000 0.162452772259712191482705634371 -0.074131801724433898925781250000 -0.005339972674846649169921875000 -0.001270056935027241923688579028 0 0 0 0 
2419166666.6666665077 0.161366641521453912933026231258 -0.074749402701854705810546875000 -0.005496061872690916061401367188 -0.000934701878577470779418945312 0 0 0 0 
2419333333.3333334923 0.160091176629066495040731865629 -0.075206331908702850341796875000 -0.005393405910581350326538085938 -0.000754223903641104698181152344 0 0 0 0 
2419500000.0000000000 0.158852502703666687011718750000 -0.076092556118965148925781250000 -0.005433415062725543975830078125 -0.000566701812203973531723022461 0 0 0 0 
2419666666.6666665077 0.157783821225166293045205634371 -0.076871886849403381347656250000 -0.005342463031411170959472656250 -0.000414446723880246281623840332 0 0 0 0 
2419833333.3333334923 0.156597152352333096603231865629 -0.077587008476257324218750000000 -0.005214492324739694595336914062 -0.000286311376839876174926757812 0 0 0 0 
