# Hz S RI R 50
2400000000.0000000000 0.155830591917037991622763115629 0.110763207077979999870542826557 -0.000098624979727901518344879150 0.008161475881934165954589843750 0 0 0 0 
2400166666.6666665077 0.155222073197364807128906250000 0.108498685061931596229634067186 0.000250902055995538776547032489 0.007895985618233680725097656250 0 0 0 0 
2400333333.3333334923 0.155098676681518610198651231258 0.106223672628402696083149692186 0.000427227671025320887565612793 0.007711562328040599822998046875 0 0 0 0 
2400500000.0000000000 0.154554158449173001388388115629 0.103630922734737396240234375000 0.000754958484321832656860351562 0.007551411632448434829711914062 0 0 0 0 
2400666666.6666665077 0.154314443469047601897869981258 0.101189725100994096229634067186 0.000866698101162910461425781250 0.007521184161305428418631269238 0 0 0 0 
2400833333.3333334923 0.154154941439628601074218750000 0.098354786634445190429687500000 0.000959980126935988664627075195 0.007481115870177745819091796875 0 0 0 0 
2401000000.0000000000 0.153896525502204895019531250000 0.095421321690082550048828125000 0.001240193960256874994990683447 0.007172788027673959732055664062 0 0 0 0 
2401166666.6666665077 0.153801128268241910079794365629 0.092752851545810699462890625000 0.001392423524521291039110493237 0.007171452045440673828125000000 0 0 0 0 
2401333333.3333334923 0.154110118746757507324218750000 0.089841440320014953613281250000 0.001316814683377742984174418872 0.007096051238477230072021484375 0 0 0 0 
2401500000.0000000000 0.154049411416053799728231865629 0.086750760674476623535156250000 0.001635200926102698066114116138 0.007026077248156070709228515625 0 0 0 0 
2401666666.6666665077 0.154378026723861694335937500000 0.083683297038078308105468750000 0.001795473042875527901890420068 0.006980118341743946075439453125 0 0 0 0 
2401833333.3333334923 0.154650077223777798751669365629 0.080806277692317962646484375000 0.001925615128129720904706645435 0.006838733330368995666503906250 0 0 0 0 
2402000000.0000000000 0.155275091528892489334268134371 0.077911153435707092285156250000 0.002058400772511959075927734375 0.006874080281704664230346679688 0 0 0 0 
2402166666.6666665077 0.155931413173675509353799384371 0.075187914073467254638671875000 0.002273709746077657179591513525 0.007106627337634562578683183887 0 0 0 0 
2402333333.3333334923 0.156670585274696405608807481258 0.072179071605205535888671875000 0.002581631299108266830444335938 0.006986450869590044021606445312 0 0 0 0 
2402500000.0000000000 0.157768473029136713225994981258 0.069291897118091583251953125000 0.002758462214842439131495810400 0.007123763673007488250732421875 0 0 0 0 
2402666666.6666665077 0.158823326230049105545205634371 0.066746138036251068115234375000 0.002957547316327691078186035156 0.006898611318320035934448242188 0 0 0 0 
2402833333.3333334923 0.160142093896865789215411268742 0.063947990536689758300781250000 0.003311804495751858191249228369 0.006990973837673664093017578125 0 0 0 0 
2403000000.0000000000 0.161379739642143305022869981258 0.061494991183280951763112653907 0.003766245907172561125514365088 0.006737614516168832778930664062 0 0 0 0 
2403166666.6666665077 0.163104236125945989410723768742 0.058893378823995590209960937500 0.004304332658648490905761718750 0.006629473529756069183349609375 0 0 0 0 
2403333333.3333334923 0.164419457316398592849893134371 0.056529384106397628784179687500 0.004450733307749032974243164062 0.006557460408657789230346679688 0 0 0 0 
2403500000.0000000000 0.166266366839408902267294365629 0.054281078279018402099609375000 0.004899490159004926681518554688 0.006191594060510396957397460938 0 0 0 0 
2403666666.6666665077 0.168001264333725003341513115629 0.052095435559749603271484375000 0.005103164818137884140014648438 0.006025436799973248568063066699 0 0 0 0 
2403833333.3333334923 0.169883117079734802246093750000 0.049773834645748138427734375000 0.005455243401229382428641034863 0.005581866018474102020263671875 0 0 0 0 
2404000000.0000000000 0.171285048127174405196981865629 0.048050012439489371562917341407 0.005941851064562798413748456738 0.005292891059070825576782226562 0 0 0 0 
2404166666.6666665077 0.173233121633529690841513115629 0.046206023544073111797292341407 0.005781165789812803268432617188 0.004738094285130500793457031250 0 0 0 0 
2404333333.3333334923 0.174958169460296603103799384371 0.044645387679338462139089216407 0.005939110182225704193115234375 0.004445008933544158935546875000 0 0 0 0 
2404500000.0000000000 0.176770135760307312011718750000 0.043132834136486053466796875000 0.006120856851339340209960937500 0.004049796145409345626831054688 0 0 0 0 
2404666666.6666665077 0.178551897406578091720419365629 0.041813496500253677368164062500 0.006035772617906332015991210938 0.003427288727834821181056357275 0 0 0 0 
2404833333.3333334923 0.180555537343025207519531250000 0.040599700063467032695729841407 0.006212589330971240997314453125 0.003271286142989993095397949219 0 0 0 0 
2405000000.0000000000 0.182139590382575988769531250000 0.039827227592468261718750000000 0.006000084802508354187011718750 0.002836342202499508857727050781 0 0 0 0 
2405166666.6666665077 0.183910146355628995040731865629 0.039023179560899727558176408593 0.005889316555112600326538085938 0.002664102474227548079249716650 0 0 0 0 
2405333333.3333334923 0.185544803738594110686932481258 0.038426380604505538940429687500 0.006007073447108268737792968750 0.002416197676211595968959189307 0 0 0 0 
2405500000.0000000000 0.187222406268119812011718750000 0.038000095635652542114257812500 0.005944771692156791687011718750 0.002241259207949041886570595850 0 0 0 0 
2405666666.6666665077 0.188630059361457796951455634371 0.037484791129827499389648437500 0.005838994402438402175903320312 0.001984731992706656889674521338 0 0 0 0 
2405833333.3333334923 0.190195202827453613281250000000 0.037418838590383529663085937500 0.005712132435292006406302167676 0.001815421972423792102216411060 0 0 0 0 
2406000000.0000000000 0.191602110862731905838174384371 0.037182483822107322002370466407 0.005650335457175970077514648438 0.001501799793913961107369448023 0 0 0 0 
2406166666.6666665077 0.192964285612106295486611884371 0.036972194910049438476562500000 0.005687215831130743026733398438 0.001246949890628457069396972656 0 0 0 0 
2406333333.3333334923 0.194042161107063293457031250000 0.037179492413997650146484375000 0.005541387014091014862060546875 0.001122762216255068995832133716 0 0 0 0 
2406500000.0000000000 0.195075079798698397537393134371 0.037564210593700408935546875000 0.005341111682355403900146484375 0.000991702196188271045684814453 0 0 0 0 
2406666666.6666665077 0.196069821715354891678018134371 0.037567738443613052368164062500 0.005543649662286043167114257812 0.000839532702229917049407958984 0 0 0 0 
2406833333.3333334923 0.196752205491066006759481865629 0.037724521011114120483398437500 0.005438027903437613573556230762 0.000777157547418028116226196289 0 0 0 0 
2407000000.0000000000 0.197259172797203091720419365629 0.038166008889675140380859375000 0.005420714151114225387573242188 0.000596096855588257312774658203 0 0 0 0 
2407166666.6666665077 0.197865277528762789627236884371 0.038140285760164260864257812500 0.005170703865587711334228515625 0.000535394356120377779006958008 0 0 0 0 
2407333333.3333334923 0.198035940527916010100994981258 0.038599714636802673339843750000 0.005234868731349706649780273438 0.000455822155345231294631958008 0 0 0 0 
2407500000.0000000000 0.198131009936332702636718750000 0.038925282657146446918527971093 0.005060529336333274841308593750 0.000449319049948826378017979755 0 0 0 0 
2407666666.6666665077 0.198334366083145113845986884371 0.039164505898952477191965471093 0.005068986676633358001708984375 0.000228445496759377392843523569 0 0 0 0 
2407833333.3333334923 0.197991833090782193282919365629 0.039269611239433288574218750000 0.004936393816024065017700195312 0.000184623582754284089237767352 0 0 0 0 
2408000000.0000000000 0.198015183210372897049111884371 0.039463005959987640380859375000 0.004957741592079401016235351562 0.000171934996615164009019574576 0 0 0 0 
2408166666.6666665077 0.197385877370834406097088731258 0.039399534463882453227956403907 0.005024012178182601928710937500 -0.000064342668338213115930557251 0 0 0 0 
2408333333.3333334923 0.197052240371704101562500000000 0.039301402866840362548828125000 0.004792761523276568326468183301 -0.000068811204982921481132507324 0 0 0 0 
2408500000.0000000000 0.196306914091110201736611884371 0.039277534931898117065429687500 0.004899113439023494720458984375 0.000017535474398755468428134918 0 0 0 0 
2408666666.6666665077 0.195737227797508211990518134371 0.039008136838674552226979841407 0.004629648756235837936401367188 -0.000150312858750112408965510236 0 0 0 0 
2408833333.3333334923 0.194978177547454806228799384371 0.038634333759546279907226562500 0.004769382998347282409667968750 -0.000257896695984527522891444073 0 0 0 0 
2409000000.0000000000 0.193936377763748196700888115629 0.038148719817399978637695312500 0.004809862468391656875610351562 -0.000237274740356952006190699445 0 0 0 0 
2409166666.6666665077 0.192886561155319213867187500000 0.037402272224426269531250000000 0.004792034626007080078125000000 -0.000328082416672259623378199445 0 0 0 0 
2409333333.3333334923 0.191963881254196194747763115629 0.036709628999233252788503278907 0.004885967820882797241210937500 -0.000583637855015695095062255859 0 0 0 0 
2409500000.0000000000 0.190503299236297607421875000000 0.035836692899465560913085937500 0.004960262682288885116577148438 -0.000387944921385496908992213116 0 0 0 0 
2409666666.6666665077 0.189413145184516906738281250000 0.034652359783649451518972028907 0.004890992306172847747802734375 -0.000595212215557694435119628906 0 0 0 0 
2409833333.3333334923 0.188100904226303100585937500000 0.033477436751127243041992187500 0.004973507020622491836547851562 -0.000844876747578382492065429688 0 0 0 0 
2410000000.0000000000 0.187039017677307101150674384371 0.032004449516534812236745466407 0.004993263632059097290039062500 -0.000869528739713132381439208984 0 0 0 0 
2410166666.6666665077 0.185772672295570401290731865629 0.030379569157958030700683593750 0.005057967267930507659912109375 -0.001034323940984904982923198169 0 0 0 0 
2410333333.3333334923 0.184610217809677096267861884371 0.028856709599494930612584298046 0.004830805584788321581368730762 -0.001149937394075096087214804541 0 0 0 0 
2410500000.0000000000 0.183254972100257901290731865629 0.026925608515739440917968750000 0.004922335036098957061767578125 -0.001216208678670227961299277197 0 0 0 0 
2410666666.6666665077 0.182304024696350097656250000000 0.024774150922894481313685233204 0.004874634090811014175415039062 -0.001564451958984137015101767432 0 0 0 0 
2410833333.3333334923 0.181385710835456903655682481258 0.022815847769379619253138358204 0.004880556836724281311035156250 -0.001709611504338681914685893481 0 0 0 0 
2411000000.0000000000 0.180208444595336886306924384371 0.020717421546578410757044608204 0.004709903616458177566528320312 -0.001752351177856326103210449219 0 0 0 0 
2411166666.6666665077 0.179374039173126192947549384371 0.018552882596850398672083670704 0.004627295304089784622192382812 -0.001765505876392126083374023438 0 0 0 0 
2411333333.3333334923 0.178656190633773803710937500000 0.016065394505858421325683593750 0.004533561412245035171508789062 -0.001889178063720464923261332935 0 0 0 0 
2411500000.0000000000 0.178019031882286099532919365629 0.013576897792518140620221522852 0.004465301986783742904663085938 -0.002019227948039770126342773438 0 0 0 0 
2411666666.6666665077 0.177626475691795404632244981258 0.011209919117391109466552734375 0.004338840488344430923461914062 -0.001942787086591124968287802588 0 0 0 0 
2411833333.3333334923 0.176939308643341092208700615629 0.008703426457941532135009765625 0.004390709102153778076171875000 -0.002106338739395142035243368994 0 0 0 0 
2412000000.0000000000 0.177042260766029413421307481258 0.005886794999241828918457031250 0.004324388690292835235595703125 -0.002148033818230032920837402344 0 0 0 0 
2412166666.6666665077 0.176855012774467496017294365629 0.003513422328978776931762695312 0.004373999312520027160644531250 -0.002221993869170546965358115088 0 0 0 0 
2412333333.3333334923 0.176935687661170987228231865629 0.000942486221902072429656982422 0.004358370788395404815673828125 -0.002169302664697169823887490381 0 0 0 0 
2412500000.0000000000 0.177226230502128601074218750000 -0.001724370638839900927302695166 0.004295011982321739196777343750 -0.002270110882818698883056640625 0 0 0 0 
2412666666.6666665077 0.177596494555473299881143134371 -0.004233786370605230331420898438 0.004357365891337394714355468750 -0.002468266291543840928318642725 0 0 0 0 
2412833333.3333334923 0.178037136793136596679687500000 -0.007069739978760480880737304688 0.004320192616432905197143554688 -0.002483649412170052962062216650 0 0 0 0 
2413000000.0000000000 0.178916767239570589920205634371 -0.009497778490185737609863281250 0.004465847276151180267333984375 -0.002691484522074460983276367188 0 0 0 0 
2413166666.6666665077 0.179472446441650390625000000000 -0.012073305435478690755823905079 0.004416129551827908429617597363 -0.002899533370509744124171591650 0 0 0 0 
2413333333.3333334923 0.180629178881645202636718750000 -0.014535026624798779923408709180 0.004464232362806797027587890625 -0.003119876142591238021850585938 0 0 0 0 
2413500000.0000000000 0.181525632739067105392294365629 -0.017072360962629321706751639454 0.004402201157063245773315429688 -0.003257631557062267823460244287 0 0 0 0 
2413666666.6666665077 0.182706892490386990646200615629 -0.019407939165830608713170235546 0.004416159819811583432669355176 -0.003538330085575581030604697119 0 0 0 0 
2413833333.3333334923 0.183776438236236600021200615629 -0.021766582503914829599400704296 0.004396409727632999420166015625 -0.003813949879258871078491210938 0 0 0 0 
2414000000.0000000000 0.185054823756218012054119981258 -0.023837689310312271118164062500 0.004392024129629135131835937500 -0.004129599314182996749877929688 0 0 0 0 
2414166666.6666665077 0.186324685811996487716513115629 -0.026014285162091258657435233204 0.004206091631203889846801757812 -0.004207423888146877288818359375 0 0 0 0 
2414333333.3333334923 0.187647178769111605545205634371 -0.028189981356263160705566406250 0.004136370960623025894165039062 -0.004605705849826335906982421875 0 0 0 0 
2414500000.0000000000 0.189100131392478887359942518742 -0.029719155281782150268554687500 0.003807654604315758185145712744 -0.005043781828135251998901367188 0 0 0 0 
2414666666.6666665077 0.190576434135437011718750000000 -0.031484618782997131347656250000 0.003430419135838747024536132812 -0.005073986016213893890380859375 0 0 0 0 
2414833333.3333334923 0.191777899861335809905682481258 -0.033170171082019812847097028907 0.003393706399947404861450195312 -0.005317032802850008010864257812 0 0 0 0 
2415000000.0000000000 0.193144991993904113769531250000 -0.034600369632244110107421875000 0.003029466373845934867858886719 -0.005481005646288394927978515625 0 0 0 0 
2415166666.6666665077 0.194689318537712097167968750000 -0.035869706422090530395507812500 0.002711597364395856857299804688 -0.005627613514661788940429687500 0 0 0 0 
2415333333.3333334923 0.196085944771766690353231865629 -0.036979746073484420776367187500 0.002410847926512361006495810400 -0.005837033037096261978149414062 0 0 0 0 
2415500000.0000000000 0.197446674108505304534588731258 -0.037869747728109359741210937500 0.002094658557325602011439658057 -0.005933166947215796384329511426 0 0 0 0 
2415666666.6666665077 0.198867067694664001464843750000 -0.038895428180694580078125000000 0.001746568828821182034136128003 -0.005968314129859209060668945312 0 0 0 0 
2415833333.3333334923 0.199919432401657104492187500000 -0.039559759199619293212890625000 0.001568704261444509029388427734 -0.006061738822609186172485351562 0 0 0 0 
2416000000.0000000000 0.201000705361366299728231865629 -0.040278315544128417968750000000 0.001187546644359827041625976562 -0.006185194477438926696777343750 0 0 0 0 
2416166666.6666665077 0.202204778790473910232705634371 -0.040899969637393951416015625000 0.000841432658489793539047241211 -0.006066313944756984710693359375 0 0 0 0 
2416333333.3333334923 0.202944278717040987869424384371 -0.041198860853910453105886091407 0.000596957048401236534118652344 -0.006051167845726013183593750000 0 0 0 0 
2416500000.0000000000 0.203751340508460998535156250000 -0.041531372815370559692382812500 0.000251351593760773485333043231 -0.006046404130756855010986328125 0 0 0 0 
2416666666.6666665077 0.204335868358612088302450615629 -0.041723635047674179077148437500 0.000064873456722125411033630371 -0.005906373728066682815551757812 0 0 0 0 
2416833333.3333334923 0.204759955406188992599325615629 -0.041732169687747962261159528907 -0.000133090637973509701803484506 -0.005831348244100809097290039062 0 0 0 0 
2417000000.0000000000 0.205217093229293795486611884371 -0.041878160089254379272460937500 -0.000674880517181009054183959961 -0.005806750152260065078735351562 0 0 0 0 
2417166666.6666665077 0.205206260085105895996093750000 -0.041598811745643622661550153907 -0.000633279210887849330902099609 -0.005673183128237724304199218750 0 0 0 0 
2417333333.3333334923 0.205294892191886901855468750000 -0.041372753679752349853515625000 -0.000867584603838622570037841797 -0.005560777615755796432495117188 0 0 0 0 
2417500000.0000000000 0.205251693725585909744424384371 -0.041278760880231857299804687500 -0.001022024196572602012036967700 -0.005490521434694528579711914062 0 0 0 0 
2417666666.6666665077 0.204913958907127408126669365629 -0.040781572461128241802175153907 -0.001319272676482797102687216650 -0.005309253465384244918823242188 0 0 0 0 
2417833333.3333334923 0.204765409231185913085937500000 -0.040588039904832839965820312500 -0.001427221111953258948085165869 -0.005142962560057640075683593750 0 0 0 0 
2418000000.0000000000 0.204313084483146695236044365629 -0.040087815374135971069335937500 -0.001608361257240175984026264722 -0.004977885168045759201049804688 0 0 0 0 
2418166666.6666665077 0.203711509704589788238848768742 -0.039817593991756439208984375000 -0.001912199077196419022203754956 -0.004935083910822868347167968750 0 0 0 0 
2418333333.3333334923 0.202923655509948702713174384371 -0.039518915116786956787109375000 -0.002154106972739100889918661963 -0.004982604179531335830688476562 0 0 0 0 
2418500000.0000000000 0.202089041471481295486611884371 -0.039292979985475540161132812500 -0.002184557495638728141784667969 -0.004511195234954357147216796875 0 0 0 0 
2418666666.6666665077 0.201257914304733304122763115629 -0.039021287113428122783620466407 -0.002300177467986940903904580225 -0.004496906884014607343191816113 0 0 0 0 
2418833333.3333334923 0.200057938694953890701455634371 -0.038848958909511573101003278907 -0.002525191986933350996730185400 -0.004408296197652816772460937500 0 0 0 0 
2419000000.0000000000 0.198765322566032409667968750000 -0.038809329271316528320312500000 -0.002726398408412932915928506006 -0.004068668931722640991210937500 0 0 0 0 
2419166666.6666665077 0.197453051805496188064736884371 -0.039083536714315407489817033593 -0.002677460899576545195338583838 -0.003966905642300844192504882812 0 0 0 0 
2419333333.3333334923 0.196132212877273587325888115629 -0.039234604686498641967773437500 -0.002808847697451711134669638525 -0.003806893946602940993068076025 0 0 0 0 
2419500000.0000000000 0.194594308733940096756143134371 -0.039524294435977942729909528907 -0.002869074931368232207057333838 -0.003467443864792584939243935693 0 0 0 0 
2419666666.6666665077 0.193025052547454806228799384371 -0.040085319429636001586914062500 -0.003024784149602055983302451025 -0.003303925273939967155456542969 0 0 0 0 
2419833333.3333334923 0.191259711980819702148437500000 -0.040613248944282531738281250000 -0.002947875764220952987670898438 -0.003142826026305555863621377100 0 0 0 0 
2420000000.0000000000 0.189563676714897211272869981258 -0.041289113461971282958984375000 -0.003003764199092984199523925781 -0.003052599029615520997288369287 0 0 0 0 
