# Hz S RI R 
2400000000.0000000000 0.162592023611068697830361884371 0.052195642143487930297851562500 0.001348972786217927932739257812 0.003478620899841188950779580225 0 0 0 0 
2400166666.6666665077 0.162217676639556912521200615629 0.050812996923923492431640625000 0.001996001461520791053771972656 0.003736212151125072999241494287 0 0 0 0 
2400333333.3333334923 0.162185057997703607757244981258 0.048915050923824310302734375000 0.002065877895802259011509560693 0.003301648888736962838413857568 0 0 0 0 
2400500000.0000000000 0.162108242511749295333700615629 0.046993184834718697284738908593 0.001994234276935458183288574219 0.003297096351161599159240722656 0 0 0 0 
2400666666.6666665077 0.162029430270195007324218750000 0.045148193836212158203125000000 0.002025834983214735984802246094 0.003128263633698225021362304688 0 0 0 0 
2400833333.3333334923 0.161878824234008789062500000000 0.043378092348575592041015625000 0.002499408787116407914402627100 0.002966497791931033134460449219 0 0 0 0 
2401000000.0000000000 0.162238657474517794510049384371 0.041224319487810141826589216407 0.001829933375120162963867187500 0.002999719697982072830200195312 0 0 0 0 
2401166666.6666665077 0.162222847342491205413494981258 0.039077308028936393047292341407 0.002417749958112835884094238281 0.003040974959731101989746093750 0 0 0 0 
2401333333.3333334923 0.162134498357772799392861884371 0.037071935832500457763671875000 0.002366302302107214927673339844 0.002987672341987491087672568213 0 0 0 0 
2401500000.0000000000 0.162584319710731506347656250000 0.034879826009273529052734375000 0.002321111038327217102050781250 0.002483219373971223831176757812 0 0 0 0 
2401666666.6666665077 0.162821874022483797928018134371 0.033122099936008453369140625000 0.002291600918397306962254189600 0.002613257616758346991298056494 0 0 0 0 
2401833333.3333334923 0.163188621401786804199218750000 0.030803374946117401123046875000 0.002369578229263424873352050781 0.002470449777320026917698525537 0 0 0 0 
2402000000.0000000000 0.163339182734489413162393134371 0.029093464836478229867955391796 0.002696903655305504798889160156 0.002299642423167825178859091650 0 0 0 0 
2402166666.6666665077 0.163766443729400607010049384371 0.026975570246577259408971016796 0.002496905392035841941833496094 0.002286269795149565176722861182 0 0 0 0 
2402333333.3333334923 0.164276629686355590820312500000 0.025329293683171268808385079296 0.002486220328137278990504599463 0.001818833756260574080823588794 0 0 0 0 
2402500000.0000000000 0.164943709969520596603231865629 0.023240718990564349782923514454 0.002457201713696122169494628906 0.002238991204649209976196289062 0 0 0 0 
2402666666.6666665077 0.165459424257278386871661268742 0.021516017615795138967493826954 0.002224557334557176069972372900 0.001973443198949099020717001807 0 0 0 0 
2402833333.3333334923 0.166092187166213989257812500000 0.019722905009984970092773437500 0.002554404083639382882359170068 0.001844817772507667975184775244 0 0 0 0 
2403000000.0000000000 0.166469767689704895019531250000 0.018279662355780601501464843750 0.002805585041642189025878906250 0.001807878375984727902653359521 0 0 0 0 
2403166666.6666665077 0.167180866003036499023437500000 0.016665287315845489501953125000 0.002947490895166993141174316406 0.001826171646825969002367329175 0 0 0 0 
2403333333.3333334923 0.168199554085731506347656250000 0.015180421061813829594622227148 0.002897497732192277908325195312 0.001530988723970950083491660010 0 0 0 0 
2403500000.0000000000 0.168740332126617403885049384371 0.013721076771616939199427420704 0.002964365761727095083949423682 0.001450568321160971901537251050 0 0 0 0 
2403666666.6666665077 0.169624045491218594650106865629 0.012188631109893320256243320898 0.003054183209314941926243447412 0.001272560330107807896257710034 0 0 0 0 
2403833333.3333334923 0.170590966939926202972088731258 0.010826011188328269613245780079 0.003145745722576975822448730469 0.001235291012562810940983437646 0 0 0 0 
2404000000.0000000000 0.171319484710693387130575615629 0.009539735503494739532470703125 0.003197636222466826005222939600 0.001123921945691108920453715747 0 0 0 0 
2404166666.6666665077 0.172076150774955805022869981258 0.008643718436360359191894531250 0.003206997644156218008754111182 0.000766296172514557838439941406 0 0 0 0 
2404333333.3333334923 0.172918245196342496017294365629 0.007454901002347469329833984375 0.003232334274798632101771689307 0.000707209575921297073364257812 0 0 0 0 
2404500000.0000000000 0.173772200942039489746093750000 0.006420087534934282302856445312 0.003232030197978020148036337744 0.000437409762525931000709533691 0 0 0 0 
2404666666.6666665077 0.174447849392890902420205634371 0.005414473824203014373779296875 0.003231386421248317198512411963 0.000321137224091216921806335449 0 0 0 0 
2404833333.3333334923 0.175263524055481012542401231258 0.004884121939539909362792968750 0.003276841016486287117004394531 0.000129651481984183192253112793 0 0 0 0 
2405000000.0000000000 0.176134005188942011077557481258 0.004097957164049149426932050488 0.003174171317368745803833007812 -0.000027686690373229790816103288 0 0 0 0 
2405166666.6666665077 0.176692545413971002776776231258 0.003483187407255173163173056494 0.003084308002144097848179482568 -0.000095596951723564416170120239 0 0 0 0 
2405333333.3333334923 0.177444741129875210861044365629 0.002610714873299003081080771338 0.003027710365131496949436806787 -0.000373543356545269489288330078 0 0 0 0 
2405500000.0000000000 0.178116202354431207854901231258 0.002302490407600998878479003906 0.002998003736138343811035156250 -0.000630844617262482643127441406 0 0 0 0 
2405666666.6666665077 0.178463459014892605880575615629 0.001913887681439518928527832031 0.002752459375187755064723349463 -0.000686559360474348068237304688 0 0 0 0 
2405833333.3333334923 0.179046198725700406173544365629 0.001530813751742243983625102466 0.002636456163600087165832519531 -0.000854144396726042032241821289 0 0 0 0 
2406000000.0000000000 0.179595217108726501464843750000 0.001058170455507934093475341797 0.002776072826236486001255654443 -0.000975208356976509094238281250 0 0 0 0 
2406166666.6666665077 0.179733812808990506271200615629 0.000875687226653099060058593750 0.002535225823521614074707031250 -0.001081161084584892012952495044 0 0 0 0 
2406333333.3333334923 0.180257514119148309905682481258 0.000562441127840429544448852539 0.002397242002189158959629677881 -0.001154404599219561056849814307 0 0 0 0 
2406500000.0000000000 0.180474326014518710037393134371 0.000263491441728547215461730957 0.002213432919234036965611123193 -0.001268467865884304046630859375 0 0 0 0 
2406666666.6666665077 0.180354878306388910491619981258 0.000119934920803643803722919603 0.002118570031598209901096963037 -0.001245051971636712984797812354 0 0 0 0 
2406833333.3333334923 0.180551141500472994705361884371 -0.000154860637849196791648864746 0.002064023632556200027465820312 -0.001360529218800365924835205078 0 0 0 0 
2407000000.0000000000 0.180711343884468106368856865629 -0.000461335905129090005725306378 0.001735217170789838054059672778 -0.001489632646553217931034707178 0 0 0 0 
2407166666.6666665077 0.180772751569747897049111884371 -0.000733792490791529417037963867 0.001876958645880222103716206128 -0.001610330073162913105608295972 0 0 0 0 
2407333333.3333334923 0.180574223399162292480468750000 -0.001131588593125343105913471753 0.001486320281401277022120810400 -0.001436847378499805927276611328 0 0 0 0 
2407500000.0000000000 0.180272102355957003494424384371 -0.001414082595147192911860800635 0.001332969754002987904789589990 -0.001530258799903094985364604419 0 0 0 0 
2407666666.6666665077 0.180035725235938998123330634371 -0.001866953447461128018022846753 0.001315505476668477058410644531 -0.001495667733252048926112509619 0 0 0 0 
2407833333.3333334923 0.179526314139366205413494981258 -0.002445994177833199934718466650 0.001224720152094959995867085034 -0.001667134230956434986711811597 0 0 0 0 
2408000000.0000000000 0.179259955883026095291299384371 -0.002930079819634557204005576025 0.000957526382990181446075439453 -0.001333661144599318938014365088 0 0 0 0 
2408166666.6666665077 0.178612291812896700760049384371 -0.003345423843711615042445517432 0.000989047111943364143371582031 -0.001525145489722490093828510815 0 0 0 0 
2408333333.3333334923 0.178299218416213989257812500000 -0.004110613372176885604858398438 0.000803576607722789049148559570 -0.001539621967822313091875385815 0 0 0 0 
2408500000.0000000000 0.177629262208938598632812500000 -0.004756881389766932401175214551 0.000696982955560088157653808594 -0.001713303849101067023036337744 0 0 0 0 
2408666666.6666665077 0.176966607570648193359375000000 -0.005625111050903797149658203125 0.000504921888932585716247558594 -0.001427555689588188908220600659 0 0 0 0 
2408833333.3333334923 0.176282867789268493652343750000 -0.006338484585285186767578125000 0.000586174894124269485473632812 -0.001479080994613469080684042822 0 0 0 0 
2409000000.0000000000 0.175359562039375305175781250000 -0.007344944402575492858886718750 0.000264001311734318679005223407 -0.001477458979934453964233398438 0 0 0 0 
2409166666.6666665077 0.174841836094856289962606865629 -0.008349832147359848022460937500 0.000385373627068474888801574707 -0.001419964828528464057325053638 0 0 0 0 
2409333333.3333334923 0.174096927046775790115518134371 -0.009485956281423568725585937500 0.000147177692269906401634216309 -0.001530571840703486962559365381 0 0 0 0 
2409500000.0000000000 0.173244893550872802734375000000 -0.010875683277845379220982735546 0.000110053646494634503692072736 -0.001417476916685699982884072412 0 0 0 0 
2409666666.6666665077 0.172438859939575195312500000000 -0.012080317363142970693568045704 -0.000077820950536988675594329834 -0.001257448340766132094739604419 0 0 0 0 
2409833333.3333334923 0.171639367938041687011718750000 -0.013226782903075219935407069727 -0.000217334149056114310592097150 -0.001350724254734813950182270581 0 0 0 0 
2410000000.0000000000 0.170960277318954495529013115629 -0.014727489091455939901331717579 -0.000248238706262782216072082520 -0.001192191732116044001338339697 0 0 0 0 
2410166666.6666665077 0.170387566089630099197549384371 -0.016148868948221210134486014454 -0.000345002743415534496307373047 -0.001294578658416867039324116284 0 0 0 0 
2410333333.3333334923 0.169459357857704190353231865629 -0.017881456762552261352539062500 -0.000486649922095239216655176984 -0.001105434144847095012664794922 0 0 0 0 
2410500000.0000000000 0.168935641646385192871093750000 -0.019564844667911529541015625000 -0.000619539117906242609024047852 -0.000931905640754848718643188477 0 0 0 0 
2410666666.6666665077 0.168270140886306790450888115629 -0.021443193778395649301549141796 -0.000636228069197386503219604492 -0.000812790472991764653860891077 0 0 0 0 
2410833333.3333334923 0.167869046330451993087606865629 -0.022928677499294281005859375000 -0.000651188776828348636627197266 -0.000711453671101480722427368164 0 0 0 0 
2411000000.0000000000 0.167344212532043512542401231258 -0.024750284850597381591796875000 -0.000653034425340592861175537109 -0.000566464615985751152038574219 0 0 0 0 
2411166666.6666665077 0.166865736246109008789062500000 -0.026897002011537548410435860546 -0.000782569695729762315750122070 -0.000418799958424642682075500488 0 0 0 0 
2411333333.3333334923 0.166377991437911987304687500000 -0.028472686186432838439941406250 -0.000791523081716150153815114709 -0.000242442707531154209941309796 0 0 0 0 
2411500000.0000000000 0.166115984320640591720419365629 -0.030607234686613079416295235546 -0.000872736913152039051055908203 -0.000056422297348035499453544617 0 0 0 0 
2411666666.6666665077 0.165960133075714111328125000000 -0.032594170421361923217773437500 -0.000774433836340904235839843750 0.000056110660807462409138679504 0 0 0 0 
2411833333.3333334923 0.165851041674614008147869981258 -0.034556448459625237201731096093 -0.000637672783341258764266967773 0.000051401155360508710145950317 0 0 0 0 
2412000000.0000000000 0.165704324841499300857705634371 -0.036535132676362991333007812500 -0.000764368043746799230575561523 0.000224550429265946204036158429 0 0 0 0 
2412166666.6666665077 0.165729120373725891113281250000 -0.038507692515850067138671875000 -0.000796948908828198909759521484 0.000288802431896328926086425781 0 0 0 0 
2412333333.3333334923 0.165931120514869689941406250000 -0.040408108383417129516601562500 -0.000474543747259303873211461200 0.000390116561902687007754725323 0 0 0 0 
2412500000.0000000000 0.165895447134971590896768134371 -0.042353413999080657958984375000 -0.000658286153338849544525146484 0.000534640625119209289550781250 0 0 0 0 
2412666666.6666665077 0.166032612323760986328125000000 -0.044350702315568917011301408593 -0.000442227406892925500869750977 0.000695901166182011365890502930 0 0 0 0 
2412833333.3333334923 0.166219398379325894454794365629 -0.046134609729051589965820312500 -0.000338491285219788605540675031 0.000744489254429936408996582031 0 0 0 0 
2413000000.0000000000 0.166595980525016812423544365629 -0.048167042434215552593190778907 -0.000406480277888476902812403546 0.000924625608604401350021362305 0 0 0 0 
2413166666.6666665077 0.166898220777511596679687500000 -0.049856659024953842163085937500 -0.000129045438370667397975921631 0.000903198379091918468475341797 0 0 0 0 
2413333333.3333334923 0.167097344994545010665731865629 -0.051676839590072631835937500000 -0.000124436774058267501279553824 0.000958625692874193191528320312 0 0 0 0 
2413500000.0000000000 0.167570978403091402908486884371 -0.053346786648035049438476562500 0.000176953573827631798669537955 0.001016467227600515105603862231 0 0 0 0 
2413666666.6666665077 0.168149307370185907561932481258 -0.055084899067878723144531250000 0.000267917144810780882835388184 0.001131711644120513959171914209 0 0 0 0 
2413833333.3333334923 0.168504416942596407791299384371 -0.056453820317983627319335937500 0.000332773866830393726199549542 0.001017356989905237934709858472 0 0 0 0 
2414000000.0000000000 0.168772339820861788650674384371 -0.057941295206546783447265625000 0.000402994832256808876991271973 0.001106549985706805966020893628 0 0 0 0 
2414166666.6666665077 0.169477477669715909103231865629 -0.059209652245044708251953125000 0.000462149095255881602137965070 0.001192085910588503100751567310 0 0 0 0 
2414333333.3333334923 0.169999614357948303222656250000 -0.060645189136266708374023437500 0.000546242750715464353561401367 0.001128904405049979903577495044 0 0 0 0 
2414500000.0000000000 0.170680776238441495040731865629 -0.061648219823837280273437500000 0.000785795913543552160263061523 0.001182154170237482027766562354 0 0 0 0 
2414666666.6666665077 0.171107798814773587325888115629 -0.062821015715599060058593750000 0.001071434817276895046234130859 0.001037925831042229912401508862 0 0 0 0 
2414833333.3333334923 0.171515136957168606857138115629 -0.063893720507621765136718750000 0.000864033354446291923522949219 0.001084376708604394955876015771 0 0 0 0 
2415000000.0000000000 0.171890392899513189117755018742 -0.064709849655628204345703125000 0.001079727662727236964582133716 0.000963032129220664501190185547 0 0 0 0 
2415166666.6666665077 0.172405049204826410491619981258 -0.065500691533088684082031250000 0.001075030886568129062652587891 0.000939826364628970623016357422 0 0 0 0 
2415333333.3333334923 0.172931686043739291092080634371 -0.066385611891746520996093750000 0.001199061400257050991058349609 0.001035529770888387940050434644 0 0 0 0 
2415500000.0000000000 0.173180386424064608474893134371 -0.066856421530246734619140625000 0.001307529746554791927337646484 0.000833753729239106178283691406 0 0 0 0 
2415666666.6666665077 0.173411786556243896484375000000 -0.067425787448883056640625000000 0.001236921176314353942871093750 0.000637009507045149803161621094 0 0 0 0 
2415833333.3333334923 0.173754215240478487869424384371 -0.067914783954620361328125000000 0.001572740497067570903180766528 0.000578796665649861097335815430 0 0 0 0 
2416000000.0000000000 0.173828393220901489257812500000 -0.068468235433101654052734375000 0.001544428872875869057298969800 0.000451975152827799320220947266 0 0 0 0 
2416166666.6666665077 0.174165412783622686188067518742 -0.068746089935302734375000000000 0.001479906612075865051866840894 0.000372246868209913372993469238 0 0 0 0 
2416333333.3333334923 0.174046695232391412933026231258 -0.069136954843997955322265625000 0.001665891031734644932987832178 0.000207241231692023602410993033 0 0 0 0 
2416500000.0000000000 0.174033105373382596114950615629 -0.069367110729217529296875000000 0.001632806262932718016980815356 0.000282058375887572819560450421 0 0 0 0 
2416666666.6666665077 0.173686638474464388748330634371 -0.069566637277603149414062500000 0.001624298398382961966870952075 0.000130287589854560792446136475 0 0 0 0 
2416833333.3333334923 0.173557192087173489669638115629 -0.069860190153121948242187500000 0.001713742152787744998931884766 0.000117421070171985802337369376 0 0 0 0 
2417000000.0000000000 0.173116087913513211349325615629 -0.069927096366882324218750000000 0.001745696645230055072187114185 0.000028719479814753871073926619 0 0 0 0 
2417166666.6666665077 0.172669455409049987792968750000 -0.070086434483528137207031250000 0.001835846924223005988477397388 -0.000155135829118080410078325815 0 0 0 0 
2417333333.3333334923 0.172339126467704800704794365629 -0.070309132337570190429687500000 0.001561794546432792923570942456 -0.000097080090199597179889678955 0 0 0 0 
2417500000.0000000000 0.171677649021148709396200615629 -0.070610947906970977783203125000 0.001705903792753816084620810400 -0.000113803514977917102262219839 0 0 0 0 
2417666666.6666665077 0.171043366193771390060263115629 -0.070610217750072479248046875000 0.001771958777680993080139160156 -0.000314127624733373522758483887 0 0 0 0 
2417833333.3333334923 0.170286104083061190506143134371 -0.070720121264457702636718750000 0.001803454128094017939326620947 -0.000293957971734926104545593262 0 0 0 0 
2418000000.0000000000 0.169447571039199801345986884371 -0.071064554154872894287109375000 0.001737569691613316969630576025 -0.000479915848700329715579432355 0 0 0 0 
2418166666.6666665077 0.168347582221031188964843750000 -0.071131773293018341064453125000 0.001597457099705934958217001807 -0.000262940622633323073387145996 0 0 0 0 
2418333333.3333334923 0.167583003640174893478231865629 -0.071518093347549438476562500000 0.001600792398676275990129780347 -0.000352763076080009287029820575 0 0 0 0 
2418500000.0000000000 0.166479051113128689864950615629 -0.071786694228649139404296875000 0.001627809018827975013135600513 -0.000474417611258104389340001239 0 0 0 0 
2418666666.6666665077 0.165307179093360900878906250000 -0.072227001190185546875000000000 0.001788084278814495043513632666 -0.000647031527478247880935668945 0 0 0 0 
2418833333.3333334923 0.163979217410087613204794365629 -0.072675533592700958251953125000 0.001587084378115833022473979419 -0.000652101007290184497833251953 0 0 0 0 
2419000000.0000000000 0.162680730223655700683593750000 -0.073132909834384918212890625000 0.001799491001293062946916889722 -0.000607553287409245967864990234 0 0 0 0 
2419166666.6666665077 0.161552250385284396072549384371 -0.073747813701629638671875000000 0.001715456484816968007328652490 -0.000749406113754957914352416992 0 0 0 0 
2419333333.3333334923 0.160161688923835809905682481258 -0.074171498417854309082031250000 0.001600343617610632939579629053 -0.000745288445614278316497802734 0 0 0 0 
2419500000.0000000000 0.158914774656295804122763115629 -0.075040802359580993652343750000 0.001669238321483135006548237378 -0.000810482772067189216613769531 0 0 0 0 
2419666666.6666665077 0.157576695084571810623330634371 -0.075828649103641510009765625000 0.001771177863702178001403808594 -0.000802929629571735858917236328 0 0 0 0 
2419833333.3333334923 0.156376406550407409667968750000 -0.076705627143383026123046875000 0.001763673266395926909205771338 -0.000747049576602876186370849609 0 0 0 0 
