# Hz S RI R 
2400000000.0000000000 0.158090502023696899414062500000 0.062707729637622833251953125000 -0.003638014663010836081263876807 0.000072168237238656729459762573 0 0 0 0 
2400166666.6666665077 0.158099249005317687988281250000 0.061198618263006210327148437500 -0.003438491839915513992309570312 0.000346199900377541780471801758 0 0 0 0 
2400333333.3333334923 0.157938912510871887207031250000 0.059252846986055367206613908593 -0.003543609520420432090759277344 0.000410297099733725190162658691 0 0 0 0 
2400500000.0000000000 0.157790675759315490722656250000 0.057288952171802520751953125000 -0.003510746406391263008117675781 0.000678026815876364707946777344 0 0 0 0 
2400666666.6666665077 0.157798871397972106933593750000 0.055318456143140792846679687500 -0.003429500851780176162719726562 0.000630879658274352550506591797 0 0 0 0 
2400833333.3333334923 0.157867491245269803146200615629 0.053317647427320480346679687500 -0.003257134929299354986903525244 0.000779845577199012041091918945 0 0 0 0 
2401000000.0000000000 0.157951250672340393066406250000 0.051364000886678702617604841407 -0.003098702058196067810058593750 0.000904217071365565061569213867 0 0 0 0 
2401166666.6666665077 0.158298105001449612716513115629 0.049118213355541229248046875000 -0.003064042888581753210780478369 0.001036850269883871078491210938 0 0 0 0 
2401333333.3333334923 0.158282101154327392578125000000 0.046929839998483657836914062500 -0.002958055818453431129455566406 0.001073657418601215102552104419 0 0 0 0 
2401500000.0000000000 0.158638790249824496170205634371 0.044889599084854132915456403907 -0.002684960141777991814854287256 0.001130950404331088066101074219 0 0 0 0 
2401666666.6666665077 0.158969387412071200271768134371 0.042994894087314612651784528907 -0.002659083111211657957789755713 0.001319579430855811075923300635 0 0 0 0 
2401833333.3333334923 0.159303858876228304763955634371 0.040974657982587807392160783593 -0.002522313036024570898768759619 0.001294408575631678104400634766 0 0 0 0 
2402000000.0000000000 0.159655049443244906326455634371 0.038865894079208367084543596093 -0.002428579609841107888462685693 0.001550682471133768992183066260 0 0 0 0 
2402166666.6666665077 0.160201624035835293868856865629 0.036850128322839736938476562500 -0.002212251769378780884983681787 0.001576990238390862941741943359 0 0 0 0 
2402333333.3333334923 0.160536080598831204513388115629 0.035018652677536010742187500000 -0.002187571255490183830261230469 0.001630545943044126033782958984 0 0 0 0 
2402500000.0000000000 0.161438956856727600097656250000 0.033190369606018073345143903907 -0.002184194512665272192714072119 0.001632040599361062049865722656 0 0 0 0 
2402666666.6666665077 0.162179291248321505447549384371 0.031321886926889419555664062500 -0.001974960090592503981349326025 0.001347542856819927909253764575 0 0 0 0 
2402833333.3333334923 0.162865415215492304046307481258 0.029583655297756198537806326954 -0.001691866549663245894788432544 0.001455942634493112997767783057 0 0 0 0 
2403000000.0000000000 0.163652345538139287750567518742 0.028080461546778678894042968750 -0.001709469594061375097987509619 0.001376398489810525937321328271 0 0 0 0 
2403166666.6666665077 0.164626196026802090743856865629 0.026299366727471351623535156250 -0.001420620828866959051844931494 0.001613786327652632973314594800 0 0 0 0 
2403333333.3333334923 0.165609955787658691406250000000 0.024980697780847549438476562500 -0.001547075458802283027051616138 0.001590465428307652907130576025 0 0 0 0 
2403500000.0000000000 0.166333317756652804275674384371 0.023591797798871990549107735546 -0.001343615585938096046447753906 0.001553957234136760017992329175 0 0 0 0 
2403666666.6666665077 0.167219772934913607498330634371 0.021887987852096561086634451954 -0.001162888132967055060743022388 0.001540594734251498959184956128 0 0 0 0 
2403833333.3333334923 0.168393135070800809005575615629 0.020681841298937801015833670704 -0.001147912000305951075312949072 0.001326486468315124945399618994 0 0 0 0 
2404000000.0000000000 0.169172912836074801345986884371 0.019407182931900020944615548046 -0.001174357486888766071916889722 0.001347754616290331103681254810 0 0 0 0 
2404166666.6666665077 0.170143991708755493164062500000 0.018452376127243038522740548046 -0.001058570807799696922302246094 0.001275062561035156033159565503 0 0 0 0 
2404333333.3333334923 0.171030402183532687088174384371 0.017332527786493301391601562500 -0.000958246295340359210968017578 0.001355589367449284033534384619 0 0 0 0 
2404500000.0000000000 0.171930506825447110275106865629 0.016376242041587829589843750000 -0.001040364266373217105865478516 0.001272623892873526053187704932 0 0 0 0 
2404666666.6666665077 0.173090592026710510253906250000 0.015539171174168590200403983204 -0.000951555091887712478637695312 0.001169238821603358008741069263 0 0 0 0 
2404833333.3333334923 0.173925787210464505294638115629 0.014695955440402029210100742773 -0.000952895323280245065689086914 0.001257767784409224987030029297 0 0 0 0 
2405000000.0000000000 0.174919039011001586914062500000 0.013940728269517419987688633398 -0.000884747249074280261993408203 0.001269795815460383892059326172 0 0 0 0 
2405166666.6666665077 0.175688236951828002929687500000 0.013433484360575679433802420704 -0.000925727887079119682312011719 0.001219700439833105044123984229 0 0 0 0 
2405333333.3333334923 0.176377341151237487792968750000 0.012657472863793369638463204296 -0.000740588468033820390701293945 0.001172017306089401028276753003 0 0 0 0 
2405500000.0000000000 0.177204728126525906661825615629 0.012279475107789039611816406250 -0.000797769054770469665527343750 0.001096048625186085917829204028 0 0 0 0 
2405666666.6666665077 0.177862748503684997558593750000 0.011740147136151790618896484375 -0.000826268864329904317855834961 0.001100268214941024997113871997 0 0 0 0 
2405833333.3333334923 0.178390637040138189117755018742 0.011541422456502909224540509570 -0.000750036910176277160644531250 0.001011972432024776935577392578 0 0 0 0 
2406000000.0000000000 0.179084002971649197677450615629 0.011095960624516010284423828125 -0.000633329851552844047546386719 0.001003049314022063992143940503 0 0 0 0 
2406166666.6666665077 0.179385870695114107986611884371 0.010830121114850040781041329296 -0.000506889657117426395416259766 0.001106836949475110010859824072 0 0 0 0 
2406333333.3333334923 0.180051654577255304534588731258 0.010428713634610179555872733204 -0.000603723514359444379806518555 0.000979736214503645896911621094 0 0 0 0 
2406500000.0000000000 0.180188506841659601409588731258 0.010226939804852010554303554102 -0.000487420737044885808795374738 0.001065829303115606091142963940 0 0 0 0 
2406666666.6666665077 0.180377006530761690994424384371 0.009838175959885120391845703125 -0.000415870628785341978073120117 0.001015305053442717032191611182 0 0 0 0 
2406833333.3333334923 0.180621504783630398849325615629 0.009726339951157569885253906250 -0.000463759904960170388221740723 0.000923485669773072004318237305 0 0 0 0 
2407000000.0000000000 0.180685311555862399002236884371 0.009302611462771892547607421875 -0.000500995665788650512695312500 0.000937821809202432632446289062 0 0 0 0 
2407166666.6666665077 0.180912509560584994217080634371 0.009008414112031459808349609375 -0.000470783154014497995376586914 0.000863302964717149734497070312 0 0 0 0 
2407333333.3333334923 0.180653929710388211349325615629 0.008574712090194225311279296875 -0.000316984514938667416572570801 0.000882103806361556053161621094 0 0 0 0 
2407500000.0000000000 0.180467769503593389313067518742 0.008285201154649257659912109375 -0.000329058791976422125667017804 0.000880866311490535736083984375 0 0 0 0 
2407666666.6666665077 0.180335104465484591385049384371 0.007779178209602832794189453125 -0.000384328886866569519042968750 0.000738919887226074934005737305 0 0 0 0 
2407833333.3333334923 0.180041670799255398849325615629 0.007253675721585750579833984375 -0.000441839220002293586730957031 0.000734665954951196908950805664 0 0 0 0 
2408000000.0000000000 0.179598793387412997146768134371 0.006527846213430166244506835938 -0.000345983222359791398048400879 0.000894918804988265037536621094 0 0 0 0 
2408166666.6666665077 0.179099172353744506835937500000 0.005943417549133300781250000000 -0.000334899348672479391098022461 0.000643039878923445940017700195 0 0 0 0 
2408333333.3333334923 0.178812041878700311858807481258 0.005344074685126543045043945312 -0.000454273977084085399478358136 0.000546058756299316883087158203 0 0 0 0 
2408500000.0000000000 0.178102925419807406326455634371 0.004506821744143962860107421875 -0.000255553721217438578605651855 0.000701872806530445814132690430 0 0 0 0 
2408666666.6666665077 0.177583992481231689453125000000 0.003610315732657908959629677881 -0.000423795572714880108833312988 0.000760217022616416215896606445 0 0 0 0 
2408833333.3333334923 0.176775693893432589431924384371 0.002672896254807711081263876807 -0.000414366455515846610069274902 0.000638318655546754598617553711 0 0 0 0 
2409000000.0000000000 0.176103204488754300216513115629 0.001688922289758921103236533057 -0.000454497261671349406242370605 0.000514060317073017358779907227 0 0 0 0 
2409166666.6666665077 0.175428792834281893631143134371 0.000646355678327381610870361328 -0.000413546425988897681236267090 0.000533804821316152811050415039 0 0 0 0 
2409333333.3333334923 0.174964159727096613128338731258 -0.000638139899820089340209960938 -0.000470462022349238395690917969 0.000446671125246211886405944824 0 0 0 0 
2409500000.0000000000 0.174227461218833895584268134371 -0.001932156854309142069575644385 -0.000580881198402494192123413086 0.000586280133575201034545898438 0 0 0 0 
2409666666.6666665077 0.173463359475135803222656250000 -0.003292111447080969810485839844 -0.000470159720862284302711486816 0.000400928256567567586898803711 0 0 0 0 
2409833333.3333334923 0.172753170132636996170205634371 -0.004634742625057697296142578125 -0.000471628620289266109466552734 0.000332667259499430710643214093 0 0 0 0 
2410000000.0000000000 0.172188267111778287032919365629 -0.006186655722558498382568359375 -0.000500865571666508913040161133 0.000415170128690078908770960675 0 0 0 0 
2410166666.6666665077 0.171563237905502291580361884371 -0.007657977286726236343383789062 -0.000588781316764652729034423828 0.000451310799689963514178675519 0 0 0 0 
2410333333.3333334923 0.170834019780158996582031250000 -0.009256479330360889434814453125 -0.000604404020123183727264404297 0.000278629362583160400390625000 0 0 0 0 
2410500000.0000000000 0.170476898550987188141192518742 -0.011106118559837339573870274023 -0.000621539482381194829940795898 0.000283025088720023577839451923 0 0 0 0 
2410666666.6666665077 0.169804438948631286621093750000 -0.013006509281694890803326991602 -0.000610936258453875780105590820 0.000328550377162173390388488770 0 0 0 0 
2410833333.3333334923 0.169404461979866000076455634371 -0.014524365775287149601946445898 -0.000708352657966315746307373047 0.000350233865901827812194824219 0 0 0 0 
2411000000.0000000000 0.168823391199111910720986884371 -0.016485115513205531728724295704 -0.000675923598464578390121459961 0.000364214356523007208674830304 0 0 0 0 
2411166666.6666665077 0.168647676706314086914062500000 -0.018273828551173210144042968750 -0.000717088463716208934783935547 0.000317425117827951908111572266 0 0 0 0 
2411333333.3333334923 0.168302476406097412109375000000 -0.020107967779040340078333670704 -0.000656484917271882295608520508 0.000429017527494579607814234601 0 0 0 0 
2411500000.0000000000 0.168156534433364895919638115629 -0.022330353036522868764857108204 -0.000860311964061111211776733398 0.000276984326774254387051182880 0 0 0 0 
2411666666.6666665077 0.168075114488601712325888115629 -0.024289237335324290883997733204 -0.000956059258896857500076293945 0.000448989274445921182632446289 0 0 0 0 
2411833333.3333334923 0.168107762932777404785156250000 -0.026112671941518780099888985546 -0.000817231193650513887405395508 0.000302553613437339717715662823 0 0 0 0 
2412000000.0000000000 0.168097674846649197677450615629 -0.028255393728613849985142891796 -0.000919965386856347322463989258 0.000553280580788850784301757812 0 0 0 0 
2412166666.6666665077 0.168191134929657010177450615629 -0.029962910339236259460449218750 -0.001022548065520823001861572266 0.000568268878851085901260375977 0 0 0 0 
2412333333.3333334923 0.168485701084136990646200615629 -0.031791802495718002319335937500 -0.001036792644299566962598491138 0.000477796740597114021151942120 0 0 0 0 
2412500000.0000000000 0.168681323528289794921875000000 -0.033824604004621512676198591407 -0.001063431962393224022508930737 0.000496810593176633119583129883 0 0 0 0 
2412666666.6666665077 0.169003933668136596679687500000 -0.035985589027404792095143903907 -0.001178039470687509016749716650 0.000520960835274308919906616211 0 0 0 0 
2412833333.3333334923 0.169269472360610989669638115629 -0.037642341107130050659179687500 -0.001118466840125619931461953271 0.000549984222743660211563110352 0 0 0 0 
2413000000.0000000000 0.169661149382591303069744981258 -0.039361551403999328613281250000 -0.001184901339001954035518027197 0.000664419610984623432159423828 0 0 0 0 
2413166666.6666665077 0.170012801885604886154013115629 -0.041260350495576858520507812500 -0.001297804992645978927612304688 0.000729409512132406234741210938 0 0 0 0 
2413333333.3333334923 0.170438677072524996658486884371 -0.042901262640953057025949846093 -0.001450111973099410967585898291 0.000843234651256352663040161133 0 0 0 0 
2413500000.0000000000 0.171087995171546908279580634371 -0.044598452746868126606027971093 -0.001407322357408701939823769678 0.000846294162329286336898803711 0 0 0 0 
2413666666.6666665077 0.171699985861778287032919365629 -0.046131532639265060424804687500 -0.001360075897537172057508159106 0.001081518246792257048963237231 0 0 0 0 
2413833333.3333334923 0.172094017267227200607138115629 -0.047636449337005622173268903907 -0.001378402463160455010057758862 0.000979791046120226383209228516 0 0 0 0 
2414000000.0000000000 0.172579512000083895584268134371 -0.049101445823907852172851562500 -0.001240753103047608895542763818 0.000944774190429598093032836914 0 0 0 0 
2414166666.6666665077 0.173311308026313809493856865629 -0.050464421510696411132812500000 -0.001402385300025343894958496094 0.001084139687009155967115092700 0 0 0 0 
2414333333.3333334923 0.173819378018379211425781250000 -0.051685061305761337280273437500 -0.001466668210923671939252543872 0.001180379418656229972839355469 0 0 0 0 
2414500000.0000000000 0.174609869718551607986611884371 -0.052828628569841391826589216407 -0.001371080172248184897779155200 0.001308591803535819053649902344 0 0 0 0 
2414666666.6666665077 0.174914672970771789550781250000 -0.053889088332653052593190778907 -0.001248206826858222918269492041 0.001382817979902029037475585938 0 0 0 0 
2414833333.3333334923 0.175430774688720703125000000000 -0.054902825504541397094726562500 -0.001366097130812704996821738135 0.001446480164304376082179404150 0 0 0 0 
2415000000.0000000000 0.175850927829742403885049384371 -0.055732887238264076923410783593 -0.001323542324826120896580361475 0.001572019886225461959838867188 0 0 0 0 
2415166666.6666665077 0.176359683275222806075888115629 -0.056511815637350082397460937500 -0.001188417663797735951067280347 0.001727169030345975919010781396 0 0 0 0 
2415333333.3333334923 0.176852747797966003417968750000 -0.057380396872758872295339216407 -0.001232283306308090903638530200 0.001673701917752623991725302588 0 0 0 0 
2415500000.0000000000 0.177059873938560513595419365629 -0.057921648025512702251393903907 -0.001019936520606278939488076318 0.001896473579108715057373046875 0 0 0 0 
2415666666.6666665077 0.177436098456382806975994981258 -0.058546051383018486713449846093 -0.001010750536806880994084023584 0.001733154756948352076886821216 0 0 0 0 
2415833333.3333334923 0.177518799901008605957031250000 -0.059010110795497887348215471093 -0.000969865417573601007461547852 0.001926877186633646921870566260 0 0 0 0 
2416000000.0000000000 0.177468419075012207031250000000 -0.059480950236320502544362653907 -0.000905626802705228328704833984 0.002011967590078711943385458838 0 0 0 0 
2416166666.6666665077 0.177862614393234308440838731258 -0.059927389025688171386718750000 -0.000883198634255677461624145508 0.002172690583392978148219443213 0 0 0 0 
2416333333.3333334923 0.177791744470596313476562500000 -0.060100078582763671875000000000 -0.000861093925777822732925415039 0.002286914270371199087855673682 0 0 0 0 
2416500000.0000000000 0.177661821246147211272869981258 -0.060561615973711006855051408593 -0.000792583450675010681152343750 0.002427425468340516090393066406 0 0 0 0 
2416666666.6666665077 0.177411064505577087402343750000 -0.060666438192129142070729841407 -0.000735960144083946943283081055 0.002265989780426024956944131006 0 0 0 0 
2416833333.3333334923 0.177261829376220703125000000000 -0.061002109199762337421457658593 -0.000700923264957964420318603516 0.002333491342142223878147744287 0 0 0 0 
2417000000.0000000000 0.176762431859970092773437500000 -0.061266716569662087177317033593 -0.000440918724052608013153076172 0.002474368782714008851292275537 0 0 0 0 
2417166666.6666665077 0.176306098699569702148437500000 -0.061402890831232070922851562500 -0.000529201701283454895019531250 0.002372027607634664015529013525 0 0 0 0 
2417333333.3333334923 0.175836309790611294845419365629 -0.061510663479566567157785783593 -0.000502509647049009799957275391 0.002392254536971449851989746094 0 0 0 0 
2417500000.0000000000 0.175166115164756802657919365629 -0.061859976500272750854492187500 -0.000210103215067647397518157959 0.002480301307514309883117675781 0 0 0 0 
2417666666.6666665077 0.174623653292655889313067518742 -0.061999231576919562602956403907 -0.000297761958790943026542663574 0.002460499061271547837498330225 0 0 0 0 
2417833333.3333334923 0.173751965165138189117755018742 -0.062251776456832892681081403907 -0.000137892915518023100778302603 0.002473188564181327819824218750 0 0 0 0 
2418000000.0000000000 0.172859847545623807052450615629 -0.062710911035537719726562500000 0.000005810049515275750309228897 0.002536552026867866949794150244 0 0 0 0 
2418166666.6666665077 0.171906903386116000076455634371 -0.062837868928909301757812500000 0.000008491516382491681724786758 0.002636029850691556930541992188 0 0 0 0 
2418333333.3333334923 0.171145349740982111175213731258 -0.063291557133197784423828125000 0.000062872662965673953294754028 0.002557493746280670166015625000 0 0 0 0 
2418500000.0000000000 0.169947281479835510253906250000 -0.063617281615734100341796875000 0.000230806792387738796785631723 0.002459302777424455122706747900 0 0 0 0 
2418666666.6666665077 0.169019922614097595214843750000 -0.064113587141036987304687500000 0.000140728225233033299446105957 0.002524688839912414984462118994 0 0 0 0 
2418833333.3333334923 0.167713567614555386642294365629 -0.064688913524150848388671875000 0.000237638552789576405852717267 0.002555601764470338821411132812 0 0 0 0 
2419000000.0000000000 0.166460409760475186446981865629 -0.065251395106315612792968750000 0.000451190047897398526042384015 0.002631547860801219940185546875 0 0 0 0 
2419166666.6666665077 0.165288016200065612792968750000 -0.066017620265483856201171875000 0.000451207451988011598587036133 0.002588489791378378868103027344 0 0 0 0 
2419333333.3333334923 0.164071634411811800857705634371 -0.066482663154602050781250000000 0.000371595844626426696777343750 0.002595185767859220938441611182 0 0 0 0 
2419500000.0000000000 0.162942290306091308593750000000 -0.067619048058986663818359375000 0.000532518315594643354415893555 0.002595309400931001143214560400 0 0 0 0 
2419666666.6666665077 0.161685004830360412597656250000 -0.068396210670471191406250000000 0.000632560288067907094955444336 0.002611641306430100960972451318 0 0 0 0 
2419833333.3333334923 0.160563960671424893478231865629 -0.069218091666698455810546875000 0.000621760613285005092620849609 0.002540068468078970909118652344 0 0 0 0 
