# Hz S RI R 50
2400000000.0000000000 0.158203542232513399978799384371 0.062699012458324432373046875000 -0.003607558086514472961425781250 0.000152189284563064602300366812 0 0 0 0 
2400166666.6666665077 0.158129394054412786285723768742 0.061182308942079537128488908593 -0.003806738648563622994663857568 0.000018973711121361699292455980 0 0 0 0 
2400333333.3333334923 0.157894060015678405761718750000 0.059226233512163162231445312500 -0.003695649793371558189392089844 0.000303080247249454314082545148 0 0 0 0 
2400500000.0000000000 0.157898098230361910720986884371 0.057319793850183486938476562500 -0.003493637312203646139857626807 0.000403426092816516811221522198 0 0 0 0 
2400666666.6666665077 0.157713413238525390625000000000 0.055085781961679458618164062500 -0.003372448030859231948852539062 0.000909231428522616624832153320 0 0 0 0 
2400833333.3333334923 0.157834127545356805999432481258 0.053279239684343338012695312500 -0.003230717498809099197387695312 0.000725953199435025453567504883 0 0 0 0 
2401000000.0000000000 0.157892957329750088790731865629 0.051323004066944122314453125000 -0.003229058347642422156092978369 0.001065342570655047893524169922 0 0 0 0 
2401166666.6666665077 0.158213287591934204101562500000 0.049102220684289932250976562500 -0.003160234307870268821716308594 0.000974475638940930366516113281 0 0 0 0 
2401333333.3333334923 0.158078536391258211990518134371 0.047135688364505767822265625000 -0.002623460022732615904567099463 0.000998168950900435447692871094 0 0 0 0 
2401500000.0000000000 0.158694729208946200271768134371 0.045013550668954849243164062500 -0.002872818615287541909458779443 0.001204149331897496960283588940 0 0 0 0 
2401666666.6666665077 0.159001961350441006759481865629 0.043007872998714447021484375000 -0.002707188483327627182006835938 0.001071783131919801018358540112 0 0 0 0 
2401833333.3333334923 0.159230977296829195877236884371 0.040831204503774642944335937500 -0.002706488827243446870091103662 0.001421685679815710024592734229 0 0 0 0 
2402000000.0000000000 0.159643664956092806717080634371 0.039127953350543982768972028907 -0.002466493286192417144775390625 0.001465850742533802986145019531 0 0 0 0 
2402166666.6666665077 0.160084351897239712814169365629 0.036831557750701897357981096093 -0.002307238755747675895690917969 0.001284286030568182902095175635 0 0 0 0 
2402333333.3333334923 0.160689964890480013748330634371 0.034812819212675101543386091407 -0.002017332240939139886143349756 0.001399658387526869990705180591 0 0 0 0 
2402500000.0000000000 0.161323353648185702224893134371 0.033099099993705749511718750000 -0.001842861995100975036621093750 0.001651106635108589909197163159 0 0 0 0 
2402666666.6666665077 0.162175238132476806640625000000 0.031253457069396972656250000000 -0.001754307304508984088897705078 0.001276490162126719951629638672 0 0 0 0 
2402833333.3333334923 0.162745594978332491775674384371 0.029626300558447841299036795704 -0.001574710826389491991755820166 0.001575174392201005978825234521 0 0 0 0 
2403000000.0000000000 0.163663268089294405838174384371 0.027890490368008610116978829296 -0.001500706188380718014360737378 0.001589076127856970050214457935 0 0 0 0 
2403166666.6666665077 0.164542451500892611404580634371 0.026413956657052040100097656250 -0.001522640930488706068751669775 0.001712511992081999995587993091 0 0 0 0 
2403333333.3333334923 0.165491610765457208831463731258 0.024819152429699901235560233204 -0.001433323719538748047472309644 0.001472987001761794090270996094 0 0 0 0 
2403500000.0000000000 0.166232049465179387848223768742 0.023319048807024959218958670704 -0.001297332113608717918395996094 0.001528075197711586952209472656 0 0 0 0 
2403666666.6666665077 0.167282775044441195388955634371 0.022077728062868118286132812500 -0.001276597846299410083173442310 0.001476769684813916900037455981 0 0 0 0 
2403833333.3333334923 0.168297380208969088455361884371 0.020756712183356288564661795704 -0.001258684205822647051570273291 0.001401706133037805990931845557 0 0 0 0 
2404000000.0000000000 0.169227302074432400802450615629 0.019579734653234478342076485546 -0.001274792710319160981419228662 0.001329218503087759017944335938 0 0 0 0 
2404166666.6666665077 0.170125767588615389724893134371 0.018438756465911868703821951954 -0.001078107161447406031964946216 0.001425256719812751033185649341 0 0 0 0 
2404333333.3333334923 0.171260774135589599609375000000 0.017532614991068840026855468750 -0.001006839331239461898803710938 0.001306601916439831040026020581 0 0 0 0 
2404500000.0000000000 0.171994790434837313553018134371 0.016207221895456310617467110546 -0.001069919439032674052594829028 0.001494325697422028021571493994 0 0 0 0 
2404666666.6666665077 0.173031374812126187423544365629 0.015610494650900360452672188671 -0.000871864205691963434219360352 0.001233741291798651001573872144 0 0 0 0 
2404833333.3333334923 0.173863008618354797363281250000 0.014736172743141649418840977148 -0.000961468380410224199295043945 0.001260959892533719973323202979 0 0 0 0 
2405000000.0000000000 0.174943491816520690917968750000 0.014043726027011869603167149023 -0.000882159976754337549209594727 0.001282686484046279950382851709 0 0 0 0 
2405166666.6666665077 0.175762549042701693435830634371 0.013394941575825209181815900195 -0.000888914801180362701416015625 0.001223623054102062962175678784 0 0 0 0 
2405333333.3333334923 0.176554724574089105804119981258 0.012631013058125969278355782421 -0.000773884239606559276580810547 0.001270238659344613985774374854 0 0 0 0 
2405500000.0000000000 0.177331969141960088531817518742 0.012273436412215229379674141796 -0.000654560280963778495788574219 0.001094277831725775978685688550 0 0 0 0 
2405666666.6666665077 0.178013473749160794357138115629 0.011817162856459619349469569727 -0.000715733738616108894348144531 0.001129179378040134906768798828 0 0 0 0 
2405833333.3333334923 0.178516164422035189529580634371 0.011474598199129109818428240430 -0.000718797033187001943588256836 0.001177824335172771973850869287 0 0 0 0 
2406000000.0000000000 0.179108962416648892501669365629 0.011066731065511700021763985546 -0.000565861235372722148895263672 0.001235151081345974965336464990 0 0 0 0 
2406166666.6666665077 0.179406985640525790115518134371 0.010806384496390819549560546875 -0.000580456457100808620452880859 0.001018854673020542101619101416 0 0 0 0 
2406333333.3333334923 0.180023983120918301681356865629 0.010541582480072980362861834180 -0.000503022281918674707412719727 0.001055672764778136990190815503 0 0 0 0 
2406500000.0000000000 0.180337518453597994705361884371 0.010238987393677239853828631055 -0.000546697236131876707077026367 0.001054983702488244013545370947 0 0 0 0 
2406666666.6666665077 0.180450871586799593826455634371 0.009948963299393653869628906250 -0.000573908444494009017944335938 0.001064525917172431945800781250 0 0 0 0 
2406833333.3333334923 0.180641070008277893066406250000 0.009566390886902809143066406250 -0.000368683191481977701187133789 0.000978681957349181175231933594 0 0 0 0 
2407000000.0000000000 0.180807590484619112869424384371 0.009239599108695983886718750000 -0.000392693764297291582256871356 0.000874031335115432739257812500 0 0 0 0 
2407166666.6666665077 0.180994182825088500976562500000 0.009016517549753189086914062500 -0.000337598146870732307434082031 0.000819529348518699407577514648 0 0 0 0 
2407333333.3333334923 0.180722728371620205978231865629 0.008535661734640598297119140625 -0.000413730303989723324775695801 0.000846543000079691410064697266 0 0 0 0 
2407500000.0000000000 0.180534601211547907073651231258 0.008148498833179473876953125000 -0.000320869963616132681995946063 0.000812469748780131340026855469 0 0 0 0 
2407666666.6666665077 0.180311292409896906097088731258 0.007752664852887392044067382812 -0.000340766360750421881675720215 0.000741287076380103826522827148 0 0 0 0 
2407833333.3333334923 0.180025249719619806487713731258 0.007006356026977300643920898438 -0.000288729468593373894691467285 0.000703875673934817314147949219 0 0 0 0 
2408000000.0000000000 0.179629489779472406585369981258 0.006540132220834493637084960938 -0.000354224699549377018779200421 0.000731616513803601264953613281 0 0 0 0 
2408166666.6666665077 0.179160192608833312988281250000 0.006100928410887718200683593750 -0.000493891478981822729110717773 0.000567065144423395395278930664 0 0 0 0 
2408333333.3333334923 0.178833112120628412444744981258 0.005297172814607620239257812500 -0.000484337186207994818687438965 0.000632392591796815395355224609 0 0 0 0 
2408500000.0000000000 0.178264066576957702636718750000 0.004510248079895973205566406250 -0.000413448637118563110202235089 0.000540911161806434392929077148 0 0 0 0 
2408666666.6666665077 0.177642762660980196853799384371 0.003684415481984614892246865381 -0.000310327770421281511157435284 0.000583675573579967021942138672 0 0 0 0 
2408833333.3333334923 0.176981717348098810393963731258 0.002639662707224487824680947412 -0.000387298234272748177677708759 0.000383362261345610022544860840 0 0 0 0 
2409000000.0000000000 0.176264762878417996505575615629 0.001620346680283546014073037256 -0.000421361473854631185531616211 0.000597392616327852010726928711 0 0 0 0 
2409166666.6666665077 0.175634667277336092849893134371 0.000508261669892817735671997070 -0.000538324005901813507080078125 0.000525280716829001903533935547 0 0 0 0 
2409333333.3333334923 0.174991786479950006683026231258 -0.000584771565627306699752807617 -0.000391232722904533202021998273 0.000585658883210271596908569336 0 0 0 0 
2409500000.0000000000 0.174254477024078396896200615629 -0.002069755457341670989990234375 -0.000394998583942651802867335187 0.000462750234873965382575988770 0 0 0 0 
2409666666.6666665077 0.173463076353073092361611884371 -0.003234795527532697157618857275 -0.000344597239745780825614929199 0.000361584563506767207950037823 0 0 0 0 
2409833333.3333334923 0.172737792134285000900106865629 -0.004752060398459435376639081738 -0.000606911315117031335830688477 0.000452285050414502620697021484 0 0 0 0 
2410000000.0000000000 0.172309264540672302246093750000 -0.006085996516048908233642578125 -0.000554228492546826601028442383 0.000388616637792438322871607648 0 0 0 0 
2410166666.6666665077 0.171481251716613797286825615629 -0.007702095434069634351248456738 -0.000560551881790161132812500000 0.000300331244943663477897644043 0 0 0 0 
2410333333.3333334923 0.171007022261619595626669365629 -0.009373287670314311981201171875 -0.000614760443568229675292968750 0.000452370004495605826377868652 0 0 0 0 
2410500000.0000000000 0.170353680849075289627236884371 -0.011012431234121319162388985546 -0.000450450315838679725497645245 0.000332005642121657674938756122 0 0 0 0 
2410666666.6666665077 0.169681712985038812835369981258 -0.012959756888449190312395664648 -0.000596356170717626810073852539 0.000376102252630516886711120605 0 0 0 0 
2410833333.3333334923 0.169251993298530606368856865629 -0.014602068811655049759834490430 -0.000715168600436300039291381836 0.000158303620992228388786315918 0 0 0 0 
2411000000.0000000000 0.168900296092033386230468750000 -0.016361922025680538522740548046 -0.000844607769977301359176635742 0.000403543759603053277165013446 0 0 0 0 
2411166666.6666665077 0.168587431311607388595419365629 -0.018327333033084869384765625000 -0.000723310222383588552474975586 0.000327865098370239084393101825 0 0 0 0 
2411333333.3333334923 0.168475389480590792556924384371 -0.020341988652944568288782889454 -0.000895889592356979846954345703 0.000509808480273932218551635742 0 0 0 0 
2411500000.0000000000 0.168080240488052395919638115629 -0.022267494350671771657923514454 -0.000752915744669735431671142578 0.000262771878624334877163487567 0 0 0 0 
2411666666.6666665077 0.168026432394981412032919365629 -0.024250147864222530019739920704 -0.000859056948684155941009521484 0.000361422135028988122940063477 0 0 0 0 
2411833333.3333334923 0.167941272258758489410723768742 -0.026111571118235591543177420704 -0.000966251769568771123886108398 0.000460347742773592526286524640 0 0 0 0 
2412000000.0000000000 0.167986571788787786285723768742 -0.028051469475030899047851562500 -0.000967559870332479476928710938 0.000409532745834439992904663086 0 0 0 0 
2412166666.6666665077 0.168223619461059598068075615629 -0.030111800879240039480189139454 -0.001103687449358403899549174731 0.000335639924742281382710057391 0 0 0 0 
2412333333.3333334923 0.168436780571937588790731865629 -0.031868159770965583110768903907 -0.001332650892436503930332802881 0.000469899503514170700877589093 0 0 0 0 
2412500000.0000000000 0.168491393327713012695312500000 -0.033611640334129326557199846093 -0.001143587520346045927760458838 0.000492115039378404617309570312 0 0 0 0 
2412666666.6666665077 0.169078096747398404220419365629 -0.035757072269916527484934221093 -0.001188283436931669928907084888 0.000577311147935688495635986328 0 0 0 0 
2412833333.3333334923 0.169264316558837890625000000000 -0.037639971822500228881835937500 -0.001145434682257473902461386572 0.000572636665310710668563842773 0 0 0 0 
2413000000.0000000000 0.169612377882003811935263115629 -0.039395567029714577411692033593 -0.001204111613333225033403706128 0.000533253303728997707366943359 0 0 0 0 
2413166666.6666665077 0.170052304863929804046307481258 -0.041096556931734092021901716407 -0.001258718548342585997340536963 0.000663011858705431222915649414 0 0 0 0 
2413333333.3333334923 0.170572668313980102539062500000 -0.042882345616817467426340471093 -0.001364848227240144989610981519 0.000797619402874261140823364258 0 0 0 0 
2413500000.0000000000 0.170987769961357088943643134371 -0.044600211083889007568359375000 -0.001441004103980958895442343604 0.000660901539959013462066650391 0 0 0 0 
2413666666.6666665077 0.171736776828765896896200615629 -0.046093877404928207397460937500 -0.001485448679886757893803261865 0.000983172911219298839569091797 0 0 0 0 
2413833333.3333334923 0.172108501195907592773437500000 -0.047572877258062362670898437500 -0.001475963043048978068708110278 0.000893312448170036077499389648 0 0 0 0 
2414000000.0000000000 0.172517478466033907791299384371 -0.049063552170991897583007812500 -0.001542731421068310954450297778 0.001026459271088242964503622900 0 0 0 0 
2414166666.6666665077 0.173300772905349703689736884371 -0.050430737435817718505859375000 -0.001435620943084358952165913159 0.001084352494217454953434609521 0 0 0 0 
2414333333.3333334923 0.173816293478012112716513115629 -0.051646389067172997211496721093 -0.001538990065455436923383403247 0.001175744575448334000231098706 0 0 0 0 
2414500000.0000000000 0.174567580223083496093750000000 -0.052930485457181930541992187500 -0.001388430013321340084075927734 0.001293360022827982902526855469 0 0 0 0 
2414666666.6666665077 0.174852952361106900314169365629 -0.053827092051506042480468750000 -0.001349352067336440086364746094 0.001363860676065087101579975659 0 0 0 0 
2414833333.3333334923 0.175350695848464993575888115629 -0.054848723113536841655690778907 -0.001299277995713054916979145581 0.001557672396302222988725971753 0 0 0 0 
2415000000.0000000000 0.175921037793159512618856865629 -0.055762127041816711425781250000 -0.001124805305153131918666220557 0.001514260424301028034807514722 0 0 0 0 
2415166666.6666665077 0.176354214549064608474893134371 -0.056427538394927978515625000000 -0.001324012526310980103136372144 0.001757308957166969992993998950 0 0 0 0 
2415333333.3333334923 0.176816806197166387359942518742 -0.057468045502901077270507812500 -0.001044575474224985079524374854 0.001715007470920681953430175781 0 0 0 0 
2415500000.0000000000 0.177043542265892001053018134371 -0.057952020317316062236745466407 -0.001214250223711133003234863281 0.001900986768305302099940634619 0 0 0 0 
2415666666.6666665077 0.177334368228912409026776231258 -0.058447025716304779052734375000 -0.001078621600754559040069580078 0.001931597944349050955531454932 0 0 0 0 
2415833333.3333334923 0.177549153566360501388388115629 -0.058993387967348098754882812500 -0.001088307122699915929081582178 0.002016318496316670937779091943 0 0 0 0 
2416000000.0000000000 0.177497833967208890060263115629 -0.059468191117048256610910783593 -0.000978227355517446994781494141 0.002132323570549488067626953125 0 0 0 0 
2416166666.6666665077 0.177857220172882107833700615629 -0.059800125658512122417409528907 -0.000898127851542085409164428711 0.002239661291241645812988281250 0 0 0 0 
2416333333.3333334923 0.177753686904907198806924384371 -0.060085721313953399658203125000 -0.000933650007937103509902954102 0.002149240812286735014674521338 0 0 0 0 
2416500000.0000000000 0.177580922842025812347088731258 -0.060462113469839103008229841407 -0.000783216324634850025177001953 0.002225007396191358999965048682 0 0 0 0 
2416666666.6666665077 0.177416488528251703460369981258 -0.060566551983356482768972028907 -0.000796948268543928861618041992 0.002283707726746797995326376807 0 0 0 0 
2416833333.3333334923 0.177296027541160611251669365629 -0.061053585261106491088867187500 -0.000643925624899566173553466797 0.002169510116800665855407714844 0 0 0 0 
2417000000.0000000000 0.176736474037170410156250000000 -0.061232566833496086811106096093 -0.000535580154974013566970825195 0.002303959103301167921779013525 0 0 0 0 
2417166666.6666665077 0.176363557577133206466513115629 -0.061361163854598999023437500000 -0.000425512902438640594482421875 0.002346203662455081939697265625 0 0 0 0 
2417333333.3333334923 0.175794005393981905838174384371 -0.061510663479566567157785783593 -0.000284984096651896780163365497 0.002467087702825665907618857275 0 0 0 0 
2417500000.0000000000 0.175078734755516107757244981258 -0.061988379806280143047292341407 -0.000298056984320282881886082782 0.002568269846960902214050292969 0 0 0 0 
2417666666.6666665077 0.174602583050727788727130018742 -0.061937984079122543334960937500 -0.000144144447403959902838030405 0.002473180880770086808445595850 0 0 0 0 
2417833333.3333334923 0.173806861042976407150106865629 -0.062234733253717422485351562500 -0.000279335567029192989498692645 0.002423894358798861937281943213 0 0 0 0 
2418000000.0000000000 0.172824829816818209549111884371 -0.062667630612850189208984375000 -0.000146624384797178208827972412 0.002587551716715096993687295068 0 0 0 0 
2418166666.6666665077 0.171886146068572998046875000000 -0.062818326056003570556640625000 0.000010712317816796709189211198 0.002519477158784865899326943506 0 0 0 0 
2418333333.3333334923 0.171175941824912997146768134371 -0.063328906893730163574218750000 0.000008342526598426047712564468 0.002542864298447967009303427588 0 0 0 0 
2418500000.0000000000 0.169967368245124789138955634371 -0.063695102930068969726562500000 0.000133671797811984988764086313 0.002578177256509662108180380713 0 0 0 0 
2418666666.6666665077 0.168812796473503112792968750000 -0.064206555485725402832031250000 0.000253927137237042188644409180 0.002677554031834005875828408350 0 0 0 0 
2418833333.3333334923 0.167671278119087191482705634371 -0.064687281847000122070312500000 0.000216795757296495112493792123 0.002712923334911466078517294775 0 0 0 0 
2419000000.0000000000 0.166456162929534912109375000000 -0.065353259444236755371093750000 0.000306289613945409709781092511 0.002460401272401214079615927588 0 0 0 0 
2419166666.6666665077 0.165359020233154296875000000000 -0.066056013107299804687500000000 0.000313435652060434222221374512 0.002666987711563705964329384912 0 0 0 0 
2419333333.3333334923 0.163965806365013094803018134371 -0.066507063806056976318359375000 0.000509600620716810226440429688 0.002612961456179618835449218750 0 0 0 0 
2419500000.0000000000 0.162879735231399508377236884371 -0.067442253232002258300781250000 0.000508263765368610620498657227 0.002631689887493848800659179688 0 0 0 0 
2419666666.6666665077 0.161734640598297091385049384371 -0.068579867482185363769531250000 0.000681432953570038080215454102 0.002628414193168282942530966650 0 0 0 0 
2419833333.3333334923 0.160469129681587191482705634371 -0.069176107645034790039062500000 0.000542343128472566604614257812 0.002742081414908171133754111182 0 0 0 0 
