# Hz S RI R 
2400000000.0000000000 0.155224755406379699707031250000 0.107015363872051197380308451557 -0.000889802642632275819778442383 -0.004186864942312240600585937500 0 0 0 0 
2400166666.6666665077 0.155057847499847412109375000000 0.104570977389812497237997490629 -0.000879354251082986593246459961 -0.004073105752468109130859375000 0 0 0 0 
2400333333.3333334923 0.155024066567420987228231865629 0.102224782109260600715394673443 -0.000954330083914101123809814453 -0.004036277066916227340698242188 0 0 0 0 
2400500000.0000000000 0.154877677559852600097656250000 0.099587433040142059326171875000 -0.001111930585466325066210102612 -0.004048283677548170089721679688 0 0 0 0 
2400666666.6666665077 0.154941454529762295821981865629 0.096884846687316894531250000000 -0.001294041750952600999119423975 -0.004043229855597019195556640625 0 0 0 0 
2400833333.3333334923 0.154903367161750793457031250000 0.094219952821731567382812500000 -0.001506909960880876021144247900 -0.004019148647785186767578125000 0 0 0 0 
2401000000.0000000000 0.155009061098098810393963731258 0.091205604374408721923828125000 -0.001565678627230226993560791016 -0.004132665228098630905151367188 0 0 0 0 
2401166666.6666665077 0.155100673437118502517861884371 0.088506743311882019042968750000 -0.001648688339628278992296528394 -0.004008146002888680371756269238 0 0 0 0 
2401333333.3333334923 0.155552953481674194335937500000 0.085544928908348083496093750000 -0.001848025596700608947156596606 -0.004007324576377868652343750000 0 0 0 0 
2401500000.0000000000 0.155821874737739590743856865629 0.082815445959568023681640625000 -0.002256790641695261001586914062 -0.004009846132248640060424804688 0 0 0 0 
2401666666.6666665077 0.156274005770683288574218750000 0.079858839511871337890625000000 -0.002297970000654458999633789062 -0.004055632278323174390310956738 0 0 0 0 
2401833333.3333334923 0.156823426485061701018963731258 0.077144265174865722656250000000 -0.002467126585543156103846884619 -0.003958138637244701385498046875 0 0 0 0 
2402000000.0000000000 0.157526582479476900955361884371 0.074524156749248504638671875000 -0.002887455048039555983302451025 -0.004093957133591175079345703125 0 0 0 0 
2402166666.6666665077 0.158586710691451998611611884371 0.071788467466831207275390625000 -0.002998816315084695816040039062 -0.003847501939162611961364746094 0 0 0 0 
2402333333.3333334923 0.159332796931266812423544365629 0.069035701453685760498046875000 -0.003183264983817934989929199219 -0.003663060488179326057434082031 0 0 0 0 
2402500000.0000000000 0.160514712333679199218750000000 0.066478833556175231933593750000 -0.003527000080794095993041992188 -0.003382380120456219153163290869 0 0 0 0 
2402666666.6666665077 0.161646232008933993240518134371 0.064167052507400512695312500000 -0.003592553082853556113002158057 -0.003193965647369623184204101562 0 0 0 0 
2402833333.3333334923 0.162896394729614313323651231258 0.061691794544458389282226562500 -0.003746870206668972969055175781 -0.003058179048821330070495605469 0 0 0 0 
2403000000.0000000000 0.164420008659362792968750000000 0.059200465679168701171875000000 -0.003879317780956625938415527344 -0.002862167079001665115356445312 0 0 0 0 
2403166666.6666665077 0.166127011179924011230468750000 0.057125866413116462017018903907 -0.004037509672343730926513671875 -0.002607041969895362854003906250 0 0 0 0 
2403333333.3333334923 0.167544186115264892578125000000 0.054875995963811867450754533593 -0.004079196136444807052612304688 -0.002188540762290358977076865088 0 0 0 0 
2403500000.0000000000 0.169258713722229003906250000000 0.052960034459829330444335937500 -0.003993796650320292386526777051 -0.001871939166449009938480996240 0 0 0 0 
2403666666.6666665077 0.170936688780784606933593750000 0.051039818674325942993164062500 -0.003993580117821693420410156250 -0.001570161897689104080200195312 0 0 0 0 
2403833333.3333334923 0.172859996557235690017861884371 0.049201525747776031494140625000 -0.003909356426447629928588867188 -0.001462948974221945025800395435 0 0 0 0 
2404000000.0000000000 0.174201413989067105392294365629 0.047340031713247299194335937500 -0.003801062004640697999241494287 -0.001381288398988544940948486328 0 0 0 0 
2404166666.6666665077 0.176102936267852810958700615629 0.045917939394712448120117187500 -0.003641668008640408949611044775 -0.000970329332631081342697143555 0 0 0 0 
2404333333.3333334923 0.177693560719490106780682481258 0.044447999447584152221679687500 -0.003641663352027535004856728662 -0.000909695110749453306198120117 0 0 0 0 
2404500000.0000000000 0.179312333464622497558593750000 0.042854525148868560791015625000 -0.003411335637792944908142089844 -0.000986665021628141403198242188 0 0 0 0 
2404666666.6666665077 0.180833399295806912521200615629 0.041994377970695502544362653907 -0.003345292527228593826293945312 -0.000752876978367567062377929688 0 0 0 0 
2404833333.3333334923 0.182588636875152587890625000000 0.040760081261396408081054687500 -0.003367007244378327889683388818 -0.000687550636939704418182373047 0 0 0 0 
2405000000.0000000000 0.183979362249374389648437500000 0.040037665516138076782226562500 -0.003371973987668753103968954932 -0.000790598045568913221359252930 0 0 0 0 
2405166666.6666665077 0.185461580753326388260049384371 0.039509091526269912719726562500 -0.003231308655813335938694619287 -0.000611805997323244810104370117 0 0 0 0 
2405333333.3333334923 0.186779975891113309005575615629 0.038968551903963088989257812500 -0.003092620288953185081481933594 -0.000550836382899433374404907227 0 0 0 0 
2405500000.0000000000 0.188353404402732904632244981258 0.038535311818122856830637346093 -0.003109880723059176965000771631 -0.000520292785950005054473876953 0 0 0 0 
2405666666.6666665077 0.189570516347885104080361884371 0.038050044327974319458007812500 -0.003192820819094777107238769531 -0.000372944748960435390472412109 0 0 0 0 
2405833333.3333334923 0.190925776958465603927450615629 0.037902139127254493022878278907 -0.003172554075717926025390625000 -0.000426012440584600025981348859 0 0 0 0 
2406000000.0000000000 0.191754356026649502853231865629 0.037702977657318122173268903907 -0.003284071572124958038330078125 -0.000250452460022643208503723145 0 0 0 0 
2406166666.6666665077 0.192922338843345586578692518742 0.037605196237564086914062500000 -0.003220593556761742071864462744 -0.000102311540103983093373714308 0 0 0 0 
2406333333.3333334923 0.193790391087531987945880018742 0.037709102034568786621093750000 -0.003352163359522819952723837744 -0.000099030243291053920984268188 0 0 0 0 
2406500000.0000000000 0.194595783948898287674111884371 0.037594564259052276611328125000 -0.003228481160476804213282919775 -0.000221589405555278089925488882 0 0 0 0 
2406666666.6666665077 0.195074155926704406738281250000 0.037684112787246697162668596093 -0.003218604484573007063624716650 -0.000116277791676111505784173283 0 0 0 0 
2406833333.3333334923 0.195654481649398803710937500000 0.037853483110666281963307966407 -0.003166527720168232917785644531 0.000059988506109220907092094421 0 0 0 0 
2407000000.0000000000 0.196082875132560702224893134371 0.038021188229322426532785783593 -0.003108300501480699019191122900 0.000145135185448452803209581918 0 0 0 0 
2407166666.6666665077 0.196363002061843899825888115629 0.037764012813568122173268903907 -0.002950449706986546950099326025 0.000197171015315689200728815900 0 0 0 0 
2407333333.3333334923 0.196294531226158086578692518742 0.037937629967927932739257812500 -0.002939533675089478926417685400 0.000369796849554404616355895996 0 0 0 0 
2407500000.0000000000 0.196284040808677701095419365629 0.038139168173074722290039062500 -0.002828496275469661192653036963 0.000335218617692589814036768781 0 0 0 0 
2407666666.6666665077 0.196347534656524713714276231258 0.038154125213623046875000000000 -0.002771244384348392920253134619 0.000324273423757404088973999023 0 0 0 0 
2407833333.3333334923 0.195928379893302889724893134371 0.037998899817466742778737653907 -0.002711763605475426153895712744 0.000383277394575998187065124512 0 0 0 0 
2408000000.0000000000 0.195822879672050503829794365629 0.037826564162969589233398437500 -0.002947167726233602003810263525 0.000425032107159495407908839093 0 0 0 0 
2408166666.6666665077 0.195196494460105895996093750000 0.037642657756805419921875000000 -0.002692987676709889931919716943 0.000373808608856052214473170148 0 0 0 0 
2408333333.3333334923 0.194803059101104708572549384371 0.037074446678161621093750000000 -0.002839576685801147980930947412 0.000395462237065657973289489746 0 0 0 0 
2408500000.0000000000 0.194047927856445312500000000000 0.036729682236909873271901716407 -0.002799770794808865027186728369 0.000173891632584854987546643668 0 0 0 0 
2408666666.6666665077 0.193527281284332303146200615629 0.036230042576789862895925153907 -0.002808338031172751946690224756 0.000296628626529127413600367413 0 0 0 0 
2408833333.3333334923 0.192813038825988797286825615629 0.035492479801177978515625000000 -0.002902004169300198988673544775 0.000267133640591055209010523663 0 0 0 0 
2409000000.0000000000 0.191901683807373102386151231258 0.034590441733598709106445312500 -0.002857264131307601928710937500 0.000206718788831494802802485333 0 0 0 0 
2409166666.6666665077 0.190877676010131808181924384371 0.033592894673347473144531250000 -0.003006065031513572172877646338 0.000199943184270523488521575928 0 0 0 0 
2409333333.3333334923 0.190055951476097106933593750000 0.032711643725633621215820312500 -0.003049558261409401893615722656 0.000213582214200869202613830566 0 0 0 0 
2409500000.0000000000 0.188846468925476101974325615629 0.031129704788327220571497733204 -0.003313922090455890135524130713 0.000534556165803223848342895508 0 0 0 0 
2409666666.6666665077 0.187916174530982998946981865629 0.029910787940025329589843750000 -0.003420518944039940834045410156 0.000376339216018095612525939941 0 0 0 0 
2409833333.3333334923 0.186797589063644409179687500000 0.028447445482015609741210937500 -0.003379329340532422065734863281 0.000523378490470349788665771484 0 0 0 0 
2410000000.0000000000 0.185816764831542996505575615629 0.026769639924168590200403983204 -0.003549084067344665961024618994 0.000709229789208620786666870117 0 0 0 0 
2410166666.6666665077 0.184700548648834200760049384371 0.024740353226661678659459298046 -0.003475916339084506034851074219 0.000843137095216661691665649414 0 0 0 0 
2410333333.3333334923 0.183764860033989008147869981258 0.023227486759424209594726562500 -0.003487386973574758009669638525 0.000996461720205843448638916016 0 0 0 0 
2410500000.0000000000 0.182836949825286892989950615629 0.021116333082318309438685233204 -0.003521650331094861030578613281 0.001308448612689971923828125000 0 0 0 0 
2410666666.6666665077 0.181943491101265009124432481258 0.018856393173336979257603829296 -0.003440429223701357841491699219 0.001228213659487664916394877856 0 0 0 0 
2410833333.3333334923 0.181351795792579706390057481258 0.016730735078454021108607108204 -0.003318420378491282896754599463 0.001314084394834936098811484229 0 0 0 0 
2411000000.0000000000 0.180434986948967007736044365629 0.014554222114384169142753400195 -0.003259182674810289902928017725 0.001634223386645317077636718750 0 0 0 0 
2411166666.6666665077 0.179779827594757107833700615629 0.012311345897614959371546561329 -0.003248225897550582885742187500 0.001448572031222284057019877856 0 0 0 0 
2411333333.3333334923 0.179301947355270413497763115629 0.009878899902105331420898437500 -0.003230755915865302085876464844 0.001611104235053062005283974756 0 0 0 0 
2411500000.0000000000 0.178743377327919006347656250000 0.007591617293655872344970703125 -0.003220351645722984833958291162 0.001833238755352794907213520581 0 0 0 0 
2411666666.6666665077 0.178702414035797091385049384371 0.005101539660245180130004882812 -0.003241892205551267103907919775 0.001752439420670270919799804688 0 0 0 0 
2411833333.3333334923 0.178247556090354891678018134371 0.002849807962775229974033974756 -0.003109597600996493859532021631 0.001854712027125060991999960791 0 0 0 0 
2412000000.0000000000 0.178608670830726595779580634371 0.000092591515567619353532791138 -0.003142397617921233177185058594 0.001972163328900932832005166162 0 0 0 0 
2412166666.6666665077 0.178650110960006713867187500000 -0.002279646927490829987766884912 -0.003219185164198278947117470850 0.002081221435219049887416220557 0 0 0 0 
2412333333.3333334923 0.178794100880622891525106865629 -0.004792591556906700134277343750 -0.003170107956975698904750204932 0.002003165893256663842442177881 0 0 0 0 
2412500000.0000000000 0.179271057248115511795205634371 -0.007180763874202966690063476562 -0.003277197014540433883666992188 0.002117868047207593917846679688 0 0 0 0 
2412666666.6666665077 0.179749861359596307952557481258 -0.009603118523955345153808593750 -0.003215625416487454934361123193 0.002347005764022469954249716650 0 0 0 0 
2412833333.3333334923 0.180484488606452886383380018742 -0.012255499139428140467633632227 -0.003145137801766396002528525244 0.002310185926035047011134482275 0 0 0 0 
2413000000.0000000000 0.181491509079933194259481865629 -0.014415336772799490147600742773 -0.003204467240720986886265420068 0.002476921537891029877903603662 0 0 0 0 
2413166666.6666665077 0.181893095374107388595419365629 -0.016685115173459049570103829296 -0.003258260432630776925327920068 0.002684517297893763022181845557 0 0 0 0 
2413333333.3333334923 0.183156073093414306640625000000 -0.019150177016854289663294608204 -0.003090136218816041946411132812 0.002771370112895966009852743994 0 0 0 0 
2413500000.0000000000 0.184017241001129205901776231258 -0.021408945322036739694615548046 -0.003044686513021587891819619287 0.003031251253560184998753213037 0 0 0 0 
2413666666.6666665077 0.185320079326629610916299384371 -0.023569986224174499511718750000 -0.002959790173918008804321289062 0.003361145732924342155456542969 0 0 0 0 
2413833333.3333334923 0.186266079545021112640057481258 -0.025714416056871410715123360546 -0.002820804482325911955592490088 0.003498312551528214974644326318 0 0 0 0 
2414000000.0000000000 0.187539115548133905608807481258 -0.027607206255197528493861014454 -0.002760287141427398161647177588 0.003591509070247412161586142432 0 0 0 0 
2414166666.6666665077 0.188827008008956909179687500000 -0.029411582276225090026855468750 -0.002550504403188825087306357275 0.003633519168943167166468954932 0 0 0 0 
2414333333.3333334923 0.189892366528511102874432481258 -0.031558856368064880371093750000 -0.002421636134386063055751181494 0.003816743614152073860168457031 0 0 0 0 
2414500000.0000000000 0.191121935844421386718750000000 -0.032919757068157202983815778907 -0.002200935967266560034510947119 0.003995687235146760940551757812 0 0 0 0 
2414666666.6666665077 0.192283213138580294510049384371 -0.034471202641725540161132812500 -0.001973295817151666121241904150 0.003953438252210617065429687500 0 0 0 0 
2414833333.3333334923 0.193592637777328491210937500000 -0.035957906395196921611745466407 -0.001798580400645733096479106372 0.004044424742460250854492187500 0 0 0 0 
2415000000.0000000000 0.194598376750945989410723768742 -0.037197340279817581176757812500 -0.001761576160788536071777343750 0.004124868661165237426757812500 0 0 0 0 
2415166666.6666665077 0.195822626352310208419638115629 -0.038295146077871322631835937500 -0.001609187573194504001020121997 0.004152946639806032180786132812 0 0 0 0 
2415333333.3333334923 0.197084650397300692459268134371 -0.039266221225261688232421875000 -0.001481036073528229973436665112 0.004151767119765281677246093750 0 0 0 0 
2415500000.0000000000 0.198092192411422701736611884371 -0.040072534233331680297851562500 -0.001358598354272543950321816553 0.004124062601476907730102539062 0 0 0 0 
2415666666.6666665077 0.199139952659606905838174384371 -0.041009616106748580932617187500 -0.001162718632258475043653178638 0.004140933975577354431152343750 0 0 0 0 
2415833333.3333334923 0.199973464012145996093750000000 -0.041463151574134826660156250000 -0.001147429109551012949702597510 0.004373747855424880981445312500 0 0 0 0 
2416000000.0000000000 0.200712174177169799804687500000 -0.042028665542602539062500000000 -0.001017606002278625965118408203 0.004280555061995983123779296875 0 0 0 0 
2416166666.6666665077 0.201557368040084811111611884371 -0.042701672762632369995117187500 -0.000878987018950283527374267578 0.004309056792408227920532226562 0 0 0 0 
2416333333.3333334923 0.202131882309913607498330634371 -0.042701024562120437622070312500 -0.000667974294628947973251342773 0.004433922935277223587036132812 0 0 0 0 
2416500000.0000000000 0.202486604452133206466513115629 -0.043252103030681610107421875000 -0.000592959870118647813796997070 0.004426105413585901260375976562 0 0 0 0 
2416666666.6666665077 0.202870845794677706619424384371 -0.043495159596204757690429687500 -0.000403878657380119020312708722 0.004515236709266901016235351562 0 0 0 0 
2416833333.3333334923 0.203020796179771395584268134371 -0.043508078902959816669504533593 -0.000362230319296941215365809308 0.004594772588461638364309980176 0 0 0 0 
2417000000.0000000000 0.203156054019928006271200615629 -0.043593630194664001464843750000 -0.000073558861913625150918960571 0.004532136488705874356741620801 0 0 0 0 
2417166666.6666665077 0.202834680676460293868856865629 -0.043581966310739517211914062500 0.000121397839393466697491784367 0.004704593215137720108032226562 0 0 0 0 
2417333333.3333334923 0.202613070607185391525106865629 -0.043299239128828048706054687500 0.000359994039172306711047572003 0.004691670183092355728149414062 0 0 0 0 
2417500000.0000000000 0.202305525541305486481036268742 -0.043389238417148590087890625000 0.000558432308025658130645751953 0.004601050633937119570260332324 0 0 0 0 
2417666666.6666665077 0.201761335134506197830361884371 -0.043169375509023673320729841407 0.000688467989675700664520263672 0.004550000187009572982788085938 0 0 0 0 
2417833333.3333334923 0.201272755861282404143963731258 -0.042923305183649063110351562500 0.001032216241583227894426655347 0.004704117309302091598510742188 0 0 0 0 
2418000000.0000000000 0.200608402490615789215411268742 -0.042715746909379959106445312500 0.001231876667588948986650776440 0.004606587346643210324759198926 0 0 0 0 
2418166666.6666665077 0.199876725673675509353799384371 -0.042556744068861007690429687500 0.001306232879869640090345073169 0.004489903803914785385131835938 0 0 0 0 
2418333333.3333334923 0.198877885937690707107705634371 -0.042419258505105972290039062500 0.001463546766899525902391743237 0.004360177088528872403616620801 0 0 0 0 
2418500000.0000000000 0.197905272245407104492187500000 -0.042411033064126968383789062500 0.001704601687379180951359414209 0.004241005517542362213134765625 0 0 0 0 
2418666666.6666665077 0.196821495890617398361044365629 -0.042338397353887557983398437500 0.001867784769274293942692422021 0.004185119643807411193847656250 0 0 0 0 
2418833333.3333334923 0.195626229047775296310263115629 -0.042495809495449073101003278907 0.001880673691630363898036337744 0.003901696531102060837986611475 0 0 0 0 
2419000000.0000000000 0.194240778684616088867187500000 -0.042737334966659552837331403907 0.001913710264489054896711039966 0.003745135152712463898899697412 0 0 0 0 
2419166666.6666665077 0.193038806319236810882244981258 -0.042975608259439468383789062500 0.002084688981994986967799521338 0.003796982811763883070704794775 0 0 0 0 
2419333333.3333334923 0.191483363509178189376669365629 -0.043385621160268776630442033593 0.002083713887259364128112792969 0.003483505453914403915405273438 0 0 0 0 
2419500000.0000000000 0.189953759312629699707031250000 -0.043916661292314529418945312500 0.002193403197452425956726074219 0.003422636073082685904261923682 0 0 0 0 
2419666666.6666665077 0.188340097665786687652911268742 -0.044735129922628402709960937500 0.002177539281547069983241415869 0.003523903898894786834716796875 0 0 0 0 
2419833333.3333334923 0.186749815940856905838174384371 -0.045379027724266052246093750000 0.002122545614838600158691406250 0.003266539191827178001403808594 0 0 0 0 
