# Hz S RI R 50
2400000000.0000000000 0.171147078275680486481036268742 0.039985351264476783061940778907 0.000289652030915021896362304688 -0.002104303566738963127136230469 0 0 0 0 
2400166666.6666665077 0.171740338206291198730468750000 0.039455831050872802734375000000 0.000332800176693126613467615948 -0.002041620668023825125453329932 0 0 0 0 
2400333333.3333334923 0.172077924013137789627236884371 0.038723755627870559692382812500 0.000224056857405230402946472168 -0.001928032608702779033063579028 0 0 0 0 
2400500000.0000000000 0.172556504607200594803018134371 0.038071628659963607788085937500 0.000369983055861666798591613770 -0.001931315753608942031860351562 0 0 0 0 
2400666666.6666665077 0.172970488667488098144531250000 0.037451595067977912212331403907 0.000207497141673229607656755991 -0.001725084614008665084838867188 0 0 0 0 
2400833333.3333334923 0.173213243484497098068075615629 0.036828462034463882446289062500 0.000309521768940612673759460449 -0.001762344501912594058393168872 0 0 0 0 
2401000000.0000000000 0.173387989401817294021768134371 0.036318838596343987201731096093 0.000153925153426826000213623047 -0.001797488774172961928723979419 0 0 0 0 
2401166666.6666665077 0.173557490110397311111611884371 0.035344213247299187397043596093 0.000188559861271642202704829083 -0.001671622158028184933903359521 0 0 0 0 
2401333333.3333334923 0.173414379358291598220986884371 0.034871947020292282104492187500 0.000232181890169158605024060660 -0.001881718286313116984126425635 0 0 0 0 
2401500000.0000000000 0.173584237694740295410156250000 0.034269973635673522949218750000 0.000407735380576923489570617676 -0.001816225936636328914045024341 0 0 0 0 
2401666666.6666665077 0.173531308770179804046307481258 0.033805415034294128417968750000 0.000459732080344110673100072040 -0.001759385108016430897953652490 0 0 0 0 
2401833333.3333334923 0.173391476273536709884481865629 0.032914143055677407001535783593 0.000485801370814442580372410907 -0.001854558358900249004364013672 0 0 0 0 
2402000000.0000000000 0.172998949885368402679119981258 0.032159458845853812480886091407 0.000438259885413572192192077637 -0.001922949915751815059064555591 0 0 0 0 
2402166666.6666665077 0.172889709472656305511151231258 0.031302802264690399169921875000 0.000387079722713679075241088867 -0.001801436766982078985926962744 0 0 0 0 
2402333333.3333334923 0.172634363174438504318075615629 0.030639378353953361511230468750 0.000609779090154916048049926758 -0.001848403480835258960723876953 0 0 0 0 
2402500000.0000000000 0.172649890184402493575888115629 0.029678368940949440002441406250 0.000528005824889987707138061523 -0.001941669150255620913264609229 0 0 0 0 
2402666666.6666665077 0.172155946493148803710937500000 0.028760205954313281667689139454 0.000737021502573043107986450195 -0.001983380177989602088928222656 0 0 0 0 
2402833333.3333334923 0.171866595745086697677450615629 0.027801010757684711111048514454 0.000593974837101995944976806641 -0.001957115018740295930149697412 0 0 0 0 
2403000000.0000000000 0.171514064073562594314736884371 0.026600537821650508535364920704 0.000494932231958955526351928711 -0.002160718897357583045959472656 0 0 0 0 
2403166666.6666665077 0.171305209398269708831463731258 0.025474229827523231506347656250 0.000565000169444829225540161133 -0.002476216992363334135768271338 0 0 0 0 
2403333333.3333334923 0.170966312289238003829794365629 0.024370905011892318725585937500 0.000423144898377358913421630859 -0.002514101564884185791015625000 0 0 0 0 
2403500000.0000000000 0.170471459627151489257812500000 0.023208947852253910409947579296 0.000303580338368192315101623535 -0.002371643204241991043090820312 0 0 0 0 
2403666666.6666665077 0.170345082879066495040731865629 0.021778734400868419301966483204 0.000517750042490661144256591797 -0.002618028782308102087733603369 0 0 0 0 
2403833333.3333334923 0.170076832175254794021768134371 0.020537024363875389099121093750 0.000221039925236254903391161508 -0.002802398055791854858398437500 0 0 0 0 
2404000000.0000000000 0.169705539941787691970986884371 0.019207818433642390859583670704 0.000265680224401876276165562762 -0.002793706022202969031092978369 0 0 0 0 
2404166666.6666665077 0.169255033135414095779580634371 0.017532100901007648813267891796 -0.000049576028686715289950370789 -0.002994614420458673997166298975 0 0 0 0 
2404333333.3333334923 0.169011682271957397460937500000 0.016145907342433929443359375000 -0.000302176660625264102786463605 -0.003036465030163526968715048682 0 0 0 0 
2404500000.0000000000 0.168715670704841613769531250000 0.014424109831452369689941406250 -0.000164304219651967287063598633 -0.002854169579222797913792275537 0 0 0 0 
2404666666.6666665077 0.168586418032646206954794365629 0.012945558875799180811871913477 -0.000485014403238892609446925031 -0.002904403954744338989257812500 0 0 0 0 
2404833333.3333334923 0.168306142091751098632812500000 0.011255454272031780588170235546 -0.000536628067493438720703125000 -0.002975800307467579841613769531 0 0 0 0 
2405000000.0000000000 0.168391644954681396484375000000 0.009523900225758552551269531250 -0.000826957286335527896881103516 -0.002912266412749886946437216650 0 0 0 0 
2405166666.6666665077 0.168120756745338412185830634371 0.007591339759528636932373046875 -0.000913517666049301624298095703 -0.003078764770179986953735351562 0 0 0 0 
2405333333.3333334923 0.168149083852767888824786268742 0.005674666259437800321097089551 -0.000939188292250037193298339844 -0.002998065203428267998936318506 0 0 0 0 
2405500000.0000000000 0.168259203433990506271200615629 0.003925314173102378845214843750 -0.001142196706496179103851318359 -0.002816022140905261039733886719 0 0 0 0 
2405666666.6666665077 0.168039783835411099532919365629 0.002148664090782403945922851562 -0.001309539657086133956909179688 -0.002869680058211088180541992188 0 0 0 0 
2405833333.3333334923 0.167991891503334100921307481258 0.000397788418922573273808079852 -0.001439742161892354922053671729 -0.002704309765249491171595908057 0 0 0 0 
2406000000.0000000000 0.168066248297691400725994981258 -0.001736556063406168980839394678 -0.001376516651362180926679301685 -0.002554982434958219961879111182 0 0 0 0 
2406166666.6666665077 0.167789459228515597244424384371 -0.003379727946594357924220419775 -0.001807886059395968914031982422 -0.002503350144252181053161621094 0 0 0 0 
2406333333.3333334923 0.168161317706108093261718750000 -0.005188745912164449691772460938 -0.001699814223684370951411581885 -0.002545508788898586793186806787 0 0 0 0 
2406500000.0000000000 0.167926058173179598709268134371 -0.007004701998084784421438886426 -0.001750306342728435993194580078 -0.002395195653662085966822958838 0 0 0 0 
2406666666.6666665077 0.167841270565986605545205634371 -0.008684488944709300994873046875 -0.001839888864196836948394775391 -0.002511643571779131889343261719 0 0 0 0 
2406833333.3333334923 0.167846158146858187576455634371 -0.010504134930670259648333164648 -0.001865474507212639071820903247 -0.002404755214229226112365722656 0 0 0 0 
2407000000.0000000000 0.167880579829216003417968750000 -0.012145658023655419785469256055 -0.001934958505444229082820273291 -0.002232579514384270148036337744 0 0 0 0 
2407166666.6666665077 0.168079257011413601974325615629 -0.013714920729398729151715663477 -0.001836775802075863101361918872 -0.002274808706715703010559082031 0 0 0 0 
2407333333.3333334923 0.168018758296966608245526231258 -0.015133823268115520477294921875 -0.002077568089589477019069052588 -0.002282543340697884993312216650 0 0 0 0 
2407500000.0000000000 0.168002098798751803299111884371 -0.016583666205406188964843750000 -0.002164260717108846144435263525 -0.002311390591785312132594443213 0 0 0 0 
2407666666.6666665077 0.168054431676864596267861884371 -0.017687112092971798288365548046 -0.002255237195640801949741982568 -0.002149302279576659202575683594 0 0 0 0 
2407833333.3333334923 0.168118402361869812011718750000 -0.019081922248005870473841483204 -0.002416938077658414840698242188 -0.002224048366770147843601845850 0 0 0 0 
2408000000.0000000000 0.168343618512153597732705634371 -0.020260857418179508554478829296 -0.002449769526720046997070312500 -0.002355890581384301185607910156 0 0 0 0 
2408166666.6666665077 0.168378278613090487381143134371 -0.021042970940470698965052420704 -0.002607610309496521949768066406 -0.002083138562738894982578896631 0 0 0 0 
2408333333.3333334923 0.168703794479370089431924384371 -0.022088184952735900878906250000 -0.002726039150729774995091103662 -0.002109137829393147988560341943 0 0 0 0 
2408500000.0000000000 0.168929085135459899902343750000 -0.022899169474840160715123360546 -0.003044235752895474000218056787 -0.002050035400316119194030761719 0 0 0 0 
2408666666.6666665077 0.169269695878028897384481865629 -0.023813337087631229055384451954 -0.003276720177382231192347861182 -0.001860268530435859940172504956 0 0 0 0 
2408833333.3333334923 0.169389784336090087890625000000 -0.024587284773588180541992187500 -0.003274185117334126992466591943 -0.001679999171756207942962646484 0 0 0 0 
2409000000.0000000000 0.169862404465675409515057481258 -0.025397937744855880737304687500 -0.003389254445210098786595009912 -0.001814206480048597075818705981 0 0 0 0 
2409166666.6666665077 0.170158788561821011642294365629 -0.025916075333952900278111641796 -0.003618246642872691154479980469 -0.001446514390408992984174418872 0 0 0 0 
2409333333.3333334923 0.170464575290679903885049384371 -0.026881322264671329153040701954 -0.003715357277542353110072470557 -0.001329536084085702896118164062 0 0 0 0 
2409500000.0000000000 0.170774966478347806075888115629 -0.027572408318519588815709298046 -0.003780005034059286117553710938 -0.001180108869448303959490131909 0 0 0 0 
2409666666.6666665077 0.171044215559959411621093750000 -0.028343375772237781179407889454 -0.003927588928490877151489257812 -0.001061373855918646075605082935 0 0 0 0 
2409833333.3333334923 0.171188309788703890701455634371 -0.028976282104849818838099295704 -0.003854914568364620208740234375 -0.000771079328842461109161376953 0 0 0 0 
2410000000.0000000000 0.171374410390853909591513115629 -0.029634838923811909067174141796 -0.003922429401427507400512695312 -0.000663021113723516464233398438 0 0 0 0 
2410166666.6666665077 0.171532288193702697753906250000 -0.030232433229684829711914062500 -0.004157223273068667325491620801 -0.000343074323609471321105957031 0 0 0 0 
2410333333.3333334923 0.171664983034133911132812500000 -0.030955355614423748361607735546 -0.003991891164332628250122070312 -0.000128762127133086296633043832 0 0 0 0 
2410500000.0000000000 0.171796068549156188964843750000 -0.031673017889261252666432966407 -0.003984607756137847900390625000 -0.000043233430915279307145664828 0 0 0 0 
2410666666.6666665077 0.171609207987785311599893134371 -0.032410789281129837036132812500 -0.004124250728636980056762695312 0.000223181123146787312909802847 0 0 0 0 
2410833333.3333334923 0.171535968780517605880575615629 -0.032870199531316757202148437500 -0.004177963361144065856933593750 0.000418554322095587903827113019 0 0 0 0 
2411000000.0000000000 0.171209171414375305175781250000 -0.033429272472858428955078125000 -0.004034633282572031021118164062 0.000838282285258173942565917969 0 0 0 0 
2411166666.6666665077 0.171095296740531893631143134371 -0.034322530031204216693918596093 -0.004003799520432949066162109375 0.000796869280748069286346435547 0 0 0 0 
2411333333.3333334923 0.170717209577560397049111884371 -0.034814827144145972515065778907 -0.003963166847825050354003906250 0.001115312334150075912475585938 0 0 0 0 
2411500000.0000000000 0.170426309108734103103799384371 -0.035754527896642691875417341407 -0.003942517098039388656616210938 0.001302986056543887095210410010 0 0 0 0 
2411666666.6666665077 0.170333623886108398437500000000 -0.036374002695083618164062500000 -0.003809075336903334097621298682 0.001428872346878051974652934497 0 0 0 0 
2411833333.3333334923 0.169944077730178805252236884371 -0.036919523030519492412526716407 -0.003779750317335128784179687500 0.001590207801200449900386191260 0 0 0 0 
2412000000.0000000000 0.169449061155319213867187500000 -0.037627622485160827636718750000 -0.003728130133822559876682900537 0.001798145240172744014142680591 0 0 0 0 
2412166666.6666665077 0.168781474232673700530682481258 -0.038322031497955322265625000000 -0.003603375749662518934962607275 0.001974721439182757897617959131 0 0 0 0 
2412333333.3333334923 0.168580859899520901779013115629 -0.039263024926185607910156250000 -0.003450827905908226966857910156 0.002063882770016789002659463037 0 0 0 0 
2412500000.0000000000 0.167778030037879888336505018742 -0.039887543767690658569335937500 -0.003456787671893835067749023438 0.002294124802574514909031533350 0 0 0 0 
2412666666.6666665077 0.167391821742057800292968750000 -0.040967885404825210571289062500 -0.003446993650868535041809082031 0.002600362990051507949829101562 0 0 0 0 
2412833333.3333334923 0.166691318154334994217080634371 -0.041847046464681632305104841407 -0.003332096384838223891017294775 0.002783909440040587945225381006 0 0 0 0 
2413000000.0000000000 0.166124850511550903320312500000 -0.042891826480627059936523437500 -0.003009424079209566116333007812 0.002937023062258958816528320312 0 0 0 0 
2413166666.6666665077 0.165468707680702209472656250000 -0.043707661330699920654296875000 -0.002819866174831985993626259912 0.003135941457003355026245117188 0 0 0 0 
2413333333.3333334923 0.164655163884162902832031250000 -0.044820662587881088256835937500 -0.002608989598229527907130576025 0.003297348972409964041468954932 0 0 0 0 
2413500000.0000000000 0.164045944809913607498330634371 -0.045946486294269561767578125000 -0.002444371581077576117274618994 0.003385168267413973808288574219 0 0 0 0 
2413666666.6666665077 0.163449883460998507400674384371 -0.046961478888988501811940778907 -0.002150257816538215117213583838 0.003426057752221823172328329932 0 0 0 0 
2413833333.3333334923 0.162566348910331698318643134371 -0.047997225075960159301757812500 -0.001734932884573936896083212744 0.003603131743147968812229775537 0 0 0 0 
2414000000.0000000000 0.161846131086349487304687500000 -0.048988256603479392314870466407 -0.001687000039964914105058979565 0.003578044474124908013584756006 0 0 0 0 
2414166666.6666665077 0.161361828446388189117755018742 -0.050036441534757607196848283593 -0.001422695931978523948072123950 0.003659224836155772209167480469 0 0 0 0 
2414333333.3333334923 0.160716503858566311935263115629 -0.051200851798057563091237653907 -0.000973633141256868839263916016 0.003581259166821836991551064600 0 0 0 0 
2414500000.0000000000 0.160342484712600708007812500000 -0.052351117134094238281250000000 -0.000772998959291726350784301758 0.003631057450547813935520791162 0 0 0 0 
2414666666.6666665077 0.159867614507675198654013115629 -0.053360201418399810791015625000 -0.000460580631624907309382838116 0.003445042762905358834507607568 0 0 0 0 
2414833333.3333334923 0.159352421760559109786825615629 -0.054728966206312179565429687500 -0.000158660550368949798032483511 0.003544450039044022993800497900 0 0 0 0 
2415000000.0000000000 0.159102275967597989181356865629 -0.055985674262046807025949846093 -0.000051409162551863119006156921 0.003345731180161238150355673682 0 0 0 0 
2415166666.6666665077 0.158674597740173312088174384371 -0.057154908776283257221262346093 0.000171825537108816206455230713 0.003042231779545546011683798682 0 0 0 0 
2415333333.3333334923 0.158406972885131808181924384371 -0.058654516935348510742187500000 0.000423746241722255999415797101 0.003105796407908200783970498193 0 0 0 0 
2415500000.0000000000 0.158202052116393987457598768742 -0.059875074774026870727539062500 0.000461340794572606682777404785 0.002685064449906349182128906250 0 0 0 0 
2415666666.6666665077 0.157954841852188110351562500000 -0.061147592961788177490234375000 0.000440038333181291818618774414 0.002643898129463195800781250000 0 0 0 0 
2415833333.3333334923 0.157773494720459012130575615629 -0.062713138759136199951171875000 0.000529120618011802434921264648 0.002238226588815451102015829932 0 0 0 0 
2416000000.0000000000 0.157407030463218688964843750000 -0.064261294901371002197265625000 0.000589620904065668582916259766 0.002090760273858904838562011719 0 0 0 0 
2416166666.6666665077 0.157370433211326599121093750000 -0.065539881587028503417968750000 0.000624369014985859394073486328 0.001960544148460030989405966650 0 0 0 0 
2416333333.3333334923 0.157094165682792691329794365629 -0.066998891532421112060546875000 0.000487806042656302506297510968 0.001899032038636506037471152197 0 0 0 0 
2416500000.0000000000 0.157110154628753689864950615629 -0.068425931036472320556640625000 0.000503583461977541446685791016 0.001672697602771223025081015479 0 0 0 0 
2416666666.6666665077 0.156733885407447787185830634371 -0.069723792374134063720703125000 0.000563918729312717914581298828 0.001564815524034202098846435547 0 0 0 0 
2416833333.3333334923 0.156623765826225308517294365629 -0.071212343871593475341796875000 0.000517248641699552536010742188 0.001486706663854419968248676831 0 0 0 0 
2417000000.0000000000 0.156293898820877102950888115629 -0.072484470903873443603515625000 0.000518279965035617351531982422 0.001478471094742416901829384912 0 0 0 0 
2417166666.6666665077 0.156183138489723205566406250000 -0.073620408773422241210937500000 0.000432900356827303821414393292 0.001309521379880606911302876050 0 0 0 0 
2417333333.3333334923 0.156009659171104403396768134371 -0.074827000498771667480468750000 0.000125445760204456800788325177 0.001227855100296437957166362231 0 0 0 0 
2417500000.0000000000 0.155836269259452792068643134371 -0.076117359101772308349609375000 0.000298406288493424708217066632 0.001132376957684754891636513818 0 0 0 0 
2417666666.6666665077 0.155855447053909301757812500000 -0.076950237154960632324218750000 0.000316229969030246084362584247 0.001289631240069865963579487378 0 0 0 0 
2417833333.3333334923 0.155642822384834289550781250000 -0.077870734035968780517578125000 0.000107181091152597205199380193 0.001271223649382591030718159253 0 0 0 0 
2418000000.0000000000 0.155493274331092806717080634371 -0.078974537551403045654296875000 0.000058823865401791408658027649 0.001186386682093143896815634619 0 0 0 0 
2418166666.6666665077 0.155494645237922696212606865629 -0.079612925648689270019531250000 0.000087492851889692246913909912 0.001134479651227592988255166162 0 0 0 0 
2418333333.3333334923 0.155638113617897005935830634371 -0.080573782324790954589843750000 0.000004945385626342613250017166 0.001205942477099598104592348413 0 0 0 0 
2418500000.0000000000 0.155501529574394198318643134371 -0.081323541700839996337890625000 -0.000007741478839307092130184174 0.001272198511287569999694824219 0 0 0 0 
2418666666.6666665077 0.155612871050834711272869981258 -0.082139089703559875488281250000 -0.000186404344276525107309064322 0.001257637282833456993103027344 0 0 0 0 
2418833333.3333334923 0.155321002006530789474325615629 -0.082808464765548706054687500000 -0.000103113306977320503122867723 0.001227069646120070977451943506 0 0 0 0 
2419000000.0000000000 0.155093342065811212737713731258 -0.083447858691215515136718750000 -0.000054809534049127250909805298 0.001352002960629761002184223706 0 0 0 0 
2419166666.6666665077 0.155096918344497708419638115629 -0.084118314087390899658203125000 -0.000304662884445860981941223145 0.001288927393034100966212607275 0 0 0 0 
2419333333.3333334923 0.154636308550834711272869981258 -0.084461525082588195800781250000 -0.000302270957035943919986170636 0.001290644169785081906559609521 0 0 0 0 
2419500000.0000000000 0.154633164405822809417401231258 -0.085183508694171905517578125000 -0.000316530728014186024665832520 0.001288958825170994021772075122 0 0 0 0 
2419666666.6666665077 0.154574453830718994140625000000 -0.085598468780517578125000000000 -0.000292992423055693507194519043 0.001492425450123846964595175635 0 0 0 0 
2419833333.3333334923 0.154309123754501287262286268742 -0.085924826562404632568359375000 -0.000331375951645895784527379169 0.001435762387700378894805908203 0 0 0 0 
