# Version 1.00
#
freq[Hz];re:Trc1_S11;im:Trc1_S11;re:Trc2_S21;im:Trc2_S21;
2.400000000000000E+009;1.580233424901962E-001;6.287203729152679E-002;-4.201572854071856E-003;1.584560493938625E-003;
2.400166666666667E+009;1.579894125461578E-001;6.127087399363518E-002;-4.183744080364704E-003;1.668375916779041E-003;
2.400333333333334E+009;1.576298773288727E-001;5.921073257923126E-002;-4.094846080988646E-003;1.788239576853812E-003;
2.400500000000000E+009;1.576583087444305E-001;5.724821612238884E-002;-4.015695303678513E-003;1.928293728269637E-003;
2.400666666666667E+009;1.575574725866318E-001;5.532722547650337E-002;-3.887135069817305E-003;2.006601076573134E-003;
2.400833333333334E+009;1.579793542623520E-001;5.332753434777260E-002;-3.826768836006522E-003;2.056087832897902E-003;
2.401000000000000E+009;1.578360199928284E-001;5.112727358937264E-002;-3.785538952797651E-003;2.236568834632635E-003;
2.401166666666667E+009;1.579963266849518E-001;4.924471676349640E-002;-3.545125946402550E-003;2.212180756032467E-003;
2.401333333333334E+009;1.581620723009110E-001;4.708343371748924E-002;-3.548233769834042E-003;2.275805687531829E-003;
2.401500000000000E+009;1.586419194936752E-001;4.515204206109047E-002;-3.478679107502103E-003;2.554148435592651E-003;
2.401666666666667E+009;1.587595194578171E-001;4.309994354844093E-002;-3.362821415066719E-003;2.453149994835258E-003;
2.401833333333334E+009;1.592071950435638E-001;4.100666567683220E-002;-3.176394617184997E-003;2.569614443928003E-003;
2.402000000000000E+009;1.595014929771423E-001;3.895596414804459E-002;-3.232956398278475E-003;2.727559302002192E-003;
2.402166666666667E+009;1.599130630493164E-001;3.669641166925430E-002;-3.037714166566730E-003;2.829052042216063E-003;
2.402333333333334E+009;1.605833917856216E-001;3.497391194105148E-002;-3.031429136171937E-003;2.701047575101256E-003;
2.402500000000000E+009;1.615783274173737E-001;3.325057774782181E-002;-2.985212020576000E-003;2.779264235869050E-003;
2.402666666666667E+009;1.620380580425263E-001;3.161976113915443E-002;-2.764774253591895E-003;2.982673933729529E-003;
2.402833333333334E+009;1.627728044986725E-001;2.981129661202431E-002;-2.764440840110183E-003;3.128161653876305E-003;
2.403000000000000E+009;1.635157018899918E-001;2.795431390404701E-002;-2.778527094051242E-003;3.120937151834369E-003;
2.403166666666667E+009;1.645378917455673E-001;2.640385180711746E-002;-2.613999648019671E-003;3.155171871185303E-003;
2.403333333333334E+009;1.654558479785919E-001;2.516173198819161E-002;-2.413642359897494E-003;3.118620254099369E-003;
2.403500000000000E+009;1.662987470626831E-001;2.368980832397938E-002;-2.481762552633882E-003;3.151193028315902E-003;
2.403666666666667E+009;1.672011315822601E-001;2.205238118767738E-002;-2.066075336188078E-003;3.239977639168501E-003;
2.403833333333334E+009;1.684197187423706E-001;2.075407281517983E-002;-2.387612126767635E-003;3.341413801535964E-003;
2.404000000000000E+009;1.692382991313934E-001;1.972675137221813E-002;-2.116945805028081E-003;3.488688264042139E-003;
2.404166666666667E+009;1.701259016990662E-001;1.852434501051903E-002;-2.057427074760199E-003;3.541336627677083E-003;
2.404333333333334E+009;1.711420267820358E-001;1.755545288324356E-002;-1.987668685615063E-003;3.548960434272885E-003;
2.404500000000000E+009;1.720356792211533E-001;1.648578979074955E-002;-1.820213044993579E-003;3.598655341193080E-003;
2.404666666666667E+009;1.730523258447647E-001;1.559947524219751E-002;-1.923096948303282E-003;3.693061880767345E-003;
2.404833333333334E+009;1.738974153995514E-001;1.486018300056458E-002;-1.714522833935916E-003;3.688399447128177E-003;
2.405000000000000E+009;1.749642193317413E-001;1.419841777533293E-002;-1.652842038311064E-003;3.934304695576429E-003;
2.405166666666667E+009;1.756750494241715E-001;1.350592356175184E-002;-1.383826951496303E-003;3.983973991125822E-003;
2.405333333333334E+009;1.767463684082031E-001;1.270935963839293E-002;-1.271766261197627E-003;4.016262479126453E-003;
2.405500000000000E+009;1.771790534257889E-001;1.233618613332510E-002;-1.173659926280379E-003;4.161206074059010E-003;
2.405666666666667E+009;1.780517697334290E-001;1.203795243054628E-002;-1.195289194583893E-003;4.110820591449738E-003;
2.405833333333334E+009;1.785934269428253E-001;1.145538687705994E-002;-9.079414885491133E-004;4.291993100196123E-003;
2.406000000000000E+009;1.792063862085342E-001;1.105719804763794E-002;-7.657401147298515E-004;4.326337948441505E-003;
2.406166666666667E+009;1.795613020658493E-001;1.086789555847645E-002;-6.023968453519046E-004;4.150947555899620E-003;
2.406333333333334E+009;1.802693009376526E-001;1.056157052516937E-002;-3.544174251146615E-004;4.286158829927445E-003;
2.406500000000000E+009;1.805105209350586E-001;1.009909063577652E-002;-2.308472903678194E-004;4.454941023141146E-003;
2.406666666666667E+009;1.806850731372833E-001;9.982500225305557E-003;-1.162790795206092E-004;4.332008305937052E-003;
2.406833333333334E+009;1.808373630046845E-001;9.648320265114307E-003;-3.752744532903307E-006;4.349728580564261E-003;
2.407000000000000E+009;1.808349341154099E-001;9.315482340753079E-003;9.700071677798405E-005;4.176158457994461E-003;
2.407166666666667E+009;1.809655576944351E-001;9.133777581155300E-003;3.183537337463349E-004;4.312081262469292E-003;
2.407333333333334E+009;1.808136701583862E-001;8.554737083613873E-003;6.209234707057476E-004;4.227183759212494E-003;
2.407500000000000E+009;1.807427704334259E-001;8.077690377831459E-003;6.446812767535448E-004;4.097269847989082E-003;
2.407666666666667E+009;1.804790645837784E-001;7.736679166555405E-003;6.453774985857308E-004;4.194954410195351E-003;
2.407833333333334E+009;1.799159049987793E-001;7.174197118729353E-003;1.003572600893676E-003;4.071474075317383E-003;
2.408000000000000E+009;1.797189265489578E-001;6.479364354163408E-003;1.078424509614706E-003;4.043213091790676E-003;
2.408166666666667E+009;1.792326867580414E-001;6.097169592976570E-003;1.282489392906427E-003;4.128432832658291E-003;
2.408333333333334E+009;1.789468079805374E-001;5.385567434132099E-003;1.344477524980903E-003;4.059420898556709E-003;
2.408500000000000E+009;1.782450526952744E-001;4.388743080198765E-003;1.491384464316070E-003;3.830783534795046E-003;
2.408666666666667E+009;1.777303516864777E-001;3.626124700531364E-003;1.589442254044116E-003;3.739726729691029E-003;
2.408833333333334E+009;1.769935935735703E-001;2.678835764527321E-003;1.426482689566910E-003;3.708846634253860E-003;
2.409000000000000E+009;1.763495057821274E-001;1.535898772999644E-003;1.739534549415112E-003;3.699113847687841E-003;
2.409166666666667E+009;1.756723821163178E-001;5.549114430323243E-004;1.896466361358762E-003;3.479980630800128E-003;
2.409333333333334E+009;1.750470995903015E-001;-7.624538266099989E-004;1.841496326960623E-003;3.326481906697154E-003;
2.409500000000000E+009;1.742623746395111E-001;-2.142930170521140E-003;2.008200855925679E-003;3.282682038843632E-003;
2.409666666666667E+009;1.734633743762970E-001;-3.420049790292978E-003;2.009009942412376E-003;3.232637653127313E-003;
2.409833333333334E+009;1.728070825338364E-001;-4.745978862047195E-003;2.227558521553874E-003;3.295211354270577E-003;
2.410000000000000E+009;1.721660196781158E-001;-6.160016171634197E-003;2.134967595338821E-003;3.162164241075516E-003;
2.410166666666667E+009;1.715836226940155E-001;-7.781210355460644E-003;2.170000458136201E-003;3.006563521921635E-003;
2.410333333333334E+009;1.709537655115128E-001;-9.356368333101273E-003;2.332233591005206E-003;3.138028085231781E-003;
2.410500000000000E+009;1.703787297010422E-001;-1.112795807421207E-002;2.325551118701696E-003;2.938945777714253E-003;
2.410666666666667E+009;1.697325259447098E-001;-1.295538432896137E-002;2.261693822219968E-003;2.867407165467739E-003;
2.410833333333334E+009;1.693633049726486E-001;-1.471955701708794E-002;2.487285761162639E-003;2.825284842401743E-003;
2.411000000000000E+009;1.690723299980164E-001;-1.651291735470295E-002;2.581070642918348E-003;2.713766414672136E-003;
2.411166666666667E+009;1.687005162239075E-001;-1.850358769297600E-002;2.617748919874430E-003;2.703054342418909E-003;
2.411333333333334E+009;1.682792752981186E-001;-2.034780383110046E-002;2.676767762750387E-003;2.734528388828039E-003;
2.411500000000000E+009;1.681979298591614E-001;-2.242968231439591E-002;2.761642681434751E-003;2.469132887199521E-003;
2.411666666666667E+009;1.681909710168839E-001;-2.432163245975971E-002;2.968872198835015E-003;2.569188131019473E-003;
2.411833333333334E+009;1.681071519851685E-001;-2.605265565216541E-002;2.940814476460218E-003;2.177848480641842E-003;
2.412000000000000E+009;1.680825501680374E-001;-2.823661640286446E-002;2.848072443157435E-003;2.332636155188084E-003;
2.412166666666667E+009;1.680766642093658E-001;-3.017327561974526E-002;3.094774670898914E-003;2.257434185594320E-003;
2.412333333333334E+009;1.685518175363541E-001;-3.204102441668510E-002;3.169248113408685E-003;2.138915471732616E-003;
2.412500000000000E+009;1.685687005519867E-001;-3.385723382234573E-002;3.211338305845857E-003;1.940979156643152E-003;
2.412666666666667E+009;1.688275188207626E-001;-3.591711819171906E-002;3.299729898571968E-003;1.834934344515204E-003;
2.412833333333334E+009;1.693007946014404E-001;-3.770728781819344E-002;3.392106853425503E-003;1.941629452630878E-003;
2.413000000000000E+009;1.695305705070496E-001;-3.973098099231720E-002;3.334696637466550E-003;1.567459898069501E-003;
2.413166666666667E+009;1.699942797422409E-001;-4.146931692957878E-002;3.516552504152060E-003;1.652979757636786E-003;
2.413333333333334E+009;1.703085601329804E-001;-4.296366125345230E-002;3.539172466844320E-003;1.522192265838385E-003;
2.413500000000000E+009;1.709099560976028E-001;-4.475324973464012E-002;3.573752939701080E-003;1.563768368214369E-003;
2.413666666666667E+009;1.715511530637741E-001;-4.641087353229523E-002;3.693368053063750E-003;1.353459083475173E-003;
2.413833333333334E+009;1.719544082880020E-001;-4.771593213081360E-002;3.704660106450319E-003;1.145414193160832E-003;
2.414000000000000E+009;1.724273562431335E-001;-4.908929020166397E-002;3.779530059546232E-003;1.086500938981772E-003;
2.414166666666667E+009;1.730657964944840E-001;-5.044676735997200E-002;3.808537032455206E-003;9.249008144252002E-004;
2.414333333333334E+009;1.735924631357193E-001;-5.179346725344658E-002;3.793089184910059E-003;8.021503454074264E-004;
2.414500000000000E+009;1.743828803300858E-001;-5.282415822148323E-002;3.980526234954596E-003;6.485773483291268E-004;
2.414666666666667E+009;1.748646050691605E-001;-5.386035516858101E-002;3.772542811930180E-003;5.558369448408485E-004;
2.414833333333334E+009;1.752924174070358E-001;-5.499032884836197E-002;3.846100531518459E-003;4.539506917353720E-004;
2.415000000000000E+009;1.757092475891113E-001;-5.578365549445152E-002;3.670318750664592E-003;3.362042189110071E-004;
2.415166666666667E+009;1.762045025825501E-001;-5.665878206491470E-002;3.764227498322725E-003;2.597889106255025E-004;
2.415333333333334E+009;1.765986531972885E-001;-5.735259503126144E-002;3.747707698494196E-003;-3.933297921321355E-005;
2.415500000000000E+009;1.768562942743301E-001;-5.788991972804070E-002;3.710217541083694E-003;-1.245028397534043E-004;
2.415666666666667E+009;1.770293861627579E-001;-5.843910947442055E-002;3.752943128347397E-003;-2.790153957903385E-004;
2.415833333333334E+009;1.774249672889710E-001;-5.898921564221382E-002;3.719036001712084E-003;-3.272498724982142E-004;
2.416000000000000E+009;1.774796545505524E-001;-5.958973988890648E-002;3.585400292649865E-003;-3.077246074099094E-004;
2.416166666666667E+009;1.777215749025345E-001;-5.985400825738907E-002;3.643195144832134E-003;-7.231734343804419E-004;
2.416333333333334E+009;1.777188628911972E-001;-6.008590012788773E-002;3.593746107071638E-003;-6.723666447214782E-004;
2.416500000000000E+009;1.775031089782715E-001;-6.038402393460274E-002;3.604159457609057E-003;-7.870338158681989E-004;
2.416666666666667E+009;1.773256063461304E-001;-6.053449586033821E-002;3.623049706220627E-003;-9.259406942874193E-004;
2.416833333333334E+009;1.772630661725998E-001;-6.101617962121964E-002;3.546359483152628E-003;-1.148981042206287E-003;
2.417000000000000E+009;1.765884608030319E-001;-6.117556244134903E-002;3.577808616682887E-003;-1.234893104992807E-003;
2.417166666666667E+009;1.763001829385757E-001;-6.129600107669830E-002;3.517416538670659E-003;-1.152329146862030E-003;
2.417333333333334E+009;1.756827235221863E-001;-6.145770475268364E-002;3.491668263450265E-003;-1.336945686489344E-003;
2.417500000000000E+009;1.751391440629959E-001;-6.184335052967072E-002;3.397168591618538E-003;-1.513430150225759E-003;
2.417666666666667E+009;1.744816303253174E-001;-6.193277239799500E-002;3.388349665328860E-003;-1.620470662601292E-003;
2.417833333333334E+009;1.736599057912827E-001;-6.213185563683510E-002;3.440425032749772E-003;-1.649148296564817E-003;
2.418000000000000E+009;1.727239936590195E-001;-6.261741369962692E-002;3.227538662031293E-003;-1.869164407253265E-003;
2.418166666666667E+009;1.717816442251205E-001;-6.268285959959030E-002;3.232892835512757E-003;-1.941888476721942E-003;
2.418333333333334E+009;1.711192578077316E-001;-6.314621865749359E-002;2.846079878509045E-003;-2.003908623009920E-003;
2.418500000000000E+009;1.698621958494186E-001;-6.361731141805649E-002;3.067296231165528E-003;-2.182787749916315E-003;
2.418666666666667E+009;1.688722223043442E-001;-6.411099433898926E-002;2.929300535470247E-003;-2.208624267950654E-003;
2.418833333333334E+009;1.675384491682053E-001;-6.465475261211395E-002;2.765384968370199E-003;-2.366743283346295E-003;
2.419000000000000E+009;1.663227975368500E-001;-6.516768783330917E-002;2.710198517888784E-003;-2.334995428100228E-003;
2.419166666666667E+009;1.653440892696381E-001;-6.588336825370789E-002;2.612339798361063E-003;-2.486118348315358E-003;
2.419333333333334E+009;1.638527661561966E-001;-6.642254441976547E-002;2.557230414822698E-003;-2.665432170033455E-003;
2.419500000000000E+009;1.627830266952515E-001;-6.747483462095261E-002;2.453535795211792E-003;-2.759602619335055E-003;
2.419666666666667E+009;1.617109477519989E-001;-6.834000349044800E-002;2.244838513433933E-003;-2.733502071350813E-003;
2.419833333333334E+009;1.602943092584610E-001;-6.913369148969650E-002;2.301411237567663E-003;-2.782489405944943E-003;
2.420000000000000E+009;1.592890471220017E-001;-7.024578005075455E-002;2.056343248113990E-003;-2.848412375897169E-003;
2.420166666666667E+009;1.580596715211868E-001;-7.138409465551376E-002;2.060219412669540E-003;-2.832768484950066E-003;
2.420333333333334E+009;1.571232676506043E-001;-7.255595922470093E-002;1.746735768392682E-003;-2.916773781180382E-003;
2.420500000000000E+009;1.562368273735046E-001;-7.370315492153168E-002;1.926113036461175E-003;-2.934584626927972E-003;
2.420666666666667E+009;1.550989896059036E-001;-7.491241395473480E-002;1.844301121309400E-003;-3.149067750200629E-003;
2.420833333333334E+009;1.540992856025696E-001;-7.637169212102890E-002;1.750900293700397E-003;-3.044107696041465E-003;
2.421000000000000E+009;1.531806290149689E-001;-7.786972820758820E-002;1.498579978942871E-003;-3.210129449144006E-003;
2.421166666666667E+009;1.524707376956940E-001;-7.931878417730331E-002;1.481331186369062E-003;-3.218385856598616E-003;
2.421333333333334E+009;1.518653929233551E-001;-8.091248571872711E-002;1.549725886434317E-003;-3.253079252317548E-003;
2.421500000000000E+009;1.511818170547485E-001;-8.231875300407410E-002;1.150734722614288E-003;-3.199351718649268E-003;
2.421666666666667E+009;1.506070643663406E-001;-8.429137617349625E-002;1.082572038285434E-003;-3.194882534444332E-003;
2.421833333333334E+009;1.503149867057800E-001;-8.568011224269867E-002;9.510486270301044E-004;-3.306270809844136E-003;
2.422000000000000E+009;1.498179137706757E-001;-8.741279691457748E-002;8.901052642613649E-004;-3.302496159449220E-003;
2.422166666666667E+009;1.496438235044479E-001;-8.931793272495270E-002;7.425284129567444E-004;-3.360323375090957E-003;
2.422333333333334E+009;1.493707001209259E-001;-9.092589467763901E-002;5.921234260313213E-004;-3.489716909825802E-003;
2.422500000000000E+009;1.492413729429245E-001;-9.253375232219696E-002;4.937950288876891E-004;-3.350031329318881E-003;
2.422666666666667E+009;1.491609662771225E-001;-9.423179924488068E-002;3.176970931235701E-004;-3.331975545734167E-003;
2.422833333333334E+009;1.493416875600815E-001;-9.610994160175324E-002;2.664776402525604E-004;-3.479700302705169E-003;
2.423000000000000E+009;1.494599729776382E-001;-9.765278548002243E-002;9.675714682089165E-005;-3.350629471242428E-003;
2.423166666666667E+009;1.496573388576508E-001;-9.916511923074722E-002;-1.815245923353359E-005;-3.432836150750518E-003;
2.423333333333334E+009;1.499990969896317E-001;-1.006471291184425E-001;-2.921492559835315E-004;-3.344968194141984E-003;
2.423500000000000E+009;1.503202915191650E-001;-1.023470535874367E-001;-3.998774045612663E-004;-3.412991762161255E-003;
2.423666666666667E+009;1.505688875913620E-001;-1.039319038391113E-001;-5.388393183238804E-004;-3.358135232701898E-003;
2.423833333333334E+009;1.511282920837402E-001;-1.053565591573715E-001;-7.278984412550926E-004;-3.299918491393328E-003;
2.424000000000000E+009;1.513925939798355E-001;-1.066437438130379E-001;-6.715655326843262E-004;-3.287887433543801E-003;
2.424166666666667E+009;1.518661975860596E-001;-1.080102995038033E-001;-8.296984597109258E-004;-3.060416318476200E-003;
2.424333333333334E+009;1.526377648115158E-001;-1.090851575136185E-001;-1.056420267559588E-003;-2.970000030472875E-003;
2.424500000000000E+009;1.529785692691803E-001;-1.104576364159584E-001;-1.222327467985451E-003;-3.195827594026923E-003;
2.424666666666667E+009;1.535448133945465E-001;-1.111512109637260E-001;-1.342805451713502E-003;-2.844362286850810E-003;
2.424833333333334E+009;1.539460718631744E-001;-1.125154122710228E-001;-1.505556865595281E-003;-2.934304531663656E-003;
2.425000000000000E+009;1.544653326272965E-001;-1.133915483951569E-001;-1.562361256219447E-003;-2.803820185363293E-003;
2.425166666666667E+009;1.547052562236786E-001;-1.141473799943924E-001;-1.638665096834302E-003;-2.609114395454526E-003;
2.425333333333334E+009;1.552598327398300E-001;-1.149563267827034E-001;-1.824271981604397E-003;-2.525620628148317E-003;
2.425500000000000E+009;1.556270271539688E-001;-1.157545596361160E-001;-1.902459887787700E-003;-2.423334401100874E-003;
2.425666666666667E+009;1.559154689311981E-001;-1.162867248058319E-001;-1.940027461387217E-003;-2.030317671597004E-003;
2.425833333333334E+009;1.561666876077652E-001;-1.168156787753105E-001;-1.811434398405254E-003;-1.955537125468254E-003;
2.426000000000000E+009;1.563218235969544E-001;-1.173946931958199E-001;-1.977934036403894E-003;-1.828338135965169E-003;
2.426166666666667E+009;1.565714329481125E-001;-1.178541705012322E-001;-2.008303999900818E-003;-1.749093760736287E-003;
2.426333333333334E+009;1.565807163715363E-001;-1.180478259921074E-001;-2.082524122670293E-003;-1.686426578089595E-003;
2.426500000000000E+009;1.567251682281494E-001;-1.183438748121262E-001;-1.990686170756817E-003;-1.615624176338315E-003;
2.426666666666667E+009;1.566421240568161E-001;-1.184091046452522E-001;-2.152139320969582E-003;-1.400668057613075E-003;
2.426833333333334E+009;1.563274264335632E-001;-1.186555251479149E-001;-2.248940290883184E-003;-1.244884799234569E-003;
2.427000000000000E+009;1.562156379222870E-001;-1.189332604408264E-001;-1.976050669327378E-003;-1.228999928571284E-003;
2.427166666666667E+009;1.557315140962601E-001;-1.188882440328598E-001;-2.017189981415868E-003;-9.476523264311254E-004;
2.427333333333334E+009;1.552070528268814E-001;-1.190899610519409E-001;-1.967488089576364E-003;-9.323501726612449E-004;
2.427500000000000E+009;1.547676026821137E-001;-1.191361546516419E-001;-2.012810437008739E-003;-8.192029781639576E-004;
2.427666666666667E+009;1.540317386388779E-001;-1.192890256643295E-001;-2.022193977609277E-003;-7.982417591847479E-004;
2.427833333333334E+009;1.532593816518784E-001;-1.193421781063080E-001;-2.083093859255314E-003;-5.176254780963063E-004;
