# Hz S RI R 50
2400000000.0000000000 0.167399480938911410232705634371 0.040878739207983016967773437500 0.002587099792435764832737588037 -0.001044003176502883000614785303 0 0 0 0 
2400166666.6666665077 0.167922213673591613769531250000 0.040104035288095467304270158593 0.002453783527016640143153525244 -0.001172810792922974066493368994 0 0 0 0 
2400333333.3333334923 0.168362155556678799728231865629 0.039163805544376373291015625000 0.002301081782206892967224121094 -0.001287521095946430943132710034 0 0 0 0 
2400500000.0000000000 0.169081911444664001464843750000 0.038268361240625381469726562500 0.002370647154748439788818359375 -0.001237185555510222911834716797 0 0 0 0 
2400666666.6666665077 0.169415935873985290527343750000 0.037259247153997421264648437500 0.002382019069045782089233398438 -0.001351399580016731999040913159 0 0 0 0 
2400833333.3333334923 0.169923037290573092361611884371 0.036390975117683410644531250000 0.002038166159763931794407509912 -0.001466810936108231978175497900 0 0 0 0 
2401000000.0000000000 0.170123979449272211272869981258 0.035400401800870902324636091407 0.002097859047353268103358603369 -0.001484656473621726036071777344 0 0 0 0 
2401166666.6666665077 0.170181751251220703125000000000 0.034339707344770431518554687500 0.001926943310536443970323872144 -0.001399770262651145891902304541 0 0 0 0 
2401333333.3333334923 0.170443207025528009612713731258 0.033751886337995529174804687500 0.001917712856084107918980263818 -0.001372151891700923009159707178 0 0 0 0 
2401500000.0000000000 0.170854464173317011077557481258 0.032638370990753166889231096093 0.001975746825337409973144531250 -0.001489420305006206035614013672 0 0 0 0 
2401666666.6666665077 0.171097591519355801681356865629 0.031886376440525061870534528907 0.001710987300612031979801797021 -0.001532188500277698040008544922 0 0 0 0 
2401833333.3333334923 0.171135067939758300781250000000 0.030972216278314590454101562500 0.001727570313960314013837504810 -0.001477675861679017977473593604 0 0 0 0 
2402000000.0000000000 0.171029537916183499435263115629 0.030001293867826458322545235546 0.001626921468414366028429340894 -0.001423170091584325053571391528 0 0 0 0 
2402166666.6666665077 0.171127438545227106292401231258 0.029013864696025848388671875000 0.001608771621249615929247211987 -0.001623309566639363982556987231 0 0 0 0 
2402333333.3333334923 0.171253368258476312835369981258 0.028278240934014320373535156250 0.001541758887469768957850790869 -0.001525815692730247974395751953 0 0 0 0 
2402500000.0000000000 0.171501606702804593185263115629 0.027259618043899539602259451954 0.001345656230114399953129433740 -0.001695704529993236064910888672 0 0 0 0 
2402666666.6666665077 0.171488851308822604080361884371 0.026523290202021598815917968750 0.001352756749838591055629111182 -0.001452062977477907917620014722 0 0 0 0 
2402833333.3333334923 0.171439558267593411544638115629 0.025408236309885978698730468750 0.001267497194930911064147949219 -0.001587381237186491923091269385 0 0 0 0 
2403000000.0000000000 0.171573013067245511154013115629 0.024313991889357570302943045704 0.001061879331246017976048134912 -0.001529207569546997980830527197 0 0 0 0 
2403166666.6666665077 0.171555042266845703125000000000 0.023302206769585609436035156250 0.001104990020394325039507221753 -0.001273152884095906994463276440 0 0 0 0 
2403333333.3333334923 0.171576797962188692947549384371 0.022394904866814609872838204296 0.001047780504450201988220214844 -0.001091670710593461990356445312 0 0 0 0 
2403500000.0000000000 0.171446323394775390625000000000 0.021169057115912440908411795704 0.000947327702306210994720458984 -0.001204441185109317085863422925 0 0 0 0 
2403666666.6666665077 0.171237334609031705001669365629 0.019914029166102409362792968750 0.001091715763323009014129638672 -0.001182304346002637906315468896 0 0 0 0 
2403833333.3333334923 0.171265497803688104827557481258 0.018632965162396430969238281250 0.001141641056165098927141499097 -0.001039810013025999069213867188 0 0 0 0 
2404000000.0000000000 0.171148791909217806717080634371 0.017438482493162158620814139454 0.001230272697284817912458110278 -0.000864233123138546943664550781 0 0 0 0 
2404166666.6666665077 0.170991048216819790939169365629 0.016138520091772079467773437500 0.001226316322572529099108051831 -0.000880731560755521059036254883 0 0 0 0 
2404333333.3333334923 0.170999929308891296386718750000 0.014973993413150310516357421875 0.001349520287476480007171630859 -0.000807953358162194490432739258 0 0 0 0 
2404500000.0000000000 0.170741394162178011795205634371 0.013593165203928949183453944727 0.001593233086168766021728515625 -0.000763278629165142774581909180 0 0 0 0 
2404666666.6666665077 0.170748248696327209472656250000 0.012170616537332539994209490430 0.001627683988772333101985312354 -0.000930653302930295467376708984 0 0 0 0 
2404833333.3333334923 0.170666471123695401290731865629 0.010829448699951170140276524023 0.001777324243448674895642924731 -0.001032895990647376017329550635 0 0 0 0 
2405000000.0000000000 0.170650169253349304199218750000 0.009520287625491619110107421875 0.001980506815016270117518759619 -0.000889188610017299652099609375 0 0 0 0 
2405166666.6666665077 0.170602932572364807128906250000 0.007922479882836341857910156250 0.002149772597476840019226074219 -0.001074567204341291947605752100 0 0 0 0 
2405333333.3333334923 0.170697584748268099685830634371 0.006428462918847799301147460938 0.002144377678632736206054687500 -0.001339755486696958975550986182 0 0 0 0 
2405500000.0000000000 0.170677542686462402343750000000 0.005006715655326843261718750000 0.002385309897363185882568359375 -0.001456970116123557090759277344 0 0 0 0 
2405666666.6666665077 0.170501083135604886154013115629 0.003426638199016451835632324219 0.002251644153147935867309570312 -0.001530125387944281101226806641 0 0 0 0 
2405833333.3333334923 0.170196205377578707595986884371 0.002026020316407084898707724463 0.002362405881285666985752724756 -0.001837911084294318935991596753 0 0 0 0 
2406000000.0000000000 0.170363396406173706054687500000 0.000269924843451008200645446777 0.002425763756036757989170693506 -0.002201969968155026002171181787 0 0 0 0 
2406166666.6666665077 0.170155405998230008224325615629 -0.001173558644950390078900981372 0.002456299262121320204493857275 -0.002354818629100919203517294775 0 0 0 0 
2406333333.3333334923 0.170109525322914095779580634371 -0.002644425723701715903041220557 0.002230151556432247161865234375 -0.002647787565365434126612997900 0 0 0 0 
2406500000.0000000000 0.169792741537094088455361884371 -0.004240762908011674880981445312 0.002241268754005432128906250000 -0.002879599109292029900791787256 0 0 0 0 
2406666666.6666665077 0.169528946280479403396768134371 -0.005730284843593835830688476562 0.002214830135926603837254189600 -0.003136934246867895126342773438 0 0 0 0 
2406833333.3333334923 0.169522538781166104415731865629 -0.007280790247023105621337890625 0.002072463510558009147644042969 -0.003314340487122536139247275244 0 0 0 0 
2407000000.0000000000 0.169412553310394287109375000000 -0.008665418252348899841308593750 0.001863170647993684031842875903 -0.003502356354147195816040039062 0 0 0 0 
2407166666.6666665077 0.169295251369476290603799384371 -0.010045003145933149510393711523 0.001601862953975796916364360278 -0.003643641015514730973484658350 0 0 0 0 
2407333333.3333334923 0.168934136629104586502236884371 -0.011504714377224450547188006055 0.001387067139148711941362690503 -0.003946824930608273419851972363 0 0 0 0 
2407500000.0000000000 0.168735742568969698806924384371 -0.012808348052203660447090349805 0.001019336050376296043395996094 -0.004072918556630611419677734375 0 0 0 0 
2407666666.6666665077 0.168645113706588800628338731258 -0.013943448662757870065709298046 0.000848333351314067840576171875 -0.004201005678623914718627929688 0 0 0 0 
2407833333.3333334923 0.168382003903389004806356865629 -0.015297734178602700669258318555 0.000425839651143178289562779559 -0.004132477566599845886230468750 0 0 0 0 
2408000000.0000000000 0.168307945132255609710369981258 -0.016482381150126460683802420704 0.000109403794340323697454990526 -0.004286323674023151397705078125 0 0 0 0 
2408166666.6666665077 0.168185770511627197265625000000 -0.017337208613753318786621093750 -0.000228221819270402193069458008 -0.004140624776482582092285156250 0 0 0 0 
2408333333.3333334923 0.168178692460060091873330634371 -0.018408093601465228689173514454 -0.000503418559674173593521118164 -0.004081853665411472320556640625 0 0 0 0 
2408500000.0000000000 0.168051987886428805252236884371 -0.019523464143276221538503278907 -0.000651629117783159017562866211 -0.003891733940690755844116210938 0 0 0 0 
2408666666.6666665077 0.168058246374130304534588731258 -0.020436044782400131225585937500 -0.000848187948577105998992919922 -0.004003506153821945190429687500 0 0 0 0 
2408833333.3333334923 0.168104648590087890625000000000 -0.021388379856944080698033516796 -0.001037703943438827991485595703 -0.003853689646348357200622558594 0 0 0 0 
2409000000.0000000000 0.168204769492149408538494981258 -0.022204957902431491506556326954 -0.001428161398507655100581503760 -0.003664115443825722174403525244 0 0 0 0 
2409166666.6666665077 0.168472677469253512283486884371 -0.023248147219419479370117187500 -0.001458190381526947021484375000 -0.003520785598084330992457724463 0 0 0 0 
2409333333.3333334923 0.168640345335006713867187500000 -0.024120289832353588449498360546 -0.001451899763196706988691020435 -0.003353153588250278992893838037 0 0 0 0 
2409500000.0000000000 0.168566644191741887848223768742 -0.025327960029244419443150704296 -0.001631199149414896965026855469 -0.003247229382395743890049599756 0 0 0 0 
2409666666.6666665077 0.168597340583801297286825615629 -0.026159213855862620962122733204 -0.001871929503977298953412700122 -0.002965807449072598977329873193 0 0 0 0 
2409833333.3333334923 0.168657168745994595626669365629 -0.026926195248961448669433593750 -0.001840849756263196902034140479 -0.002935539465397595925572060693 0 0 0 0 
2410000000.0000000000 0.168820381164550809005575615629 -0.027918979525566101074218750000 -0.001829098444432019970537495190 -0.002611038973554968833923339844 0 0 0 0 
2410166666.6666665077 0.168766617774963406661825615629 -0.028768047690391540527343750000 -0.002007404342293738885166787256 -0.002683854661881924109217978369 0 0 0 0 
2410333333.3333334923 0.168852731585502596756143134371 -0.029672196134924888610839843750 -0.002072655595839024023768759619 -0.002463393379002809958217001807 0 0 0 0 
2410500000.0000000000 0.168700039386749295333700615629 -0.030787155032157901418665701954 -0.001930486294440924904466938550 -0.002230940153822302818298339844 0 0 0 0 
2410666666.6666665077 0.168698638677597101409588731258 -0.031781271100044250488281250000 -0.001942118629813194058061909253 -0.002274071797728538946864462744 0 0 0 0 
2410833333.3333334923 0.168735280632972689529580634371 -0.032663721591234207153320312500 -0.001973440404981375174281454932 -0.002005351474508643150329589844 0 0 0 0 
2411000000.0000000000 0.168684825301170404632244981258 -0.033433780074119567871093750000 -0.001999704167246818976161337744 -0.002010968513786793188807822119 0 0 0 0 
2411166666.6666665077 0.168513879179954501053018134371 -0.034377884119749069213867187500 -0.001959214452654122872593545068 -0.002047310583293437957763671875 0 0 0 0 
2411333333.3333334923 0.168357685208320589920205634371 -0.035189110785722732543945312500 -0.001947891316376626925227499854 -0.001806628424674272970912314307 0 0 0 0 
2411500000.0000000000 0.168083950877189608474893134371 -0.036220550537109381938893903907 -0.002109266119077802138087607275 -0.001825623796321452097651816260 0 0 0 0 
2411666666.6666665077 0.167968899011611910720986884371 -0.037138685584068298339843750000 -0.001955253072082995934727334131 -0.001750430325046181895612407153 0 0 0 0 
2411833333.3333334923 0.167835339903831509689169365629 -0.037951610982418060302734375000 -0.002040302380919456915614462744 -0.001686830772086977958679199219 0 0 0 0 
2412000000.0000000000 0.167613595724105807205361884371 -0.038802832365036010742187500000 -0.002108986955136061148402548682 -0.001617670874111353917362832178 0 0 0 0 
2412166666.6666665077 0.167375698685646112640057481258 -0.039894681423902511596679687500 -0.002200553426519035859348916162 -0.001604466815479099967359233325 0 0 0 0 
2412333333.3333334923 0.167239010334014892578125000000 -0.040741145610809333110768903907 -0.002012485871091485023498535156 -0.001603095675818621895433735425 0 0 0 0 
2412500000.0000000000 0.166757702827453613281250000000 -0.041575707495212561870534528907 -0.002088990295305848121643066406 -0.001495058531872927925707172925 0 0 0 0 
2412666666.6666665077 0.166605293750762911697549384371 -0.042860407382249832153320312500 -0.002170008840039372010471963037 -0.001665386487729846997501992334 0 0 0 0 
2412833333.3333334923 0.166176050901412991622763115629 -0.043772991746664047241210937500 -0.002014615340158342881443642725 -0.001431792159564792893053364331 0 0 0 0 
2413000000.0000000000 0.165832743048667907714843750000 -0.044703315943479537963867187500 -0.002185790333896874947788857568 -0.001513653667643666050554585034 0 0 0 0 
2413166666.6666665077 0.165391370654106112381143134371 -0.045802526175975799560546875000 -0.002127032494172453880310058594 -0.001550185959786176898358989185 0 0 0 0 
2413333333.3333334923 0.164848878979682894607705634371 -0.046745467931032180786132812500 -0.002291612094268203215358115088 -0.001543460879474878094316792065 0 0 0 0 
2413500000.0000000000 0.164524361491203308105468750000 -0.047751493752002723003347028907 -0.002437864197418094115016318213 -0.001570363994687796072718954932 0 0 0 0 
2413666666.6666665077 0.164310261607170104980468750000 -0.048682611435651779174804687500 -0.002481736708432435989379882812 -0.001312486361712216897251748193 0 0 0 0 
2413833333.3333334923 0.163555905222892788986044365629 -0.049612730741500847553293596093 -0.002582280198112130165100097656 -0.001239000004716217951533652197 0 0 0 0 
2414000000.0000000000 0.163136765360832186599893134371 -0.050815362483263022685964216407 -0.002533307531848549842834472656 -0.001230392605066299004795693506 0 0 0 0 
2414166666.6666665077 0.162829831242561312576455634371 -0.051366619765758507465402971093 -0.002802272560074924988987588037 -0.001103440765291451974156045068 0 0 0 0 
2414333333.3333334923 0.162417009472847012618856865629 -0.052457399666309356689453125000 -0.002713519148528575897216796875 -0.001018029986880720095393515479 0 0 0 0 
2414500000.0000000000 0.162265107035636901855468750000 -0.053305786103010177612304687500 -0.002679064171388744874241494287 -0.000897846941370517015457153320 0 0 0 0 
2414666666.6666665077 0.161712080240249606033486884371 -0.054341241717338562011718750000 -0.002733811736106872992274618994 -0.000897718418855220079421997070 0 0 0 0 
2414833333.3333334923 0.161551818251609802246093750000 -0.055527824908494949340820312500 -0.002796403365209699110743857275 -0.000807495322078466415405273438 0 0 0 0 
2415000000.0000000000 0.161355674266815213302450615629 -0.056374780833721160888671875000 -0.002817980013787745995762490381 -0.000706462131347507238388061523 0 0 0 0 
2415166666.6666665077 0.161187142133712796310263115629 -0.057513915002346038818359375000 -0.002576851518824696974513388525 -0.000671694695483893156051635742 0 0 0 0 
2415333333.3333334923 0.160980492830276489257812500000 -0.058434776961803443218190778907 -0.002750366460531949996948242188 -0.000339686899678781574398594989 0 0 0 0 
2415500000.0000000000 0.160802632570266695877236884371 -0.059501837939023971557617187500 -0.002796909073367714881896972656 -0.000414656533394008874893188477 0 0 0 0 
2415666666.6666665077 0.160679161548614501953125000000 -0.060626257210969931865651716407 -0.002893815049901605086085654150 -0.000399379670852795189053136005 0 0 0 0 
2415833333.3333334923 0.160509556531906100174111884371 -0.061759859323501586914062500000 -0.002821130445227026939392089844 -0.000308690738165751099586486816 0 0 0 0 
2416000000.0000000000 0.160297438502311706542968750000 -0.062939472496509552001953125000 -0.002701782854273914857151650537 -0.000206445853109471499919891357 0 0 0 0 
2416166666.6666665077 0.160206019878387506683026231258 -0.064174488186836242675781250000 -0.002880911109969019889831542969 0.000036522640584735199809074402 0 0 0 0 
2416333333.3333334923 0.159844666719436701018963731258 -0.065385401248931884765625000000 -0.002844791160896420912501669775 0.000052896244596922770142555237 0 0 0 0 
2416500000.0000000000 0.159531250596046503265057481258 -0.066589437425136566162109375000 -0.002781835151836276054382324219 0.000254683254752308076054173602 0 0 0 0 
2416666666.6666665077 0.159142717719078091720419365629 -0.067513741552829742431640625000 -0.002963806269690393967869423975 0.000313349941279739087254124774 0 0 0 0 
2416833333.3333334923 0.158963650465011596679687500000 -0.068988934159278869628906250000 -0.002742321928963065147399902344 0.000404513266403227990299779071 0 0 0 0 
2417000000.0000000000 0.158381715416908291915731865629 -0.070080563426017761230468750000 -0.002824983559548854827880859375 0.000497394124977290630340576172 0 0 0 0 
2417166666.6666665077 0.158117175102233886718750000000 -0.070932723581790924072265625000 -0.002670181449502706961390829932 0.000561489083338528871536254883 0 0 0 0 
2417333333.3333334923 0.157734602689742986481036268742 -0.072030767798423767089843750000 -0.002693068934604525999781943213 0.000841914908960461616516113281 0 0 0 0 
2417500000.0000000000 0.157455265522003201583700615629 -0.073167853057384490966796875000 -0.002674040384590626196620322119 0.000853391480632126331329345703 0 0 0 0 
2417666666.6666665077 0.157212689518928500076455634371 -0.073976792395114898681640625000 -0.002414967864751815795898437500 0.000921569764614105224609375000 0 0 0 0 
2417833333.3333334923 0.156684905290603609939736884371 -0.074834309518337249755859375000 -0.002366643399000167846679687500 0.001034047803841531059862446362 0 0 0 0 
2418000000.0000000000 0.156355991959571810623330634371 -0.075831286609172821044921875000 -0.002459481358528137207031250000 0.001089008641429245905635214697 0 0 0 0 
2418166666.6666665077 0.156124725937843294998330634371 -0.076560892164707183837890625000 -0.002191789448261260986328125000 0.001173765747807919979095458984 0 0 0 0 
2418333333.3333334923 0.156057551503181513030682481258 -0.077370658516883850097656250000 -0.002168960636481643156764365088 0.001035866094753145954729389722 0 0 0 0 
2418500000.0000000000 0.155579656362533597091513115629 -0.078228585422039031982421875000 -0.002045410452410579161403036963 0.001011608284898102066637348706 0 0 0 0 
2418666666.6666665077 0.155393123626709012130575615629 -0.079027950763702392578125000000 -0.002043135231360793113708496094 0.001150618540123105049133300781 0 0 0 0 
2418833333.3333334923 0.154874846339225796798544365629 -0.079891093075275421142578125000 -0.002207847312092781066894531250 0.001139073516242206096649169922 0 0 0 0 
2419000000.0000000000 0.154486343264579800704794365629 -0.080499120056629180908203125000 -0.001926588942296802997589111328 0.001053414773195981979370117188 0 0 0 0 
2419166666.6666665077 0.154225796461105402190838731258 -0.081320010125637054443359375000 -0.001907575875520705959917378003 0.001022549113258719010594033350 0 0 0 0 
2419333333.3333334923 0.153749898076057406326455634371 -0.081756062805652618408203125000 -0.001871491665951908068415976416 0.001192919327877461910247802734 0 0 0 0 
2419500000.0000000000 0.153380125761032104492187500000 -0.082685559988021850585937500000 -0.001934550120495259978650737231 0.001100793713703751997706747900 0 0 0 0 
2419666666.6666665077 0.153135269880294799804687500000 -0.083554290235042572021484375000 -0.001967014046385883851292275537 0.001109516364522278092027973706 0 0 0 0 
2419833333.3333334923 0.152774736285209711272869981258 -0.083882801234722137451171875000 -0.001992253819480537934544228662 0.001050774124450982050654745947 0 0 0 0 
