# Hz S RI R 
2400000000.0000000000 0.167428821325302096267861884371 0.040893793106079101562500000000 0.002544154413044453100917197119 -0.001290838583372533104540180737 0 0 0 0 
2400166666.6666665077 0.167924419045448303222656250000 0.040165267884731292724609375000 0.002399196848273276849033974756 -0.001205769483931363062617636572 0 0 0 0 
2400333333.3333334923 0.168496161699294988434161268742 0.039135616272687911987304687500 0.002371421083807944817783974756 -0.001287228427827358029009174878 0 0 0 0 
2400500000.0000000000 0.168921336531639099121093750000 0.038251556456089019775390625000 0.002303512766957283020019531250 -0.001391666242852807044982910156 0 0 0 0 
2400666666.6666665077 0.169396132230758694747763115629 0.037299599498510360717773437500 0.002079830970615148977992392432 -0.001316371606662870103951479273 0 0 0 0 
2400833333.3333334923 0.169800266623497009277343750000 0.036387693136930472637136091407 0.002171794883906840844395302881 -0.001303874305449425957323383862 0 0 0 0 
2401000000.0000000000 0.170146137475967407226562500000 0.035215981304645538330078125000 0.001939228503033519008039164966 -0.001404074137099087021471333081 0 0 0 0 
2401166666.6666665077 0.170409515500068692306356865629 0.034374102950096130371093750000 0.002010333118960260911228798975 -0.001291030785068870024440146338 0 0 0 0 
2401333333.3333334923 0.170533075928688104827557481258 0.033555656671524047851562500000 0.001857568626292050101636577075 -0.001358993002213537909864116138 0 0 0 0 
2401500000.0000000000 0.170681953430175809005575615629 0.032703384757041931152343750000 0.001928757061250508048413920825 -0.001366754295304418043849326025 0 0 0 0 
2401666666.6666665077 0.170913785696029690841513115629 0.031887736171483986591379533593 0.001817102311179042079328227466 -0.001431320211850106932996440356 0 0 0 0 
2401833333.3333334923 0.171076029539108304122763115629 0.031052138656377788888951485546 0.001727745286189019896863627856 -0.001616797759197651906254433740 0 0 0 0 
2402000000.0000000000 0.170953452587127713302450615629 0.030065985396504398691197579296 0.001466631423681973977329873193 -0.001648078672587871985194540869 0 0 0 0 
2402166666.6666665077 0.171219274401664706131143134371 0.029073711484670639038085937500 0.001532672555185854001286172021 -0.001470850664190948009490966797 0 0 0 0 
2402333333.3333334923 0.171334326267242403885049384371 0.028268178924918181682546247657 0.001413628924638032913208007812 -0.001564885838888586001155234229 0 0 0 0 
2402500000.0000000000 0.171543419361114501953125000000 0.027141002938151359558105468750 0.001359519781544805006739951025 -0.001371537800878285928013466943 0 0 0 0 
2402666666.6666665077 0.171492457389831487457598768742 0.026342146098613739013671875000 0.001454095472581685023066855322 -0.001493616262450814030290913159 0 0 0 0 
2402833333.3333334923 0.171483069658279391189736884371 0.025385446846485141408900076954 0.001259671989828347942949604565 -0.001439861371181905052782368237 0 0 0 0 
2403000000.0000000000 0.171480298042297391036825615629 0.024278501048684120178222656250 0.001277168979868293025373149341 -0.001387710683047772104378725366 0 0 0 0 
2403166666.6666665077 0.171573743224144009689169365629 0.023202806711196899414062500000 0.000953080307226628065109252930 -0.001239708857610821940778422778 0 0 0 0 
2403333333.3333334923 0.171502694487571688553018134371 0.022209763526916500436803048046 0.001214581425301731066462851416 -0.001074548927135765986201620947 0 0 0 0 
2403500000.0000000000 0.171455487608909606933593750000 0.021037025377154350280761718750 0.001129091600887476964237832178 -0.001034628017805516936658549731 0 0 0 0 
2403666666.6666665077 0.171356171369552612304687500000 0.019777247682213779794713204296 0.001155901933088899092433310400 -0.001135773840360344106789614038 0 0 0 0 
2403833333.3333334923 0.171158552169799804687500000000 0.018706442788243290292760079296 0.001249082735739647908451699365 -0.001014907611533999009373330225 0 0 0 0 
2404000000.0000000000 0.171224310994148309905682481258 0.017286682501435279846191406250 0.001141422311775385899784707178 -0.001173265860415994904161762769 0 0 0 0 
2404166666.6666665077 0.171112343668937710861044365629 0.016159754246473308908482735546 0.001277566771022975011112832178 -0.000719772011507302522659301758 0 0 0 0 
2404333333.3333334923 0.171000599861144991775674384371 0.014919182285666469228724295704 0.001421591266989707946777343750 -0.000935074815060943365097045898 0 0 0 0 
2404500000.0000000000 0.170787528157234191894531250000 0.013473861850798130035400390625 0.001578550669364630959154438550 -0.000686998013406991958618164062 0 0 0 0 
2404666666.6666665077 0.170841544866561889648437500000 0.012300545349717140197753906250 0.001683353330008686022517538916 -0.000751363520976155996322631836 0 0 0 0 
2404833333.3333334923 0.170715555548667907714843750000 0.010870578698813920456855974805 0.001793292001821100928662944263 -0.000932598020881414413452148438 0 0 0 0 
2405000000.0000000000 0.170468717813491793533486884371 0.009371007792651653289794921875 0.001963572110980749130249023438 -0.001106670708395540931104350513 0 0 0 0 
2405166666.6666665077 0.170605063438415499588174384371 0.007991513237357139587402343750 0.002086244057863951163050986182 -0.001204322674311697916743613135 0 0 0 0 
2405333333.3333334923 0.170579388737678500076455634371 0.006375998258590698242187500000 0.002341454150155187086818076025 -0.001323051052168012099025107275 0 0 0 0 
2405500000.0000000000 0.170513942837715204436932481258 0.004975465126335620880126953125 0.002235999563708900971653603662 -0.001474731834605335972429585034 0 0 0 0 
2405666666.6666665077 0.170579746365547207931356865629 0.003406818956136703924891806494 0.002313944045454264120814658057 -0.001593309803865849971771240234 0 0 0 0 
2405833333.3333334923 0.170310020446777288238848768742 0.001966417068615556196925497900 0.002398045035079122023341513525 -0.001750192255713046030757285010 0 0 0 0 
2406000000.0000000000 0.170200049877166803558026231258 0.000242798181716352701187133789 0.002305802656337618827819824219 -0.002126540523022412820103310693 0 0 0 0 
2406166666.6666665077 0.169997468590736389160156250000 -0.001017095171846448941471718896 0.002281285822391510009765625000 -0.002254429506137967109680175781 0 0 0 0 
2406333333.3333334923 0.170184060931205805022869981258 -0.002775528002530335946324013818 0.002434066962450743155238486182 -0.002572029829025268988368368994 0 0 0 0 
2406500000.0000000000 0.169875338673591613769531250000 -0.004186877515166997909545898438 0.002385907573625444932224892725 -0.002810341771692038016078329932 0 0 0 0 
2406666666.6666665077 0.169610306620597811599893134371 -0.005680106580257415771484375000 0.002134638139978051185607910156 -0.003160903695970774130580283057 0 0 0 0 
2406833333.3333334923 0.169535771012306213378906250000 -0.007243997417390347394461347363 0.002042714273557066917419433594 -0.003225842257961630821228027344 0 0 0 0 
2407000000.0000000000 0.169382125139236505706463731258 -0.008685633540153503417968750000 0.001702006906270981051801371997 -0.003496373305097221894505166162 0 0 0 0 
2407166666.6666665077 0.169285640120506286621093750000 -0.009935056790709495544433593750 0.001589467166922986941096640479 -0.003808145876973866982700966943 0 0 0 0 
2407333333.3333334923 0.168996497988700894454794365629 -0.011546229943633079528808593750 0.001254315837286412932752299731 -0.004013272933661937713623046875 0 0 0 0 
2407500000.0000000000 0.168870747089385986328125000000 -0.012835313566029070073137852148 0.001101260655559598965885781396 -0.004088651388883590698242187500 0 0 0 0 
2407666666.6666665077 0.168526321649551391601562500000 -0.014041890390217300760289376171 0.000856778468005359172821044922 -0.004177572205662727355957031250 0 0 0 0 
2407833333.3333334923 0.168250218033790588378906250000 -0.015258786268532279623011405079 0.000452574313385412096977233887 -0.004183408338576555252075195312 0 0 0 0 
2408000000.0000000000 0.168176293373107910156250000000 -0.016453467309474948537806326954 0.000021391299014794640243053436 -0.004208463709801436337942792676 0 0 0 0 
2408166666.6666665077 0.168167531490325899978799384371 -0.017354171723127368581751639454 -0.000284964480670168995857238770 -0.004161239601671695709228515625 0 0 0 0 
2408333333.3333334923 0.168397381901741000076455634371 -0.018300617113709449768066406250 -0.000493255502078682184219360352 -0.004099136218428611755371093750 0 0 0 0 
2408500000.0000000000 0.168019801378250094314736884371 -0.019550925120711330068568045704 -0.000570408592466264963150024414 -0.004000193905085325241088867188 0 0 0 0 
2408666666.6666665077 0.168147936463355990310830634371 -0.020415468141436580312708670704 -0.000969400862231850624084472656 -0.003813797142356634140014648438 0 0 0 0 
2408833333.3333334923 0.168203756213188199142294365629 -0.021203426644206050527552420704 -0.001008493360131978988647460938 -0.003740667132660747008082724463 0 0 0 0 
2409000000.0000000000 0.168025135993957491775674384371 -0.022130977362394329416295235546 -0.001262955251149832985521626050 -0.003637310117483139038085937500 0 0 0 0 
2409166666.6666665077 0.168203756213188199142294365629 -0.023112041875720020639439766796 -0.001461888547055423042894672925 -0.003466255730018020109889365088 0 0 0 0 
2409333333.3333334923 0.168551906943321200271768134371 -0.024053206667304039001464843750 -0.001520646852441132068634033203 -0.003324518678709865050074911963 0 0 0 0 
2409500000.0000000000 0.168476283550262506683026231258 -0.025063358247280120849609375000 -0.001624156488105654933332133716 -0.003195708384737371964695595850 0 0 0 0 
2409666666.6666665077 0.168649196624755887130575615629 -0.025950763374567028390904610546 -0.001698278472758830027339316260 -0.003092245198786259131190634619 0 0 0 0 
2409833333.3333334923 0.168689891695976312835369981258 -0.026902005076408389699915701954 -0.001895902678370475985883403247 -0.002940106671303511099574423682 0 0 0 0 
2410000000.0000000000 0.168806016445159912109375000000 -0.027809467166662219655970389454 -0.001815021620132029056549072266 -0.002656365046277641816380166162 0 0 0 0 
2410166666.6666665077 0.168932884931564303299111884371 -0.028833767399191859853724295704 -0.001925263437442481951472617041 -0.002661285223439335823059082031 0 0 0 0 
2410333333.3333334923 0.169019043445587213714276231258 -0.029764449223875999450683593750 -0.002081019803881645202636718750 -0.002367531880736351013183593750 0 0 0 0 
2410500000.0000000000 0.168985232710838290115518134371 -0.030669257044792178762415701954 -0.002066028071567416191101074219 -0.002290472155436873002293252100 0 0 0 0 
2410666666.6666665077 0.168706104159355191329794365629 -0.031825061887502670288085937500 -0.001894023385830223994014120947 -0.002143327845260500907897949219 0 0 0 0 
2410833333.3333334923 0.168753489851951599121093750000 -0.032560158520936972881276716407 -0.001983527326956390900852822412 -0.002195272361859678788426064600 0 0 0 0 
2411000000.0000000000 0.168607607483863802810830634371 -0.033522773534059531475026716407 -0.001902847667224705002428364331 -0.002029677620157599015476845850 0 0 0 0 
2411166666.6666665077 0.168562516570091303069744981258 -0.034601788967847817157785783593 -0.001934590633027255968806601416 -0.002083393977954984144923544775 0 0 0 0 
2411333333.3333334923 0.168359503149986294845419365629 -0.035200685262680046772043596093 -0.001941316761076449914219521631 -0.001934803789481521086451865088 0 0 0 0 
2411500000.0000000000 0.168229132890701293945312500000 -0.036520432680845260620117187500 -0.001901122624985873916028666919 -0.001822142978198826096178364331 0 0 0 0 
2411666666.6666665077 0.167988225817680386642294365629 -0.037134781479835510253906250000 -0.002017673570662736892700195312 -0.001735014026053250052808452075 0 0 0 0 
2411833333.3333334923 0.167982593178749112228231865629 -0.037786342203617102886159528907 -0.002054251264780759811401367188 -0.001730800489895045974134135669 0 0 0 0 
2412000000.0000000000 0.167661800980567904373330634371 -0.039084509015083312988281250000 -0.002139721997082232995274209131 -0.001596289803273976065992045825 0 0 0 0 
2412166666.6666665077 0.167365953326225308517294365629 -0.039798721671104431152343750000 -0.002135249553248285813572548975 -0.001503390260040760040283203125 0 0 0 0 
2412333333.3333334923 0.167301818728446988204794365629 -0.040842704474926001811940778907 -0.001992784440517425970790243994 -0.001417286111973226070404052734 0 0 0 0 
2412500000.0000000000 0.166825726628303500076455634371 -0.041532367467880249023437500000 -0.002104160841554402871372841943 -0.001425616792403161959407187354 0 0 0 0 
2412666666.6666665077 0.166615948081016512771768134371 -0.042781088501214981079101562500 -0.002136274008080362839939736475 -0.001467781839892267964006733472 0 0 0 0 
2412833333.3333334923 0.166285142302513094803018134371 -0.043816667050123221660573591407 -0.002086068736389278931858681787 -0.001518205623142421028734516675 0 0 0 0 
2413000000.0000000000 0.165701001882553100585937500000 -0.044671222567558288574218750000 -0.001977159408852458000183105469 -0.001366665121167897961260151440 0 0 0 0 
2413166666.6666665077 0.165388733148574801345986884371 -0.045758977532386779785156250000 -0.002251238329336047172546386719 -0.001570683321915566921234130859 0 0 0 0 
2413333333.3333334923 0.164836138486862210372763115629 -0.046780765056610107421875000000 -0.002190279308706521987915039062 -0.001422157511115073940874409253 0 0 0 0 
2413500000.0000000000 0.164552941918373107910156250000 -0.047680754214525222778320312500 -0.002317048376426101164576865088 -0.001382746733725070953369140625 0 0 0 0 
2413666666.6666665077 0.164291679859161404708700615629 -0.048689905554056167602539062500 -0.002361599123105407194850302588 -0.001357127097435296015498495947 0 0 0 0 
2413833333.3333334923 0.163540288805961608886718750000 -0.049530215561389923095703125000 -0.002493459731340407891514443506 -0.001255054376088083007215190356 0 0 0 0 
2414000000.0000000000 0.162989795207977294921875000000 -0.050535213202238082885742187500 -0.002506458200514316992518759619 -0.001176422229036689021466899341 0 0 0 0 
2414166666.6666665077 0.162809714674949701507244981258 -0.051488887518644332885742187500 -0.002424762118607759909388876807 -0.001140122069045901081682514722 0 0 0 0 
2414333333.3333334923 0.162479430437088012695312500000 -0.052359715104103088378906250000 -0.002711714711040257973911904443 -0.001042834599502385096309042822 0 0 0 0 
2414500000.0000000000 0.162320762872695895095986884371 -0.053305804729461669921875000000 -0.002686206949874759154078818213 -0.000944042112678289413452148438 0 0 0 0 
2414666666.6666665077 0.161941125988960293868856865629 -0.054297037422657012939453125000 -0.002478190232068299813511513818 -0.000973035290371626615524291992 0 0 0 0 
2414833333.3333334923 0.161623269319534301757812500000 -0.055291257798671722412109375000 -0.002661446575075387954711914062 -0.000798666966147720813751220703 0 0 0 0 
2415000000.0000000000 0.161272853612899808029013115629 -0.056173045188188552856445312500 -0.002749043749645351929905556787 -0.000674327195156365633010864258 0 0 0 0 
2415166666.6666665077 0.160990595817565890213174384371 -0.057260669767856597900390625000 -0.002714721485972404913661337744 -0.000615454511716961860656738281 0 0 0 0 
2415333333.3333334923 0.161011278629303006271200615629 -0.058418437838554382324218750000 -0.002685077022761106924769736182 -0.000594376178923994302749633789 0 0 0 0 
2415500000.0000000000 0.160809963941574096679687500000 -0.059421360492706298828125000000 -0.002774098189547657966613769531 -0.000527141499333083629608154297 0 0 0 0 
2415666666.6666665077 0.160704344511032104492187500000 -0.060554701834917068481445312500 -0.002942743245512247085571289062 -0.000164229131769388887003222055 0 0 0 0 
2415833333.3333334923 0.160558596253395108321981865629 -0.061704192310571670532226562500 -0.002834771759808063940760947119 -0.000238162203459069105699816293 0 0 0 0 
2416000000.0000000000 0.160191982984542902190838731258 -0.062965840101242065429687500000 -0.002813583705574274063110351562 -0.000225980969844386008664807730 0 0 0 0 
2416166666.6666665077 0.160234823822975186446981865629 -0.064106792211532592773437500000 -0.003075507003813982009887695312 -0.000185489945579320192337036133 0 0 0 0 
2416333333.3333334923 0.159792631864547701736611884371 -0.065280541777610778808593750000 -0.002943217521533370018005371094 0.000075457952334545552730560303 0 0 0 0 
2416500000.0000000000 0.159482464194297790527343750000 -0.066520787775516510009765625000 -0.002863656962290405793430947412 0.000204750176635570797041216440 0 0 0 0 
2416666666.6666665077 0.159195840358734103103799384371 -0.067594490945339202880859375000 -0.002843091497197746796848916162 0.000315177108859643285900670184 0 0 0 0 
2416833333.3333334923 0.158946618437767001053018134371 -0.068932905793190002441406250000 -0.002986271400004624886753701318 0.000417704635765403509140014648 0 0 0 0 
2417000000.0000000000 0.158378779888153103927450615629 -0.070040047168731689453125000000 -0.002743450924754143194911337744 0.000565230613574385643005371094 0 0 0 0 
2417166666.6666665077 0.158001229166984613616619981258 -0.070974446833133697509765625000 -0.002819242654368280930760048975 0.000610251270700246095657348633 0 0 0 0 
2417333333.3333334923 0.157721176743507413009481865629 -0.071915216743946075439453125000 -0.002659215126186608834507607568 0.000838090316392481327056884766 0 0 0 0 
2417500000.0000000000 0.157441750168800409515057481258 -0.073177330195903778076171875000 -0.002680561272427440123317099463 0.000902238884009420871734619141 0 0 0 0 
2417666666.6666665077 0.157243326306343106368856865629 -0.073919333517551422119140625000 -0.002515230327844620184657431494 0.000928939727600663900375366211 0 0 0 0 
2417833333.3333334923 0.156752735376358004470986884371 -0.074838764965534210205078125000 -0.002599257510155438943150185693 0.000909881957340985536575317383 0 0 0 0 
2418000000.0000000000 0.156444370746612604339276231258 -0.075792886316776275634765625000 -0.002304513705894351005554199219 0.001019901596009731075884174878 0 0 0 0 
2418166666.6666665077 0.156025752425193786621093750000 -0.076500996947288513183593750000 -0.002345196437090634866001748193 0.001024619326926768042920756763 0 0 0 0 
2418333333.3333334923 0.156025230884552001953125000000 -0.077321119606494903564453125000 -0.002202171366661787033081054688 0.001102452748455106995226215894 0 0 0 0 
2418500000.0000000000 0.155546262860298212249432481258 -0.078216068446636199951171875000 -0.002115242416039108796360634912 0.001112321624532341957092285156 0 0 0 0 
2418666666.6666665077 0.155375897884368896484375000000 -0.079037092626094818115234375000 -0.002035230398178101019618368994 0.001072422484867274978040385669 0 0 0 0 
2418833333.3333334923 0.154793426394462613204794365629 -0.080080024898052215576171875000 -0.002035773824900389151332236182 0.001063107047230005047441792065 0 0 0 0 
2419000000.0000000000 0.154507651925087002853231865629 -0.080636255443096160888671875000 -0.002023681532591580910923623193 0.000981693039648234844207763672 0 0 0 0 
2419166666.6666665077 0.154273688793182400802450615629 -0.081379964947700500488281250000 -0.002040182473137975172755576025 0.001120346249081193967106484521 0 0 0 0 
2419333333.3333334923 0.153665751218795804122763115629 -0.081893473863601684570312500000 -0.001853898051194847063777304541 0.001022795564495027065277099609 0 0 0 0 
2419500000.0000000000 0.153386518359184292892294365629 -0.082793213427066802978515625000 -0.001866320613771677017211914062 0.001141050248406827016117714990 0 0 0 0 
2419666666.6666665077 0.153225317597389193435830634371 -0.083345316350460052490234375000 -0.001927040982991456985473632812 0.001218890887685120105743408203 0 0 0 0 
2419833333.3333334923 0.152772411704063387771768134371 -0.084067270159721374511718750000 -0.001945066382177174091339111328 0.001181027502752840952632285010 0 0 0 0 
