# Hz S RI R 
2400000000.0000000000 0.156091287732124300857705634371 0.111135438084602397590394673443 -0.002491434337571262879612588037 0.002722074510529636903050088037 0 0 0 0 
2400166666.6666665077 0.155541300773620605468750000000 0.108845241367816897293252509371 -0.002459915820509194894077920068 0.003019263269379734992980957031 0 0 0 0 
2400333333.3333334923 0.155356585979461697677450615629 0.106640942394733401199502509371 -0.002410061657428741888758993994 0.003110386198386549949645996094 0 0 0 0 
2400500000.0000000000 0.154985412955284090896768134371 0.104044795036315904090962192186 -0.002250428544357419013977050781 0.003134723519906402067897177588 0 0 0 0 
2400666666.6666665077 0.154772281646728487869424384371 0.101523146033287103850994981258 -0.002194963861256837844848632812 0.003326463513076304955723427881 0 0 0 0 
2400833333.3333334923 0.154439896345138605315838731258 0.098572209477424621582031250000 -0.002192790852859615845921181787 0.003560702549293636842014931787 0 0 0 0 
2401000000.0000000000 0.154419615864753695388955634371 0.095742046833038330078125000000 -0.002091854810714722113368368994 0.003671164857223629951477050781 0 0 0 0 
2401166666.6666665077 0.154224365949630709549111884371 0.092880465090274810791015625000 -0.001742171123623847961425781250 0.003795019350945949988124228369 0 0 0 0 
2401333333.3333334923 0.154266268014907809158486884371 0.090058334171772003173828125000 -0.001627489575184881904004741138 0.003820995334535837173461914062 0 0 0 0 
2401500000.0000000000 0.154331371188163812835369981258 0.086912892758846282958984375000 -0.001726057496853172995923686450 0.003999772015959024429321289062 0 0 0 0 
2401666666.6666665077 0.154568418860435513595419365629 0.083877809345722198486328125000 -0.001439608400687574906590127100 0.004100949037820100784301757812 0 0 0 0 
2401833333.3333334923 0.154902651906013488769531250000 0.080984450876712799072265625000 -0.001346203382126986980438232422 0.004285666625946760177612304688 0 0 0 0 
2402000000.0000000000 0.155489817261695889571981865629 0.078093707561492919921875000000 -0.001253885100595653057098388672 0.004305049311369658383841230176 0 0 0 0 
2402166666.6666665077 0.156097307801246587555255018742 0.075217872858047485351562500000 -0.001009424682706594900843954932 0.004256925545632839202880859375 0 0 0 0 
2402333333.3333334923 0.156825453042984008789062500000 0.072249792516231536865234375000 -0.000964436854701489210128784180 0.004361785016953945159912109375 0 0 0 0 
2402500000.0000000000 0.157906070351600702483807481258 0.069630697369575500488281250000 -0.000719405012205243110656738281 0.004561421461403369903564453125 0 0 0 0 
2402666666.6666665077 0.159023255109786987304687500000 0.066975474357604980468750000000 -0.000498030567541718482971191406 0.004506178665906190872192382812 0 0 0 0 
2402833333.3333334923 0.160238489508628900725994981258 0.064274035394191741943359375000 -0.000412151828641071915626525879 0.004648567177355290326590253613 0 0 0 0 
2403000000.0000000000 0.161686792969703702071981865629 0.061534278094768517231027971093 -0.000098822296422440558671951294 0.004732761066406965255737304688 0 0 0 0 
2403166666.6666665077 0.163293108344078091720419365629 0.059320691972970962524414062500 0.000090521629317663609981536865 0.004800586961209774017333984375 0 0 0 0 
2403333333.3333334923 0.164761379361152704436932481258 0.056561738252639770507812500000 0.000109086657175794203154979567 0.004776127636432647705078125000 0 0 0 0 
2403500000.0000000000 0.166490465402603204925213731258 0.054538760334253311157226562500 0.000433437729952856898307800293 0.004815160296857357025146484375 0 0 0 0 
2403666666.6666665077 0.168213054537773104568643134371 0.052370201796293258666992187500 0.000652441638521850109100341797 0.004803765099495649337768554688 0 0 0 0 
2403833333.3333334923 0.170003548264503506759481865629 0.050089530646801001811940778907 0.000712155771907418966293334961 0.004744280129671096801757812500 0 0 0 0 
2404000000.0000000000 0.171653345227241488357705634371 0.048025134950876242900807966407 0.001011115382425487041473388672 0.004909072536975145339965820312 0 0 0 0 
2404166666.6666665077 0.173603504896163912674111884371 0.046332366764545440673828125000 0.001239952165633440017700195312 0.004916896112263202667236328125 0 0 0 0 
2404333333.3333334923 0.175373077392578097244424384371 0.044641621410846710205078125000 0.001407708972692490057704306494 0.004780313000082969665527343750 0 0 0 0 
2404500000.0000000000 0.177178919315338107010049384371 0.042905800044536590576171875000 0.001613302971236407973645854419 0.004918319173157215118408203125 0 0 0 0 
2404666666.6666665077 0.178958088159561212737713731258 0.041717156767845146869699846093 0.001818849821574985980987548828 0.004888810217380523681640625000 0 0 0 0 
2404833333.3333334923 0.180784195661544799804687500000 0.040410969406366348266601562500 0.002090519061312078995945595850 0.004864607006311416625976562500 0 0 0 0 
2405000000.0000000000 0.182575821876525906661825615629 0.039691247045993811870534528907 0.002416642149910331206080771338 0.004911440424621105194091796875 0 0 0 0 
2405166666.6666665077 0.184079483151435907561932481258 0.038750167936086661601979841407 0.002744702156633139090297079932 0.004792886786162853240966796875 0 0 0 0 
2405333333.3333334923 0.185745403170585604568643134371 0.038232266902923577045481096093 0.002924100495874882178065634619 0.004659301601350308331961347363 0 0 0 0 
2405500000.0000000000 0.187341079115867586990518134371 0.037673939019441611553151716407 0.003255750518292189078090048682 0.004480368923395872116088867188 0 0 0 0 
2405666666.6666665077 0.188834622502326993087606865629 0.037425197660922997211496721093 0.003471690695732831954956054688 0.004317063372582197189331054688 0 0 0 0 
2405833333.3333334923 0.190317913889885004241619981258 0.037060908973217010498046875000 0.003703299211338161988499306787 0.004142703022807837399954511426 0 0 0 0 
2406000000.0000000000 0.191573530435562106033486884371 0.036869067698717117309570312500 0.003873751498758792877197265625 0.003844520542770624160766601562 0 0 0 0 
2406166666.6666665077 0.192853748798370389083700615629 0.036773178726434707641601562500 0.004144533071666955947875976562 0.003468092065304518179652548682 0 0 0 0 
2406333333.3333334923 0.194022655487060602386151231258 0.036982201039791107177734375000 0.004349079914391040802001953125 0.003273101523518561883213662256 0 0 0 0 
2406500000.0000000000 0.194937407970428494552450615629 0.036979764699935913085937500000 0.004316235892474651336669921875 0.003043325850740075111389160156 0 0 0 0 
2406666666.6666665077 0.195734128355979891678018134371 0.037267703562974929809570312500 0.004460216965526342391967773438 0.002719735261052846908569335938 0 0 0 0 
2406833333.3333334923 0.196596860885620089431924384371 0.037493117153644561767578125000 0.004592912737280130386352539062 0.002462711650878190994262695312 0 0 0 0 
2407000000.0000000000 0.197153344750404413421307481258 0.037887509912252433086354841407 0.004657989833503962430472089551 0.002265761373564600944519042969 0 0 0 0 
2407166666.6666665077 0.197779715061187688629473768742 0.037863802164793021465261091407 0.004760152660310268402099609375 0.001989212818443775177001953125 0 0 0 0 
2407333333.3333334923 0.197748214006424005706463731258 0.038347847759723663330078125000 0.004707233514636754989624023438 0.001749502145685255961177206885 0 0 0 0 
2407500000.0000000000 0.198003575205802889724893134371 0.038739260286092758178710937500 0.004788223654031754407400800488 0.001590205240063369057298969800 0 0 0 0 
2407666666.6666665077 0.198180139064788790603799384371 0.038979869335889823223073591407 0.004545995499938726425170898438 0.001337852911092340946197509766 0 0 0 0 
2407833333.3333334923 0.197711527347564697265625000000 0.039144303649663932109792341407 0.004723920952528715133666992188 0.001124065835028887011884379810 0 0 0 0 
2408000000.0000000000 0.197717025876045199295205634371 0.039358522742986679077148437500 0.004746646620333194732666015625 0.000994645990431308746337890625 0 0 0 0 
2408166666.6666665077 0.197275474667549105545205634371 0.039454266428947448730468750000 0.004779543727636337280273437500 0.000669534376356750726699829102 0 0 0 0 
2408333333.3333334923 0.196730285882949801345986884371 0.039155531674623489379882812500 0.004596789367496967315673828125 0.000667580869048833847045898438 0 0 0 0 
2408500000.0000000000 0.196170926094055203536825615629 0.039210088551044457172434221093 0.004640595987439155578613281250 0.000266192626440897583961486816 0 0 0 0 
2408666666.6666665077 0.195518210530281094650106865629 0.039111591875553131103515625000 0.004623666871339082717895507812 -0.000065088301198557019233703613 0 0 0 0 
2408833333.3333334923 0.194841101765632601638955634371 0.038728188723325729370117187500 0.004537686239928007125854492188 -0.000078379671322181820869445801 0 0 0 0 
2409000000.0000000000 0.193795129656791687011718750000 0.038143813610076897357981096093 0.004550423007458448410034179688 -0.000336914003128185922473353253 0 0 0 0 
2409166666.6666665077 0.192852437496185302734375000000 0.037540130317211151123046875000 0.004338128492236137390136718750 -0.000424616533564403707354945050 0 0 0 0 
2409333333.3333334923 0.191688433289527893066406250000 0.036942277103662490844726562500 0.004193683154881001386160566113 -0.000637136748991906642913818359 0 0 0 0 
2409500000.0000000000 0.190513327717781094650106865629 0.035719305276870727539062500000 0.004118025768548250198364257812 -0.000932591909077018499374389648 0 0 0 0 
2409666666.6666665077 0.189289256930351312835369981258 0.034681212157011032104492187500 0.003870101878419518904445029150 -0.001017686328850686983821249854 0 0 0 0 
2409833333.3333334923 0.188144430518150301834268134371 0.033640373498201370239257812500 0.003806204069405794143676757812 -0.000794546213001012802124023438 0 0 0 0 
2410000000.0000000000 0.187077045440673800369424384371 0.032150417566299438476562500000 0.003805751213803886933567666162 -0.000950645830016583204269409180 0 0 0 0 
2410166666.6666665077 0.185706585645675686935263115629 0.030588064342737201345423514454 0.003724451875314116911647177588 -0.001194773241877556064008403247 0 0 0 0 
2410333333.3333334923 0.184594616293907193282919365629 0.029153499752283099782923514454 0.003458393039181828932521201025 -0.001231635571457446055171347510 0 0 0 0 
2410500000.0000000000 0.183422237634658813476562500000 0.027228664606809619558314139454 0.003350673010572791099548339844 -0.001101467409171164035797119141 0 0 0 0 
2410666666.6666665077 0.182197809219360407073651231258 0.025121307000517848623255545704 0.003404171206057072119471884619 -0.001418368890881537957432412256 0 0 0 0 
2410833333.3333334923 0.181317299604415893554687500000 0.023004695773124698293665701954 0.003201915184035896821262978662 -0.001274810987524688027025532300 0 0 0 0 
2411000000.0000000000 0.180248484015464810470419365629 0.020827388390898711467702497657 0.003177978564053773880004882812 -0.001351774204522371075273823315 0 0 0 0 
2411166666.6666665077 0.179474964737892206390057481258 0.018785633146762851369837576954 0.003172965720295906066894531250 -0.001424894086085259914398193359 0 0 0 0 
2411333333.3333334923 0.178758069872856112381143134371 0.016445145010948181152343750000 0.003077035304158926010131835938 -0.001621324801817535920384072412 0 0 0 0 
2411500000.0000000000 0.178117021918296786209268134371 0.013776473701000210153599923046 0.002942727645859121842625283350 -0.001624251483008265928981161963 0 0 0 0 
2411666666.6666665077 0.177636042237281799316406250000 0.011477032676339149475097656250 0.002987985732033849196193076025 -0.001638860325329005935071635669 0 0 0 0 
2411833333.3333334923 0.177094861865043612381143134371 0.009039809927344322204589843750 0.002829493023455142974853515625 -0.001565202837809920094133686597 0 0 0 0 
2412000000.0000000000 0.177030146121978787521200615629 0.006257883273065090179443359375 0.002687380416318773789646767725 -0.001667808974161743900896381909 0 0 0 0 
2412166666.6666665077 0.176991924643516512771768134371 0.003862756537273526191711425781 0.002651744754984974861145019531 -0.001801710692234336896183632959 0 0 0 0 
2412333333.3333334923 0.176936626434326199630575615629 0.001115362741984426975250244141 0.002637716941535472869873046875 -0.001675805309787393049952841650 0 0 0 0 
2412500000.0000000000 0.177424997091293307205361884371 -0.001219982514157891056658100659 0.002575204474851489067077636719 -0.001759378821589052893994975513 0 0 0 0 
2412666666.6666665077 0.177731826901435907561932481258 -0.003958262503147125244140625000 0.002551854820922017097473144531 -0.001673429156653583049774169922 0 0 0 0 
2412833333.3333334923 0.178471758961677606780682481258 -0.006694077048450708389282226562 0.002408564323559402985813759912 -0.001754201133735477924346923828 0 0 0 0 
2413000000.0000000000 0.179022550582885686676348768742 -0.009306775406002998352050781250 0.002609950723126531080958701025 -0.001852225977927445931675576318 0 0 0 0 
2413166666.6666665077 0.179758310317993191818075615629 -0.011627880856394769495953944727 0.002456466434523462815525673975 -0.001894442015327513001085590894 0 0 0 0 
2413333333.3333334923 0.180855765938758905608807481258 -0.014221725985407829284667968750 0.002373746130615472793579101562 -0.001961379079148172898533486475 0 0 0 0 
2413500000.0000000000 0.181527987122535705566406250000 -0.016764570027589801443079764454 0.002447508042678236961364746094 -0.002146025653928517861607216943 0 0 0 0 
2413666666.6666665077 0.182873561978340204436932481258 -0.019164666533470150339146798046 0.002251250436529517173767089844 -0.002193311927840114073512411963 0 0 0 0 
2413833333.3333334923 0.184076100587844904143963731258 -0.021411100402474399911900704296 0.002306069014593958854675292969 -0.002189234131947160200831747900 0 0 0 0 
2414000000.0000000000 0.185096278786659212967080634371 -0.023702522739768031728724295704 0.002244132105261086983921670068 -0.002331752330064773993251181494 0 0 0 0 
2414166666.6666665077 0.186542764306068392654580634371 -0.025713931769132610666295235546 0.002166084712371230125427246094 -0.002387167420238256888148642432 0 0 0 0 
2414333333.3333334923 0.187782034277916010100994981258 -0.027803579345345500600794608204 0.002055529970675706863403320312 -0.002500176662579178810119628906 0 0 0 0 
2414500000.0000000000 0.189209565520286587814169365629 -0.029543321579694751394251639454 0.001878823619335890033124614185 -0.002565732691437005996704101562 0 0 0 0 
2414666666.6666665077 0.190605923533439608474893134371 -0.031352624297142028808593750000 0.001765033579431473991991352612 -0.002611638745293021202087402344 0 0 0 0 
2414833333.3333334923 0.191811040043830899337606865629 -0.032840967178344726562500000000 0.001614156411960721015930175781 -0.002627499867230654196498251807 0 0 0 0 
2415000000.0000000000 0.193253681063652010818643134371 -0.034422557801008217548410783593 0.001573945744894444942474365234 -0.002630112227052450180053710938 0 0 0 0 
2415166666.6666665077 0.194679886102676391601562500000 -0.035756416618824012065847028907 0.001453165779821574904798198169 -0.002530452795326710180995322119 0 0 0 0 
2415333333.3333334923 0.196082934737205505371093750000 -0.036927364766597747802734375000 0.001472610398195683956146240234 -0.002588551025837659835815429688 0 0 0 0 
2415500000.0000000000 0.197480335831642206390057481258 -0.037743970751762390136718750000 0.001355064450763165950775146484 -0.002641437808051704926731728662 0 0 0 0 
2415666666.6666665077 0.198760464787483187576455634371 -0.038827121257781982421875000000 0.001514356466941535906550742041 -0.002717299154028296904322958838 0 0 0 0 
2415833333.3333334923 0.199884384870529202560263115629 -0.039417471736669540405273437500 0.001272251596674323081970214844 -0.002723189769312738938572548975 0 0 0 0 
2416000000.0000000000 0.200931727886200006683026231258 -0.040074229240417480468750000000 0.001147724688053131103515625000 -0.002864860929548739953282021631 0 0 0 0 
2416166666.6666665077 0.201998576521873501876669365629 -0.040851950645446777343750000000 0.001142137683928013064740825122 -0.003028753679245709939243935693 0 0 0 0 
2416333333.3333334923 0.202975824475288391113281250000 -0.041085831820964813232421875000 0.001064816489815711975097656250 -0.002999085700139402909519814600 0 0 0 0 
2416500000.0000000000 0.203803211450576809982138115629 -0.041372213512659072875976562500 0.001013184664770961024640727466 -0.003039028961211442947387695312 0 0 0 0 
2416666666.6666665077 0.204304844141006497482138115629 -0.041727080941200263286550153907 0.000936157186515629291534423828 -0.003108896315097808837890625000 0 0 0 0 
2416833333.3333334923 0.204792097210884094238281250000 -0.041542682796716690063476562500 0.000798209046479314565658569336 -0.003266859101131557984593056787 0 0 0 0 
2417000000.0000000000 0.205054625868797302246093750000 -0.041774868965148932720143903907 0.000554613594431430101394653320 -0.003180281259119511084315634619 0 0 0 0 
2417166666.6666665077 0.205156818032264709472656250000 -0.041630525141954421997070312500 0.000370151741662993972927647723 -0.003334923880174756050109863281 0 0 0 0 
2417333333.3333334923 0.205229341983795193771200615629 -0.041249152272939682006835937500 0.000180915405508130788803100586 -0.003186868503689765930175781250 0 0 0 0 
2417500000.0000000000 0.205134749412536593338174384371 -0.041212972253561019897460937500 0.000138925068313255906105041504 -0.003281411714851855798008584131 0 0 0 0 
2417666666.6666665077 0.204914763569831903655682481258 -0.040837947279214859008789062500 -0.000160363153554499203532618390 -0.003110134974122046990635537256 0 0 0 0 
2417833333.3333334923 0.204645887017250088790731865629 -0.040522571653127670288085937500 -0.000278380233794450814097803937 -0.003049969440326095061061240088 0 0 0 0 
2418000000.0000000000 0.204136028885841397384481865629 -0.040036041289567947387695312500 -0.000412479159422218799591064453 -0.003077285364270209832432412256 0 0 0 0 
2418166666.6666665077 0.203593373298644991775674384371 -0.039754118770360946655273437500 -0.000455711764516308903694152832 -0.003032801905646920204162597656 0 0 0 0 
2418333333.3333334923 0.202805906534195001800213731258 -0.039338424801826477050781250000 -0.000454923749202862381935119629 -0.003135848091915249824523925781 0 0 0 0 
2418500000.0000000000 0.201878398656845092773437500000 -0.039150390774011611938476562500 -0.000649760651867836713790893555 -0.002871907316148281097412109375 0 0 0 0 
2418666666.6666665077 0.201148942112922696212606865629 -0.038813889026641852642018903907 -0.000638471625279635190963745117 -0.002818749286234378814697265625 0 0 0 0 
2418833333.3333334923 0.199785530567169189453125000000 -0.038717605173587799072265625000 -0.000815402541775256395339965820 -0.002819100860506296157836914062 0 0 0 0 
2419000000.0000000000 0.198664844036102294921875000000 -0.038779605180025100708007812500 -0.000791133265011012554168701172 -0.002905828179791570143458701025 0 0 0 0 
2419166666.6666665077 0.197492152452468899825888115629 -0.038798008114099502563476562500 -0.000862569606397300958633422852 -0.002741066040471196174621582031 0 0 0 0 
2419333333.3333334923 0.195985659956932095626669365629 -0.039054047316312789916992187500 -0.000955732539296150207519531250 -0.002759592141956090927124023438 0 0 0 0 
2419500000.0000000000 0.194590896368026705642861884371 -0.039283860474824912334401716407 -0.000906474830117076635360717773 -0.002813216764479875998256064307 0 0 0 0 
2419666666.6666665077 0.192950606346130398849325615629 -0.039891444146633148193359375000 -0.001140977721661329052568745190 -0.002621733816340566115138388525 0 0 0 0 
2419833333.3333334923 0.191178143024444607833700615629 -0.040291223675012588500976562500 -0.001168462564237416007398295825 -0.002599089173600078062770224463 0 0 0 0 
