# Version 1.00
#
freq[Hz];re:Trc1_S11;im:Trc1_S11;re:Trc2_S21;im:Trc2_S21;
2.400000000000000E+009;1.551060825586319E-001;1.065062060952187E-001;-2.789751393720508E-003;-5.976991378702223E-004;
2.400166666666667E+009;1.549445688724518E-001;1.042722761631012E-001;-2.637190045788884E-003;-4.611584299709648E-004;
2.400333333333334E+009;1.550501883029938E-001;1.018319576978684E-001;-2.695710631087422E-003;-2.915949735324830E-004;
2.400500000000000E+009;1.550583839416504E-001;9.924809634685516E-002;-2.577863167971373E-003;-3.402089059818536E-004;
2.400666666666667E+009;1.551902890205383E-001;9.666255116462708E-002;-2.502855611965060E-003;-2.701424236875027E-004;
2.400833333333334E+009;1.552253812551498E-001;9.385328739881516E-002;-2.523599425330758E-003;-2.546120049373712E-005;
2.401000000000000E+009;1.554132401943207E-001;9.115350246429443E-002;-2.486540237441659E-003;-1.781498576747254E-004;
2.401166666666667E+009;1.556328237056732E-001;8.837127685546875E-002;-2.393016358837485E-003;-9.425368625670672E-005;
2.401333333333334E+009;1.559777706861496E-001;8.555619418621063E-002;-2.481080358847976E-003;-7.358118455158547E-005;
2.401500000000000E+009;1.563768088817596E-001;8.263194561004639E-002;-2.585045294836164E-003;-5.863425030838698E-005;
2.401666666666667E+009;1.568743735551834E-001;7.986072450876236E-002;-2.431832719594240E-003;-1.381352340104058E-004;
2.401833333333334E+009;1.573169976472855E-001;7.711958140134811E-002;-2.435966394841671E-003;-8.929304385674186E-006;
2.402000000000000E+009;1.583232283592224E-001;7.446032762527466E-002;-2.442768774926662E-003;9.832229989115149E-005;
2.402166666666667E+009;1.590927094221115E-001;7.201850414276123E-002;-2.320447936654091E-003;2.347603731323034E-004;
2.402333333333334E+009;1.601475775241852E-001;6.926523149013519E-002;-2.465507015585899E-003;8.131696813507006E-005;
2.402500000000000E+009;1.611857116222382E-001;6.680057942867279E-002;-2.544528571888804E-003;1.543324033264071E-004;
2.402666666666667E+009;1.623505204916000E-001;6.454075872898102E-002;-2.404249040409923E-003;2.778932102955878E-004;
2.402833333333334E+009;1.634370237588882E-001;6.201700493693352E-002;-2.301013329997659E-003;2.705011866055429E-004;
2.403000000000000E+009;1.651813536882401E-001;5.981401726603508E-002;-2.561276545748115E-003;2.993906964547932E-004;
2.403166666666667E+009;1.667701452970505E-001;5.766202881932259E-002;-2.440312644466758E-003;2.597808488644660E-004;
2.403333333333334E+009;1.683537065982819E-001;5.544171854853630E-002;-2.516373991966248E-003;2.412621543044224E-004;
2.403500000000000E+009;1.698574572801590E-001;5.333049222826958E-002;-2.542934613302350E-003;2.646448265295476E-004;
2.403666666666667E+009;1.715947538614273E-001;5.150774493813515E-002;-2.606590511277318E-003;3.979162138421089E-004;
2.403833333333334E+009;1.732451915740967E-001;4.968369007110596E-002;-2.810767153277993E-003;6.095401477068663E-004;
2.404000000000000E+009;1.747399270534515E-001;4.799218475818634E-002;-2.669620560482144E-003;6.640417850576341E-004;
2.404166666666667E+009;1.765039414167404E-001;4.647301882505417E-002;-2.576718572527170E-003;9.879030985757709E-004;
2.404333333333334E+009;1.780492663383484E-001;4.506481811404228E-002;-2.642918610945344E-003;8.633864927105606E-004;
2.404500000000000E+009;1.796725541353226E-001;4.347179085016251E-002;-2.593013923615217E-003;1.137083396315575E-003;
2.404666666666667E+009;1.813420951366425E-001;4.252276569604874E-002;-2.458215691149235E-003;1.263171783648431E-003;
2.404833333333334E+009;1.828354746103287E-001;4.146965593099594E-002;-2.390184206888080E-003;1.329659367911518E-003;
2.405000000000000E+009;1.843210309743881E-001;4.078156128525734E-002;-2.343396889045835E-003;1.401617890223861E-003;
2.405166666666667E+009;1.857028305530548E-001;4.002721980214119E-002;-2.319538267329335E-003;1.508582383394241E-003;
2.405333333333334E+009;1.870769262313843E-001;3.961287438869476E-002;-2.190733561292291E-003;1.409238553605974E-003;
2.405500000000000E+009;1.886423826217651E-001;3.916075453162193E-002;-2.182479947805405E-003;1.614580629393458E-003;
2.405666666666667E+009;1.896680593490601E-001;3.880932182073593E-002;-1.954025588929653E-003;1.561915967613459E-003;
2.405833333333334E+009;1.909061074256897E-001;3.846269845962524E-002;-1.887165941298008E-003;1.452579279430211E-003;
2.406000000000000E+009;1.918615847826004E-001;3.832505643367767E-002;-1.852288842201233E-003;1.452373573556542E-003;
2.406166666666667E+009;1.928829103708267E-001;3.803469240665436E-002;-1.838398398831487E-003;1.445124275051057E-003;
2.406333333333334E+009;1.938958466053009E-001;3.819876164197922E-002;-1.650260994210839E-003;1.439029467292130E-003;
2.406500000000000E+009;1.946209222078323E-001;3.814996406435967E-002;-1.829466200433672E-003;1.469066599383950E-003;
2.406666666666667E+009;1.951720118522644E-001;3.803635016083717E-002;-1.807363471016288E-003;1.375975669361651E-003;
2.406833333333334E+009;1.956948786973953E-001;3.820997104048729E-002;-1.718630897812545E-003;1.387837342917919E-003;
2.407000000000000E+009;1.959401220083237E-001;3.823603317141533E-002;-1.762669766321778E-003;1.445069327019155E-003;
2.407166666666667E+009;1.964108496904373E-001;3.806144371628761E-002;-1.831314759328961E-003;1.485247164964676E-003;
2.407333333333334E+009;1.963800340890884E-001;3.801081329584122E-002;-1.913969637826085E-003;1.562372548505664E-003;
2.407500000000000E+009;1.963038146495819E-001;3.816614300012589E-002;-1.811197726055980E-003;1.577056013047695E-003;
2.407666666666667E+009;1.963822245597839E-001;3.808267042040825E-002;-1.871230779215694E-003;1.636026543565095E-003;
2.407833333333334E+009;1.957731842994690E-001;3.784741461277008E-002;-1.688370830379427E-003;1.638566027395427E-003;
2.408000000000000E+009;1.957721114158630E-001;3.757115453481674E-002;-1.904172822833061E-003;1.746038557030261E-003;
2.408166666666667E+009;1.952104866504669E-001;3.723632544279099E-002;-1.923414412885904E-003;1.767078996635974E-003;
2.408333333333334E+009;1.948419660329819E-001;3.673389554023743E-002;-1.921901712194085E-003;1.878421055153012E-003;
2.408500000000000E+009;1.940976679325104E-001;3.615947812795639E-002;-2.016746206209064E-003;1.876419177278876E-003;
2.408666666666667E+009;1.934857964515686E-001;3.569407388567925E-002;-2.001374261453748E-003;2.030209638178349E-003;
2.408833333333334E+009;1.927929073572159E-001;3.477880731225014E-002;-1.996874110773206E-003;1.987890806049109E-003;
2.409000000000000E+009;1.918180435895920E-001;3.374262526631355E-002;-1.935844193212688E-003;2.045765751972795E-003;
2.409166666666667E+009;1.908988505601883E-001;3.291067853569984E-002;-2.013775054365397E-003;2.050407929345965E-003;
2.409333333333334E+009;1.899635791778565E-001;3.185614198446274E-002;-2.009483519941568E-003;2.321201143786311E-003;
2.409500000000000E+009;1.889153122901917E-001;3.048798255622387E-002;-2.024391666054726E-003;2.334220800548792E-003;
2.409666666666667E+009;1.879402101039887E-001;2.896896749734879E-002;-1.957263099029660E-003;2.440161537379026E-003;
2.409833333333334E+009;1.869528591632843E-001;2.754301205277443E-002;-2.058753278106451E-003;2.575711347162724E-003;
2.410000000000000E+009;1.859987378120422E-001;2.585606649518013E-002;-1.886489684693515E-003;2.823399845510721E-003;
2.410166666666667E+009;1.850206851959229E-001;2.399486675858498E-002;-1.779316924512386E-003;3.016547067090869E-003;
2.410333333333334E+009;1.840798705816269E-001;2.222700603306294E-002;-1.751600531861186E-003;3.094980493187904E-003;
2.410500000000000E+009;1.831419765949249E-001;2.017002180218697E-002;-1.594939385540783E-003;3.256524913012981E-003;
2.410666666666667E+009;1.821733564138413E-001;1.794191077351570E-002;-1.537061762064695E-003;3.227337962016463E-003;
2.410833333333334E+009;1.815938353538513E-001;1.583844237029553E-002;-1.267026760615408E-003;3.447693074122071E-003;
2.411000000000000E+009;1.807790249586105E-001;1.361319329589605E-002;-1.103212591260672E-003;3.526769345626235E-003;
2.411166666666667E+009;1.802099347114563E-001;1.149714738130570E-002;-1.094956067390740E-003;3.532252507284284E-003;
2.411333333333334E+009;1.797062754631043E-001;8.982703089714050E-003;-8.545784512534738E-004;3.715314436703920E-003;
2.411500000000000E+009;1.792685091495514E-001;6.665325257927179E-003;-7.445494411513209E-004;3.724016947671771E-003;
2.411666666666667E+009;1.792044490575790E-001;4.350021947175264E-003;-5.540667916648090E-004;3.564482089132071E-003;
2.411833333333334E+009;1.788583695888519E-001;1.989822834730148E-003;-4.074725147802383E-004;3.690675599500537E-003;
2.412000000000000E+009;1.789808720350266E-001;-7.033576257526875E-004;-4.234359366819263E-004;3.709472017362714E-003;
2.412166666666667E+009;1.788655370473862E-001;-3.038151422515512E-003;-1.766832283465192E-004;3.676699008792639E-003;
2.412333333333334E+009;1.791835278272629E-001;-5.355405155569315E-003;-5.851052992511541E-005;3.621302079409361E-003;
2.412500000000000E+009;1.795972138643265E-001;-7.815903052687645E-003;1.373554259771481E-004;3.651658538728952E-003;
2.412666666666667E+009;1.800580769777298E-001;-1.024710945785046E-002;3.199793864041567E-004;3.684370312839747E-003;
2.412833333333334E+009;1.807827651500702E-001;-1.264494750648737E-002;4.821681941393763E-004;3.479898441582918E-003;
2.413000000000000E+009;1.815228313207626E-001;-1.504409499466419E-002;5.760703934356570E-004;3.530803369358182E-003;
2.413166666666667E+009;1.822992414236069E-001;-1.716880314052105E-002;5.672181723639369E-004;3.462252672761679E-003;
2.413333333333334E+009;1.832975298166275E-001;-1.940731517970562E-002;7.186700822785497E-004;3.429833566769958E-003;
2.413500000000000E+009;1.840590536594391E-001;-2.165527641773224E-002;9.801877895370126E-004;3.453257959336042E-003;
2.413666666666667E+009;1.851672530174255E-001;-2.386389486491680E-002;8.170409710146487E-004;3.360080532729626E-003;
2.413833333333334E+009;1.864051222801209E-001;-2.575263008475304E-002;8.798300405032933E-004;3.348253900185227E-003;
2.414000000000000E+009;1.874613463878632E-001;-2.767265401780605E-002;9.509373921900988E-004;3.382155671715736E-003;
2.414166666666667E+009;1.886116713285446E-001;-2.945183776319027E-002;1.109161996282637E-003;3.342943964526057E-003;
2.414333333333334E+009;1.896371841430664E-001;-3.139262273907661E-002;1.078372821211815E-003;3.222355386242271E-003;
2.414500000000000E+009;1.908862739801407E-001;-3.277190402150154E-002;1.190602313727140E-003;3.302509197965264E-003;
2.414666666666667E+009;1.920869648456574E-001;-3.422996401786804E-002;1.444265595637262E-003;3.395775100216270E-003;
2.414833333333334E+009;1.931104809045792E-001;-3.557162731885910E-002;1.375533523969352E-003;3.170227631926537E-003;
2.415000000000000E+009;1.942458897829056E-001;-3.688369318842888E-002;1.460172701627016E-003;3.163269488140941E-003;
2.415166666666667E+009;1.953053772449493E-001;-3.786311298608780E-002;1.811901340261102E-003;3.188246395438910E-003;
2.415333333333334E+009;1.964254081249237E-001;-3.884219378232956E-002;1.769377384334803E-003;3.165432950481772E-003;
2.415500000000000E+009;1.974250823259354E-001;-3.949482366442680E-002;1.883439370431006E-003;2.924393862485886E-003;
2.415666666666667E+009;1.984677016735077E-001;-4.037177935242653E-002;2.013663994148374E-003;3.029730869457126E-003;
2.415833333333334E+009;1.993106156587601E-001;-4.095017537474632E-002;2.037048572674394E-003;2.813750412315130E-003;
2.416000000000000E+009;2.000334560871124E-001;-4.151637479662895E-002;1.953141996636987E-003;2.799766371026635E-003;
2.416166666666667E+009;2.006479650735855E-001;-4.220974445343018E-002;2.121137222275138E-003;2.747996477410197E-003;
2.416333333333334E+009;2.012322545051575E-001;-4.231390357017517E-002;2.234701998531818E-003;2.743386663496494E-003;
2.416500000000000E+009;2.016447335481644E-001;-4.263696447014809E-002;2.306702313944697E-003;2.714266302064061E-003;
2.416666666666667E+009;2.019350230693817E-001;-4.291244596242905E-002;2.381674945354462E-003;2.604868030175567E-003;
2.416833333333334E+009;2.019925117492676E-001;-4.294493049383164E-002;2.604882465675473E-003;2.812560414895415E-003;
2.417000000000000E+009;2.021145522594452E-001;-4.319385439157486E-002;2.664317609742284E-003;2.485434757545590E-003;
2.417166666666667E+009;2.017752230167389E-001;-4.315417632460594E-002;2.622337779030204E-003;2.662232378497720E-003;
2.417333333333334E+009;2.015437483787537E-001;-4.287799820303917E-002;2.812380902469158E-003;2.562472829595208E-003;
2.417500000000000E+009;2.012094110250473E-001;-4.303469136357307E-002;2.850261749699712E-003;2.565541770309210E-003;
2.417666666666667E+009;2.006084173917770E-001;-4.273900389671326E-002;3.207567147910595E-003;2.582945860922337E-003;
2.417833333333334E+009;2.003202736377716E-001;-4.267931357026100E-002;3.165648085996509E-003;2.281715627759695E-003;
2.418000000000000E+009;1.995895653963089E-001;-4.243588447570801E-002;3.224752843379974E-003;2.425406360998750E-003;
2.418166666666667E+009;1.987582892179489E-001;-4.226630181074143E-002;3.379433415830135E-003;2.179133705794811E-003;
2.418333333333334E+009;1.977504193782806E-001;-4.218171164393425E-002;3.428661031648517E-003;2.081224462017417E-003;
2.418500000000000E+009;1.968098878860474E-001;-4.221700131893158E-002;3.510838374495506E-003;1.808315282687545E-003;
2.418666666666667E+009;1.958390325307846E-001;-4.223793372511864E-002;3.666171105578542E-003;1.669194898568094E-003;
2.418833333333334E+009;1.946509331464768E-001;-4.229544848203659E-002;3.562227357178927E-003;1.560865319333971E-003;
2.419000000000000E+009;1.933251023292542E-001;-4.258019849658012E-002;3.719776868820190E-003;1.482018386013806E-003;
2.419166666666667E+009;1.920816749334335E-001;-4.285202175378799E-002;3.660846967250109E-003;1.378444256260991E-003;
2.419333333333334E+009;1.906795948743820E-001;-4.343327507376671E-002;3.714526770636439E-003;1.037185429595411E-003;
2.419500000000000E+009;1.891584843397141E-001;-4.374542832374573E-002;3.644686192274094E-003;1.081553287804127E-003;
2.419666666666667E+009;1.877443343400955E-001;-4.472986236214638E-002;3.803765634074807E-003;1.060455688275397E-003;
2.419833333333334E+009;1.861220896244049E-001;-4.525093734264374E-002;3.669107099995017E-003;9.528244263492525E-004;
2.420000000000000E+009;1.845514923334122E-001;-4.618731141090393E-002;3.652202431112528E-003;8.321299683302641E-004;
2.420166666666667E+009;1.830384582281113E-001;-4.708084464073181E-002;3.624920966103673E-003;7.040898199193180E-004;
2.420333333333334E+009;1.814748793840408E-001;-4.831013455986977E-002;3.564947284758091E-003;6.535113207064569E-004;
2.420500000000000E+009;1.798176616430283E-001;-4.969622567296028E-002;3.711366793140769E-003;5.962523282505572E-004;
2.420666666666667E+009;1.780968606472015E-001;-5.074080079793930E-002;3.756460268050432E-003;5.422506364993751E-004;
2.420833333333334E+009;1.766973286867142E-001;-5.221642181277275E-002;3.635815810412169E-003;5.750386626459658E-004;
2.421000000000000E+009;1.752434372901917E-001;-5.378967896103859E-002;3.824563696980476E-003;4.449630796443671E-004;
2.421166666666667E+009;1.738758534193039E-001;-5.538439378142357E-002;3.872541012242436E-003;4.035248421132565E-004;
2.421333333333334E+009;1.722239106893539E-001;-5.704100057482719E-002;3.923006821423769E-003;2.857751969713718E-004;
2.421500000000000E+009;1.710291653871536E-001;-5.890262126922607E-002;4.045889712870121E-003;1.575271598994732E-004;
2.421666666666667E+009;1.696204692125320E-001;-6.066368147730827E-002;4.146782681345940E-003;-1.076894204743439E-005;
2.421833333333334E+009;1.686253249645233E-001;-6.257885694503784E-002;3.940452821552753E-003;-9.775491344043985E-005;
2.422000000000000E+009;1.675327569246292E-001;-6.429988890886307E-002;4.134899005293846E-003;-2.384567778790370E-004;
2.422166666666667E+009;1.666783392429352E-001;-6.652999669313431E-002;4.164555110037327E-003;-4.098569334018976E-004;
2.422333333333334E+009;1.658520251512528E-001;-6.851582229137421E-002;3.901346353814006E-003;-5.884906277060509E-004;
2.422500000000000E+009;1.649793237447739E-001;-7.037004828453064E-002;4.027855116873980E-003;-7.208322058431804E-004;
2.422666666666667E+009;1.644839197397232E-001;-7.247235625982285E-002;4.062884952872992E-003;-7.286804029718041E-004;
2.422833333333334E+009;1.638922393321991E-001;-7.445434480905533E-002;4.101120866835117E-003;-1.080728950910270E-003;
2.423000000000000E+009;1.635033339262009E-001;-7.639243453741074E-002;3.968631848692894E-003;-1.126552233472467E-003;
2.423166666666667E+009;1.630056649446487E-001;-7.822414487600327E-002;3.949915990233421E-003;-1.334346248768270E-003;
2.423333333333334E+009;1.626879125833511E-001;-8.014136552810669E-002;3.952012863010168E-003;-1.393914222717285E-003;
2.423500000000000E+009;1.627598404884338E-001;-8.190079778432846E-002;3.802516730502248E-003;-1.640550559386611E-003;
2.423666666666667E+009;1.628545075654984E-001;-8.390778303146362E-002;3.944550175219774E-003;-1.785847940482199E-003;
2.423833333333334E+009;1.627300828695297E-001;-8.545307815074921E-002;3.702324116602540E-003;-1.853818423114717E-003;
2.424000000000000E+009;1.628147959709168E-001;-8.720803260803223E-002;3.786475863307715E-003;-1.981498440727592E-003;
2.424166666666667E+009;1.629233807325363E-001;-8.866994082927704E-002;3.655411303043366E-003;-2.195622539147735E-003;
2.424333333333334E+009;1.631072312593460E-001;-9.014479070901871E-002;3.554702736437321E-003;-2.348048845306039E-003;
2.424500000000000E+009;1.635169088840485E-001;-9.193441271781921E-002;3.403465496376157E-003;-2.437724266201258E-003;
2.424666666666667E+009;1.637522429227829E-001;-9.321576356887817E-002;3.165373345836997E-003;-2.390284556895495E-003;
2.424833333333334E+009;1.643717586994171E-001;-9.443508088588715E-002;3.276993986219168E-003;-2.578349784016609E-003;
2.425000000000000E+009;1.646304726600647E-001;-9.567714482545853E-002;2.980348654091358E-003;-2.596436766907573E-003;
2.425166666666667E+009;1.649236381053925E-001;-9.667176753282547E-002;2.993015805259347E-003;-2.788146957755089E-003;
2.425333333333334E+009;1.653708517551422E-001;-9.752838313579559E-002;2.873639343306422E-003;-2.818390959873796E-003;
2.425500000000000E+009;1.657342165708542E-001;-9.860868006944656E-002;2.892313292250037E-003;-2.864795736968517E-003;
2.425666666666667E+009;1.661200821399689E-001;-9.918363392353058E-002;2.940386068075895E-003;-2.843353664502502E-003;
2.425833333333334E+009;1.663731038570404E-001;-1.000573039054871E-001;2.804759889841080E-003;-3.091332735493779E-003;
2.426000000000000E+009;1.668332070112228E-001;-1.004975140094757E-001;2.623765729367733E-003;-3.055433742702007E-003;
2.426166666666667E+009;1.672587245702744E-001;-1.009390726685524E-001;2.533462829887867E-003;-3.165218280628324E-003;
2.426333333333334E+009;1.672552227973938E-001;-1.015890166163445E-001;2.452065469697118E-003;-3.242836333811283E-003;
2.426500000000000E+009;1.677990257740021E-001;-1.017349287867546E-001;2.383937593549490E-003;-3.247419837862253E-003;
2.426666666666667E+009;1.678263396024704E-001;-1.020248457789421E-001;2.261632587760687E-003;-3.429501550272107E-003;
2.426833333333334E+009;1.682387292385101E-001;-1.024047583341599E-001;2.136668423190713E-003;-3.508449997752905E-003;
2.427000000000000E+009;1.681582182645798E-001;-1.026904284954071E-001;1.920111826620996E-003;-3.518773708492518E-003;
2.427166666666667E+009;1.681404858827591E-001;-1.027053892612457E-001;1.887565711513162E-003;-3.518075216561556E-003;
2.427333333333334E+009;1.680433303117752E-001;-1.030156314373016E-001;1.775243086740375E-003;-3.644841723144054E-003;
2.427500000000000E+009;1.678099185228348E-001;-1.031926348805428E-001;1.711522112600505E-003;-3.479427425190806E-003;
2.427666666666667E+009;1.674581766128540E-001;-1.032537519931793E-001;1.612422522157431E-003;-3.837351687252522E-003;
2.427833333333334E+009;1.670446246862412E-001;-1.034664735198021E-001;1.316534006036818E-003;-3.803119529038668E-003;
