# Version 1.00
#
freq[Hz];re:Trc1_S11;im:Trc1_S11;re:Trc2_S21;im:Trc2_S21;
2.400000000000000E+009;1.551560312509537E-001;1.064992174506187E-001;-2.763452706858516E-003;-5.961150163784623E-004;
2.400166666666667E+009;1.548438668251038E-001;1.043507605791092E-001;-2.820404944941402E-003;-3.521907492540777E-004;
2.400333333333334E+009;1.550069898366928E-001;1.019406691193581E-001;-2.701196121051908E-003;-2.659796155057848E-004;
2.400500000000000E+009;1.549809128046036E-001;9.929904341697693E-002;-2.626945730298758E-003;-2.985976170748472E-004;
2.400666666666667E+009;1.551190167665482E-001;9.681144356727600E-002;-2.619014354422689E-003;-2.241285255877301E-004;
2.400833333333334E+009;1.552235335111618E-001;9.400998800992966E-002;-2.618413418531418E-003;-1.035318055073731E-004;
2.401000000000000E+009;1.554112136363983E-001;9.097691625356674E-002;-2.426231745630503E-003;-1.920562935993075E-004;
2.401166666666667E+009;1.555584520101547E-001;8.829147368669510E-002;-2.517899265512824E-003;-3.596513852244243E-005;
2.401333333333334E+009;1.559363603591919E-001;8.562997728586197E-002;-2.479068236425519E-003;-3.981098780059256E-005;
2.401500000000000E+009;1.563431322574616E-001;8.266774564981461E-002;-2.332402626052499E-003;-6.537874287459999E-005;
2.401666666666667E+009;1.566537916660309E-001;7.987192273139954E-002;-2.438873052597046E-003;1.469771996198688E-005;
2.401833333333334E+009;1.573325246572495E-001;7.722552865743637E-002;-2.477274276316166E-003;-2.292970202688593E-005;
2.402000000000000E+009;1.581901162862778E-001;7.444033771753311E-002;-2.443153876811266E-003;1.134183548856527E-005;
2.402166666666667E+009;1.589971631765366E-001;7.194299995899200E-002;-2.437356393784285E-003;-1.364588933938649E-005;
2.402333333333334E+009;1.599609404802322E-001;6.923047453165054E-002;-2.435309113934636E-003;1.443527435185388E-004;
2.402500000000000E+009;1.610639840364456E-001;6.674657762050629E-002;-2.433413872495294E-003;7.653867214685306E-005;
2.402666666666667E+009;1.622322201728821E-001;6.463945657014847E-002;-2.440688433125615E-003;5.606191552942619E-005;
2.402833333333334E+009;1.636840850114822E-001;6.206691637635231E-002;-2.379232319071889E-003;2.780098002403975E-004;
2.403000000000000E+009;1.650838851928711E-001;5.968370288610458E-002;-2.396860159933567E-003;3.357250534463674E-004;
2.403166666666667E+009;1.667323559522629E-001;5.776315182447434E-002;-2.554377075284720E-003;3.665908589027822E-004;
2.403333333333334E+009;1.683246344327927E-001;5.536180734634399E-002;-2.625817898660898E-003;4.083121020812541E-004;
2.403500000000000E+009;1.699905842542648E-001;5.344158783555031E-002;-2.564674708992243E-003;2.579262363724411E-004;
2.403666666666667E+009;1.715711057186127E-001;5.153493210673332E-002;-2.678297460079193E-003;4.540433583315462E-004;
2.403833333333334E+009;1.732526421546936E-001;4.964831471443176E-002;-2.617044141516089E-003;6.729383603669703E-004;
2.404000000000000E+009;1.748569905757904E-001;4.781284928321838E-002;-2.791056642308831E-003;7.447481621056795E-004;
2.404166666666667E+009;1.765451133251190E-001;4.649880155920982E-002;-2.722884528338909E-003;8.268015226349235E-004;
2.404333333333334E+009;1.780726015567780E-001;4.505633190274239E-002;-2.629784634336829E-003;9.264523978345096E-004;
2.404500000000000E+009;1.795639991760254E-001;4.353894665837288E-002;-2.569033065810800E-003;1.155307400040329E-003;
2.404666666666667E+009;1.813701540231705E-001;4.255741089582443E-002;-2.499316120520234E-003;1.262806355953217E-003;
2.404833333333334E+009;1.828868538141251E-001;4.139315709471703E-002;-2.614568220451474E-003;1.257807831279934E-003;
2.405000000000000E+009;1.843563616275787E-001;4.075192660093308E-002;-2.361666643992066E-003;1.509912079200149E-003;
2.405166666666667E+009;1.857600510120392E-001;4.028617963194847E-002;-2.266536932438612E-003;1.363957882858813E-003;
2.405333333333334E+009;1.870806217193604E-001;3.962271288037300E-002;-1.993295270949602E-003;1.458682701922953E-003;
2.405500000000000E+009;1.884992420673370E-001;3.916609287261963E-002;-2.083118772134185E-003;1.544009195640683E-003;
2.405666666666667E+009;1.897159814834595E-001;3.876097500324249E-002;-2.081022830680013E-003;1.542343758046627E-003;
2.405833333333334E+009;1.910714358091354E-001;3.842367231845856E-002;-1.906081801280379E-003;1.356441760435700E-003;
2.406000000000000E+009;1.920092403888702E-001;3.825088590383530E-002;-1.964218681678176E-003;1.658012857660651E-003;
2.406166666666667E+009;1.929728537797928E-001;3.804460167884827E-002;-1.841443008743227E-003;1.286381855607033E-003;
2.406333333333334E+009;1.939801275730133E-001;3.817226737737656E-002;-1.827466301620007E-003;1.531717367470264E-003;
2.406500000000000E+009;1.946897804737091E-001;3.809449449181557E-002;-1.881451229564846E-003;1.423046342097223E-003;
2.406666666666667E+009;1.951997876167297E-001;3.798090294003487E-002;-1.783263171091676E-003;1.522500417195261E-003;
2.406833333333334E+009;1.957063972949982E-001;3.800509497523308E-002;-1.833971356973052E-003;1.551273860968649E-003;
2.407000000000000E+009;1.960035264492035E-001;3.816720843315125E-002;-1.906425110064447E-003;1.587648177519441E-003;
2.407166666666667E+009;1.963490992784500E-001;3.793059661984444E-002;-1.774773932993412E-003;1.581052201800048E-003;
2.407333333333334E+009;1.963824480772018E-001;3.810155019164085E-002;-1.960369991138578E-003;1.547396415844560E-003;
2.407500000000000E+009;1.963057219982147E-001;3.807309269905090E-002;-1.989770447835326E-003;1.495850621722639E-003;
2.407666666666667E+009;1.963098645210266E-001;3.798929601907730E-002;-1.941062742844224E-003;1.820859150029719E-003;
2.407833333333334E+009;1.958567947149277E-001;3.779630735516548E-002;-1.907318131998181E-003;1.659873989410698E-003;
2.408000000000000E+009;1.957883387804031E-001;3.756433725357056E-002;-2.011458855122328E-003;1.809319132007659E-003;
2.408166666666667E+009;1.952305436134338E-001;3.711843863129616E-002;-1.830832916311920E-003;1.754592405632138E-003;
2.408333333333334E+009;1.947579234838486E-001;3.658151999115944E-002;-1.966729061678052E-003;1.797318574972451E-003;
2.408500000000000E+009;1.940746754407883E-001;3.623232245445252E-002;-1.955498708412051E-003;1.899502123706043E-003;
2.408666666666667E+009;1.933641880750656E-001;3.565828502178192E-002;-1.941750990226865E-003;2.016535261645913E-003;
2.408833333333334E+009;1.927091926336289E-001;3.481670096516609E-002;-1.895913504995406E-003;2.170465653762221E-003;
2.409000000000000E+009;1.918278783559799E-001;3.386259451508522E-002;-2.068564761430025E-003;1.966695999726653E-003;
2.409166666666667E+009;1.908200085163117E-001;3.293292969465256E-002;-2.002437599003315E-003;2.249233657494187E-003;
2.409333333333334E+009;1.900635510683060E-001;3.176807612180710E-002;-1.941164955496788E-003;2.382675651460886E-003;
2.409500000000000E+009;1.888514161109924E-001;3.046337887644768E-002;-1.984147122129798E-003;2.348607638850808E-003;
2.409666666666667E+009;1.879395395517349E-001;2.904717810451984E-002;-2.017345977947116E-003;2.480421448126435E-003;
2.409833333333334E+009;1.868535727262497E-001;2.750966884195805E-002;-1.961679430678487E-003;2.691497793421149E-003;
2.410000000000000E+009;1.860052943229675E-001;2.586607448756695E-002;-2.007835544645786E-003;2.782569034025073E-003;
2.410166666666667E+009;1.848593354225159E-001;2.396987192332745E-002;-1.871850108727813E-003;2.950957044959068E-003;
2.410333333333334E+009;1.841281354427338E-001;2.231903374195099E-002;-1.685080933384597E-003;3.191676223650575E-003;
2.410500000000000E+009;1.832032799720764E-001;2.034545689821243E-002;-1.650300109758973E-003;3.436184255406261E-003;
2.410666666666667E+009;1.821209341287613E-001;1.791241392493248E-002;-1.459314138628542E-003;3.452651435509324E-003;
2.410833333333334E+009;1.815734505653381E-001;1.601346023380756E-002;-1.215792843140662E-003;3.536663018167019E-003;
2.411000000000000E+009;1.808043122291565E-001;1.374149695038796E-002;-1.271808170713484E-003;3.477217862382531E-003;
2.411166666666667E+009;1.801708340644836E-001;1.148905232548714E-002;-1.067446777597070E-003;3.577680559828877E-003;
2.411333333333334E+009;1.796493083238602E-001;8.911879733204842E-003;-9.859292767941952E-004;3.673495026305318E-003;
2.411500000000000E+009;1.791898310184479E-001;6.691724061965942E-003;-7.647630991414189E-004;3.729845397174358E-003;
2.411666666666667E+009;1.791780591011047E-001;4.276297520846129E-003;-5.800451035611332E-004;3.684569150209427E-003;
2.411833333333334E+009;1.788062304258347E-001;1.957002794370055E-003;-4.549799486994743E-004;3.781706793233752E-003;
2.412000000000000E+009;1.788562089204788E-001;-7.384819327853620E-004;-3.584791265893728E-004;3.819377627223730E-003;
2.412166666666667E+009;1.789961159229279E-001;-2.761025447398424E-003;-9.549673268338665E-005;3.800334641709924E-003;
2.412333333333334E+009;1.791561841964722E-001;-5.444882437586784E-003;1.949433790287003E-004;3.751083975657821E-003;
2.412500000000000E+009;1.795229762792587E-001;-7.736670318990946E-003;2.342285442864522E-004;3.607464954257011E-003;
2.412666666666667E+009;1.800554394721985E-001;-1.019580010324717E-002;3.880258591379970E-004;3.716817125678062E-003;
2.412833333333334E+009;1.807173490524292E-001;-1.266289968043566E-002;4.360682796686888E-004;3.644051495939493E-003;
2.413000000000000E+009;1.816490888595581E-001;-1.488219946622849E-002;6.046130438335240E-004;3.451013239100575E-003;
2.413166666666667E+009;1.822086423635483E-001;-1.716207154095173E-002;7.620870019309223E-004;3.498754464089871E-003;
2.413333333333334E+009;1.832655072212219E-001;-1.941568590700626E-002;7.803822518326342E-004;3.349011763930321E-003;
2.413500000000000E+009;1.842380613088608E-001;-2.160858362913132E-002;9.233881719410420E-004;3.426946466788650E-003;
2.413666666666667E+009;1.853441596031189E-001;-2.382335625588894E-002;1.036167377606034E-003;3.449031151831150E-003;
2.413833333333334E+009;1.861554384231567E-001;-2.584620192646980E-002;8.885836577974260E-004;3.436814760789275E-003;
2.414000000000000E+009;1.873380690813065E-001;-2.765160612761974E-002;1.091132755391300E-003;3.406998468562961E-003;
2.414166666666667E+009;1.887113004922867E-001;-2.953601069748402E-002;1.035632798448205E-003;3.243721788749099E-003;
2.414333333333334E+009;1.896933019161224E-001;-3.149946033954620E-002;1.126633724197745E-003;3.351983148604631E-003;
2.414500000000000E+009;1.908663362264633E-001;-3.276196867227554E-002;1.296065165661275E-003;3.260598517954350E-003;
2.414666666666667E+009;1.919042915105820E-001;-3.421417996287346E-002;1.382693415507674E-003;3.231342881917954E-003;
2.414833333333334E+009;1.930111199617386E-001;-3.546327352523804E-002;1.549780252389610E-003;3.266138024628162E-003;
2.415000000000000E+009;1.940453052520752E-001;-3.681394085288048E-002;1.671976409852505E-003;3.293275367468596E-003;
2.415166666666667E+009;1.953413039445877E-001;-3.800450265407562E-002;1.699022715911269E-003;3.210335969924927E-003;
2.415333333333334E+009;1.963094770908356E-001;-3.882733732461929E-002;1.868029590696096E-003;3.052442800253630E-003;
2.415500000000000E+009;1.974612176418304E-001;-3.953466936945915E-002;1.902325777336955E-003;3.106968011707068E-003;
2.415666666666667E+009;1.984566301107407E-001;-4.026160016655922E-002;2.017457270994782E-003;2.859866945073009E-003;
2.415833333333334E+009;1.992630809545517E-001;-4.098766669631004E-002;2.045568544417620E-003;2.949032001197338E-003;
2.416000000000000E+009;1.998811662197113E-001;-4.150287806987763E-002;2.148972125723958E-003;2.993876347318292E-003;
2.416166666666667E+009;2.005740255117416E-001;-4.218794032931328E-002;2.366321627050638E-003;2.937560668215156E-003;
2.416333333333334E+009;2.011802047491074E-001;-4.233167320489883E-002;2.156041096895933E-003;2.823380986228585E-003;
2.416500000000000E+009;2.016028761863709E-001;-4.271237552165985E-002;2.420679898932576E-003;2.757622627541423E-003;
2.416666666666667E+009;2.018645852804184E-001;-4.285488277673721E-002;2.336540026590228E-003;2.759049879387021E-003;
2.416833333333334E+009;2.019946724176407E-001;-4.305008053779602E-002;2.417543437331915E-003;2.750801388174295E-003;
2.417000000000000E+009;2.020345926284790E-001;-4.314493760466576E-002;2.514379099011421E-003;2.643307205289602E-003;
2.417166666666667E+009;2.018495351076126E-001;-4.300319403409958E-002;2.685751300305128E-003;2.649736823514104E-003;
2.417333333333334E+009;2.014629244804382E-001;-4.289929196238518E-002;2.788796089589596E-003;2.572688274085522E-003;
2.417500000000000E+009;2.011628150939941E-001;-4.292287304997444E-002;2.835419494658709E-003;2.476642373949289E-003;
2.417666666666667E+009;2.006783932447434E-001;-4.270607233047485E-002;2.878751605749130E-003;2.470167120918632E-003;
2.417833333333334E+009;2.003109753131867E-001;-4.252352938055992E-002;3.180262865498662E-003;2.325815148651600E-003;
2.418000000000000E+009;1.994990855455399E-001;-4.229623824357987E-002;3.281380282714963E-003;2.274666214361787E-003;
2.418166666666667E+009;1.986035555601120E-001;-4.220263659954071E-002;3.371296683326364E-003;2.148481085896492E-003;
2.418333333333334E+009;1.977123916149139E-001;-4.205494374036789E-002;3.509349189698696E-003;2.165985060855746E-003;
2.418500000000000E+009;1.967674046754837E-001;-4.218182712793350E-002;3.591857152059674E-003;1.890790066681802E-003;
2.418666666666667E+009;1.958465874195099E-001;-4.212800785899162E-002;3.688485128805041E-003;1.804106752388179E-003;
2.418833333333334E+009;1.945629417896271E-001;-4.239653423428536E-002;3.584460355341435E-003;1.640915521420538E-003;
2.419000000000000E+009;1.931914240121841E-001;-4.249473661184311E-002;3.790314309298992E-003;1.500052050687373E-003;
2.419166666666667E+009;1.920450776815414E-001;-4.278558865189552E-002;3.779779188334942E-003;1.281230011954904E-003;
2.419333333333334E+009;1.906663030385971E-001;-4.332571104168892E-002;3.765997709706426E-003;1.025892561301589E-003;
2.419500000000000E+009;1.891759335994721E-001;-4.371310770511627E-002;3.606149461120367E-003;1.031054416671395E-003;
2.419666666666667E+009;1.875365674495697E-001;-4.460914433002472E-002;3.607233520597220E-003;8.692625560797751E-004;
2.419833333333334E+009;1.860052049160004E-001;-4.520363360643387E-002;3.712125122547150E-003;9.009042987599969E-004;
2.420000000000000E+009;1.845067441463471E-001;-4.619671404361725E-002;3.591808257624507E-003;8.796834154054523E-004;
2.420166666666667E+009;1.828799098730087E-001;-4.723196849226952E-002;3.646931378170848E-003;7.457453757524490E-004;
2.420333333333334E+009;1.813246458768845E-001;-4.825054854154587E-002;3.653669496998191E-003;6.843484006822109E-004;
2.420500000000000E+009;1.796855926513672E-001;-4.963830113410950E-002;3.544534323737025E-003;7.608233718201518E-004;
2.420666666666667E+009;1.782313138246536E-001;-5.060213804244995E-002;3.710132092237473E-003;5.532369250431657E-004;
2.420833333333334E+009;1.766918301582336E-001;-5.220481753349304E-002;3.757862374186516E-003;5.521108396351337E-004;
2.421000000000000E+009;1.752533465623856E-001;-5.378434434533119E-002;3.828970715403557E-003;4.553879552986473E-004;
2.421166666666667E+009;1.739180088043213E-001;-5.559127777814865E-002;4.100111778825522E-003;4.001060442533344E-004;
2.421333333333334E+009;1.721948683261871E-001;-5.693342536687851E-002;3.928306512534618E-003;1.909161946969107E-004;
2.421500000000000E+009;1.710477471351624E-001;-5.893387272953987E-002;4.003722220659256E-003;1.020600539050065E-004;
2.421666666666667E+009;1.697725355625153E-001;-6.077945977449417E-002;4.011228214949369E-003;3.386914249858819E-005;
2.421833333333334E+009;1.686682552099228E-001;-6.241950765252113E-002;4.165349528193474E-003;-1.370250392938033E-004;
2.422000000000000E+009;1.676070690155029E-001;-6.441609561443329E-002;4.103542305529118E-003;-2.715957525651902E-004;
2.422166666666667E+009;1.666874587535858E-001;-6.655369699001312E-002;4.054068122059107E-003;-3.454370889812708E-004;
2.422333333333334E+009;1.658394634723663E-001;-6.833221763372421E-002;4.290932789444923E-003;-6.690268637612462E-004;
2.422500000000000E+009;1.650125980377197E-001;-7.023476064205170E-002;4.231137689203024E-003;-8.077913662418723E-004;
2.422666666666667E+009;1.643719822168350E-001;-7.217489928007126E-002;4.108272492885590E-003;-9.312560432590544E-004;
2.422833333333334E+009;1.639128625392914E-001;-7.434814423322678E-002;4.240877460688353E-003;-1.024044235236943E-003;
2.423000000000000E+009;1.633454859256744E-001;-7.621508836746216E-002;4.111436195671558E-003;-1.202299725264311E-003;
2.423166666666667E+009;1.631660759449005E-001;-7.811211049556732E-002;4.137270152568817E-003;-1.461676089093089E-003;
2.423333333333334E+009;1.627313792705536E-001;-8.013984560966492E-002;4.045810084789991E-003;-1.605159020982683E-003;
2.423500000000000E+009;1.627785414457321E-001;-8.188635855913162E-002;3.860787255689502E-003;-1.700091641396284E-003;
2.423666666666667E+009;1.628693193197250E-001;-8.368769288063049E-002;3.946840297430754E-003;-1.751258387230337E-003;
2.423833333333334E+009;1.627099663019180E-001;-8.550558239221573E-002;3.708367701619864E-003;-2.007836941629648E-003;
2.424000000000000E+009;1.629014909267426E-001;-8.717863261699677E-002;3.729757620021701E-003;-1.995766535401344E-003;
2.424166666666667E+009;1.630399525165558E-001;-8.868466317653656E-002;3.470633178949356E-003;-2.069291193038225E-003;
2.424333333333334E+009;1.632402986288071E-001;-9.021455794572830E-002;3.483627457171679E-003;-2.331298077479005E-003;
2.424500000000000E+009;1.635898351669312E-001;-9.190776944160461E-002;3.406792413443327E-003;-2.295304555445910E-003;
2.424666666666667E+009;1.638194471597672E-001;-9.319702535867691E-002;3.466103458777070E-003;-2.421261742711067E-003;
2.424833333333334E+009;1.643517762422562E-001;-9.435416758060455E-002;3.244554391130805E-003;-2.524656709283590E-003;
2.425000000000000E+009;1.647554785013199E-001;-9.553112834692001E-002;3.219868289306760E-003;-2.717572264373303E-003;
2.425166666666667E+009;1.649892032146454E-001;-9.659621119499207E-002;3.108958946540952E-003;-2.706350758671761E-003;
2.425333333333334E+009;1.653270274400711E-001;-9.770913422107697E-002;2.961440710350871E-003;-2.867314498871565E-003;
2.425500000000000E+009;1.657494902610779E-001;-9.858518838882446E-002;2.745403209701181E-003;-2.925670240074396E-003;
2.425666666666667E+009;1.662336140871048E-001;-9.914052486419678E-002;2.709696069359779E-003;-2.844202797859907E-003;
2.425833333333334E+009;1.664373725652695E-001;-1.000014990568161E-001;2.693264512345195E-003;-2.983981510624290E-003;
2.426000000000000E+009;1.669781357049942E-001;-1.004454270005226E-001;2.504100790247321E-003;-3.145799273625016E-003;
2.426166666666667E+009;1.672749221324921E-001;-1.010256558656693E-001;2.537967404350638E-003;-3.122604452073574E-003;
2.426333333333334E+009;1.674447208642960E-001;-1.015587523579598E-001;2.376198070123792E-003;-3.369576530531049E-003;
2.426500000000000E+009;1.678017973899841E-001;-1.017871648073196E-001;2.226509852334857E-003;-3.201613901183009E-003;
2.426666666666667E+009;1.679697781801224E-001;-1.021084189414978E-001;2.125859027728438E-003;-3.498076694086194E-003;
2.426833333333334E+009;1.682147383689880E-001;-1.023875698447228E-001;2.149756997823715E-003;-3.442621789872646E-003;
2.427000000000000E+009;1.680612266063690E-001;-1.025488376617432E-001;1.992048462852836E-003;-3.505030414089561E-003;
2.427166666666667E+009;1.681643277406693E-001;-1.028237342834473E-001;1.770768081769347E-003;-3.594411537051201E-003;
2.427333333333334E+009;1.680950075387955E-001;-1.030438765883446E-001;1.809445791877806E-003;-3.544942941516638E-003;
2.427500000000000E+009;1.677724272012711E-001;-1.032361984252930E-001;1.671439036726952E-003;-3.668857505545020E-003;
2.427666666666667E+009;1.674013584852219E-001;-1.032775789499283E-001;1.485777203924954E-003;-3.567921696230769E-003;
2.427833333333334E+009;1.670747399330139E-001;-1.034632548689842E-001;1.333620981313288E-003;-3.781073959544301E-003;
