# Version 1.00
#
freq[Hz];re:Trc1_S11;im:Trc1_S11;re:Trc2_S21;im:Trc2_S21;
2.400000000000000E+009;1.732111722230911E-001;4.970088228583336E-002;3.719969885423780E-003;2.379863057285547E-003;
2.400166666666667E+009;1.738577634096146E-001;4.923154786229134E-002;3.702739952132106E-003;2.112585119903088E-003;
2.400333333333334E+009;1.741141676902771E-001;4.845998436212540E-002;3.693217877298594E-003;1.855421112850308E-003;
2.400500000000000E+009;1.744337975978851E-001;4.773191362619400E-002;3.625215729698539E-003;1.825952320359647E-003;
2.400666666666667E+009;1.746498048305512E-001;4.717978835105896E-002;3.584358142688870E-003;1.678905449807644E-003;
2.400833333333334E+009;1.751748621463776E-001;4.660786688327789E-002;3.498103003948927E-003;1.540447119623423E-003;
2.401000000000000E+009;1.750826239585877E-001;4.570292681455612E-002;3.525380045175552E-003;1.453637727536261E-003;
2.401166666666667E+009;1.753355860710144E-001;4.505543038249016E-002;3.457945538684726E-003;1.349493162706494E-003;
2.401333333333334E+009;1.752021461725235E-001;4.460369050502777E-002;3.494065487757325E-003;1.371140591800213E-003;
2.401500000000000E+009;1.754795610904694E-001;4.376576468348503E-002;3.583288285881281E-003;1.472230767831206E-003;
2.401666666666667E+009;1.753214001655579E-001;4.311344027519226E-002;3.542459569871426E-003;1.231728820130229E-003;
2.401833333333334E+009;1.751848906278610E-001;4.219138622283936E-002;3.577708033844829E-003;1.216546981595457E-003;
2.402000000000000E+009;1.749072521924973E-001;4.145675152540207E-002;3.602762240916491E-003;1.052722916938365E-003;
2.402166666666667E+009;1.748492866754532E-001;4.023585468530655E-002;3.573805559426546E-003;9.955443674698472E-004;
2.402333333333334E+009;1.745314896106720E-001;3.938894718885422E-002;3.539843717589974E-003;1.001350581645966E-003;
2.402500000000000E+009;1.745302528142929E-001;3.824292123317719E-002;3.704898292198777E-003;9.767897427082062E-004;
2.402666666666667E+009;1.740943044424057E-001;3.705520182847977E-002;3.746692556887865E-003;7.643252029083669E-004;
2.402833333333334E+009;1.739113479852676E-001;3.591930866241455E-002;3.660490969195962E-003;7.492346339859068E-004;
2.403000000000000E+009;1.734246909618378E-001;3.474986180663109E-002;3.611780703067780E-003;6.443293532356620E-004;
2.403166666666667E+009;1.732050329446793E-001;3.318906202912331E-002;3.640846116468310E-003;5.387468263506889E-004;
2.403333333333334E+009;1.728694140911102E-001;3.183298185467720E-002;3.927065059542656E-003;3.757477097678930E-004;
2.403500000000000E+009;1.724856942892075E-001;3.024207986891270E-002;3.811811096966267E-003;3.590658889152110E-004;
2.403666666666667E+009;1.720732599496841E-001;2.857227623462677E-002;3.715439001098275E-003;1.454828743590042E-004;
2.403833333333334E+009;1.719075292348862E-001;2.679491601884365E-002;3.912057261914015E-003;4.117913340451196E-005;
2.404000000000000E+009;1.713951379060745E-001;2.508802525699139E-002;3.951857797801495E-003;1.139861851697788E-004;
2.404166666666667E+009;1.710116118192673E-001;2.321588248014450E-002;3.978809341788292E-003;2.290704578626901E-004;
2.404333333333334E+009;1.706470102071762E-001;2.136938646435738E-002;4.032836761325598E-003;-1.464889937778935E-004;
2.404500000000000E+009;1.703819632530212E-001;1.914536952972412E-002;4.039641469717026E-003;-1.658089458942413E-004;
2.404666666666667E+009;1.701885908842087E-001;1.730764284729958E-002;3.968434408307076E-003;-2.078803809126839E-004;
2.404833333333334E+009;1.699524074792862E-001;1.540962606668472E-002;4.007359500974417E-003;-4.178484668955207E-004;
2.405000000000000E+009;1.698941290378571E-001;1.345989108085632E-002;3.946345765143633E-003;-4.382247570902109E-004;
2.405166666666667E+009;1.698118448257446E-001;1.128049753606319E-002;3.848140127956867E-003;-4.953964380547404E-004;
2.405333333333334E+009;1.698911786079407E-001;9.058253839612007E-003;3.816549899056554E-003;-5.955608212389052E-004;
2.405500000000000E+009;1.699570566415787E-001;7.297114003449678E-003;3.930651582777500E-003;-7.966396515257657E-004;
2.405666666666667E+009;1.700980067253113E-001;5.171908065676689E-003;4.061288200318813E-003;-7.633695495314896E-004;
2.405833333333334E+009;1.702298671007156E-001;3.196399193257093E-003;3.827736247330904E-003;-9.597840835340321E-004;
2.406000000000000E+009;1.705269217491150E-001;1.010110951028764E-003;3.813826944679022E-003;-1.124984351918101E-003;
2.406166666666667E+009;1.708229333162308E-001;-7.021346827968955E-004;4.066311754286289E-003;-1.092386664822698E-003;
2.406333333333334E+009;1.714382916688919E-001;-2.953274408355355E-003;4.101479891687632E-003;-1.196187455207110E-003;
2.406500000000000E+009;1.718617975711823E-001;-4.929951857775450E-003;3.969529643654823E-003;-1.427577342838049E-003;
2.406666666666667E+009;1.722171604633331E-001;-6.822911556810141E-003;4.088478162884712E-003;-1.515049021691084E-003;
2.406833333333334E+009;1.728681325912476E-001;-8.791156113147736E-003;4.178752657026053E-003;-1.523939194157720E-003;
2.407000000000000E+009;1.736041158437729E-001;-1.066630426794291E-002;4.066725261509419E-003;-1.768415560945869E-003;
2.407166666666667E+009;1.744093298912048E-001;-1.235143840312958E-002;4.124288447201252E-003;-1.865752739831805E-003;
2.407333333333334E+009;1.750033199787140E-001;-1.414557266980410E-002;4.324610810726881E-003;-2.084614243358374E-003;
2.407500000000000E+009;1.758489906787872E-001;-1.582755707204342E-002;4.365693777799606E-003;-2.165571553632617E-003;
2.407666666666667E+009;1.766656339168549E-001;-1.753400079905987E-002;4.250088706612587E-003;-2.320017665624619E-003;
2.407833333333334E+009;1.772235035896301E-001;-1.924457214772701E-002;4.385928157716990E-003;-2.607060363516212E-003;
2.408000000000000E+009;1.782309412956238E-001;-2.083478495478630E-002;4.333615303039551E-003;-2.775232074782252E-003;
2.408166666666667E+009;1.788704544305801E-001;-2.216880396008492E-002;4.236036911606789E-003;-3.193542594090104E-003;
2.408333333333334E+009;1.798050552606583E-001;-2.344070561230183E-002;4.232585430145264E-003;-3.466170048341155E-003;
2.408500000000000E+009;1.802438050508499E-001;-2.482566609978676E-002;3.972791600972414E-003;-3.718381514772773E-003;
2.408666666666667E+009;1.809657067060471E-001;-2.620668523013592E-002;3.896048991009593E-003;-3.937593195587397E-003;
2.408833333333334E+009;1.814097464084625E-001;-2.735909447073937E-002;3.847953164950013E-003;-4.330894909799099E-003;
2.409000000000000E+009;1.817931234836578E-001;-2.831378206610680E-002;3.673854749649763E-003;-4.543394315987825E-003;
2.409166666666667E+009;1.823279112577438E-001;-2.923336252570152E-002;3.304693382233381E-003;-4.838131833821535E-003;
2.409333333333334E+009;1.829486489295960E-001;-3.007152490317822E-002;3.013700013980269E-003;-5.109806545078754E-003;
2.409500000000000E+009;1.831795424222946E-001;-3.092321567237377E-002;2.803508192300797E-003;-5.236681085079908E-003;
2.409666666666667E+009;1.833315640687943E-001;-3.149239718914032E-002;2.407120307907462E-003;-5.471114069223404E-003;
2.409833333333334E+009;1.834152638912201E-001;-3.196793794631958E-002;2.300369320437312E-003;-5.542463157325983E-003;
2.410000000000000E+009;1.838201731443405E-001;-3.240751847624779E-002;1.888550817966461E-003;-5.710226949304342E-003;
2.410166666666667E+009;1.839419454336166E-001;-3.279990702867508E-002;1.497536897659302E-003;-5.836286116391420E-003;
2.410333333333334E+009;1.839018166065216E-001;-3.305570036172867E-002;1.409658929333091E-003;-5.848862696439028E-003;
2.410500000000000E+009;1.838492900133133E-001;-3.348318487405777E-002;8.841975359246135E-004;-5.914065986871719E-003;
2.410666666666667E+009;1.836311370134354E-001;-3.389799594879150E-002;6.325527792796493E-004;-5.991633981466293E-003;
2.410833333333334E+009;1.835737824440002E-001;-3.399293124675751E-002;1.911292347358540E-004;-5.838525015860796E-003;
2.411000000000000E+009;1.833135634660721E-001;-3.424279764294624E-002;-1.026408499456011E-004;-5.873467307537794E-003;
2.411166666666667E+009;1.828988939523697E-001;-3.474190458655357E-002;-3.681988164316863E-004;-5.818931851536036E-003;
2.411333333333334E+009;1.824475377798080E-001;-3.497696667909622E-002;-6.463922327384353E-004;-5.858368240296841E-003;
2.411500000000000E+009;1.819280683994293E-001;-3.544418886303902E-002;-1.101516536436975E-003;-5.666035227477551E-003;
2.411666666666667E+009;1.813139468431473E-001;-3.553114458918572E-002;-1.268137595616281E-003;-5.485396832227707E-003;
2.411833333333334E+009;1.806232929229736E-001;-3.601868823170662E-002;-1.566705992445350E-003;-5.335151683539152E-003;
2.412000000000000E+009;1.799261569976807E-001;-3.662153705954552E-002;-1.809566863812506E-003;-5.254908930510283E-003;
2.412166666666667E+009;1.787578463554382E-001;-3.708262741565704E-002;-2.015778562054038E-003;-5.071550607681274E-003;
2.412333333333334E+009;1.780884861946106E-001;-3.757453337311745E-002;-2.518320223316550E-003;-4.685543477535248E-003;
2.412500000000000E+009;1.768285185098648E-001;-3.813946992158890E-002;-2.610738156363368E-003;-4.486935678869486E-003;
2.412666666666667E+009;1.758645176887512E-001;-3.888500854372978E-002;-2.646100940182805E-003;-4.167253617197275E-003;
2.412833333333334E+009;1.747164428234100E-001;-3.973803296685219E-002;-2.683582017198205E-003;-3.958886954933405E-003;
2.413000000000000E+009;1.734617054462433E-001;-4.040041193366051E-002;-2.993221394717693E-003;-3.592173801735044E-003;
2.413166666666667E+009;1.721973866224289E-001;-4.127175360918045E-002;-2.862366382032633E-003;-3.382965223863721E-003;
2.413333333333334E+009;1.707552224397659E-001;-4.229692369699478E-002;-2.948654349893332E-003;-3.373006125912070E-003;
2.413500000000000E+009;1.695187389850617E-001;-4.324440285563469E-002;-2.958155935630202E-003;-3.062724368646741E-003;
2.413666666666667E+009;1.682324856519699E-001;-4.435115680098534E-002;-2.916337223723531E-003;-2.840792760252953E-003;
2.413833333333334E+009;1.668231636285782E-001;-4.558141157031059E-002;-2.845041919499636E-003;-2.653883071616292E-003;
2.414000000000000E+009;1.655690521001816E-001;-4.681385681033135E-002;-2.815100597217679E-003;-2.667876891791821E-003;
2.414166666666667E+009;1.644240468740463E-001;-4.796800017356873E-002;-2.925768494606018E-003;-2.324801404029131E-003;
2.414333333333334E+009;1.631017923355103E-001;-4.963240772485733E-002;-2.650927053764463E-003;-2.169609069824219E-003;
2.414500000000000E+009;1.621241718530655E-001;-5.097799003124237E-002;-2.650165231898427E-003;-2.147587481886149E-003;
2.414666666666667E+009;1.609510183334351E-001;-5.247161909937859E-002;-2.658219309523702E-003;-2.024375135079026E-003;
2.414833333333334E+009;1.598434001207352E-001;-5.426047742366791E-002;-2.641553524881601E-003;-1.925885211676359E-003;
2.415000000000000E+009;1.589674353599548E-001;-5.590218678116798E-002;-2.621822524815798E-003;-2.063518855720758E-003;
2.415166666666667E+009;1.578810065984726E-001;-5.765721574425697E-002;-2.556798979640007E-003;-1.879397197626531E-003;
2.415333333333334E+009;1.571421176195145E-001;-5.953978747129440E-002;-2.583740744739771E-003;-1.595596200786531E-003;
2.415500000000000E+009;1.562722772359848E-001;-6.125207617878914E-002;-2.462914912030101E-003;-1.784469350241125E-003;
2.415666666666667E+009;1.555558890104294E-001;-6.329204887151718E-002;-2.714547561481595E-003;-1.702998997643590E-003;
2.415833333333334E+009;1.549776494503021E-001;-6.521885097026825E-002;-2.642371691763401E-003;-1.578336581587791E-003;
2.416000000000000E+009;1.544083356857300E-001;-6.715638190507889E-002;-2.677554730325937E-003;-1.570755732245743E-003;
2.416166666666667E+009;1.540560722351074E-001;-6.914912909269333E-002;-2.594670513644815E-003;-1.431665965355933E-003;
2.416333333333334E+009;1.535653769969940E-001;-7.106039673089981E-002;-2.691032597795129E-003;-1.368298660963774E-003;
2.416500000000000E+009;1.531042605638504E-001;-7.297246158123016E-002;-2.913987962529063E-003;-1.225502113811672E-003;
2.416666666666667E+009;1.528566628694534E-001;-7.487777620553970E-002;-2.811714308336377E-003;-1.248482032679021E-003;
2.416833333333334E+009;1.525888442993164E-001;-7.686226814985275E-002;-2.674693940207362E-003;-1.220255857333541E-003;
2.417000000000000E+009;1.522789001464844E-001;-7.881366461515427E-002;-2.643348183482885E-003;-1.076380722224712E-003;
2.417166666666667E+009;1.521711647510529E-001;-8.050183951854706E-002;-2.485169563442469E-003;-1.000732183456421E-003;
2.417333333333334E+009;1.522005051374435E-001;-8.220840245485306E-002;-2.723600948229432E-003;-9.989592945203185E-004;
2.417500000000000E+009;1.521097570657730E-001;-8.411979675292969E-002;-2.486432204023004E-003;-9.040191653184593E-004;
2.417666666666667E+009;1.522920578718185E-001;-8.551439642906189E-002;-2.621051389724016E-003;-8.902694098651409E-004;
2.417833333333334E+009;1.522616297006607E-001;-8.706958591938019E-002;-2.412707544863224E-003;-7.634099456481636E-004;
2.418000000000000E+009;1.522926986217499E-001;-8.855766057968140E-002;-2.504438627511263E-003;-8.630313677713275E-004;
2.418166666666667E+009;1.523494720458984E-001;-8.972652256488800E-002;-2.358631463721395E-003;-8.431790629401803E-004;
2.418333333333334E+009;1.527884602546692E-001;-9.102533012628555E-002;-2.587386639788747E-003;-8.432103204540908E-004;
2.418500000000000E+009;1.529206633567810E-001;-9.204242378473282E-002;-2.522522816434503E-003;-8.040727698244155E-004;
2.418666666666667E+009;1.531959623098373E-001;-9.307011216878891E-002;-2.449630526825786E-003;-7.699741399846971E-004;
2.418833333333334E+009;1.532700955867767E-001;-9.401516616344452E-002;-2.517255488783121E-003;-6.695251213386655E-004;
2.419000000000000E+009;1.534757614135742E-001;-9.477250277996063E-002;-2.333283424377441E-003;-8.774915477260947E-004;
2.419166666666667E+009;1.537138223648071E-001;-9.538213163614273E-002;-2.490583574399352E-003;-6.710688467137516E-004;
2.419333333333334E+009;1.536911278963089E-001;-9.569803625345230E-002;-2.641676692292094E-003;-4.593737539835274E-004;
2.419500000000000E+009;1.539453268051148E-001;-9.630002826452255E-002;-2.643172862008214E-003;-6.027806084603071E-004;
2.419666666666667E+009;1.542158424854279E-001;-9.683022648096085E-002;-2.654733834788203E-003;-5.584281170740724E-004;
2.419833333333334E+009;1.542744636535645E-001;-9.691703319549561E-002;-2.745499834418297E-003;-4.846567753702402E-004;
2.420000000000000E+009;1.543878167867661E-001;-9.685841202735901E-002;-2.664047759026289E-003;-4.817167355213314E-004;
2.420166666666667E+009;1.544684916734695E-001;-9.684586524963379E-002;-2.736223395913839E-003;-2.733237633947283E-004;
2.420333333333334E+009;1.546957045793533E-001;-9.694657474756241E-002;-2.842423273250461E-003;-3.167722898069769E-004;
2.420500000000000E+009;1.545663774013519E-001;-9.664548933506012E-002;-2.815807238221169E-003;-3.160009509883821E-004;
2.420666666666667E+009;1.543904095888138E-001;-9.646307677030563E-002;-2.863075351342559E-003;-3.110908437520266E-004;
2.420833333333334E+009;1.543579846620560E-001;-9.619696438312531E-002;-2.956547308713198E-003;-1.231836213264614E-004;
2.421000000000000E+009;1.542029976844788E-001;-9.596578031778336E-002;-2.923640655353665E-003;-5.568190681515262E-005;
2.421166666666667E+009;1.539384424686432E-001;-9.571757912635803E-002;-3.017758950591087E-003;3.417049447307363E-005;
2.421333333333334E+009;1.537579149007797E-001;-9.548211097717285E-002;-3.101298352703452E-003;2.267835370730609E-004;
2.421500000000000E+009;1.531389653682709E-001;-9.494143724441528E-002;-3.102213609963656E-003;2.465411671437323E-004;
2.421666666666667E+009;1.526641547679901E-001;-9.464679658412933E-002;-3.133683232590556E-003;2.898207458201796E-004;
2.421833333333334E+009;1.522067636251450E-001;-9.430688619613648E-002;-3.214478492736816E-003;4.434949369169772E-004;
2.422000000000000E+009;1.515080481767654E-001;-9.411513060331345E-002;-3.274357179179788E-003;5.951104685664177E-004;
2.422166666666667E+009;1.506965756416321E-001;-9.407594054937363E-002;-3.311113920062780E-003;8.972423966042697E-004;
2.422333333333334E+009;1.498482674360275E-001;-9.373287111520767E-002;-3.324276534840465E-003;1.116142957471311E-003;
2.422500000000000E+009;1.487077176570892E-001;-9.338416159152985E-002;-3.130100201815367E-003;1.181883271783590E-003;
2.422666666666667E+009;1.475808322429657E-001;-9.327239543199539E-002;-3.153329249471426E-003;1.449749688617885E-003;
2.422833333333334E+009;1.464359611272812E-001;-9.341821819543839E-002;-2.992870518937707E-003;1.709228963591158E-003;
2.423000000000000E+009;1.452447474002838E-001;-9.328827261924744E-002;-2.914071083068848E-003;1.897719339467585E-003;
2.423166666666667E+009;1.439633965492249E-001;-9.333267807960510E-002;-2.954779891297221E-003;2.095269737765193E-003;
2.423333333333334E+009;1.425329595804215E-001;-9.332986176013947E-002;-2.573544625192881E-003;2.315460238605738E-003;
2.423500000000000E+009;1.410025805234909E-001;-9.355697780847549E-002;-2.385562984272838E-003;2.366143278777599E-003;
2.423666666666667E+009;1.394544094800949E-001;-9.381616860628128E-002;-2.248203149065375E-003;2.455001696944237E-003;
2.423833333333334E+009;1.380158811807632E-001;-9.406396746635437E-002;-1.874502049759030E-003;2.301230560988188E-003;
2.424000000000000E+009;1.363184601068497E-001;-9.420368075370789E-002;-1.841965131461620E-003;2.523901872336865E-003;
2.424166666666667E+009;1.348222792148590E-001;-9.472520649433136E-002;-1.631937571801245E-003;2.464452991262078E-003;
2.424333333333334E+009;1.334668546915054E-001;-9.523055702447891E-002;-1.334491302259266E-003;2.332555828616023E-003;
2.424500000000000E+009;1.318685561418533E-001;-9.578024595975876E-002;-1.188994967378676E-003;2.472159219905734E-003;
2.424666666666667E+009;1.304277926683426E-001;-9.627459198236466E-002;-1.064516138285399E-003;2.280739601701498E-003;
2.424833333333334E+009;1.290044039487839E-001;-9.723767638206482E-002;-7.455042796209455E-004;2.290811389684677E-003;
2.425000000000000E+009;1.275279521942139E-001;-9.828056395053864E-002;-6.633183220401406E-004;2.156711183488369E-003;
2.425166666666667E+009;1.260845214128494E-001;-9.907287359237671E-002;-3.493586264085025E-004;2.033622236922383E-003;
2.425333333333334E+009;1.248619258403778E-001;-1.001111492514610E-001;-4.175443900749087E-004;1.903615193441510E-003;
2.425500000000000E+009;1.237446740269661E-001;-1.012908369302750E-001;-3.356754605192691E-004;1.596578978933394E-003;
2.425666666666667E+009;1.224475055932999E-001;-1.025693342089653E-001;-4.446142120286822E-004;1.478609512560070E-003;
2.425833333333334E+009;1.214812099933624E-001;-1.038741767406464E-001;-3.518394078128040E-004;1.394881866872311E-003;
2.426000000000000E+009;1.204385235905647E-001;-1.052508950233460E-001;-2.439867676002905E-004;1.243779086507857E-003;
2.426166666666667E+009;1.197397112846375E-001;-1.066824719309807E-001;-2.421055542072281E-004;1.193382777273655E-003;
2.426333333333334E+009;1.188511997461319E-001;-1.081125661730766E-001;-3.131932462565601E-004;1.089624245651066E-003;
2.426500000000000E+009;1.181581839919090E-001;-1.097574383020401E-001;-3.960730391554534E-004;8.789777057245374E-004;
2.426666666666667E+009;1.175692528486252E-001;-1.111555099487305E-001;-3.668045974336565E-004;7.136715576052666E-004;
2.426833333333334E+009;1.168957650661469E-001;-1.128383278846741E-001;-4.403166240081191E-004;6.463753525167704E-004;
2.427000000000000E+009;1.163371130824089E-001;-1.143665909767151E-001;-5.600436707027257E-004;5.304372753016651E-004;
2.427166666666667E+009;1.159614846110344E-001;-1.159431636333466E-001;-6.090168026275933E-004;4.945449181832373E-004;
2.427333333333334E+009;1.155116707086563E-001;-1.174359545111656E-001;-6.395450327545404E-004;4.879572370555252E-004;
2.427500000000000E+009;1.153921484947205E-001;-1.190917789936066E-001;-9.314002818427980E-004;4.226783930789679E-004;
2.427666666666667E+009;1.151322871446610E-001;-1.207657307386398E-001;-7.801118772476912E-004;4.006420203950256E-004;
