# Version 1.00
#
freq[Hz];re:Trc1_S11;im:Trc1_S11;re:Trc2_S21;im:Trc2_S21;
2.400000000000000E+009;1.562486588954926E-001;1.118944510817528E-001;-2.215248299762607E-003;2.645035972818732E-003;
2.400166666666667E+009;1.554964482784271E-001;1.094499006867409E-001;-1.952303457073867E-003;2.722833305597305E-003;
2.400333333333334E+009;1.553057581186295E-001;1.074496880173683E-001;-1.843929057940841E-003;2.972914138808847E-003;
2.400500000000000E+009;1.550414711236954E-001;1.047827973961830E-001;-1.626111217774451E-003;2.830295357853174E-003;
2.400666666666667E+009;1.548198014497757E-001;1.021864116191864E-001;-1.491680974140763E-003;2.833143807947636E-003;
2.400833333333334E+009;1.545097380876541E-001;9.902438521385193E-002;-1.383771537803114E-003;2.901113126426935E-003;
2.401000000000000E+009;1.546391695737839E-001;9.620914608240128E-002;-1.262786332517862E-003;2.896641381084919E-003;
2.401166666666667E+009;1.542441546916962E-001;9.319430589675903E-002;-1.064482959918678E-003;2.998823532834649E-003;
2.401333333333334E+009;1.544719338417053E-001;9.059004485607147E-002;-1.043746131472290E-003;2.868134062737227E-003;
2.401500000000000E+009;1.544976383447647E-001;8.747714012861252E-002;-9.616923052817583E-004;2.750318963080645E-003;
2.401666666666667E+009;1.546362489461899E-001;8.448601514101028E-002;-9.837797842919827E-004;2.802453702315688E-003;
2.401833333333334E+009;1.550365835428238E-001;8.161475509405136E-002;-8.605761104263365E-004;3.011622931808233E-003;
2.402000000000000E+009;1.555899679660797E-001;7.864639908075333E-002;-7.099888171069324E-004;3.069527680054307E-003;
2.402166666666667E+009;1.563204228878021E-001;7.585428655147553E-002;-6.908094510436058E-004;3.050499828532338E-003;
2.402333333333334E+009;1.571522355079651E-001;7.283029705286026E-002;-5.241646431386471E-004;3.300455398857594E-003;
2.402500000000000E+009;1.581147611141205E-001;6.972018629312515E-002;-4.177267837803811E-004;3.359447466209531E-003;
2.402666666666667E+009;1.591964215040207E-001;6.748767942190170E-002;-2.684950595721602E-004;3.365642856806517E-003;
2.402833333333334E+009;1.604281067848206E-001;6.463194638490677E-002;3.280560122220777E-005;3.605700097978115E-003;
2.403000000000000E+009;1.619043201208115E-001;6.209924444556236E-002;3.016460395883769E-004;3.459065919741988E-003;
2.403166666666667E+009;1.635250300168991E-001;5.962604284286499E-002;4.159747040830553E-004;3.470978932455182E-003;
2.403333333333334E+009;1.647169291973114E-001;5.698884278535843E-002;7.406644872389734E-004;3.280551405623555E-003;
2.403500000000000E+009;1.665297746658325E-001;5.482736974954605E-002;9.350037435069680E-004;3.362542251124978E-003;
2.403666666666667E+009;1.685308367013931E-001;5.256962031126022E-002;1.170135452412069E-003;3.197650192305446E-003;
2.403833333333334E+009;1.702268570661545E-001;5.040991678833962E-002;1.343720359727740E-003;3.026527119800448E-003;
2.404000000000000E+009;1.718505918979645E-001;4.842796176671982E-002;1.616645837202668E-003;2.808704972267151E-003;
2.404166666666667E+009;1.737090647220612E-001;4.682549834251404E-002;1.579467672854662E-003;2.365892985835671E-003;
2.404333333333334E+009;1.755997687578201E-001;4.499822109937668E-002;1.985303126275539E-003;2.300133928656578E-003;
2.404500000000000E+009;1.773219853639603E-001;4.362941160798073E-002;1.736298203468323E-003;2.223042538389564E-003;
2.404666666666667E+009;1.792557090520859E-001;4.224387928843498E-002;1.833621645346284E-003;1.679476350545883E-003;
2.404833333333334E+009;1.810656487941742E-001;4.106000065803528E-002;1.809217967092991E-003;1.652072300203145E-003;
2.405000000000000E+009;1.825401186943054E-001;4.007358849048615E-002;1.842957921326160E-003;1.472247415222228E-003;
2.405166666666667E+009;1.842460781335831E-001;3.936333209276199E-002;1.591950887814164E-003;1.240346929989755E-003;
2.405333333333334E+009;1.860869228839874E-001;3.874720260500908E-002;1.644449075683951E-003;1.140128937549889E-003;
2.405500000000000E+009;1.876475960016251E-001;3.813462704420090E-002;1.548720290884376E-003;1.017138012684882E-003;
2.405666666666667E+009;1.891322433948517E-001;3.777678683400154E-002;1.415185513906181E-003;8.909521857276559E-004;
2.405833333333334E+009;1.907307803630829E-001;3.762757778167725E-002;1.339863752946258E-003;9.214397286996245E-004;
2.406000000000000E+009;1.920374929904938E-001;3.739671036601067E-002;1.252686721272767E-003;7.995369378477335E-004;
2.406166666666667E+009;1.932176053524017E-001;3.724523261189461E-002;1.223700819537044E-003;6.982431514188647E-004;
2.406333333333334E+009;1.944319158792496E-001;3.742111101746559E-002;1.038632239215076E-003;8.432501344941557E-004;
2.406500000000000E+009;1.954962313175201E-001;3.752046450972557E-002;1.174621749669313E-003;6.391904898919165E-004;
2.406666666666667E+009;1.963586956262589E-001;3.786686062812805E-002;9.569741087034345E-004;6.390198832377791E-004;
2.406833333333334E+009;1.971818059682846E-001;3.793092444539070E-002;9.468705975450575E-004;7.118610083125532E-004;
2.407000000000000E+009;1.976887285709381E-001;3.851367905735970E-002;6.867417250759900E-004;6.873919628560543E-004;
2.407166666666667E+009;1.982940137386322E-001;3.858533501625061E-002;8.305783267132938E-004;8.212192333303392E-004;
2.407333333333334E+009;1.983810961246491E-001;3.895081579685211E-002;4.807869845535606E-004;7.705702446401119E-004;
2.407500000000000E+009;1.985682696104050E-001;3.935307264328003E-002;4.699276469182223E-004;6.882318994030356E-004;
2.407666666666667E+009;1.988220810890198E-001;3.955622762441635E-002;4.613973142113537E-004;1.024752040393651E-003;
2.407833333333334E+009;1.985204219818115E-001;3.974587842822075E-002;2.878295781556517E-004;9.827007306739688E-004;
2.408000000000000E+009;1.986065357923508E-001;4.001344367861748E-002;3.452874370850623E-004;1.136814011260867E-003;
2.408166666666667E+009;1.980310529470444E-001;3.997350856661797E-002;4.335319681558758E-004;1.201411010697484E-003;
2.408333333333334E+009;1.977839618921280E-001;3.968730196356773E-002;3.529332461766899E-004;1.306630787439644E-003;
2.408500000000000E+009;1.971071213483810E-001;3.979373723268509E-002;4.468450497370213E-004;1.417424646206200E-003;
2.408666666666667E+009;1.965001076459885E-001;3.947417810559273E-002;3.115331637673080E-004;1.386374235153198E-003;
2.408833333333334E+009;1.958165317773819E-001;3.910132497549057E-002;4.346373316366226E-004;1.481115119531751E-003;
2.409000000000000E+009;1.948601007461548E-001;3.845278918743134E-002;5.191874224692583E-004;1.436816994100809E-003;
2.409166666666667E+009;1.937824636697769E-001;3.787653893232346E-002;5.310002597980201E-004;1.612403430044651E-003;
2.409333333333334E+009;1.928586214780808E-001;3.720032423734665E-002;5.496112862601876E-004;1.695742015726864E-003;
2.409500000000000E+009;1.915580481290817E-001;3.602964058518410E-002;5.511252675205469E-004;1.722179003991187E-003;
2.409666666666667E+009;1.904675066471100E-001;3.473528102040291E-002;6.720149540342391E-004;1.794378855265677E-003;
2.409833333333334E+009;1.892058551311493E-001;3.363946825265884E-002;9.454333339817822E-004;1.957184169441462E-003;
2.410000000000000E+009;1.880794614553452E-001;3.201664611697197E-002;8.539523114450276E-004;1.865768688730896E-003;
2.410166666666667E+009;1.869533360004425E-001;3.036646917462349E-002;9.338022209703922E-004;2.165609039366245E-003;
2.410333333333334E+009;1.855408251285553E-001;2.883953787386417E-002;1.135594677180052E-003;2.028418239206076E-003;
2.410500000000000E+009;1.844173222780228E-001;2.697965130209923E-002;1.216997392475605E-003;2.094947034493089E-003;
2.410666666666667E+009;1.834452897310257E-001;2.474725060164928E-002;1.382544636726379E-003;2.298444276675582E-003;
2.410833333333334E+009;1.823993474245071E-001;2.279868349432945E-002;1.496560871601105E-003;2.294729929417372E-003;
2.411000000000000E+009;1.814571321010590E-001;2.066901512444019E-002;1.500549959018827E-003;2.289518713951111E-003;
2.411166666666667E+009;1.805789023637772E-001;1.846298575401306E-002;1.816783333197236E-003;2.239236142486334E-003;
2.411333333333334E+009;1.797454804182053E-001;1.584868319332600E-002;1.989674987271428E-003;2.284889109432697E-003;
2.411500000000000E+009;1.789125204086304E-001;1.347080059349537E-002;1.881890348158777E-003;2.338683465495706E-003;
2.411666666666667E+009;1.786078959703445E-001;1.098037604242563E-002;2.161036944016814E-003;2.420254051685333E-003;
2.411833333333334E+009;1.780483722686768E-001;8.620913140475750E-003;2.173006068915129E-003;2.275967271998525E-003;
2.412000000000000E+009;1.780134737491608E-001;5.786856636404991E-003;2.461885102093220E-003;2.377672120928764E-003;
2.412166666666667E+009;1.778242588043213E-001;3.417192259803414E-003;2.589261392131448E-003;2.258804393932223E-003;
2.412333333333334E+009;1.779826730489731E-001;5.900721880607307E-004;2.790052909404039E-003;2.342306310310960E-003;
2.412500000000000E+009;1.781982630491257E-001;-2.022285014390945E-003;3.148438408970833E-003;2.283791312947869E-003;
2.412666666666667E+009;1.784979552030563E-001;-4.611278418451548E-003;3.355202265083790E-003;2.157175680622459E-003;
2.412833333333334E+009;1.792305409908295E-001;-7.289940025657415E-003;3.777391975745559E-003;2.089556772261858E-003;
2.413000000000000E+009;1.797061711549759E-001;-9.940737858414650E-003;3.914513625204563E-003;1.857959316112101E-003;
2.413166666666667E+009;1.806471198797226E-001;-1.243852078914642E-002;4.037098027765751E-003;1.767245470546186E-003;
2.413333333333334E+009;1.813991665840149E-001;-1.517072971910238E-002;4.313010256737471E-003;1.423199777491391E-003;
2.413500000000000E+009;1.823222041130066E-001;-1.764688640832901E-002;4.534344188869000E-003;1.094955368898809E-003;
2.413666666666667E+009;1.834384799003601E-001;-2.006597444415093E-002;4.737331531941891E-003;9.273693431168795E-004;
2.413833333333334E+009;1.845278292894363E-001;-2.227658592164516E-002;4.755179397761822E-003;6.821547285653651E-004;
2.414000000000000E+009;1.857838332653046E-001;-2.450809627771378E-002;4.965368192642927E-003;3.208930429536849E-004;
2.414166666666667E+009;1.870252788066864E-001;-2.663268521428108E-002;4.991877358406782E-003;-1.467590336687863E-004;
2.414333333333334E+009;1.881672143936157E-001;-2.882923185825348E-002;5.082580726593733E-003;-4.311126249376684E-004;
2.414500000000000E+009;1.896217167377472E-001;-3.048721887171269E-002;5.129693076014519E-003;-6.875913823023439E-004;
2.414666666666667E+009;1.910017281770706E-001;-3.227649629116058E-002;4.894068930298090E-003;-1.064176205545664E-003;
2.414833333333334E+009;1.922398656606674E-001;-3.368219360709190E-002;4.922163672745228E-003;-1.318948692642152E-003;
2.415000000000000E+009;1.935169398784638E-001;-3.517880663275719E-002;4.834223072975874E-003;-1.764257904142141E-003;
2.415166666666667E+009;1.949471682310104E-001;-3.652941808104515E-002;4.689190071076155E-003;-2.028052462264895E-003;
2.415333333333334E+009;1.962737143039703E-001;-3.760596737265587E-002;4.440953489392996E-003;-2.205696655437350E-003;
2.415500000000000E+009;1.977212876081467E-001;-3.850020095705986E-002;4.386560525745153E-003;-2.448646351695061E-003;
2.415666666666667E+009;1.990130692720413E-001;-3.957832232117653E-002;4.053852986544371E-003;-2.729806350544095E-003;
2.415833333333334E+009;2.001573145389557E-001;-4.019378125667572E-002;4.018223844468594E-003;-2.966277301311493E-003;
2.416000000000000E+009;2.011111229658127E-001;-4.090563207864761E-002;3.776008728891611E-003;-3.291385713964701E-003;
2.416166666666667E+009;2.022791802883148E-001;-4.149512574076653E-002;3.512463998049498E-003;-3.313389839604497E-003;
2.416333333333334E+009;2.031971961259842E-001;-4.181044548749924E-002;3.283218946307898E-003;-3.511250251904130E-003;
2.416500000000000E+009;2.038792520761490E-001;-4.203836619853973E-002;2.939614234492183E-003;-3.621458075940609E-003;
2.416666666666667E+009;2.043589502573013E-001;-4.245464876294136E-002;2.876690123230219E-003;-3.752232063561678E-003;
2.416833333333334E+009;2.048422396183014E-001;-4.243499785661697E-002;2.678243676200509E-003;-3.846479114145041E-003;
2.417000000000000E+009;2.052628844976425E-001;-4.234797134995461E-002;2.423109486699104E-003;-3.936685156077147E-003;
2.417166666666667E+009;2.053459584712982E-001;-4.226025566458702E-002;2.214314416050911E-003;-4.060022532939911E-003;
2.417333333333334E+009;2.053218781948090E-001;-4.192788153886795E-002;1.924184965901077E-003;-4.032888915389776E-003;
2.417500000000000E+009;2.052628248929977E-001;-4.191983491182327E-002;1.707089249975979E-003;-4.062262829393148E-003;
2.417666666666667E+009;2.050299942493439E-001;-4.148564115166664E-002;1.479409052990377E-003;-4.050808958709240E-003;
2.417833333333334E+009;2.047107666730881E-001;-4.110670834779739E-002;1.322673866525292E-003;-4.011806566268206E-003;
2.418000000000000E+009;2.043597996234894E-001;-4.072032868862152E-002;1.160865067504346E-003;-4.149273969233036E-003;
2.418166666666667E+009;2.036523371934891E-001;-4.051484540104866E-002;1.065148273482919E-003;-3.982318565249443E-003;
2.418333333333334E+009;2.029566466808319E-001;-4.013719409704208E-002;8.198735304176807E-004;-4.089759197086096E-003;
2.418500000000000E+009;2.019253820180893E-001;-3.985622897744179E-002;5.950244376435876E-004;-4.040030296891928E-003;
2.418666666666667E+009;2.012579888105393E-001;-3.953271359205246E-002;4.980668309144676E-004;-4.081107210367918E-003;
2.418833333333334E+009;2.000196874141693E-001;-3.951435536146164E-002;3.649054851848632E-004;-4.018936771899462E-003;
2.419000000000000E+009;1.988156288862228E-001;-3.953379392623901E-002;1.877596951089799E-004;-4.041105043143034E-003;
2.419166666666667E+009;1.974843591451645E-001;-3.950388357043266E-002;-5.223025709710782E-006;-4.069274291396141E-003;
2.419333333333334E+009;1.961290538311005E-001;-3.989967703819275E-002;-2.385637781117111E-004;-3.907038830220699E-003;
2.419500000000000E+009;1.944618225097656E-001;-3.997829928994179E-002;-3.782354178838432E-004;-4.124676343053579E-003;
2.419666666666667E+009;1.928193420171738E-001;-4.063175991177559E-002;-4.969204310327768E-004;-4.100057296454907E-003;
2.419833333333334E+009;1.911943256855011E-001;-4.119656607508659E-002;-8.378197089768946E-004;-3.851633518934250E-003;
2.420000000000000E+009;1.894567012786865E-001;-4.178262874484062E-002;-9.096929570659995E-004;-3.677158383652568E-003;
2.420166666666667E+009;1.877524256706238E-001;-4.264208301901817E-002;-1.054718508385122E-003;-3.512645838782191E-003;
2.420333333333334E+009;1.859827190637589E-001;-4.357041046023369E-002;-1.095577958039939E-003;-3.452821867540479E-003;
2.420500000000000E+009;1.842173784971237E-001;-4.483214393258095E-002;-1.226096879690886E-003;-3.225191729143262E-003;
2.420666666666667E+009;1.823370456695557E-001;-4.581322520971298E-002;-1.361270318739116E-003;-3.046293510124087E-003;
2.420833333333334E+009;1.805117726325989E-001;-4.724202677607536E-002;-1.388347707688808E-003;-3.028560196980834E-003;
2.421000000000000E+009;1.788656413555145E-001;-4.854540154337883E-002;-1.589980558492243E-003;-2.831700490787625E-003;
2.421166666666667E+009;1.773720532655716E-001;-5.041400715708733E-002;-1.513199298642576E-003;-2.709496067836881E-003;
2.421333333333334E+009;1.752606034278870E-001;-5.194028466939926E-002;-1.535997842438519E-003;-2.591946162283421E-003;
2.421500000000000E+009;1.738693267107010E-001;-5.389431864023209E-002;-1.610343577340245E-003;-2.435063477605581E-003;
2.421666666666667E+009;1.724801808595657E-001;-5.584625154733658E-002;-1.556544681079686E-003;-2.455559093505144E-003;
2.421833333333334E+009;1.711449325084686E-001;-5.768380314111710E-002;-1.616972382180393E-003;-2.261327346786857E-003;
2.422000000000000E+009;1.697696447372437E-001;-5.960317328572273E-002;-1.470085349865258E-003;-2.179179806262255E-003;
2.422166666666667E+009;1.687130630016327E-001;-6.193564832210541E-002;-1.553945010527968E-003;-2.064110478386283E-003;
2.422333333333334E+009;1.674168407917023E-001;-6.412311643362045E-002;-1.492397161200643E-003;-2.073428826406598E-003;
2.422500000000000E+009;1.666070371866226E-001;-6.613602489233017E-002;-1.529411529190838E-003;-1.959996297955513E-003;
2.422666666666667E+009;1.656344830989838E-001;-6.837850064039230E-002;-1.615488203242421E-003;-1.884546130895615E-003;
2.422833333333334E+009;1.651557683944702E-001;-7.051790505647659E-002;-1.623753341846168E-003;-1.989624695852399E-003;
2.423000000000000E+009;1.644281744956970E-001;-7.285939157009125E-002;-1.608233200386167E-003;-1.791416900232434E-003;
2.423166666666667E+009;1.639832109212875E-001;-7.500086724758148E-002;-1.656924141570926E-003;-1.724538044072688E-003;
2.423333333333334E+009;1.636626720428467E-001;-7.736230641603470E-002;-1.481343875639141E-003;-1.539310906082392E-003;
2.423500000000000E+009;1.634542793035507E-001;-7.950071990489960E-002;-1.537805772386491E-003;-1.565938815474510E-003;
2.423666666666667E+009;1.634702086448669E-001;-8.155617862939835E-002;-1.631824881769717E-003;-1.582786324433982E-003;
2.423833333333334E+009;1.634260416030884E-001;-8.373852074146271E-002;-1.492593088187277E-003;-1.699594082310796E-003;
2.424000000000000E+009;1.635415107011795E-001;-8.559948951005936E-002;-1.586439553648233E-003;-1.452695345506072E-003;
2.424166666666667E+009;1.635303795337677E-001;-8.756881952285767E-002;-1.490602153353393E-003;-1.586281927302480E-003;
2.424333333333334E+009;1.638942509889603E-001;-8.935468643903732E-002;-1.408423762768507E-003;-1.697944011539221E-003;
2.424500000000000E+009;1.642087101936340E-001;-9.138534218072891E-002;-1.720856409519911E-003;-1.582755008712411E-003;
2.424666666666667E+009;1.646341979503632E-001;-9.310006350278854E-002;-1.551022403873503E-003;-1.445290981791914E-003;
2.424833333333334E+009;1.652786433696747E-001;-9.452333301305771E-002;-1.599820679984987E-003;-1.500461366958916E-003;
2.425000000000000E+009;1.657669693231583E-001;-9.605094045400620E-002;-1.505322288721800E-003;-1.523668412119150E-003;
2.425166666666667E+009;1.661558300256729E-001;-9.726526588201523E-002;-1.674186903983355E-003;-1.484269276261330E-003;
2.425333333333334E+009;1.666314452886581E-001;-9.848497807979584E-002;-1.717332517728210E-003;-1.484204898588359E-003;
2.425500000000000E+009;1.672924011945725E-001;-9.965860843658447E-002;-1.728726201690733E-003;-1.572904875501990E-003;
2.425666666666667E+009;1.679503023624420E-001;-1.005322039127350E-001;-1.724929665215313E-003;-1.488750567659736E-003;
2.425833333333334E+009;1.683622896671295E-001;-1.015705764293671E-001;-1.795746269635856E-003;-1.582220778800547E-003;
2.426000000000000E+009;1.691195815801621E-001;-1.020554080605507E-001;-1.688382355496287E-003;-1.305994926951826E-003;
2.426166666666667E+009;1.695984452962875E-001;-1.026826202869415E-001;-1.635512919165194E-003;-1.363118761219084E-003;
2.426333333333334E+009;1.698677688837051E-001;-1.032657176256180E-001;-1.722767134197056E-003;-1.276264782063663E-003;
2.426500000000000E+009;1.706396192312241E-001;-1.038023233413696E-001;-1.853302004747093E-003;-1.559591153636575E-003;
2.426666666666667E+009;1.709238737821579E-001;-1.041065976023674E-001;-1.912846928462386E-003;-1.341817551292479E-003;
2.426833333333334E+009;1.714369803667069E-001;-1.044402122497559E-001;-2.061219885945320E-003;-1.468815375119448E-003;
2.427000000000000E+009;1.717277765274048E-001;-1.045396104454994E-001;-1.969731179997325E-003;-1.355187851004303E-003;
2.427166666666667E+009;1.719924211502075E-001;-1.046553775668144E-001;-2.066983142867684E-003;-1.229613670147955E-003;
2.427333333333334E+009;1.720471829175949E-001;-1.047627776861191E-001;-2.126235049217939E-003;-1.333461841568351E-003;
2.427500000000000E+009;1.720425337553024E-001;-1.048635840415955E-001;-2.349177841097117E-003;-1.372775412164629E-003;
2.427666666666667E+009;1.719287037849426E-001;-1.048598363995552E-001;-2.174344845116139E-003;-1.282533747144043E-003;
2.427833333333334E+009;1.717512309551239E-001;-1.048416718840599E-001;-2.338704653084278E-003;-1.302957185544074E-003;
