# Hz S RI R 50
2400000000.0000000000 0.168459072709083612640057481258 0.040881674736738211894948591407 -0.002476191613823174996616982568 -0.003537724958732724189758300781 0 0 0 0 
2400166666.6666665077 0.169143870472907992263955634371 0.040294956415891647338867187500 -0.002754532732069491906407021631 -0.003476153127849102020263671875 0 0 0 0 
2400333333.3333334923 0.169545918703079195877236884371 0.039284612983465201641042341407 -0.002888512099161744117736816406 -0.003237241413444281058070517432 0 0 0 0 
2400500000.0000000000 0.170009076595306396484375000000 0.038456175476312637329101562500 -0.002855456667020916938781738281 -0.003155363025143742995021201025 0 0 0 0 
2400666666.6666665077 0.170240670442581204513388115629 0.037459466606378562236745466407 -0.003062581177800893783569335938 -0.003099838271737099127528525244 0 0 0 0 
2400833333.3333334923 0.170741140842437688629473768742 0.036918155848979949951171875000 -0.003120184643194078965428017725 -0.002971067093312739892246865381 0 0 0 0 
2401000000.0000000000 0.170941323041915893554687500000 0.035893939435482032085378278907 -0.003120930166915059089660644531 -0.002823231741786003112792968750 0 0 0 0 
2401166666.6666665077 0.171281918883323697189169365629 0.034906845539808273315429687500 -0.003212593263015151023864746094 -0.002565403003245592117309570312 0 0 0 0 
2401333333.3333334923 0.171318575739860506912393134371 0.034153196960687637329101562500 -0.003224630840122700171229697119 -0.002526584314182401137111044775 0 0 0 0 
2401500000.0000000000 0.171611383557319613357705634371 0.033350210636854171752929687500 -0.003509021596983075141906738281 -0.002419095719233154816868447412 0 0 0 0 
2401666666.6666665077 0.171694263815879794021768134371 0.032594546675682067871093750000 -0.003596720751374959945678710938 -0.002218087669461965994593954932 0 0 0 0 
2401833333.3333334923 0.171749398112297113616619981258 0.031453873962163932109792341407 -0.003592592664062976837158203125 -0.001982687041163444952723837744 0 0 0 0 
2402000000.0000000000 0.171595111489295987228231865629 0.030893430113792419433593750000 -0.003654519794508814811706542969 -0.001860005315393210107918764429 0 0 0 0 
2402166666.6666665077 0.171626165509223910232705634371 0.029751248657703399658203125000 -0.003696635365486145019531250000 -0.001626633689738810062408447266 0 0 0 0 
2402333333.3333334923 0.171579509973526000976562500000 0.028882198035717010498046875000 -0.003742783796042203903198242188 -0.001440887572243809916852641528 0 0 0 0 
2402500000.0000000000 0.171621695160865811446981865629 0.027808807790279388427734375000 -0.003553397720679641203639365088 -0.001459826133213937065721821362 0 0 0 0 
2402666666.6666665077 0.171633958816528292556924384371 0.026926433667540550231933593750 -0.003782498650252819061279296875 -0.001310329884290694973589253003 0 0 0 0 
2402833333.3333334923 0.171417444944381713867187500000 0.025989009067416191101074218750 -0.003769690636545420126674033057 -0.001131833065301180102704692310 0 0 0 0 
2403000000.0000000000 0.171336978673934908767861884371 0.024895237758755680429478829296 -0.003687671851366757912876748193 -0.000887860835064202547073364258 0 0 0 0 
2403166666.6666665077 0.171211689710617093185263115629 0.023720353841781619680384451954 -0.003630651393905282020568847656 -0.000993307912722229957580566406 0 0 0 0 
2403333333.3333334923 0.171095848083496093750000000000 0.022661838680505749094029610546 -0.003506228560581802888157509912 -0.000828009855467826128005981445 0 0 0 0 
2403500000.0000000000 0.170836448669433593750000000000 0.021431582048535350454310233204 -0.003578588133677839799168252100 -0.000815376406535506248474121094 0 0 0 0 
2403666666.6666665077 0.170803666114807101150674384371 0.020191401243209838867187500000 -0.003574191825464367866516113281 -0.000742590345907956361770629883 0 0 0 0 
2403833333.3333334923 0.170697793364524813553018134371 0.018745839595794681203821951954 -0.003445753362029790878295898438 -0.000608427100814878940582275391 0 0 0 0 
2404000000.0000000000 0.170405998826026888748330634371 0.017679903656244281423548514454 -0.003575163660570979118347167969 -0.000527362863067537546157836914 0 0 0 0 
2404166666.6666665077 0.170205891132354708572549384371 0.016213238239288330078125000000 -0.003429175820201634927036904443 -0.000604080909397453069686889648 0 0 0 0 
2404333333.3333334923 0.170153126120567294021768134371 0.014950977638363839930524257227 -0.003569721477106214003321982275 -0.000479758949950337409973144531 0 0 0 0 
2404500000.0000000000 0.170052498579025296310263115629 0.013483329676091669255266758398 -0.003703069174662231965305947412 -0.000220829198951833004325312482 0 0 0 0 
2404666666.6666665077 0.169970139861106900314169365629 0.011874583549797540146797381055 -0.003617157693952322006225585938 -0.000070544498157687485218048096 0 0 0 0 
2404833333.3333334923 0.169868215918541010100994981258 0.010588929988443849736223789648 -0.003723318455740809006931923975 -0.000012815356967621479520593950 0 0 0 0 
2405000000.0000000000 0.169717147946357699295205634371 0.009047777391970157623291015625 -0.003741040360182524161097861182 0.000128137311548925909117022104 0 0 0 0 
2405166666.6666665077 0.169786050915718106368856865629 0.007578064687550067901611328125 -0.003563181497156620025634765625 0.000320815161103382706642150879 0 0 0 0 
2405333333.3333334923 0.169859379529953002929687500000 0.005955945234745740890502929688 -0.003624634351581335067749023438 0.000397642113966867273480015887 0 0 0 0 
2405500000.0000000000 0.169787377119064303299111884371 0.004462698940187692642211914062 -0.003385952906683086915257119287 0.000460490904515609199374598370 0 0 0 0 
2405666666.6666665077 0.169593945145606994628906250000 0.002748176222667098045349121094 -0.003176814876496791839599609375 0.000605796463787555694580078125 0 0 0 0 
2405833333.3333334923 0.169533878564834594726562500000 0.001331351115368307070491171729 -0.003190340707078576087951660156 0.000576852879021316766738891602 0 0 0 0 
2406000000.0000000000 0.169629871845245389083700615629 -0.000504121067933738231658935547 -0.003146491711959242820739746094 0.000672218739055097103118896484 0 0 0 0 
2406166666.6666665077 0.169414550065994290450888115629 -0.002040346618741751150843954932 -0.002929956652224063873291015625 0.000875960511621087789535522461 0 0 0 0 
2406333333.3333334923 0.169513687491416903396768134371 -0.003543751779943705038783408057 -0.002955628558993339972255087744 0.000915855925995856523513793945 0 0 0 0 
2406500000.0000000000 0.169298961758613586425781250000 -0.005275710951536893844604492188 -0.002699013333767652945277548682 0.000946364074479788541793823242 0 0 0 0 
2406666666.6666665077 0.169051885604858398437500000000 -0.006812321487814188003540039062 -0.002789249410852789878845214844 0.000917082186788320541381835938 0 0 0 0 
2406833333.3333334923 0.168995678424835205078125000000 -0.008312717080116271972656250000 -0.002431370317935944037196493994 0.000801679969299584627151489258 0 0 0 0 
2407000000.0000000000 0.168950513005256708343182481258 -0.009885593317449092864990234375 -0.002556806197389959855320595850 0.000761766743380576372146606445 0 0 0 0 
2407166666.6666665077 0.168972805142402704436932481258 -0.011156642809510229283342930273 -0.002535172272473574118373251807 0.000949323351960629224777221680 0 0 0 0 
2407333333.3333334923 0.168650388717651394943075615629 -0.012576586566865440713902657421 -0.002566050970926880836486816406 0.000753493688534945249557495117 0 0 0 0 
2407500000.0000000000 0.168570190668106106857138115629 -0.013939177617430690420130545704 -0.002529433695599437193629599463 0.000798374880105257034301757812 0 0 0 0 
2407666666.6666665077 0.168470621109008789062500000000 -0.015070116147398950404157069727 -0.002381991595029830932617187500 0.000805597228463739156723022461 0 0 0 0 
2407833333.3333334923 0.168228968977928189376669365629 -0.016205377876758578908900076954 -0.002469857688993215994593954932 0.000795855245087295770645141602 0 0 0 0 
2408000000.0000000000 0.168151453137397793868856865629 -0.017494296655058860778808593750 -0.002367999637499452070948935400 0.000734916538931429386138916016 0 0 0 0 
2408166666.6666665077 0.168139308691024808029013115629 -0.018221711739897731435755545704 -0.002477783244103192849400185693 0.000648710527457296848297119141 0 0 0 0 
2408333333.3333334923 0.168303504586219787597656250000 -0.019256418570876121520996093750 -0.002424487611278891997096396338 0.000750108389183878898620605469 0 0 0 0 
2408500000.0000000000 0.168266162276268005371093750000 -0.020145023241639140737513358204 -0.002429893473163247108459472656 0.000726630154531449079513549805 0 0 0 0 
2408666666.6666665077 0.168368875980377197265625000000 -0.021182036027312278747558593750 -0.002356620272621511979344033350 0.000774622429162263870239257812 0 0 0 0 
2408833333.3333334923 0.168445169925689697265625000000 -0.021960476413369178771972656250 -0.002644504653289914131164550781 0.000736398564185947179794311523 0 0 0 0 
2409000000.0000000000 0.168561443686485290527343750000 -0.022788256406784061086634451954 -0.002533572027459741072413779150 0.000832034740597009658813476562 0 0 0 0 
2409166666.6666665077 0.168879494071006802657919365629 -0.023676352575421329843541329296 -0.002587008988484739823582314600 0.000937592063564807176589965820 0 0 0 0 
2409333333.3333334923 0.169027954339981106857138115629 -0.024597996845841411245325858204 -0.002589769661426544189453125000 0.000772193365264683961868286133 0 0 0 0 
2409500000.0000000000 0.169166222214698791503906250000 -0.025554146617650989187220389454 -0.002775314496830106215236044775 0.000925250118598341941833496094 0 0 0 0 
2409666666.6666665077 0.169281587004661587814169365629 -0.026336193084716800344446951954 -0.002808016492053865952732705225 0.001001446042209864096400595557 0 0 0 0 
2409833333.3333334923 0.169107407331466702560263115629 -0.027149990200996398925781250000 -0.002904126886278390884399414062 0.001024601398967206911799765479 0 0 0 0 
2410000000.0000000000 0.169475808739662198165731865629 -0.027964137494564059865931326954 -0.002885249676182866096496582031 0.001112143159843981049181294019 0 0 0 0 
2410166666.6666665077 0.169560119509696988204794365629 -0.029011769220232960092564766796 -0.002947354689240456061122275244 0.001248072367161511941197060693 0 0 0 0 
2410333333.3333334923 0.169520959258079501053018134371 -0.029810702428221699106236641796 -0.003048072336241602897644042969 0.001238292315974832014796591650 0 0 0 0 
2410500000.0000000000 0.169406354427337701995526231258 -0.030549444258213039743443673046 -0.003024860518053174018859863281 0.001420457498170434994938515771 0 0 0 0 
2410666666.6666665077 0.169301271438598605056924384371 -0.031667277216911322856862653907 -0.002985878614708780808689736475 0.001501181279309093952178955078 0 0 0 0 
2410833333.3333334923 0.169304728507995605468750000000 -0.032188184559345252300222028907 -0.003010079963132739067077636719 0.001667691511102020957349467700 0 0 0 0 
2411000000.0000000000 0.169081479310989407638388115629 -0.033035490661859512329101562500 -0.003178913146257400946376181494 0.001825009938329458019853901440 0 0 0 0 
2411166666.6666665077 0.168969854712486294845419365629 -0.033913034945726401592214216407 -0.002950689755380154089686728369 0.002094231080263853073120117188 0 0 0 0 
2411333333.3333334923 0.168757542967796297928018134371 -0.034911610186100013042409528907 -0.003151574172079563140869140625 0.001991275697946548895594931494 0 0 0 0 
2411500000.0000000000 0.168427139520645113845986884371 -0.035914275795221328735351562500 -0.003052346175536512894871377100 0.002269347431138157844543457031 0 0 0 0 
2411666666.6666665077 0.168248116970062311370526231258 -0.036660753190517432476003278907 -0.002966152736917138099670410156 0.002444066572934389114379882812 0 0 0 0 
2411833333.3333334923 0.167940378189086886306924384371 -0.037325248122215270996093750000 -0.002950064605101943016052246094 0.002587409457191824913024902344 0 0 0 0 
2412000000.0000000000 0.167978987097740201095419365629 -0.038249664008617401123046875000 -0.002823105314746499061584472656 0.002741482574492692947387695312 0 0 0 0 
2412166666.6666665077 0.167429938912391690353231865629 -0.039169181138277046894113908593 -0.002782955532893538908717490088 0.002762575168162583871128701318 0 0 0 0 
2412333333.3333334923 0.167267948389053289215411268742 -0.040154043585062026977539062500 -0.002802952425554395155665732275 0.002912714146077632904052734375 0 0 0 0 
2412500000.0000000000 0.166753947734832791427450615629 -0.041001565754413611675222028907 -0.002657355275005102157592773438 0.003076612716540693803074502100 0 0 0 0 
2412666666.6666665077 0.166462182998657198806924384371 -0.042229700833559043193776716407 -0.002421264071017504172084189307 0.003232535673305391831638955225 0 0 0 0 
2412833333.3333334923 0.166099712252616910079794365629 -0.043151669204235076904296875000 -0.002423950936645268960240029443 0.003231523558497428894042968750 0 0 0 0 
2413000000.0000000000 0.165524274110794095138388115629 -0.044051356613636016845703125000 -0.002150824526324868202209472656 0.003184189787134528160095214844 0 0 0 0 
2413166666.6666665077 0.165184244513511713225994981258 -0.045049782842397689819335937500 -0.002125490689650177955627441406 0.003380593145266174836399697412 0 0 0 0 
2413333333.3333334923 0.164433270692825289627236884371 -0.045883797109127051616628278907 -0.002244795206934214071986533057 0.003615958848968147797825478662 0 0 0 0 
2413500000.0000000000 0.164142519235610989669638115629 -0.047027330845594413066823591407 -0.001993461744859815077540732275 0.003566206898540257973911904443 0 0 0 0 
2413666666.6666665077 0.163829028606414794921875000000 -0.048123370856046676635742187500 -0.001911375904455780982971191406 0.003606303595006465911865234375 0 0 0 0 
2413833333.3333334923 0.163114935159683199783486884371 -0.048994708806276321411132812500 -0.001794953946955502033233642578 0.003694276092573999924900673975 0 0 0 0 
2414000000.0000000000 0.162625834345817593673544365629 -0.050200570374727249145507812500 -0.001730570918880403041839599609 0.003897029440850019888636923682 0 0 0 0 
2414166666.6666665077 0.162360996007919311523437500000 -0.051059521734714508056640625000 -0.001702454290352761962293315356 0.003923650365322828292846679688 0 0 0 0 
2414333333.3333334923 0.161848098039627102950888115629 -0.051999431103467941284179687500 -0.001441423781216144995448447119 0.004044371191412211331839277051 0 0 0 0 
2414500000.0000000000 0.161667957901954706390057481258 -0.053109537810087197040598283593 -0.001361306291073560931562114185 0.004274297505617141723632812500 0 0 0 0 
2414666666.6666665077 0.161260053515434292892294365629 -0.054059568792581558227539062500 -0.001283194520510732910753559644 0.004294208716601133346557617188 0 0 0 0 
2414833333.3333334923 0.160810068249702509124432481258 -0.055053252726793289184570312500 -0.001166431116871535994886088794 0.004366623703390359878540039062 0 0 0 0 
2415000000.0000000000 0.160662844777107211013955634371 -0.056097660213708877563476562500 -0.000637680059298872947692871094 0.004335971549153327941894531250 0 0 0 0 
2415166666.6666665077 0.160484164953231811523437500000 -0.057217102497816092754323591407 -0.000571393873542547225952148438 0.004363955464214087399954511426 0 0 0 0 
2415333333.3333334923 0.160272821784019497970419365629 -0.058600429445505142211914062500 -0.000285336835077032501071375714 0.004313514567911624908447265625 0 0 0 0 
2415500000.0000000000 0.160142689943313598632812500000 -0.059637907892465591430664062500 -0.000081855716416612267494201660 0.004475160967558622360229492188 0 0 0 0 
2415666666.6666665077 0.159872099757194491287393134371 -0.060662679374217987060546875000 0.000094420254754368215799331665 0.004450829233974218368530273438 0 0 0 0 
2415833333.3333334923 0.159801051020622308929119981258 -0.061987672001123428344726562500 0.000285389192868024110794067383 0.004504649434238672256469726562 0 0 0 0 
2416000000.0000000000 0.159536629915237399002236884371 -0.063358500599861145019531250000 0.000334049575030803680419921875 0.004318772349506616592407226562 0 0 0 0 
2416166666.6666665077 0.159504428505897494217080634371 -0.064476519823074340820312500000 0.000719075382221490144729614258 0.004211054649204015731811523438 0 0 0 0 
2416333333.3333334923 0.159191176295280512054119981258 -0.065728574991226196289062500000 0.000736286339815706014633178711 0.004192148335278034210205078125 0 0 0 0 
2416500000.0000000000 0.158967599272727994064169365629 -0.067061051726341247558593750000 0.000982997706159949302673339844 0.004039267078042030334472656250 0 0 0 0 
2416666666.6666665077 0.158585682511329706390057481258 -0.068283699452877044677734375000 0.001055325265042484023450541919 0.003986812662333250045776367188 0 0 0 0 
2416833333.3333334923 0.158476129174232510665731865629 -0.069609344005584716796875000000 0.001211504219099879047991108472 0.003896747250109910964965820312 0 0 0 0 
2417000000.0000000000 0.157992914319038391113281250000 -0.070755250751972198486328125000 0.001255300478078424930572509766 0.003686605952680110931396484375 0 0 0 0 
2417166666.6666665077 0.157805234193801907638388115629 -0.071716792881488800048828125000 0.001334098400548100905177451025 0.003697336418554186820983886719 0 0 0 0 
2417333333.3333334923 0.157437205314636202713174384371 -0.072793290019035339355468750000 0.001454186858609318950055766528 0.003547149011865257783177041162 0 0 0 0 
2417500000.0000000000 0.157136753201484707931356865629 -0.073953539133071899414062500000 0.001455393154174088998081826318 0.003466114401817322211024618994 0 0 0 0 
2417666666.6666665077 0.156871229410171508789062500000 -0.074666731059551239013671875000 0.001544244587421417019487690503 0.003399642650038003921508789062 0 0 0 0 
2417833333.3333334923 0.156667098402976989746093750000 -0.075505614280700683593750000000 0.001614712411537767107125307398 0.003181849373504519896266318213 0 0 0 0 
2418000000.0000000000 0.156201735138893099685830634371 -0.076560199260711669921875000000 0.001474071759730577902552939307 0.003209316404536366896388388525 0 0 0 0 
2418166666.6666665077 0.155958205461502102950888115629 -0.077239431440830230712890625000 0.001599006471224128983141254956 0.002984430640935897827148437500 0 0 0 0 
2418333333.3333334923 0.155850082635879488845986884371 -0.078138515353202819824218750000 0.001494914409704505963566445459 0.003037705086171627044677734375 0 0 0 0 
2418500000.0000000000 0.155608773231506403167401231258 -0.078979909420013427734375000000 0.001515007694251834912541054834 0.002918948419392108917236328125 0 0 0 0 
2418666666.6666665077 0.155359953641891507247763115629 -0.079667836427688598632812500000 0.001451277174055576107622456128 0.002932659117504953904392861475 0 0 0 0 
2418833333.3333334923 0.155006825923919705489950615629 -0.080454155802726745605468750000 0.001516890828497708060620952075 0.002876802114769815964939736475 0 0 0 0 
2419000000.0000000000 0.154646903276443509200888115629 -0.081060156226158142089843750000 0.001480975886806846098658896338 0.003051016945391892953159951318 0 0 0 0 
2419166666.6666665077 0.154397830367088290115518134371 -0.081797949969768524169921875000 0.001661356654949486038805317456 0.002948725596070290045497275244 0 0 0 0 
2419333333.3333334923 0.153982177376747103592080634371 -0.082322552800178527832031250000 0.001615403685718775012372661060 0.002964130835607647895812988281 0 0 0 0 
2419500000.0000000000 0.153652667999267605880575615629 -0.083193160593509674072265625000 0.001732299686409533023834228516 0.003105410840362309975865029443 0 0 0 0 
2419666666.6666665077 0.153425395488739013671875000000 -0.083734706044197082519531250000 0.002004110254347323937657021631 0.003109806450083851814270019531 0 0 0 0 
2419833333.3333334923 0.153036296367645291427450615629 -0.084177628159523010253906250000 0.002087648725137114958522177588 0.003205282846465706825256347656 0 0 0 0 
