# Hz S RI R 
2400000000.0000000000 0.157970771193504305740518134371 0.061918068677186972881276716407 0.001403424888849257989170693506 0.001018194016069174029706645435 0 0 0 0 
2400166666.6666665077 0.158211261034011813064736884371 0.060203611850738532329518903907 0.001453997800126672007917094653 0.000966917665209621191024780273 0 0 0 0 
2400333333.3333334923 0.157927796244621304611044365629 0.058319084346294403076171875000 0.001515512587502598979352641528 0.000851883960422128438949584961 0 0 0 0 
2400500000.0000000000 0.157968699932098388671875000000 0.056550350040197372436523437500 0.001552397734485567049739218604 0.000747803656850010156631469727 0 0 0 0 
2400666666.6666665077 0.157817319035530090332031250000 0.054397378116846091533620466407 0.001578251598402857997296977466 0.000621362298261374235153198242 0 0 0 0 
2400833333.3333334923 0.158117070794105502029580634371 0.052688814699649810791015625000 0.001525317667983471913578652490 0.000665579398628324270248413086 0 0 0 0 
2401000000.0000000000 0.158174172043800409515057481258 0.050509780645370483398437500000 0.001617750967852771065355610425 0.000577110040467232465744018555 0 0 0 0 
2401166666.6666665077 0.158352479338645907303018134371 0.048374719917774200439453125000 0.001494948053732513947727822412 0.000531375815626233816146850586 0 0 0 0 
2401333333.3333334923 0.158563956618308993240518134371 0.046290382742881781841237653907 0.001459342543967067978502583081 0.000456488836789503693580627441 0 0 0 0 
2401500000.0000000000 0.158819988369941711425781250000 0.044482640922069549560546875000 0.001382146263495088057277060400 0.000415522808907553607791346417 0 0 0 0 
2401666666.6666665077 0.159066960215568486969317518742 0.042524889111518859863281250000 0.001388540142215787930729531396 0.000450155232101678902476710187 0 0 0 0 
2401833333.3333334923 0.159659609198570306975994981258 0.040404297411441802978515625000 0.001378602348268032073974609375 0.000181847804924473193570813589 0 0 0 0 
2402000000.0000000000 0.160139366984367398361044365629 0.038399808108806610107421875000 0.001226647640578448989270854419 0.000101681915111839798375806265 0 0 0 0 
2402166666.6666665077 0.160473853349685696700888115629 0.036434456706047058105468750000 0.001295491587370634078979492188 0.000148410312249325188711443491 0 0 0 0 
2402333333.3333334923 0.161068454384803799728231865629 0.034449193626642227172851562500 0.001298108370974659919738769531 0.000043394731619628153067042692 0 0 0 0 
2402500000.0000000000 0.161896675825118990799111884371 0.032811500132083892822265625000 0.001228290726430713913561176831 0.000072940019890666007995605469 0 0 0 0 
2402666666.6666665077 0.162417486310005187988281250000 0.031126854941248890268346016796 0.001120288856327533938764262622 0.000081820202467497438192367554 0 0 0 0 
2402833333.3333334923 0.163165956735610989669638115629 0.029413124546408649789830391796 0.000974032329395413398742675781 -0.000021246292817522771656513214 0 0 0 0 
2403000000.0000000000 0.164002686738967895507812500000 0.027991030365228649484654610546 0.001067595090717077038408588940 -0.000039995717088459059596061707 0 0 0 0 
2403166666.6666665077 0.164958864450454711914062500000 0.026387607678771018981933593750 0.000908497779164463281631469727 -0.000151575033669360009118756705 0 0 0 0 
2403333333.3333334923 0.165929377079010009765625000000 0.024892808869481090200403983204 0.000940235040616244077682495117 0.000070738075010012835264205933 0 0 0 0 
2403500000.0000000000 0.166610628366470309158486884371 0.023636128753423690795898437500 0.000953776412643492221832275391 -0.000104853061202447902090610643 0 0 0 0 
2403666666.6666665077 0.167461141943931607345419365629 0.022303577512502670288085937500 0.000893207557965070009231567383 0.000008718540811969432979822159 0 0 0 0 
2403833333.3333334923 0.168479382991790799239950615629 0.020887065678834918630579764454 0.000663620070554316043853759766 -0.000018637640096130780875682831 0 0 0 0 
2404000000.0000000000 0.169459909200668307205361884371 0.019813494756817821157435233204 0.000787359953392297029495239258 -0.000059339516155887401919772489 0 0 0 0 
2404166666.6666665077 0.170445770025253295898437500000 0.018428267911076549184778983204 0.000698039133567363023757934570 -0.000021859574189875281672885282 0 0 0 0 
2404333333.3333334923 0.171131774783134488204794365629 0.017583049833774570119837576954 0.000723051605746150016784667969 0.000010540008588577620685100555 0 0 0 0 
2404500000.0000000000 0.172009184956550598144531250000 0.016661718487739559518834298046 0.000600558065343648195266723633 0.000060779824707424268126487732 0 0 0 0 
2404666666.6666665077 0.173198133707046508789062500000 0.015791224315762519836425781250 0.000600028492044657468795776367 0.000161349234986118999406537466 0 0 0 0 
2404833333.3333334923 0.174070447683334406097088731258 0.015091766603291039902656756055 0.000581166008487343788146972656 0.000159148345119319910376948224 0 0 0 0 
2405000000.0000000000 0.174985557794570895095986884371 0.014236572198569779831855974805 0.000571986369322985410690307617 0.000221976530156098306179046631 0 0 0 0 
2405166666.6666665077 0.175667166709899902343750000000 0.013670253567397589247733868945 0.000618060352280735969543457031 0.000357200508005917126506251202 0 0 0 0 
2405333333.3333334923 0.176430344581604003906250000000 0.012892229482531549281110194727 0.000501673959661275148391723633 0.000192374107427895096227368765 0 0 0 0 
2405500000.0000000000 0.177194878458976801116619981258 0.012535496614873409271240234375 0.000474687345558777505725306378 0.000323370186379179412692469464 0 0 0 0 
2405666666.6666665077 0.177785187959670992752236884371 0.012083664536476140458076677930 0.000646189902909100055694580078 0.000409137777751311714023035870 0 0 0 0 
2405833333.3333334923 0.178298309445381192306356865629 0.011649635620415210723876953125 0.000580455001909285783767700195 0.000429418869316577911376953125 0 0 0 0 
2406000000.0000000000 0.178880125284195001800213731258 0.011128152720630170649518397852 0.000707143626641482114791870117 0.000411741610150784308284205304 0 0 0 0 
2406166666.6666665077 0.179132044315338107010049384371 0.010993931442499160766601562500 0.000764695287216454744338989258 0.000511652557179331779479980469 0 0 0 0 
2406333333.3333334923 0.179668888449668912032919365629 0.010670838877558709925641444727 0.000709332118276506662368774414 0.000490751990582793951034545898 0 0 0 0 
2406500000.0000000000 0.179945975542068509200888115629 0.010196736082434650766392891796 0.000732861633878201246261596680 0.000648576882667839527130126953 0 0 0 0 
2406666666.6666665077 0.179966479539871188064736884371 0.009884119033813476562500000000 0.000729181920178234577178955078 0.000607405148912221193313598633 0 0 0 0 
2406833333.3333334923 0.180288434028625488281250000000 0.009431849233806133270263671875 0.000863354653120040893554687500 0.000696335860993713140487670898 0 0 0 0 
2407000000.0000000000 0.180372700095176696777343750000 0.009142355993390083312988281250 0.001160098356194793961168598706 0.000707512081135064363479614258 0 0 0 0 
2407166666.6666665077 0.180473521351814297775106865629 0.008906043134629726409912109375 0.001008535618893801949144672925 0.000735445239115506410598754883 0 0 0 0 
2407333333.3333334923 0.180210784077644403655682481258 0.008471242152154445648193359375 0.001103270333260297992108989185 0.000766144308727234601974487305 0 0 0 0 
2407500000.0000000000 0.180032178759574890136718750000 0.007956416346132755279541015625 0.001082750619389116980909038013 0.000594925892073661088943481445 0 0 0 0 
2407666666.6666665077 0.179798796772956903655682481258 0.007539478130638599395751953125 0.001242722617462276978733681787 0.000530728953890502452850341797 0 0 0 0 
2407833333.3333334923 0.179580926895141601562500000000 0.006845721974968910217285156250 0.001397538580931722900987934644 0.000696802453603595495223999023 0 0 0 0 
2408000000.0000000000 0.179086476564407404143963731258 0.006233904045075178146362304688 0.001370784244500101046321249854 0.000582532433327287435531616211 0 0 0 0 
2408166666.6666665077 0.178625464439392089843750000000 0.005679796449840068817138671875 0.001531725050881505012512207031 0.000599030754528939723968505859 0 0 0 0 
2408333333.3333334923 0.178263679146766690353231865629 0.004795260261744260787963867188 0.001736857811920345046399760669 0.000579273910261690616607666016 0 0 0 0 
2408500000.0000000000 0.177676364779472406585369981258 0.004006970673799514770507812500 0.001775712938979268074035644531 0.000658758042845875024795532227 0 0 0 0 
2408666666.6666665077 0.177271962165832491775674384371 0.003072565421462059020996093750 0.001668053213506937026977539062 0.000432569591794162988662719727 0 0 0 0 
2408833333.3333334923 0.176471784710884094238281250000 0.002012732671573758125305175781 0.001823435653932393030879355322 0.000491425453219562768936157227 0 0 0 0 
2409000000.0000000000 0.175875365734100286285723768742 0.000937608594540506601333618164 0.001955150859430431885960244287 0.000628757057711482048034667969 0 0 0 0 
2409166666.6666665077 0.175182759761810302734375000000 -0.000057576846302254132252147062 0.001974828308448195891139365088 0.000346900575095787590176182880 0 0 0 0 
2409333333.3333334923 0.174696877598762512207031250000 -0.001348424237221478982212685693 0.002008998533710836930515908350 0.000264989212155342102050781250 0 0 0 0 
2409500000.0000000000 0.173785194754600497146768134371 -0.002872113604098557992222451318 0.002164193196222186088562011719 0.000144159275805577608660021371 0 0 0 0 
2409666666.6666665077 0.173165246844291687011718750000 -0.004208779428154230117797851562 0.002209384227171539826634072412 0.000081684636825229972600936890 0 0 0 0 
2409833333.3333334923 0.172422319650649996658486884371 -0.005471780896186828613281250000 0.002342180348932743072509765625 -0.000143375917105004191398620605 0 0 0 0 
2410000000.0000000000 0.172042682766914395431356865629 -0.007036529947072268399710370801 0.002129485830664635138270712744 -0.000050481194193707779049873352 0 0 0 0 
2410166666.6666665077 0.171401083469390896896200615629 -0.008626580238342285156250000000 0.002201524795964359803440713037 -0.000134262023493647602483472281 0 0 0 0 
2410333333.3333334923 0.170642226934433011154013115629 -0.010276111774146560323694998829 0.002333021722733974890467978369 -0.000166221376275643706321716309 0 0 0 0 
2410500000.0000000000 0.170325696468353299239950615629 -0.012031866237521169835100742773 0.002555582206696271896362304688 -0.000249501579673960804939270020 0 0 0 0 
2410666666.6666665077 0.169615060091018704513388115629 -0.013949700631201270711878592579 0.002332689240574837164637900244 -0.000414765498135238885879516602 0 0 0 0 
2410833333.3333334923 0.169301941990852411468182481258 -0.015490922145545479166051094921 0.002278424333781003952026367188 -0.000657693599350750446319580078 0 0 0 0 
2411000000.0000000000 0.168997615575790405273437500000 -0.017387904226779941213587576954 0.002486029174178839163539267432 -0.000849722709972411394119262695 0 0 0 0 
2411166666.6666665077 0.168576374650001498123330634371 -0.019365891814231869089146798046 0.002374750562012196020839072119 -0.000989438383840024471282958984 0 0 0 0 
2411333333.3333334923 0.168324381113052395919638115629 -0.021018512547016140329381173046 0.002344603417441248893737792969 -0.001064960844814776940586709131 0 0 0 0 
2411500000.0000000000 0.168096423149108886718750000000 -0.023145157843828201293945312500 0.002466909354552627043483115088 -0.001084352028556168079376220703 0 0 0 0 
2411666666.6666665077 0.168228402733802795410156250000 -0.024931173771619800222376639454 0.002367216162383555932285927881 -0.001217428129166365103480673682 0 0 0 0 
2411833333.3333334923 0.167944863438606289962606865629 -0.026914676651358600961705391796 0.002193497493863106207606650244 -0.001448799856007098934770893628 0 0 0 0 
2412000000.0000000000 0.168003648519515991210937500000 -0.028851788491010669363001639454 0.002256981562823057174682617188 -0.001532553462311625914332724463 0 0 0 0 
2412166666.6666665077 0.168209999799728393554687500000 -0.030661718919873241079310233204 0.002286083297803997993469238281 -0.001618284615688025951385498047 0 0 0 0 
2412333333.3333334923 0.168576732277870205978231865629 -0.032535240054130547260324846093 0.002106060273945332007167197119 -0.001707406947389245033264160156 0 0 0 0 
2412500000.0000000000 0.168522834777832003494424384371 -0.034419517964124679565429687500 0.001918098307214676900150918115 -0.002000072272494434876682900537 0 0 0 0 
2412666666.6666665077 0.168837293982505798339843750000 -0.036276474595069892192800153907 0.001886941376142204024671245044 -0.002007944975048304037806845557 0 0 0 0 
2412833333.3333334923 0.169386476278305109222088731258 -0.038259159773588180541992187500 0.001954345963895320892333984375 -0.002037437632679938836338662256 0 0 0 0 
2413000000.0000000000 0.169536963105201693435830634371 -0.039899230003356926654856096093 0.001822583144530653953552246094 -0.002349506597965956167933798682 0 0 0 0 
2413166666.6666665077 0.170073032379150390625000000000 -0.041507273912429809570312500000 0.001585608464665710926055908203 -0.002329691778868436813354492188 0 0 0 0 
2413333333.3333334923 0.170617565512657193282919365629 -0.043105404824018478393554687500 0.001593184075318277099012065356 -0.002438201336190104918238974463 0 0 0 0 
2413500000.0000000000 0.170988678932189913650674384371 -0.044741291552782058715820312500 0.001536060124635695977451943506 -0.002548216609284282164332724463 0 0 0 0 
2413666666.6666665077 0.171621322631835909744424384371 -0.046399060636758797382395158593 0.001325254328548908016802143628 -0.002507012803107500076293945312 0 0 0 0 
2413833333.3333334923 0.172009527683258112151776231258 -0.047698419541120529174804687500 0.001269965083338320038439106519 -0.002557319821789861159083701025 0 0 0 0 
2414000000.0000000000 0.172377496957778902908486884371 -0.049317702651023871684987653907 0.001075240201316774108289409106 -0.002514047548174858093261718750 0 0 0 0 
2414166666.6666665077 0.173141613602638189117755018742 -0.050352387130260467529296875000 0.001087041222490370056749653394 -0.002581202890723944144008017432 0 0 0 0 
2414333333.3333334923 0.173560693860053988357705634371 -0.051613412797451019287109375000 0.000677405158057808876037597656 -0.002783395117148756980895996094 0 0 0 0 
2414500000.0000000000 0.174373298883438110351562500000 -0.052762508392333977436106096093 0.000839693006128072738647460938 -0.002648048102855681939366006006 0 0 0 0 
2414666666.6666665077 0.174829542636871310135049384371 -0.053652908653020858764648437500 0.000638272031210362911224365234 -0.002555727260187267823460244287 0 0 0 0 
2414833333.3333334923 0.175033956766128512283486884371 -0.054602969437837600708007812500 0.000346552551491186022758483887 -0.002530132187530397935154580225 0 0 0 0 
2415000000.0000000000 0.175614267587661687652911268742 -0.055474840104579932476003278907 0.000371200701920315623283386230 -0.002669754438102244897129677881 0 0 0 0 
2415166666.6666665077 0.176048547029495211502236884371 -0.056241545826196670532226562500 0.000165130113600753301947993146 -0.002682273508980869813206338037 0 0 0 0 
2415333333.3333334923 0.176421135663986206054687500000 -0.057023216038942337036132812500 0.000121596778626553700722832951 -0.002700545126572250886204384912 0 0 0 0 
2415500000.0000000000 0.176721677184104891678018134371 -0.057545766234397888183593750000 -0.000062187078583519905805587769 -0.002658358775079249902012490381 0 0 0 0 
2415666666.6666665077 0.176950052380561800857705634371 -0.058106936514377587055246721093 -0.000000682202255575248273089528 -0.002665285021066666083094931494 0 0 0 0 
2415833333.3333334923 0.177167445421218899825888115629 -0.058610957115888602519948591407 -0.000185894896276295212194165640 -0.002555017359554768042323447119 0 0 0 0 
2416000000.0000000000 0.177141800522804288009481865629 -0.059138033539056777954101562500 -0.000297903170576319098472595215 -0.002535590669140220122096396338 0 0 0 0 
2416166666.6666665077 0.177337691187858609298544365629 -0.059462074190378189086914062500 -0.000420226133428514003753662109 -0.002403712831437588171717978369 0 0 0 0 
2416333333.3333334923 0.177356302738189697265625000000 -0.059836756438016891479492187500 -0.000438001734437421018451136456 -0.002402209676802157922032021631 0 0 0 0 
2416500000.0000000000 0.177316054701805086990518134371 -0.060152877122163772583007812500 -0.000509981648065149784088134766 -0.002402857411652802987339638818 0 0 0 0 
2416666666.6666665077 0.176964864134788513183593750000 -0.060358125716447830200195312500 -0.000662448816001415252685546875 -0.002242292743176221847534179688 0 0 0 0 
2416833333.3333334923 0.176746889948844909667968750000 -0.060762867331504821777343750000 -0.000719680101610720157623291016 -0.002377832541242241859436035156 0 0 0 0 
2417000000.0000000000 0.176267310976982088943643134371 -0.061108324676752090454101562500 -0.000709501036908477544784545898 -0.002355298260226846174952841650 0 0 0 0 
2417166666.6666665077 0.175798594951629610916299384371 -0.061198621988296508789062500000 -0.000924706866499036550521850586 -0.002227758057415484948399209131 0 0 0 0 
2417333333.3333334923 0.175198987126350402832031250000 -0.061347287148237228393554687500 -0.000839073734823614358901977539 -0.002309734001755713982823037256 0 0 0 0 
2417500000.0000000000 0.174581140279769897460937500000 -0.061822302639484412456472028907 -0.000917042489163577556610107422 -0.002060681115835905075073242188 0 0 0 0 
2417666666.6666665077 0.174013555049896212478799384371 -0.061984043568372733379323591407 -0.001000335207208991050720214844 -0.001983272610232234001159667969 0 0 0 0 
2417833333.3333334923 0.173197954893112210372763115629 -0.062185298651456832885742187500 -0.001041730167344212965724326025 -0.002117109252139925956726074219 0 0 0 0 
2418000000.0000000000 0.172257989645004300216513115629 -0.062780067324638366699218750000 -0.001013722619973123073577880859 -0.001929928315803409056422568213 0 0 0 0 
2418166666.6666665077 0.171393379569053705413494981258 -0.062853977084159851074218750000 -0.000999489449895918369293212891 -0.001983697991818190054652548682 0 0 0 0 
2418333333.3333334923 0.170547008514404296875000000000 -0.063396535813808441162109375000 -0.001002208213321865038630820166 -0.002025065245106815858128213037 0 0 0 0 
2418500000.0000000000 0.169420182704925509353799384371 -0.063818164169788360595703125000 -0.000921268074307590723037719727 -0.001925934804603458101388002710 0 0 0 0 
2418666666.6666665077 0.168539330363273592849893134371 -0.064426876604557037353515625000 -0.001158894272521137974382710034 -0.001886852085590362982508993994 0 0 0 0 
2418833333.3333334923 0.167114570736885098556356865629 -0.065026842057704925537109375000 -0.001043391646817326979396201025 -0.001776194083504379012464213794 0 0 0 0 
2419000000.0000000000 0.166025981307029696365518134371 -0.065632171928882598876953125000 -0.001290224841795861937879252856 -0.001859533833339809937718056787 0 0 0 0 
2419166666.6666665077 0.164841979742050198654013115629 -0.066319711506366729736328125000 -0.001130656455643475055694580078 -0.001815638039261102893232036060 0 0 0 0 
2419333333.3333334923 0.163655176758766202071981865629 -0.066908739507198333740234375000 -0.001110588782466948032379150391 -0.001861532451584934971453022534 0 0 0 0 
2419500000.0000000000 0.162500858306884793380575615629 -0.067890614271163940429687500000 -0.001152757322415709929225302588 -0.001865917700342833995819091797 0 0 0 0 
2419666666.6666665077 0.161322414875030489822549384371 -0.068837344646453857421875000000 -0.001126090763136744932887411963 -0.001902680494822561957715678638 0 0 0 0 
2419833333.3333334923 0.160095795989036587814169365629 -0.069756016135215759277343750000 -0.001043715630657970905303955078 -0.001830297173000871918321919019 0 0 0 0 
