# Hz S RI R 
2400000000.0000000000 0.171441078186035211761151231258 0.040077533572912223125417341407 0.000759574351832270622253417969 -0.002692194422706962065455771338 0 0 0 0 
2400166666.6666665077 0.172043427824974087814169365629 0.039769947528839111328125000000 0.000962370540946722030639648438 -0.002608410082757472991943359375 0 0 0 0 
2400333333.3333334923 0.172504395246505709549111884371 0.039190594106912612915039062500 0.000809408549685031175613403320 -0.002686314051970839934108115088 0 0 0 0 
2400500000.0000000000 0.173023283481597900390625000000 0.038472685962915420532226562500 0.000815535953734070062637329102 -0.002728041959926486015319824219 0 0 0 0 
2400666666.6666665077 0.173283040523529108245526231258 0.037821244448423392559011091407 0.000960798759479075670242309570 -0.002934272633865476088282919775 0 0 0 0 
2400833333.3333334923 0.173639908432960510253906250000 0.037487797439098358154296875000 0.000686764949932694435119628906 -0.002981085795909165902378701318 0 0 0 0 
2401000000.0000000000 0.173808112740516690353231865629 0.036754574626684188842773437500 0.000705155718605965375900268555 -0.003189848503097891807556152344 0 0 0 0 
2401166666.6666665077 0.173926442861557006835937500000 0.035970006138086318969726562500 0.000679160119034349918365478516 -0.003251609858125447793247841943 0 0 0 0 
2401333333.3333334923 0.173796594142913790603799384371 0.035346582531929023052175153907 0.000605321081820875406265258789 -0.003323944984003901915309286963 0 0 0 0 
2401500000.0000000000 0.173851773142814608474893134371 0.034706685692071921611745466407 0.000495033164042979478836059570 -0.003248229622840880913975381006 0 0 0 0 
2401666666.6666665077 0.173774316906928988357705634371 0.034178335219621658325195312500 0.000252095691394060904353541241 -0.003476295154541730880737304688 0 0 0 0 
2401833333.3333334923 0.173628613352775601486044365629 0.033418465405702590942382812500 0.000095539369795005768537521362 -0.003522443119436502890345908057 0 0 0 0 
2402000000.0000000000 0.173324421048164395431356865629 0.032453134655952446674387346093 -0.000068579844082705676555633545 -0.003544547129422425790074013818 0 0 0 0 
2402166666.6666665077 0.173128277063369806487713731258 0.031673099845647811889648437500 -0.000279569183476269299357813702 -0.003469116054475307898280478369 0 0 0 0 
2402333333.3333334923 0.172754228115081787109375000000 0.030876582488417628896693045704 -0.000390966364648193120956420898 -0.003590245498344302177429199219 0 0 0 0 
2402500000.0000000000 0.172649919986724909026776231258 0.030111731961369510995885079296 -0.000695413153152912855148315430 -0.003516027936711906953098916162 0 0 0 0 
2402666666.6666665077 0.172275722026825006683026231258 0.029211454093456268310546875000 -0.000700933102052658796310424805 -0.003565051592886447906494140625 0 0 0 0 
2402833333.3333334923 0.171858385205268887618856865629 0.028188074007630351675013358204 -0.001125915674492717006086039966 -0.003241969039663672013523720850 0 0 0 0 
2403000000.0000000000 0.171485856175422696212606865629 0.027115849778056151653249372657 -0.001114399521611630916595458984 -0.003331294516101479964015341650 0 0 0 0 
2403166666.6666665077 0.171264663338661193847656250000 0.025953587144613269460657889454 -0.001131847966462373950360942310 -0.003353534499183297157287597656 0 0 0 0 
2403333333.3333334923 0.170822083950042696853799384371 0.024833211675286289560338204296 -0.001479708706028759913203574072 -0.003181128064170480208155966650 0 0 0 0 
2403500000.0000000000 0.170434176921844510177450615629 0.023416297510266300546666329296 -0.001573729678057133934618305737 -0.002935863332822918891906738281 0 0 0 0 
2403666666.6666665077 0.169974297285080011565838731258 0.022066773846745491027832031250 -0.001691062003374099948285746997 -0.002922696061432362036464072119 0 0 0 0 
2403833333.3333334923 0.169798389077186612228231865629 0.020653706043958660470982735546 -0.001776076387614011981366801685 -0.002913817530497909025904990088 0 0 0 0 
2404000000.0000000000 0.169361174106597900390625000000 0.019245278090238571166992187500 -0.001813166076317429976222372900 -0.002699333243072032928466796875 0 0 0 0 
2404166666.6666665077 0.169006675481796292404013115629 0.017747160047292709350585937500 -0.001888007856905459923985146631 -0.002662538550794125036952353369 0 0 0 0 
2404333333.3333334923 0.168833404779434204101562500000 0.016354061663150790822962576954 -0.001916830660775304057477641528 -0.002402918180450797080993652344 0 0 0 0 
2404500000.0000000000 0.168409541249275207519531250000 0.014508666470646859950055507227 -0.001871385611593723080278706128 -0.002349294954910873933079384912 0 0 0 0 
2404666666.6666665077 0.168279036879539489746093750000 0.013080504722893239802350429102 -0.001853614812716841914533305591 -0.002137295668944716887233115088 0 0 0 0 
2404833333.3333334923 0.168056786060333307464276231258 0.011335619725286960601806640625 -0.002202652860432862801792763818 -0.002230225829407573179957724463 0 0 0 0 
2405000000.0000000000 0.167948961257934598068075615629 0.009511490352451801300048828125 -0.002078073797747492790222167969 -0.002180926036089659170863486182 0 0 0 0 
2405166666.6666665077 0.167919144034385708907919365629 0.007740760687738656997680664062 -0.002078227698802947998046875000 -0.001999973552301526069641113281 0 0 0 0 
2405333333.3333334923 0.167981773614883395095986884371 0.005847412627190352353567792676 -0.001898424467071891047834086841 -0.001985178561881185011622763525 0 0 0 0 
2405500000.0000000000 0.168083444237709100921307481258 0.004109204746782779693603515625 -0.001954290783032774925231933594 -0.001777018536813556931139301831 0 0 0 0 
2405666666.6666665077 0.168004781007766695877236884371 0.002111824927851558165309286963 -0.002039165236055850982666015625 -0.001799328718334435982945107568 0 0 0 0 
2405833333.3333334923 0.167817622423171997070312500000 0.000342231563990935683250427246 -0.002019068226218224005458212744 -0.001649973681196569962742470850 0 0 0 0 
2406000000.0000000000 0.167934611439704895019531250000 -0.001697468804195523045183491284 -0.002170821186155080795288085938 -0.001573463785462080998661660303 0 0 0 0 
2406166666.6666665077 0.167845681309700012207031250000 -0.003507235553115605874302529443 -0.002233780454844235940220498193 -0.001572678564116358973859477466 0 0 0 0 
2406333333.3333334923 0.168002843856811495681924384371 -0.005376408807933331403250409863 -0.002074725460261106924769736182 -0.001369529054500163035151816260 0 0 0 0 
2406500000.0000000000 0.167911931872367886642294365629 -0.007148362696170806884765625000 -0.002175799570977687835693359375 -0.001340788905508816025377583081 0 0 0 0 
2406666666.6666665077 0.167840287089347811599893134371 -0.008930014446377754211425781250 -0.002088137203827499909641884912 -0.001153263845480978922602988135 0 0 0 0 
2406833333.3333334923 0.168013900518417386154013115629 -0.010748503729701040440569492773 -0.002160515403375029997584677588 -0.001117003383114933967590332031 0 0 0 0 
2407000000.0000000000 0.167999655008316012283486884371 -0.012225479818880559748639491602 -0.002200219081714748902561806787 -0.000950176327023655176162719727 0 0 0 0 
2407166666.6666665077 0.168104559183120699783486884371 -0.013817679136991500854492187500 -0.001929051242768764929530478369 -0.000784178846515715122222900391 0 0 0 0 
2407333333.3333334923 0.168087005615234402755575615629 -0.015394332818686960392962070898 -0.001929259975440799973131489331 -0.000796690932475030422210693359 0 0 0 0 
2407500000.0000000000 0.168119102716445895095986884371 -0.016867166385054588317871093750 -0.001863347599282860972760844653 -0.000702423974871635437011718750 0 0 0 0 
2407666666.6666665077 0.168211966753006009200888115629 -0.017940293997526168823242187500 -0.001737113343551754951477050781 -0.000784142641350627053915822717 0 0 0 0 
2407833333.3333334923 0.168253287672996493240518134371 -0.019285116344690319406529610546 -0.001565307611599564985987997900 -0.000632304407190531492233276367 0 0 0 0 
2408000000.0000000000 0.168463230133056612869424384371 -0.020463615655899051321009451954 -0.001607320620678365013719868237 -0.000739835202693939208984375000 0 0 0 0 
2408166666.6666665077 0.168715223670005798339843750000 -0.021221807226538661611536795704 -0.001439815270714462020276713794 -0.000763757794629782438278198242 0 0 0 0 
2408333333.3333334923 0.168977171182632501800213731258 -0.022188754752278331411341483204 -0.001401433721184730963466025244 -0.000755063199903815984725952148 0 0 0 0 
2408500000.0000000000 0.169099986553192110916299384371 -0.023223998025059700012207031250 -0.001389068900607526085497211987 -0.000861897773575037717819213867 0 0 0 0 
2408666666.6666665077 0.169545054435730008224325615629 -0.024004284292459491384486014454 -0.001406617346219719106789614038 -0.001090927748009562926051474463 0 0 0 0 
2408833333.3333334923 0.169756039977073697189169365629 -0.024633493274450298654576485546 -0.001223735162056982950923300635 -0.000944609462749212980270385742 0 0 0 0 
2409000000.0000000000 0.170058101415634210784588731258 -0.025338226929306980478306954296 -0.001087607932277024009107280200 -0.001062465249560772938969277490 0 0 0 0 
2409166666.6666665077 0.170390561223030090332031250000 -0.026066366583108898508092110546 -0.001141599146649241013767861475 -0.001123303896747529940364218604 0 0 0 0 
2409333333.3333334923 0.170830965042114313323651231258 -0.026961248368024829519251639454 -0.001278461888432502963422465747 -0.001264772261492908000946044922 0 0 0 0 
2409500000.0000000000 0.171139329671859713455361884371 -0.027683313935995098459263985546 -0.001247575622983277060865092700 -0.001315846922807395891902304541 0 0 0 0 
2409666666.6666665077 0.171374827623367309570312500000 -0.028288664296269420278528983204 -0.001235451782122253937962197412 -0.001416639657691121101379394531 0 0 0 0 
2409833333.3333334923 0.171532854437828091720419365629 -0.028842976316809650766392891796 -0.001353285973891616084455180591 -0.001620236202143132903455424731 0 0 0 0 
2410000000.0000000000 0.171892136335372897049111884371 -0.029575806111097339284876639454 -0.001382393413223325989366840894 -0.001448404276743531010271381909 0 0 0 0 
2410166666.6666665077 0.171993151307105990310830634371 -0.030184566974639889108678048046 -0.001532765221782028891919780200 -0.001630479469895363070844340747 0 0 0 0 
2410333333.3333334923 0.172079697251319913009481865629 -0.030783049762248989450474923046 -0.001593888388015330054639506763 -0.001795936725102365016937255859 0 0 0 0 
2410500000.0000000000 0.171917095780372591873330634371 -0.031504940241575241088867187500 -0.001671698642894626097438193213 -0.001927014323882759051081992041 0 0 0 0 
2410666666.6666665077 0.171959519386291503906250000000 -0.032220512628555297851562500000 -0.001871180371381341977360390771 -0.001858075615018605969072651440 0 0 0 0 
2410833333.3333334923 0.171891987323760986328125000000 -0.032864350825548171997070312500 -0.002047579037025570869445800781 -0.002074325690045952796936035156 0 0 0 0 
2411000000.0000000000 0.171645462512969998458700615629 -0.033460669219493872905690778907 -0.002125544007867575125453329932 -0.002034848788753151893615722656 0 0 0 0 
2411166666.6666665077 0.171287581324577303787393134371 -0.034013371914625167846679687500 -0.002504581585526465935948037256 -0.001958277076482772827148437500 0 0 0 0 
2411333333.3333334923 0.171082794666290310958700615629 -0.034580513834953308105468750000 -0.002557830419391394095179892432 -0.002008363837376236915588378906 0 0 0 0 
2411500000.0000000000 0.170752361416816711425781250000 -0.035398993641138076782226562500 -0.002822336042299867110011435400 -0.001879942486993968920466757666 0 0 0 0 
2411666666.6666665077 0.170466601848602294921875000000 -0.035934597253799438476562500000 -0.003090612590312958197352743994 -0.001885701436549424908281635815 0 0 0 0 
2411833333.3333334923 0.169911459088325500488281250000 -0.036655198782682418823242187500 -0.003245772328227757973911904443 -0.001600177143700421073316264575 0 0 0 0 
2412000000.0000000000 0.169570758938789395431356865629 -0.037318650633096701885182966407 -0.003378103952854872183558798682 -0.001585245714522897980333637769 0 0 0 0 
2412166666.6666665077 0.168976932764053289215411268742 -0.037896402180194861675222028907 -0.003387209726497530937194824219 -0.001401496818289160945295024341 0 0 0 0 
2412333333.3333334923 0.168683961033821105957031250000 -0.038851883262395858764648437500 -0.003532896284013987021205283057 -0.001141306827776134014129638672 0 0 0 0 
2412500000.0000000000 0.168071389198303194900674384371 -0.039484482258558273315429687500 -0.003620384726673365072963095557 -0.001074456726200879053828574072 0 0 0 0 
2412666666.6666665077 0.167477786540985107421875000000 -0.040642149746417999267578125000 -0.003768217051401733918430947412 -0.000931950111407786607742309570 0 0 0 0 
2412833333.3333334923 0.166804000735282897949218750000 -0.041581083089113242412526716407 -0.003996115177869796752929687500 -0.000821087276563048362731933594 0 0 0 0 
2413000000.0000000000 0.166035607457161005218182481258 -0.042299952358007431030273437500 -0.003895458998158574104309082031 -0.000506865559145808219909667969 0 0 0 0 
2413166666.6666665077 0.165548279881477411468182481258 -0.043421588838100433349609375000 -0.004107108805328608426565839551 -0.000362247374141588807106018066 0 0 0 0 
2413333333.3333334923 0.164592519402503995040731865629 -0.044470690190792076801340471093 -0.004120619036257266998291015625 -0.000272820441750809604495447980 0 0 0 0 
2413500000.0000000000 0.164028465747833307464276231258 -0.045492760837078087543527971093 -0.004225555341690778732299804688 -0.000114880218461621593363346239 0 0 0 0 
2413666666.6666665077 0.163236171007156399825888115629 -0.046691134572029106830637346093 -0.004237124230712652206420898438 0.000082102276792284101247787476 0 0 0 0 
2413833333.3333334923 0.162574291229248102386151231258 -0.047638576477766036987304687500 -0.004188208840787410736083984375 0.000131326771224848898962297983 0 0 0 0 
2414000000.0000000000 0.161827385425567599197549384371 -0.048870231956243521953542341407 -0.004349068272858858108520507812 0.000409272528486326282650548114 0 0 0 0 
2414166666.6666665077 0.161328390240669305999432481258 -0.049784742295742041851003278907 -0.004292852245271205902099609375 0.000655841897241771221160888672 0 0 0 0 
2414333333.3333334923 0.160612702369689913650674384371 -0.051046758890151977539062500000 -0.004282857757061719894409179688 0.000850334647111594676971435547 0 0 0 0 
2414500000.0000000000 0.160266593098640386383380018742 -0.052165653556585311889648437500 -0.004303412046283484372610761426 0.001021251548081635995152138818 0 0 0 0 
2414666666.6666665077 0.159784317016601590255575615629 -0.053410109132528311992604841407 -0.004352790303528308868408203125 0.001097233034670352935791015625 0 0 0 0 
2414833333.3333334923 0.159117817878723089020098768742 -0.054676849395036697387695312500 -0.004318420775234699249267578125 0.001376262167468667030334472656 0 0 0 0 
2415000000.0000000000 0.158723086118698092361611884371 -0.055833298712968833232839216407 -0.004266569856554269790649414062 0.001628310536034405014635395581 0 0 0 0 
2415166666.6666665077 0.158514797687530489822549384371 -0.057195361703634262084960937500 -0.004069535061717033386230468750 0.001827817526645957989933632959 0 0 0 0 
2415333333.3333334923 0.158214569091796902755575615629 -0.058640070259571082378347028907 -0.004014555830508471402640058301 0.002012866083532571792602539062 0 0 0 0 
2415500000.0000000000 0.157908767461776705642861884371 -0.059792429208755493164062500000 -0.003997207153588533401489257812 0.002338266000151634216308593750 0 0 0 0 
2415666666.6666665077 0.157739564776420593261718750000 -0.061225537210702903057057966407 -0.003790874965488911108729697119 0.002491705818101764158961630713 0 0 0 0 
2415833333.3333334923 0.157578289508819607833700615629 -0.062692381441593170166015625000 -0.003598223673179746107814169775 0.002570205600932240919825888525 0 0 0 0 
2416000000.0000000000 0.157223433256149291992187500000 -0.064247064292430877685546875000 -0.003300901502370833916905068506 0.002820096677169204191920615088 0 0 0 0 
2416166666.6666665077 0.157410696148872403243856865629 -0.065565496683120727539062500000 -0.003225824562832713127136230469 0.003015090944245458082911826025 0 0 0 0 
2416333333.3333334923 0.157211050391197204589843750000 -0.066970504820346832275390625000 -0.003188277594745159149169921875 0.003128401003777980804443359375 0 0 0 0 
2416500000.0000000000 0.156861424446106012542401231258 -0.068562015891075134277343750000 -0.002875281730666757063624716650 0.003294236958026885986328125000 0 0 0 0 
2416666666.6666665077 0.156663060188293512542401231258 -0.069867625832557678222656250000 -0.002641877625137567953822470557 0.003111698897555470900294638525 0 0 0 0 
2416833333.3333334923 0.156642556190490694900674384371 -0.071460396051406860351562500000 -0.002534235594794154167175292969 0.003329395782202481789829873193 0 0 0 0 
2417000000.0000000000 0.156338021159172113616619981258 -0.072707101702690124511718750000 -0.002374593401327728791477822412 0.003292854875326157049891806494 0 0 0 0 
2417166666.6666665077 0.156328663229942294021768134371 -0.073848105967044830322265625000 -0.002234231913462280793430947412 0.003276238217949866814854287256 0 0 0 0 
2417333333.3333334923 0.156003639101982088943643134371 -0.074969254434108734130859375000 -0.002116669667884707884547568213 0.003020220203325151963474892725 0 0 0 0 
2417500000.0000000000 0.155911028385162409026776231258 -0.076253406703472137451171875000 -0.001902091898955404975293803638 0.003303094301372766928431845557 0 0 0 0 
2417666666.6666665077 0.155920788645744295974893134371 -0.077164828777313232421875000000 -0.001901176874525845050811767578 0.003319277660921216011047363281 0 0 0 0 
2417833333.3333334923 0.155800178647041293045205634371 -0.078056506812572479248046875000 -0.001774657052010297992108989185 0.003295854199677706198451376807 0 0 0 0 
2418000000.0000000000 0.155674353241920498946981865629 -0.079116299748420715332031250000 -0.001777142402715981006622314453 0.003280955832451581954956054688 0 0 0 0 
2418166666.6666665077 0.155532240867614801604901231258 -0.079949140548706054687500000000 -0.001644533942453562996507954175 0.003143435111269354820251464844 0 0 0 0 
2418333333.3333334923 0.155812308192253112792968750000 -0.080797210335731506347656250000 -0.001634726650081574916839599609 0.003253097878769040107727050781 0 0 0 0 
2418500000.0000000000 0.155548050999641390701455634371 -0.081528395414352416992187500000 -0.001422401401214302019831992041 0.003311775624752045111415243994 0 0 0 0 
2418666666.6666665077 0.155650123953819302657919365629 -0.082456678152084350585937500000 -0.001417215797118843035456992041 0.003433475969359279112574911963 0 0 0 0 
2418833333.3333334923 0.155461668968200711349325615629 -0.083079747855663299560546875000 -0.001368332421407103972194052588 0.003326556878164411024806357275 0 0 0 0 
2419000000.0000000000 0.155320361256599398513955634371 -0.083679646253585815429687500000 -0.001182028558105229897740029443 0.003310003085061908201930380713 0 0 0 0 
2419166666.6666665077 0.155269220471382113357705634371 -0.084252066910266876220703125000 -0.001193132484331727027893066406 0.003446906339377164840698242188 0 0 0 0 
2419333333.3333334923 0.155004650354385403732138115629 -0.084473177790641784667968750000 -0.001019649324007332108141254956 0.003400695743039249940159463037 0 0 0 0 
2419500000.0000000000 0.154869824647903386871661268742 -0.085281215608119964599609375000 -0.000992639688774943351745605469 0.003558733267709612846374511719 0 0 0 0 
2419666666.6666665077 0.154762670397758511642294365629 -0.085746474564075469970703125000 -0.000905364635400474071502685547 0.003690117737278341813328408350 0 0 0 0 
2419833333.3333334923 0.154472604393959100921307481258 -0.085843898355960845947265625000 -0.000616425764746963977813720703 0.003615736961364746093750000000 0 0 0 0 
