# Hz S RI R 
2400000000.0000000000 0.171472132205963107010049384371 0.040145482867956161499023437500 0.000575492798816412687301635742 -0.002725621219724417166468954932 0 0 0 0 
2400166666.6666665077 0.172090917825698908050213731258 0.039826903492212302471120466407 0.000795128929894417524337768555 -0.002625958062708377838134765625 0 0 0 0 
2400333333.3333334923 0.172478660941123990157919365629 0.039196442812681198120117187500 0.000819767010398209095001220703 -0.002774046268314123153686523438 0 0 0 0 
2400500000.0000000000 0.173024073243141202071981865629 0.038636852055788040161132812500 0.000816361804027110338211059570 -0.002998805604875088171717978369 0 0 0 0 
2400666666.6666665077 0.173277363181114196777343750000 0.037943448871374130249023437500 0.000816519604995846748352050781 -0.002941609127447009086608886719 0 0 0 0 
2400833333.3333334923 0.173492625355720492263955634371 0.037351474165916442871093750000 0.000622800434939563274383544922 -0.003023501485586165948155068506 0 0 0 0 
2401000000.0000000000 0.173819243907928494552450615629 0.036908473819494247436523437500 0.000665914965793490409851074219 -0.003054934553802012963535927881 0 0 0 0 
2401166666.6666665077 0.173815116286277798751669365629 0.036191266030073172832448591407 0.000527075957506895065307617188 -0.003163740737363696098327636719 0 0 0 0 
2401333333.3333334923 0.173622056841850308517294365629 0.035638149827718741680104841407 0.000662073085550218820571899414 -0.003302431665360928015467978369 0 0 0 0 
2401500000.0000000000 0.173758491873741205413494981258 0.034610722213983542705495466407 0.000478145462693646604388636456 -0.003388938959687947793247841943 0 0 0 0 
2401666666.6666665077 0.173703297972679110428018134371 0.034303899854421622539479841407 0.000069165500462986528873443604 -0.003632226027548313140869140625 0 0 0 0 
2401833333.3333334923 0.173701599240303011795205634371 0.033318545669317252422292341407 0.000103005266282707493431629320 -0.003494600532576442198512411963 0 0 0 0 
2402000000.0000000000 0.173353180289268493652343750000 0.032707013189792633056640625000 -0.000187857920536771389559069223 -0.003510849084705113930943154443 0 0 0 0 
2402166666.6666665077 0.173188507556915310958700615629 0.031722694635391242290456403907 -0.000231508936849422807067316876 -0.003646946279332042174098349463 0 0 0 0 
2402333333.3333334923 0.172827303409576388260049384371 0.030977437272667888296107108204 -0.000679665128700435161590576172 -0.003670833772048354148864746094 0 0 0 0 
2402500000.0000000000 0.172790303826332092285156250000 0.030139334499835971487025076954 -0.000647738226689398288726806641 -0.003587329993024467988255166162 0 0 0 0 
2402666666.6666665077 0.172367990016937311370526231258 0.029045145958662029611607735546 -0.001026186626404524066327739185 -0.003532773582264780998229980469 0 0 0 0 
2402833333.3333334923 0.171930685639381408691406250000 0.028245754539966579782506173046 -0.000823244859930127859115600586 -0.003296445123851298852207802881 0 0 0 0 
2403000000.0000000000 0.171771988272666903396768134371 0.027035092934966090810755545704 -0.001188526512123643918278359521 -0.003230585483834147886988974463 0 0 0 0 
2403166666.6666665077 0.171332120895385686676348768742 0.025776762515306469308873360546 -0.001270742854103446006774902344 -0.003265975508838891983032226562 0 0 0 0 
2403333333.3333334923 0.170864611864089993575888115629 0.024696109816431999206542968750 -0.001244034618139266967773437500 -0.003201956860721110863926552881 0 0 0 0 
2403500000.0000000000 0.170525401830673190017861884371 0.023490963503718379629114920704 -0.001643703319132328033447265625 -0.003043777775019406838657998193 0 0 0 0 
2403666666.6666665077 0.170173048973083496093750000000 0.021946845576167110097864920704 -0.001579894684255122921587299878 -0.002873518038541079001185751807 0 0 0 0 
2403833333.3333334923 0.169818729162216186523437500000 0.020837828516960140573521798046 -0.001749256742186843915226601709 -0.002850071294233202934265136719 0 0 0 0 
2404000000.0000000000 0.169374600052833612640057481258 0.019241662696003910409947579296 -0.001847637235186994075775146484 -0.002566109178587793870213173975 0 0 0 0 
2404166666.6666665077 0.169080466032028198242187500000 0.017720766365528110158900076954 -0.001812287373468280055402446216 -0.002677281154319643974304199219 0 0 0 0 
2404333333.3333334923 0.168799966573715209960937500000 0.016241701319813728332519531250 -0.002062655985355377197265625000 -0.002409264445304871039149618994 0 0 0 0 
2404500000.0000000000 0.168425798416137695312500000000 0.014635024592280389613141444727 -0.001830971683375536961796425928 -0.002500126138329505920410156250 0 0 0 0 
2404666666.6666665077 0.168225020170211791992187500000 0.012982904911041259765625000000 -0.001955671934410930113551474463 -0.002335848985239862962010048975 0 0 0 0 
2404833333.3333334923 0.168065801262855502029580634371 0.011252415366470810281773751171 -0.002023996319621800942661904443 -0.002181832212954760031459189307 0 0 0 0 
2405000000.0000000000 0.167965471744537409026776231258 0.009468195028603076934814453125 -0.002018168102949858145472861182 -0.002156760310754179954528808594 0 0 0 0 
2405166666.6666665077 0.167916178703308105468750000000 0.007738742046058177947998046875 -0.002007274422794580893275595557 -0.002013236284255981011631631006 0 0 0 0 
2405333333.3333334923 0.167847663164138793945312500000 0.005772621370851994428152753613 -0.001946383621543646075605082935 -0.001846817904151975891710590894 0 0 0 0 
2405500000.0000000000 0.167923301458358792404013115629 0.004115860443562269210815429688 -0.002002414548769592805149697412 -0.001798086683265865065931010669 0 0 0 0 
2405666666.6666665077 0.167885154485702486892861884371 0.002244912320747971968409872900 -0.002144644735381007194519042969 -0.001824499922804534001591347803 0 0 0 0 
2405833333.3333334923 0.167716711759567288497763115629 0.000441917043644934892654418945 -0.001957991393283009962794638525 -0.001624707016162574074388813550 0 0 0 0 
2406000000.0000000000 0.167821347713470486739950615629 -0.001635708031244575977325439453 -0.002148658270016313032862997900 -0.001599547569639981009839702075 0 0 0 0 
2406166666.6666665077 0.167854458093643188476562500000 -0.003370739985257387161254882812 -0.002123622689396142959594726562 -0.001439037965610622925999306787 0 0 0 0 
2406333333.3333334923 0.167945653200149508377236884371 -0.005223527550697326660156250000 -0.002151888562366365952732705225 -0.001335639972239732959150004810 0 0 0 0 
2406500000.0000000000 0.167903214693069513518963731258 -0.007097863126546145352835370801 -0.002229755511507391929626464844 -0.001267807558178902106044150244 0 0 0 0 
2406666666.6666665077 0.167831763625144986251669365629 -0.008677681908011436462402343750 -0.002217392669990659193751669775 -0.001137399463914334990857768481 0 0 0 0 
2406833333.3333334923 0.167834296822547912597656250000 -0.010600387118756769352923008398 -0.002101913094520568847656250000 -0.000924238935112953186035156250 0 0 0 0 
2407000000.0000000000 0.167872771620750399490518134371 -0.012262168340384960174560546875 -0.002115322742611169815063476562 -0.000922994397114962339401245117 0 0 0 0 
2407166666.6666665077 0.168181851506233187576455634371 -0.013762938790023330343226248829 -0.001919931964948772950413369287 -0.000927288434468209743499755859 0 0 0 0 
2407333333.3333334923 0.168020516633987399002236884371 -0.015336190350353719538678554102 -0.001888798084110022024867392432 -0.000740979448892176151275634766 0 0 0 0 
2407500000.0000000000 0.167971268296241788009481865629 -0.016598751768469810485839843750 -0.001674617524258791966679238428 -0.000828734308015555143356323242 0 0 0 0 
2407666666.6666665077 0.168260946869850186446981865629 -0.017820511013269420969029610546 -0.001740327104926109097124409253 -0.000565372349228709936141967773 0 0 0 0 
2407833333.3333334923 0.168096721172332791427450615629 -0.019269589334726330148717110546 -0.001612107269465923092485737378 -0.000723367556929588317871093750 0 0 0 0 
2408000000.0000000000 0.168381914496421786209268134371 -0.020359778776764869689941406250 -0.001470183720812201933619833838 -0.000749879050999879837036132812 0 0 0 0 
2408166666.6666665077 0.168551459908485412597656250000 -0.021138543263077739370325858204 -0.001319475355558096928837441553 -0.000794891442637890577316284180 0 0 0 0 
2408333333.3333334923 0.169016525149345397949218750000 -0.022119401022791859018346016796 -0.001396727398969233036041259766 -0.000917830038815736770629882812 0 0 0 0 
2408500000.0000000000 0.168979257345199612716513115629 -0.023116372525691989553431326954 -0.001282672863453627066371298682 -0.001007076469250022931339882959 0 0 0 0 
2408666666.6666665077 0.169461369514465304275674384371 -0.023782396689057350158691406250 -0.001130212913267314000370644678 -0.000920893682632595300674438477 0 0 0 0 
2408833333.3333334923 0.169632658362388610839843750000 -0.024667784571647640573521798046 -0.001399165834300220012664794922 -0.000978652737103402614593505859 0 0 0 0 
2409000000.0000000000 0.169884324073791503906250000000 -0.025268850848078731191614920704 -0.001267235726118087985395121997 -0.001028185710310935974121093750 0 0 0 0 
2409166666.6666665077 0.170391499996185302734375000000 -0.025994429364800449716588204296 -0.001233975985087454102159809644 -0.001133534708060323975206684644 0 0 0 0 
2409333333.3333334923 0.170854538679122897049111884371 -0.026853693649172779428502266796 -0.001162870088592172102687216650 -0.001198818441480397961260151440 0 0 0 0 
2409500000.0000000000 0.171080142259597806075888115629 -0.027449730783700939523717110546 -0.001311202999204396984697651440 -0.001312641077674924893620156396 0 0 0 0 
2409666666.6666665077 0.171269446611404391189736884371 -0.028108539059758189809778983204 -0.001246461411938071034075092847 -0.001361774397082627036451030200 0 0 0 0 
2409833333.3333334923 0.171558767557144192794638115629 -0.028845218941569328308105468750 -0.001423554611392318985582661206 -0.001333680003881454901454306494 0 0 0 0 
2410000000.0000000000 0.171932518482208307464276231258 -0.029542947188019749032994454296 -0.001370215439237653992296528394 -0.001789025845937431075452495044 0 0 0 0 
2410166666.6666665077 0.171974018216133089920205634371 -0.030140044167637828481653983204 -0.001543275429867208003997802734 -0.001606057048775255896924663013 0 0 0 0 
2410333333.3333334923 0.171976998448371887207031250000 -0.030750215053558349609375000000 -0.001624934142455459074733115088 -0.001711445860564708926557231372 0 0 0 0 
2410500000.0000000000 0.172166734933853204925213731258 -0.031464535742998123168945312500 -0.001697437604889274077174521338 -0.001880552154034375927568745190 0 0 0 0 
2410666666.6666665077 0.171835288405418395996093750000 -0.032230164855718612670898437500 -0.001948021934367716095568012769 -0.001875653048045933029772114331 0 0 0 0 
2410833333.3333334923 0.172069340944290188888388115629 -0.032824549823999411846120466407 -0.002101126592606306076049804688 -0.001874043024145066954969096606 0 0 0 0 
2411000000.0000000000 0.171630203723907498458700615629 -0.033440753817558288574218750000 -0.002295306650921701951267861475 -0.001857860013842582919477153247 0 0 0 0 
2411166666.6666665077 0.171319395303726196289062500000 -0.033950217068195343017578125000 -0.002323882421478629112243652344 -0.001891721854917705059051513672 0 0 0 0 
2411333333.3333334923 0.171096801757812500000000000000 -0.034502722322940833354909528907 -0.002590496791526674790623330225 -0.001977870240807532830479287256 0 0 0 0 
2411500000.0000000000 0.170685440301895113845986884371 -0.035326048731803887104074846093 -0.002640011487528682188746786963 -0.001825580024160444953321147388 0 0 0 0 
2411666666.6666665077 0.170451551675796508789062500000 -0.036003392189741141582448591407 -0.003134781261906027793884277344 -0.001765214139595628001569438403 0 0 0 0 
2411833333.3333334923 0.169972315430641202071981865629 -0.036694344133138656616210937500 -0.003140680957585573196411132812 -0.001755967503413558006286621094 0 0 0 0 
2412000000.0000000000 0.169537514448165893554687500000 -0.037386432290077209472656250000 -0.003395366948097943825962685693 -0.001555757597088813998578715747 0 0 0 0 
2412166666.6666665077 0.169017180800437899490518134371 -0.038113866001367568969726562500 -0.003453476587310432954075478662 -0.001462617889046669006347656250 0 0 0 0 
2412333333.3333334923 0.168671905994415310958700615629 -0.038848619908094413066823591407 -0.003601238364353775978088378906 -0.001247817766852677085279155200 0 0 0 0 
2412500000.0000000000 0.167857229709625188629473768742 -0.039619490504264831542968750000 -0.003770988434553145928623818506 -0.001003077486529945893528603662 0 0 0 0 
2412666666.6666665077 0.167472794651985196212606865629 -0.040552414953708648681640625000 -0.003827915526926517920253134619 -0.000843250774778425693511962891 0 0 0 0 
2412833333.3333334923 0.166715547442436190506143134371 -0.041467353701591491699218750000 -0.003915059380233287811279296875 -0.000626204418949782848358154297 0 0 0 0 
2413000000.0000000000 0.166081547737121609786825615629 -0.042457100003957748413085937500 -0.004044192843139171600341796875 -0.000510436948388814926147460938 0 0 0 0 
2413166666.6666665077 0.165436372160911587814169365629 -0.043431159108877182006835937500 -0.004067990928888320922851562500 -0.000377641932573169524043482648 0 0 0 0 
2413333333.3333334923 0.164524674415588406661825615629 -0.044478908181190490722656250000 -0.004007457755506038665771484375 -0.000090242196165490895509719849 0 0 0 0 
2413500000.0000000000 0.163915500044822692871093750000 -0.045513711869716637348215471093 -0.004306812770664691925048828125 -0.000185370357939973500653943472 0 0 0 0 
2413666666.6666665077 0.163174614310264587402343750000 -0.046564575284719467163085937500 -0.004162488505244255065917968750 0.000188440637430176111772814340 0 0 0 0 
2413833333.3333334923 0.162477374076843289474325615629 -0.047688655555248260498046875000 -0.004143741447478532791137695312 0.000467173726065084283978062762 0 0 0 0 
2414000000.0000000000 0.161637812852859497070312500000 -0.048611354082822799682617187500 -0.004285761620849370956420898438 0.000539584376383572816848754883 0 0 0 0 
2414166666.6666665077 0.161108955740928705413494981258 -0.049719814211130142211914062500 -0.004278008826076984405517578125 0.000749800237827003002166748047 0 0 0 0 
2414333333.3333334923 0.160625994205474909026776231258 -0.050968855619430541992187500000 -0.004238535184413194656372070312 0.000750125793274492025375366211 0 0 0 0 
2414500000.0000000000 0.160252898931503295898437500000 -0.052050244063138961791992187500 -0.004202567972242832183837890625 0.000989117543213069438934326172 0 0 0 0 
2414666666.6666665077 0.159766674041748102386151231258 -0.053238917142152793193776716407 -0.004180737305432558059692382812 0.001158555154688655896427773584 0 0 0 0 
2414833333.3333334923 0.159117028117179898361044365629 -0.054434608668088912963867187500 -0.004305036738514900207519531250 0.001418287167325616099713969653 0 0 0 0 
2415000000.0000000000 0.158769801259040804763955634371 -0.055645346641540527343750000000 -0.004165695048868656158447265625 0.001596005749888717911363911206 0 0 0 0 
2415166666.6666665077 0.158397614955902099609375000000 -0.056999061256647109985351562500 -0.004112903028726577758789062500 0.001854065922088921070098876953 0 0 0 0 
2415333333.3333334923 0.158205226063728304763955634371 -0.058369245380163192749023437500 -0.004026516340672969818115234375 0.002169986721128224892857216943 0 0 0 0 
2415500000.0000000000 0.158028945326805086990518134371 -0.059821546077728271484375000000 -0.003891926258802413940429687500 0.002311099320650101141688681494 0 0 0 0 
2415666666.6666665077 0.157819226384162902832031250000 -0.061158653348684310913085937500 -0.003840635763481258912327431787 0.002415966475382446809055947412 0 0 0 0 
2415833333.3333334923 0.157655194401741000076455634371 -0.062790431082248687744140625000 -0.003655521664768456979038857568 0.002673703478649259047267294775 0 0 0 0 
2416000000.0000000000 0.157231196761131286621093750000 -0.064094156026840209960937500000 -0.003417093772441149191615439307 0.002844881732016801834106445312 0 0 0 0 
2416166666.6666665077 0.157376199960708590408486884371 -0.065488874912261962890625000000 -0.003306709462776780128479003906 0.002951924456283450126647949219 0 0 0 0 
2416333333.3333334923 0.157205358147621210296307481258 -0.067025862634181976318359375000 -0.003213467076420783996582031250 0.003129539312794805006739951025 0 0 0 0 
2416500000.0000000000 0.156995862722396906097088731258 -0.068369217216968536376953125000 -0.002790978644043207168579101562 0.003029916668310761885402060400 0 0 0 0 
2416666666.6666665077 0.156745225191116305252236884371 -0.069751344621181488037109375000 -0.002853172365576028823852539062 0.003190848743543028831481933594 0 0 0 0 
2416833333.3333334923 0.156696408987045288085937500000 -0.071209527552127838134765625000 -0.002627227222546935081481933594 0.003142687026411294937133789062 0 0 0 0 
2417000000.0000000000 0.156342610716819790939169365629 -0.072653368115425109863281250000 -0.002273202408105134963989257812 0.003370838938280940055847167969 0 0 0 0 
2417166666.6666665077 0.156152144074440002441406250000 -0.073681607842445373535156250000 -0.002250505145639181137084960938 0.003237338503822683854344033350 0 0 0 0 
2417333333.3333334923 0.156130403280258206466513115629 -0.074843272566795349121093750000 -0.002146734390407801108119345557 0.003160800319164990945103310693 0 0 0 0 
2417500000.0000000000 0.155923232436180086990518134371 -0.076155155897140502929687500000 -0.001855193055234850103493715601 0.003218560013920069174525595557 0 0 0 0 
2417666666.6666665077 0.155985325574874905685263115629 -0.076980397105216979980468750000 -0.001786972396075725989100790869 0.003171207848936318917515420068 0 0 0 0 
2417833333.3333334923 0.155862256884574890136718750000 -0.078082852065563201904296875000 -0.001744902692735194943071674878 0.003249513683840632004978798975 0 0 0 0 
2418000000.0000000000 0.155722752213478088378906250000 -0.079178579151630401611328125000 -0.001566452439874411062953329932 0.003334663109853864149806357275 0 0 0 0 
2418166666.6666665077 0.155764520168304387848223768742 -0.079891353845596313476562500000 -0.001567843719385563893559121240 0.003295631380751729011535644531 0 0 0 0 
2418333333.3333334923 0.155917048454284695724325615629 -0.080684781074523925781250000000 -0.001541765173897146961809467847 0.003354942658916116194484091650 0 0 0 0 
2418500000.0000000000 0.155728504061698913574218750000 -0.081507615745067596435546875000 -0.001425174763426185087916708838 0.003258738201111555099487304688 0 0 0 0 
2418666666.6666665077 0.155726954340934808929119981258 -0.082345955073833465576171875000 -0.001484474982134998061536479419 0.003387324744835495948791503906 0 0 0 0 
2418833333.3333334923 0.155435532331466702560263115629 -0.083029367029666900634765625000 -0.001201691688038408973096538013 0.003524221712723373933079384912 0 0 0 0 
2419000000.0000000000 0.155354157090187100509481865629 -0.083596877753734588623046875000 -0.001238688477315009073970175635 0.003408877877518535094020224463 0 0 0 0 
2419166666.6666665077 0.155321881175041198730468750000 -0.084234029054641723632812500000 -0.001066264230757951953290629810 0.003486722242087126211879111182 0 0 0 0 
2419333333.3333334923 0.154930308461189297775106865629 -0.084562137722969055175781250000 -0.000951796246226876974105834961 0.003565842984244226975681923975 0 0 0 0 
2419500000.0000000000 0.154942184686660794357138115629 -0.085314430296421051025390625000 -0.000922833976801484823226928711 0.003535673022270203070399618994 0 0 0 0 
2419666666.6666665077 0.154877588152885409256143134371 -0.085657984018325805664062500000 -0.000768259109463542699813842773 0.003636148292571305794956826318 0 0 0 0 
2419833333.3333334923 0.154550552368164090255575615629 -0.085920602083206176757812500000 -0.000597110134549438953399658203 0.003687474178150296211242675781 0 0 0 0 
