# Hz S RI R 50
2400000000.0000000000 0.168484061956405611892861884371 0.040672894567251212383229841407 0.002791034057736396789550781250 0.000186913239303976297378540039 0 0 0 0 
2400166666.6666665077 0.169273838400840787032919365629 0.039963580667972571636159528907 0.002582866232842206954956054688 0.000115505819849204299136838370 0 0 0 0 
2400333333.3333334923 0.169582992792129488845986884371 0.038965575397014617919921875000 0.002664320403710008101222372900 0.000034683685953496017236302035 0 0 0 0 
2400500000.0000000000 0.170397579669952392578125000000 0.038129352033138282085378278907 0.002708519576117395920994423975 -0.000059995763876941061835696561 0 0 0 0 
2400666666.6666665077 0.170841351151466397384481865629 0.037291426211595542217214216407 0.002666333923116325898411416162 -0.000045228163799038156867027283 0 0 0 0 
2400833333.3333334923 0.171241685748100308517294365629 0.036664206534624099731445312500 0.002939773956313728852512978662 -0.000189340018550865406363886700 0 0 0 0 
2401000000.0000000000 0.171643763780593899825888115629 0.035714063793420791625976562500 0.002620020182803273200988769531 -0.000321317231282591819763183594 0 0 0 0 
2401166666.6666665077 0.171781912446022005935830634371 0.034855354577302932739257812500 0.002720916178077458901646279443 -0.000455764238722622394561767578 0 0 0 0 
2401333333.3333334923 0.171945244073867797851562500000 0.034074973315000527118723283593 0.002702401718124746842625283350 -0.000426174636231735402911585675 0 0 0 0 
2401500000.0000000000 0.172520279884338406661825615629 0.033465795218944549560546875000 0.002633140888065100149867392432 -0.000831142126116901636123657227 0 0 0 0 
2401666666.6666665077 0.172629565000534113128338731258 0.032807558774948120117187500000 0.002668098779395223097560263525 -0.000950151646975427865982055664 0 0 0 0 
2401833333.3333334923 0.172861576080322293380575615629 0.031886760145425803447682966407 0.002532201120629907088038779150 -0.000970904540736228227615356445 0 0 0 0 
2402000000.0000000000 0.172538101673126192947549384371 0.031087892130017280578613281250 0.002449630061164497895481728662 -0.001007345621474087021471333081 0 0 0 0 
2402166666.6666665077 0.172659188508987399002236884371 0.030182823538780208932896798046 0.002416749019175767898559570312 -0.001150664757005869908573769678 0 0 0 0 
2402333333.3333334923 0.172767117619514493087606865629 0.029307376593351360666295235546 0.002486138371750711961033486475 -0.001073405030183494091033935547 0 0 0 0 
2402500000.0000000000 0.172804221510887201507244981258 0.028480770066380500793457031250 0.002324359025806189017054892432 -0.001091009587980807044385600513 0 0 0 0 
2402666666.6666665077 0.172781884670257596114950615629 0.027672905474901199340820312500 0.002160738455131649971008300781 -0.001341293565928936004638671875 0 0 0 0 
2402833333.3333334923 0.172632634639739990234375000000 0.026619112119078639638880545704 0.002122685313224792914149618994 -0.001393341575749218897578574072 0 0 0 0 
2403000000.0000000000 0.172646850347518893142861884371 0.025730507448315620422363281250 0.002118497155606747107264853369 -0.001354078180156647942186665112 0 0 0 0 
2403166666.6666665077 0.172452151775360107421875000000 0.024588443338870998727818673046 0.002181568648666142983677529443 -0.001409437973052263043047260815 0 0 0 0 
2403333333.3333334923 0.172276332974433898925781250000 0.023675242438912391662597656250 0.002061571227386593818664550781 -0.001446599839255213954328227466 0 0 0 0 
2403500000.0000000000 0.172104746103286687652911268742 0.022474238649010661733607108204 0.001888679340481757900835346753 -0.001369299832731484933140420068 0 0 0 0 
2403666666.6666665077 0.172057196497917203048544365629 0.021267436444759368896484375000 0.001954059116542338891270302881 -0.001510738627985120036481547778 0 0 0 0 
2403833333.3333334923 0.171815812587738009353799384371 0.020087428390979770315150076954 0.001900680130347609953639365088 -0.001528171123936771912815713037 0 0 0 0 
2404000000.0000000000 0.171589687466621398925781250000 0.018879070878028869628906250000 0.001737460261210799000383686597 -0.001420850516296922943712544019 0 0 0 0 
2404166666.6666665077 0.171256363391876192947549384371 0.017521765083074569702148437500 0.001705787144601345062255859375 -0.001499862759374082088470458984 0 0 0 0 
2404333333.3333334923 0.171177983283996609786825615629 0.016262188553810119628906250000 0.001715344609692692973493266528 -0.001459440682083368084551167065 0 0 0 0 
2404500000.0000000000 0.170818731188774108886718750000 0.014736175537109380204170427930 0.001664138864725827953935932690 -0.001332768588326870961430214990 0 0 0 0 
2404666666.6666665077 0.170792445540428189376669365629 0.013503588736057279759417149023 0.001689762459136546091792441260 -0.001620170543901622078539204175 0 0 0 0 
2404833333.3333334923 0.170645907521247891525106865629 0.011979317292571069544782069727 0.001751883188262582042096782153 -0.001491619157604872963548969800 0 0 0 0 
2405000000.0000000000 0.170449882745742797851562500000 0.010548598133027550088902657421 0.001694518374279140992405556787 -0.001464333967305720069287944263 0 0 0 0 
2405166666.6666665077 0.170258715748786898513955634371 0.008869373239576816558837890625 0.001710691838525236086604452979 -0.001697837025858462073682475513 0 0 0 0 
2405333333.3333334923 0.170322164893150301834268134371 0.007126456592231988906860351562 0.001746770460158586935756064307 -0.001585742924362421035766601562 0 0 0 0 
2405500000.0000000000 0.170148074626922607421875000000 0.005665414500981569290161132812 0.001831563655287026925327920068 -0.001439007115550339005113911206 0 0 0 0 
2405666666.6666665077 0.170088365674018887618856865629 0.003978507593274117383475019238 0.001930421451106667952296591650 -0.001735710538923739953282021631 0 0 0 0 
2405833333.3333334923 0.169670462608337402343750000000 0.002255442319437861008885048975 0.001855292008258401913883828271 -0.001810703077353537082672119141 0 0 0 0 
2406000000.0000000000 0.169751927256584195236044365629 0.000645734020508825778961181641 0.001858146046288311915156699072 -0.001858012750744820074794150244 0 0 0 0 
2406166666.6666665077 0.169336080551147488693075615629 -0.000911680515855550765991210938 0.001843419857323169925092387622 -0.002045438392087817192077636719 0 0 0 0 
2406333333.3333334923 0.169439539313316400725994981258 -0.002853933721780776977539062500 0.001967665739357471899745322119 -0.002174943918362259864807128906 0 0 0 0 
2406500000.0000000000 0.169062525033950805664062500000 -0.004455412272363901138305664062 0.001907898229546844959259033203 -0.002195569686591625213623046875 0 0 0 0 
2406666666.6666665077 0.168910488486290005782919365629 -0.005959107074886559572701738574 0.001814777380786835930467915112 -0.002267925767228006882908486475 0 0 0 0 
2406833333.3333334923 0.168794006109237698654013115629 -0.007652291096746922406668378613 0.001842153957113624052760458838 -0.002399475779384375052211142432 0 0 0 0 
2407000000.0000000000 0.168536260724067687988281250000 -0.009140772745013236999511718750 0.001738107297569513104082417065 -0.002713763155043125152587890625 0 0 0 0 
2407166666.6666665077 0.168493524193763705154580634371 -0.010531561449170109140416329296 0.001610979787074029011967324365 -0.002806626493111252784729003906 0 0 0 0 
2407333333.3333334923 0.168312191963195800781250000000 -0.012217641808092590677281563671 0.001710433396510780074475932544 -0.002949073677882552146911621094 0 0 0 0 
2407500000.0000000000 0.168109148740768404861611884371 -0.013351446948945520573626133398 0.001423765788786113045336079175 -0.002936090808361769156215048682 0 0 0 0 
2407666666.6666665077 0.168050542473793002029580634371 -0.014690454117953780782679373829 0.001403792644850909926770854419 -0.003109666518867015838623046875 0 0 0 0 
2407833333.3333334923 0.167776912450790405273437500000 -0.016064085066318508493443673046 0.001237387768924236080766987378 -0.003203997155651450157165527344 0 0 0 0 
2408000000.0000000000 0.167908981442451504806356865629 -0.017236294224858280527135079296 0.001146794413216412067413330078 -0.003289756830781697793247841943 0 0 0 0 
2408166666.6666665077 0.167982965707778902908486884371 -0.018143130466341968881627266796 0.000883298867847770452499389648 -0.003405908588320016860961914062 0 0 0 0 
2408333333.3333334923 0.168120041489601107498330634371 -0.019303467124700549734095389454 0.001061043003574013926862407153 -0.003552860813215374946594238281 0 0 0 0 
2408500000.0000000000 0.168047502636909512618856865629 -0.020425591617822650564173514454 0.000724290206562727689743041992 -0.003586956299841403961181640625 0 0 0 0 
2408666666.6666665077 0.168307349085807800292968750000 -0.021352611482143398630162423046 0.000510858604684472084045410156 -0.003840883029624820189235068213 0 0 0 0 
2408833333.3333334923 0.168441712856292696853799384371 -0.022250797599554058420201485546 0.000424682715674862319796961652 -0.003871083026751875877380371094 0 0 0 0 
2409000000.0000000000 0.168519541621208190917968750000 -0.023087747395038611675222028907 0.000218316097743809196069994516 -0.003878573421388864950892783057 0 0 0 0 
2409166666.6666665077 0.168783724308013888260049384371 -0.023933351039886481548268903907 -0.000035240598663222051482608183 -0.003961204551160336408133222363 0 0 0 0 
2409333333.3333334923 0.169190481305122403243856865629 -0.024931767955422401428222656250 -0.000320141785778105313151759015 -0.004061046987771987915039062500 0 0 0 0 
2409500000.0000000000 0.169270157814025906661825615629 -0.026028307154774669301966483204 -0.000454642024124041199684143066 -0.003968927543610334396362304688 0 0 0 0 
2409666666.6666665077 0.169583931565284701248330634371 -0.026759272441267970693568045704 -0.000608026166446506977081298828 -0.004098026081919670104980468750 0 0 0 0 
2409833333.3333334923 0.169677540659904507736044365629 -0.027765177190303799020787423046 -0.000920622725971043109893798828 -0.004023757763206958770751953125 0 0 0 0 
2410000000.0000000000 0.169936418533325195312500000000 -0.028598163276910778390904610546 -0.001109395409002899906755756909 -0.003951329272240400314331054688 0 0 0 0 
2410166666.6666665077 0.170206293463706997970419365629 -0.029579484835267070425013358204 -0.001430592034012079022051167065 -0.004018671810626983642578125000 0 0 0 0 
2410333333.3333334923 0.170284911990165710449218750000 -0.030564201995730400085449218750 -0.001662957132793962955474853516 -0.003871675347909330888035439600 0 0 0 0 
2410500000.0000000000 0.170472502708435086349325615629 -0.031241804361343380319615548046 -0.001910524908453226089477539062 -0.003817871678620576858520507812 0 0 0 0 
2410666666.6666665077 0.170345440506935091873330634371 -0.032285228371620178222656250000 -0.002371445298194884820225381006 -0.003645197255536913871765136719 0 0 0 0 
2410833333.3333334923 0.170342132449150113204794365629 -0.032950330525636672973632812500 -0.002343307249248027801513671875 -0.003316151443868875937220908057 0 0 0 0 
2411000000.0000000000 0.170236483216285705566406250000 -0.033748958259820938110351562500 -0.002549865283071995215175009619 -0.003438141662627459006068564307 0 0 0 0 
2411166666.6666665077 0.170241147279739407638388115629 -0.034725576639175421977956403907 -0.002726913196966052055358886719 -0.003150918520987033843994140625 0 0 0 0 
2411333333.3333334923 0.170081973075866699218750000000 -0.035503916442394256591796875000 -0.002944912295788526968715048682 -0.002812098711729050116298056494 0 0 0 0 
2411500000.0000000000 0.169854164123535211761151231258 -0.036341171711683273315429687500 -0.003042150754481554031372070312 -0.002630037022754549980163574219 0 0 0 0 
2411666666.6666665077 0.169736906886100796798544365629 -0.037172019481658942485768903907 -0.003102226182818413214442587744 -0.002476715249940752983093261719 0 0 0 0 
2411833333.3333334923 0.169532194733619689941406250000 -0.037760008126497268676757812500 -0.003127170028164982795715332031 -0.002186267636716365814208984375 0 0 0 0 
2412000000.0000000000 0.169280484318733187576455634371 -0.038610246032476432109792341407 -0.003273836337029933929443359375 -0.002054687822237610816955566406 0 0 0 0 
2412166666.6666665077 0.168942958116531399825888115629 -0.039469491690397262573242187500 -0.003149463795125484900233603369 -0.001663184841163456006291054834 0 0 0 0 
2412333333.3333334923 0.168945223093032809158486884371 -0.040229871869087219238281250000 -0.003197671612724661827087402344 -0.001513408147729933045030903394 0 0 0 0 
2412500000.0000000000 0.168316483497619601150674384371 -0.041229259222745902324636091407 -0.003299251431599258942845009912 -0.001319891773164272091509174878 0 0 0 0 
2412666666.6666665077 0.167828246951103210449218750000 -0.041994068771600723266601562500 -0.003139826003462076187133789062 -0.001246878877282143072841025244 0 0 0 0 
2412833333.3333334923 0.167600825428962707519531250000 -0.042990110814571380615234375000 -0.003132843878120183944702148438 -0.000970049644820392131805419922 0 0 0 0 
2413000000.0000000000 0.167034640908241299728231865629 -0.043970357626676559448242187500 -0.002933321753516792817356728662 -0.000947420543525367975234985352 0 0 0 0 
2413166666.6666665077 0.166533976793289212325888115629 -0.044811572879552841186523437500 -0.002948526293039321899414062500 -0.000696990115102380514144897461 0 0 0 0 
2413333333.3333334923 0.165834978222847012618856865629 -0.045675493776798248291015625000 -0.002782986033707857131958007812 -0.000535603263415396213531494141 0 0 0 0 
2413500000.0000000000 0.165567755699157687088174384371 -0.046685181558132171630859375000 -0.002754241693764925003051757812 -0.000510410172864794731140136719 0 0 0 0 
2413666666.6666665077 0.165062710642814608474893134371 -0.047791894525289542461354841407 -0.002716101473197340965270996094 -0.000489560945425182580947875977 0 0 0 0 
2413833333.3333334923 0.164283350110053988357705634371 -0.048601619899272918701171875000 -0.002685887040570377869846963037 -0.000346284505212679505348205566 0 0 0 0 
2414000000.0000000000 0.163764879107475308517294365629 -0.049556892365217208862304687500 -0.002678211079910397963282919775 -0.000422433950006961822509765625 0 0 0 0 
2414166666.6666665077 0.163404762744903592208700615629 -0.050320144742727279663085937500 -0.002633750205859541893005371094 -0.000285858346614986712306422101 0 0 0 0 
2414333333.3333334923 0.162901312112808199783486884371 -0.051322109997272491455078125000 -0.002487081335857511000392294775 -0.000297743448754772489697056903 0 0 0 0 
2414500000.0000000000 0.162593007087707491775674384371 -0.052185345441102981567382812500 -0.002296007471159100966212607275 -0.000055582931963726878166198730 0 0 0 0 
2414666666.6666665077 0.162135675549507113357705634371 -0.053147807717323303222656250000 -0.002335530007258058027980185400 -0.000075694457336794584989547729 0 0 0 0 
2414833333.3333334923 0.161684915423393305022869981258 -0.054323956370353698730468750000 -0.002300662919878960089442587744 -0.000148501145304180708810529166 0 0 0 0 
2415000000.0000000000 0.161423221230506896972656250000 -0.055211789906024932861328125000 -0.002272844780236483053920126807 -0.000018469321730663068592548370 0 0 0 0 
2415166666.6666665077 0.161098167300224304199218750000 -0.056362606585025787353515625000 -0.002273370046168566183802939307 0.000097898147942032665014266968 0 0 0 0 
2415333333.3333334923 0.160975158214569091796875000000 -0.057525377720594413066823591407 -0.002311878604814410209655761719 0.000213692372199147912576952524 0 0 0 0 
2415500000.0000000000 0.160638421773910494705361884371 -0.058593545109033591533620466407 -0.002139255171641706986668252100 0.000334392592776566689640599384 0 0 0 0 
2415666666.6666665077 0.160402402281761197189169365629 -0.059779435396194458007812500000 -0.002103105653077363967895507812 0.000223766750423237708493909293 0 0 0 0 
2415833333.3333334923 0.160212114453315707107705634371 -0.061321783810853958129882812500 -0.001905166078358889059779501807 0.000462917116237804293632507324 0 0 0 0 
2416000000.0000000000 0.159756749868392888824786268742 -0.062510482966899871826171875000 -0.001845760270953177972080849756 0.000455257046269252896308898926 0 0 0 0 
2416166666.6666665077 0.159665361046791104415731865629 -0.063813127577304840087890625000 -0.001899175229482352950452495044 0.000308870949083939194679260254 0 0 0 0 
2416333333.3333334923 0.159317180514335604568643134371 -0.065057560801506042480468750000 -0.001711165299639106013654399341 0.000358075107214972376823425293 0 0 0 0 
2416500000.0000000000 0.158980697393417386154013115629 -0.066351220011711120605468750000 -0.001649030949920416095136332935 0.000166663186973892206519526349 0 0 0 0 
2416666666.6666665077 0.158530995249748202224893134371 -0.067510358989238739013671875000 -0.001518878620117902972577739185 0.000212548329727724194526672363 0 0 0 0 
2416833333.3333334923 0.158327683806419400314169365629 -0.068982854485511779785156250000 -0.001396195730194448991062783350 0.000051156606787117198109626770 0 0 0 0 
2417000000.0000000000 0.157852515578269986251669365629 -0.070217259228229522705078125000 -0.001501516322605312087415385669 0.000031947343813953921198844910 0 0 0 0 
2417166666.6666665077 0.157552093267440795898437500000 -0.071339517831802368164062500000 -0.001427170005626976923701620947 -0.000009160338777292054146528244 0 0 0 0 
2417333333.3333334923 0.157244637608528109451455634371 -0.072459846735000610351562500000 -0.001447796123102307102800678784 0.000041629278712207451462745667 0 0 0 0 
2417500000.0000000000 0.156885042786598205566406250000 -0.073676012456417083740234375000 -0.001560554141178726933122944409 0.000040764418372418731451034546 0 0 0 0 
2417666666.6666665077 0.156756445765495300292968750000 -0.074535362422466278076171875000 -0.001752667711116373972651816260 -0.000110340770334005396492542406 0 0 0 0 
2417833333.3333334923 0.156328573822975186446981865629 -0.075400628149509429931640625000 -0.001781344180926680998561240088 -0.000196861437871120897218427115 0 0 0 0 
2418000000.0000000000 0.156097456812858609298544365629 -0.076601110398769378662109375000 -0.001860515098087490038630820166 -0.000252128491410985589027404785 0 0 0 0 
2418166666.6666665077 0.155763834714889498611611884371 -0.077385656535625457763671875000 -0.001942981849424540996551513672 -0.000289943942334502881199437274 0 0 0 0 
2418333333.3333334923 0.155869975686073303222656250000 -0.078268773853778839111328125000 -0.002090691821649671034571982275 -0.000349137262674048488766270770 0 0 0 0 
2418500000.0000000000 0.155557960271835299392861884371 -0.079293206334114074707031250000 -0.002279686974361538887023925781 -0.000239923931076191392823895865 0 0 0 0 
2418666666.6666665077 0.155483841896057101150674384371 -0.080241985619068145751953125000 -0.002486466430127621130702353369 -0.000195871689356863498687744141 0 0 0 0 
2418833333.3333334923 0.155143335461616488357705634371 -0.080984301865100860595703125000 -0.002515378408133984045741415869 -0.000241904810536652803421020508 0 0 0 0 
2419000000.0000000000 0.154840171337127713302450615629 -0.081804238259792327880859375000 -0.002592772943899035887477255713 -0.000173583102878183099344530649 0 0 0 0 
2419166666.6666665077 0.154545918107032803634481865629 -0.082609824836254119873046875000 -0.002645078580826520919799804688 0.000009885821782518178224563599 0 0 0 0 
2419333333.3333334923 0.154240369796752901931924384371 -0.083192393183708190917968750000 -0.002851355122402309937718056787 0.000101588004326913505792617798 0 0 0 0 
2419500000.0000000000 0.154026046395301791092080634371 -0.083910100162029266357421875000 -0.003011563327163457870483398438 0.000116801973490510095231471877 0 0 0 0 
2419666666.6666665077 0.154045790433883694747763115629 -0.084671109914779663085937500000 -0.003191911149770021004917763818 0.000355464959284290725558680402 0 0 0 0 
2419833333.3333334923 0.153564527630805996993856865629 -0.085175253450870513916015625000 -0.003318856004625558853149414062 0.000540828332304954528808593750 0 0 0 0 
