# Hz S RI R 
2400000000.0000000000 0.167541235685348510742187500000 0.041199315339326858520507812500 0.004244145937263965606689453125 0.000235419443924911293104448862 0 0 0 0 
2400166666.6666665077 0.168237820267677307128906250000 0.040206238627433776855468750000 0.004298935178667306900024414062 0.000125978491269052001550951547 0 0 0 0 
2400333333.3333334923 0.168537408113479586502236884371 0.039337038993835449218750000000 0.004262188915163278579711914062 -0.000182469273568131002500811166 0 0 0 0 
2400500000.0000000000 0.169055074453353909591513115629 0.038365986198186867450754533593 0.004366303794085980329031659863 -0.000337294623022898977428990497 0 0 0 0 
2400666666.6666665077 0.169286251068115206619424384371 0.037597879767417907714843750000 0.004500936716794967651367187500 -0.000494056148454546928405761719 0 0 0 0 
2400833333.3333334923 0.169757068157195989410723768742 0.036750555038452148437500000000 0.004504037555307149887084960938 -0.000787611759733408689498901367 0 0 0 0 
2401000000.0000000000 0.170151382684707613845986884371 0.035904780030250549316406250000 0.004395289346575736999511718750 -0.000985017628408968448638916016 0 0 0 0 
2401166666.6666665077 0.170436605811119107345419365629 0.034898091107606887817382812500 0.004336501471698284149169921875 -0.001270430162549019076703715747 0 0 0 0 
2401333333.3333334923 0.170360192656517001053018134371 0.034033380448818206787109375000 0.004282403271645308408255292676 -0.001428760122507811026332236182 0 0 0 0 
2401500000.0000000000 0.170844554901123102386151231258 0.033140372484922409057617187500 0.004215079825371503829956054688 -0.001664211275056004957911826025 0 0 0 0 
2401666666.6666665077 0.171035453677177401443643134371 0.032434847205877297138254533593 0.003987348638474941253662109375 -0.001971924910321832136866904150 0 0 0 0 
2401833333.3333334923 0.170982569456100491622763115629 0.031471062451601028442382812500 0.003795181633904575867893838037 -0.002057938370853662924525595557 0 0 0 0 
2402000000.0000000000 0.170843169093131991287393134371 0.030529540032148361206054687500 0.003625773824751377105712890625 -0.002222761046141386032104492188 0 0 0 0 
2402166666.6666665077 0.170954182744026211837606865629 0.029434669762849811208704764454 0.003369818907231092886683798682 -0.002473329892382026152369833838 0 0 0 0 
2402333333.3333334923 0.171071901917457608321981865629 0.028583323583006858825683593750 0.003260740544646977944615029443 -0.002530447207391262054443359375 0 0 0 0 
2402500000.0000000000 0.171251907944679288009481865629 0.027531804516911510122278983204 0.003020686563104391098022460938 -0.002463241806253790855407714844 0 0 0 0 
2402666666.6666665077 0.171075016260147094726562500000 0.026653209701180461538294608204 0.002639724873006343841552734375 -0.002611264819279313087463378906 0 0 0 0 
2402833333.3333334923 0.171284362673759488204794365629 0.025559073314070701599121093750 0.002556712599471210999729775537 -0.002458981936797500090358115088 0 0 0 0 
2403000000.0000000000 0.171224758028984097579794365629 0.024493351578712459909459298046 0.002449766499921679930446005713 -0.002528570126742124991175986182 0 0 0 0 
2403166666.6666665077 0.171198785305023193359375000000 0.023605694994330409658411795704 0.002227544551715254783630371094 -0.002539002569392323927638388525 0 0 0 0 
2403333333.3333334923 0.171181023120880099197549384371 0.022424522787332541728932966407 0.002206090372055768966674804688 -0.002379663987085223197937011719 0 0 0 0 
2403500000.0000000000 0.171018481254577608963174384371 0.021161524578928950918177420704 0.001865729573182762102839804541 -0.002541272435337305068969726562 0 0 0 0 
2403666666.6666665077 0.170975416898727389236611884371 0.019781770184636119497278983204 0.001855717040598392920253134619 -0.002238755580037831826450966943 0 0 0 0 
2403833333.3333334923 0.170897275209426907638388115629 0.018599696457386020315150076954 0.002001772169023752212524414062 -0.002198813715949655012843466650 0 0 0 0 
2404000000.0000000000 0.170916736125945989410723768742 0.017350079491734511638600935157 0.001823849743232131004333496094 -0.002024315064772963957545615088 0 0 0 0 
2404166666.6666665077 0.170620277523994501311932481258 0.016021087765693671489675153907 0.001777422381564975001691508716 -0.002144346944987773895263671875 0 0 0 0 
2404333333.3333334923 0.170676529407501192947549384371 0.014819121919572349893590157421 0.002020373241975903944728232275 -0.001904893200844526074053120190 0 0 0 0 
2404500000.0000000000 0.170463740825653103927450615629 0.013341640122234819584856602148 0.001824773382395505905151367188 -0.001902958261780441024182963794 0 0 0 0 
2404666666.6666665077 0.170647457242011996170205634371 0.012054491788148880004882812500 0.001763523090630769946454692310 -0.001875630230642854950548481519 0 0 0 0 
2404833333.3333334923 0.170479372143745394607705634371 0.010599840432405470067034336523 0.001829059096053242900251079028 -0.001964717637747526168823242188 0 0 0 0 
2405000000.0000000000 0.170458793640136690994424384371 0.009048002772033214569091796875 0.001848897547461092905757285010 -0.001994642894715071158168173682 0 0 0 0 
2405166666.6666665077 0.170448899269104003906250000000 0.007690913043916225433349609375 0.001824340899474919059156108325 -0.002095382194966077804565429688 0 0 0 0 
2405333333.3333334923 0.170496270060539301116619981258 0.005929359700530766573434160449 0.001760422484949230930925678784 -0.002003435511142015890834189307 0 0 0 0 
2405500000.0000000000 0.170422583818435696700888115629 0.004509935155510902404785156250 0.001981342909857631163356161963 -0.002036026678979396820068359375 0 0 0 0 
2405666666.6666665077 0.170512095093727111816406250000 0.002899996470659970803501748193 0.001735300524160265922546386719 -0.001979182707145810127258300781 0 0 0 0 
2405833333.3333334923 0.170287162065506009200888115629 0.001480612903833389065386128003 0.001744964742101728916168212891 -0.001927595469169318892835307544 0 0 0 0 
2406000000.0000000000 0.170309603214263888260049384371 -0.000207866483833640786722460336 0.001698957290500403101082826929 -0.002088803332298994064331054688 0 0 0 0 
2406166666.6666665077 0.170060813426971407791299384371 -0.001675192150287329933763813550 0.001716100145131349997279501807 -0.002125525148585439162013388525 0 0 0 0 
2406333333.3333334923 0.170245662331581087967080634371 -0.003325343364849687056300497900 0.001690227654762566089630126953 -0.002254011575132607980015420068 0 0 0 0 
2406500000.0000000000 0.169959202408790588378906250000 -0.004944915883243083953857421875 0.001856143935583532073377299731 -0.002005717717111111120936728369 0 0 0 0 
2406666666.6666665077 0.169729739427566500564736884371 -0.006377664394676685333251953125 0.001866446575149893977521586841 -0.002122724894434214071986533057 0 0 0 0 
2406833333.3333334923 0.169621020555496188064736884371 -0.007953711785376071929931640625 0.001982346177101134820225381006 -0.002348352922126650810241699219 0 0 0 0 
2407000000.0000000000 0.169520810246467590332031250000 -0.009416705928742885589599609375 0.001990072894841433005092001807 -0.002437601564452052116394042969 0 0 0 0 
2407166666.6666665077 0.169423624873161288162393134371 -0.010613819584250450134277343750 0.001901936368085443973541259766 -0.002425289945676922798156738281 0 0 0 0 
2407333333.3333334923 0.169023782014846801757812500000 -0.012193059548735620326032069727 0.001870205043815075917484902490 -0.002574159298092126846313476562 0 0 0 0 
2407500000.0000000000 0.168978556990623501876669365629 -0.013371750712394709151298322070 0.001907629193738102912902832031 -0.002581510692834854125976562500 0 0 0 0 
2407666666.6666665077 0.168800532817840603927450615629 -0.014546002261340619868268397852 0.001868251361884176947950053638 -0.002763003110885620117187500000 0 0 0 0 
2407833333.3333334923 0.168471172451972989181356865629 -0.015741258859634399414062500000 0.001913355197757482962367392432 -0.002812125487253069877624511719 0 0 0 0 
2408000000.0000000000 0.168416678905487088302450615629 -0.016943117603659629821777343750 0.001702872803434730009791708838 -0.003008650150150061087367392432 0 0 0 0 
2408166666.6666665077 0.168227463960647610763388115629 -0.017792163416743278503417968750 0.001693040132522583007812500000 -0.003090674523264170126674033057 0 0 0 0 
2408333333.3333334923 0.168366804718971307952557481258 -0.018668474629521369934082031250 0.001596461166627705097198486328 -0.003307470586150885061976767432 0 0 0 0 
2408500000.0000000000 0.168094217777252197265625000000 -0.019698135554790500295618826954 0.001599753042683004899265908350 -0.003421578090637921853306435693 0 0 0 0 
2408666666.6666665077 0.168179020285606412032919365629 -0.020536351948976520193079764454 0.001610865234397351958631205981 -0.003393450984731317000148154150 0 0 0 0 
2408833333.3333334923 0.168206080794334411621093750000 -0.021399553865194320678710937500 0.001180669991299510002136230469 -0.003734986530616879896876669775 0 0 0 0 
2409000000.0000000000 0.168305218219757107833700615629 -0.022290293127298358571986014454 0.001040574163198471069335937500 -0.003767760004848241806030273438 0 0 0 0 
2409166666.6666665077 0.168259382247924804687500000000 -0.023063229396939281118372733204 0.000877614773344248533248901367 -0.003810946363955736160278320312 0 0 0 0 
2409333333.3333334923 0.168513044714927701095419365629 -0.023995820432901378976842110546 0.000733949127607047557830810547 -0.003842393169179559187648154150 0 0 0 0 
2409500000.0000000000 0.168625488877296503265057481258 -0.025101149454712871206263358204 0.000492133316583931446075439453 -0.003765177214518188996555947412 0 0 0 0 
2409666666.6666665077 0.168747901916503906250000000000 -0.025934964418411258352259451954 0.000349088833900168483883458270 -0.003729220246896148161647177588 0 0 0 0 
2409833333.3333334923 0.168814659118652288238848768742 -0.026693738996982570993443673046 0.000251671968726441318362635480 -0.003667768789455295042750693213 0 0 0 0 
2410000000.0000000000 0.168900936841964693924111884371 -0.027724903076887130737304687500 0.000180545961484313011169433594 -0.003764308290556073188781738281 0 0 0 0 
2410166666.6666665077 0.168962508440017700195312500000 -0.028389055281877521169642264454 -0.000033739044738467782735824585 -0.003699048887938261032104492188 0 0 0 0 
2410333333.3333334923 0.168996036052703912933026231258 -0.029406260699033740652064139454 -0.000067871194914914667606353760 -0.003719367319718002839329384912 0 0 0 0 
2410500000.0000000000 0.168934553861617986481036268742 -0.030244046822190291667897810157 -0.000098430966318119317293167114 -0.003573444671928883032557822119 0 0 0 0 
2410666666.6666665077 0.168760702013969393631143134371 -0.031336214393377297138254533593 -0.000142769102239981293678283691 -0.003496827092021704153773642432 0 0 0 0 
2410833333.3333334923 0.168842971324920709808026231258 -0.032160747796297073364257812500 -0.000208717901841737302854815073 -0.003522145561873912811279296875 0 0 0 0 
2411000000.0000000000 0.168689370155334500411825615629 -0.033127170056104660034179687500 -0.000256728613749146515696925031 -0.003525274107232689857482910156 0 0 0 0 
2411166666.6666665077 0.168386369943618802169638115629 -0.033989142626523971557617187500 -0.000208844357985071810797014780 -0.003419319633394480185267783057 0 0 0 0 
2411333333.3333334923 0.168371349573135403732138115629 -0.034852549433708190917968750000 -0.000457177753560244982868748798 -0.003546115709468721909763955225 0 0 0 0 
2411500000.0000000000 0.168073326349258395095986884371 -0.035974301397800452495534528907 -0.000476389628602191805839538574 -0.003584080608561635017395019531 0 0 0 0 
2411666666.6666665077 0.167858839035034207443075615629 -0.036666050553321838378906250000 -0.000437937473179772496223449707 -0.003606849350035191015956259619 0 0 0 0 
2411833333.3333334923 0.167627692222595187088174384371 -0.037569478154182427143137346093 -0.000571085663978010416030883789 -0.003670746460556983947753906250 0 0 0 0 
2412000000.0000000000 0.167537480592727688888388115629 -0.038686502724885940551757812500 -0.000536030740477144718170166016 -0.003597678150981665091273642432 0 0 0 0 
2412166666.6666665077 0.167145743966102600097656250000 -0.039691977202892303466796875000 -0.000595173332840204238891601562 -0.003841043682768940925598144531 0 0 0 0 
2412333333.3333334923 0.166951149702072088043536268742 -0.040533289313316352153737653907 -0.000833184167277067899703979492 -0.004026951268315315246582031250 0 0 0 0 
2412500000.0000000000 0.166420534253120394607705634371 -0.041413418948650360107421875000 -0.000971422472503036260604858398 -0.003969934768974781036376953125 0 0 0 0 
2412666666.6666665077 0.166318699717521695236044365629 -0.042755570262670516967773437500 -0.001051695668138564066645956885 -0.003928623627871274948120117188 0 0 0 0 
2412833333.3333334923 0.165992230176925686935263115629 -0.043545190244913101196289062500 -0.001238013850525021986720419775 -0.004197567701339721679687500000 0 0 0 0 
2413000000.0000000000 0.165422484278678894042968750000 -0.044461589306592941284179687500 -0.001479121507145463986637734521 -0.004240470007061958312988281250 0 0 0 0 
2413166666.6666665077 0.164992317557334899902343750000 -0.045630756765604019165039062500 -0.001759726786985992951634072412 -0.004030757583677768707275390625 0 0 0 0 
2413333333.3333334923 0.164525970816612188141192518742 -0.046586465090513229370117187500 -0.001878862385638057968736958081 -0.003961819224059581756591796875 0 0 0 0 
2413500000.0000000000 0.164212524890899713714276231258 -0.047657638788223266601562500000 -0.002073465147987008094787597656 -0.004115221090614795684814453125 0 0 0 0 
2413666666.6666665077 0.163775429129600497146768134371 -0.048859756439924240112304687500 -0.002344678854569793181178427588 -0.004046534653753042221069335938 0 0 0 0 
2413833333.3333334923 0.163226753473281888107138115629 -0.049673225730657577514648437500 -0.002533292397856711907627724756 -0.003824568819254637198207236182 0 0 0 0 
2414000000.0000000000 0.162835955619812011718750000000 -0.050809059292078018188476562500 -0.002774382708594202995300292969 -0.003725063055753707885742187500 0 0 0 0 
2414166666.6666665077 0.162502691149711608886718750000 -0.051661450415849692607839216407 -0.003082945244386792182922363281 -0.003449250012636185126063681494 0 0 0 0 
2414333333.3333334923 0.161938041448593111892861884371 -0.052684091031551361083984375000 -0.003207890549674630165100097656 -0.003442951245233416990992880713 0 0 0 0 
2414500000.0000000000 0.161876320838928194900674384371 -0.053578373044729232788085937500 -0.003322372213006020025966025244 -0.003217092249542475180384970557 0 0 0 0 
2414666666.6666665077 0.161570653319358797928018134371 -0.054631181061267852783203125000 -0.003341187955811620192286826025 -0.002820942783728241920471191406 0 0 0 0 
2414833333.3333334923 0.161123126745223999023437500000 -0.055651240050792687152902971093 -0.003566255094483495192286826025 -0.002836824860423802895786904443 0 0 0 0 
2415000000.0000000000 0.160900801420211791992187500000 -0.056611441075801849365234375000 -0.003707658965140581130981445312 -0.002639340469613670869114541162 0 0 0 0 
2415166666.6666665077 0.160811468958854703048544365629 -0.057790443301200866699218750000 -0.003536758013069630102870322119 -0.002467387123033403916599892725 0 0 0 0 
2415333333.3333334923 0.160713776946067810058593750000 -0.058810900896787643432617187500 -0.003529080422595142884495400537 -0.002218371257185935974121093750 0 0 0 0 
2415500000.0000000000 0.160512253642082186599893134371 -0.059989556670188896869699846093 -0.003577576717361807823181152344 -0.002133748261258006095886230469 0 0 0 0 
2415666666.6666665077 0.160328269004821805099325615629 -0.061051923781633377075195312500 -0.003546759020537137985229492188 -0.001999888801947236061096191406 0 0 0 0 
2415833333.3333334923 0.160218939185142489334268134371 -0.062351867556571960449218750000 -0.003607925260439515113830566406 -0.001832992653362452983856201172 0 0 0 0 
2416000000.0000000000 0.159904554486274691482705634371 -0.063398972153663635253906250000 -0.003754156641662120819091796875 -0.001856253948062658093096088940 0 0 0 0 
2416166666.6666665077 0.159829854965209988693075615629 -0.064571708440780639648437500000 -0.003605958074331284003016806494 -0.001643758383579551956774067456 0 0 0 0 
2416333333.3333334923 0.159630224108696011642294365629 -0.065694279968738555908203125000 -0.003547489410266280174255371094 -0.001430603559128940105438232422 0 0 0 0 
2416500000.0000000000 0.159379824995994595626669365629 -0.066946640610694885253906250000 -0.003476592944934964179992675781 -0.001350627862848341898677206885 0 0 0 0 
2416666666.6666665077 0.159104883670806912521200615629 -0.068105667829513549804687500000 -0.003638133872300385995152138818 -0.001311822910793126063105917822 0 0 0 0 
2416833333.3333334923 0.158858656883239801604901231258 -0.069400466978549957275390625000 -0.003679446643218398094177246094 -0.001129604759626090960261679541 0 0 0 0 
2417000000.0000000000 0.158328458666801508147869981258 -0.070472143590450286865234375000 -0.003547267755493522124049521338 -0.000980598386377096176147460938 0 0 0 0 
2417166666.6666665077 0.158174633979797391036825615629 -0.071377232670783996582031250000 -0.003564825048670173125026083838 -0.000707386760041117668151855469 0 0 0 0 
2417333333.3333334923 0.157753914594650296310263115629 -0.072298705577850341796875000000 -0.003733813995495439009425497900 -0.000755943008698523044586181641 0 0 0 0 
2417500000.0000000000 0.157430797815322903732138115629 -0.073421336710453033447265625000 -0.003624770324677228927612304688 -0.000587044516578316688537597656 0 0 0 0 
2417666666.6666665077 0.157108217477798489669638115629 -0.074264459311962127685546875000 -0.003633737564086914062500000000 -0.000516573432832956314086914062 0 0 0 0 
2417833333.3333334923 0.156869813799858093261718750000 -0.075203515589237213134765625000 -0.003551374888047575950622558594 -0.000363468949217349290847778320 0 0 0 0 
2418000000.0000000000 0.156423509120941189864950615629 -0.076119408011436462402343750000 -0.003499769372865558104274130713 -0.000227682903641834909289759503 0 0 0 0 
2418166666.6666665077 0.156106606125831604003906250000 -0.076684385538101196289062500000 -0.003567465115338563919067382812 -0.000166946600074879798010149545 0 0 0 0 
2418333333.3333334923 0.156030416488647488693075615629 -0.077588446438312530517578125000 -0.003304770682007073922398232568 -0.000025337718398077410051618882 0 0 0 0 
2418500000.0000000000 0.155709996819496210296307481258 -0.078505516052246093750000000000 -0.003244890132918953895568847656 -0.000027718941055354658851419755 0 0 0 0 
2418666666.6666665077 0.155472934246063204666299384371 -0.079177305102348327636718750000 -0.003228378947824240164515829932 0.000091724723461084067821502686 0 0 0 0 
2418833333.3333334923 0.154998362064361600021200615629 -0.079943075776100158691406250000 -0.003150542732328176932093954932 0.000067441775172483175992965698 0 0 0 0 
2419000000.0000000000 0.154590174555778503417968750000 -0.080572687089443206787109375000 -0.003042693715542554855346679688 0.000109998974949121502324780875 0 0 0 0 
2419166666.6666665077 0.154160127043724087814169365629 -0.081339024007320404052734375000 -0.003156414255499840216395712744 0.000056600641983095563273837431 0 0 0 0 
2419333333.3333334923 0.153904944658279391189736884371 -0.081699095666408538818359375000 -0.002963535720482469038722372900 0.000110708468127995702341356821 0 0 0 0 
2419500000.0000000000 0.153393343091011102874432481258 -0.082560651004314422607421875000 -0.003147384151816368103027343750 -0.000028535212550195868721212081 0 0 0 0 
2419666666.6666665077 0.153076648712158203125000000000 -0.083107367157936096191406250000 -0.003174907993525267081019736182 0.000016632873666821978986263275 0 0 0 0 
2419833333.3333334923 0.152622371912002591232138115629 -0.083575092256069183349609375000 -0.003158578416332602934596396338 0.000070847236202098429203033447 0 0 0 0 
