# Version 1.00
#
freq[Hz];re:Trc1_S11;im:Trc1_S11;re:Trc2_S21;im:Trc2_S21;
2.400000000000000E+009;1.550499945878983E-001;1.087515726685524E-001;-2.027229638770223E-003;-3.205260261893272E-003;
2.400166666666667E+009;1.548240035772324E-001;1.064329221844673E-001;-2.331292256712914E-003;-2.957335440441966E-003;
2.400333333333334E+009;1.547563970088959E-001;1.039510518312454E-001;-2.464749151840806E-003;-2.940490609034896E-003;
2.400500000000000E+009;1.545439511537552E-001;1.013350114226341E-001;-2.673759590834379E-003;-2.956629265099764E-003;
2.400666666666667E+009;1.546214222908020E-001;9.881190210580826E-002;-2.948738634586334E-003;-2.672164002433419E-003;
2.400833333333334E+009;1.546065509319305E-001;9.592518210411072E-002;-3.067147685214877E-003;-2.521204994991422E-003;
2.401000000000000E+009;1.548080891370773E-001;9.298324584960938E-002;-3.058666363358498E-003;-2.323117805644870E-003;
2.401166666666667E+009;1.547023206949234E-001;9.028732776641846E-002;-3.032851032912731E-003;-2.065010368824005E-003;
2.401333333333334E+009;1.551079005002976E-001;8.735106885433197E-002;-3.185819601640105E-003;-1.801567967049778E-003;
2.401500000000000E+009;1.553405821323395E-001;8.440016955137253E-002;-3.098497167229652E-003;-1.804186613298953E-003;
2.401666666666667E+009;1.557693928480148E-001;8.152189105749130E-002;-3.149466821923852E-003;-1.645814394578338E-003;
2.401833333333334E+009;1.561640352010727E-001;7.880155742168427E-002;-3.265967126935720E-003;-1.593613065779209E-003;
2.402000000000000E+009;1.572003364562988E-001;7.586167007684708E-002;-3.308624261990190E-003;-1.394146354869008E-003;
2.402166666666667E+009;1.578463166952133E-001;7.331483066082001E-002;-3.393128747120500E-003;-1.407305127941072E-003;
2.402333333333334E+009;1.588405221700668E-001;7.060888409614563E-002;-3.397187450900674E-003;-1.283790334127843E-003;
2.402500000000000E+009;1.600225269794464E-001;6.785728037357330E-002;-3.359242342412472E-003;-1.184084918349981E-003;
2.402666666666667E+009;1.608965843915939E-001;6.559360027313232E-002;-3.477169433608651E-003;-1.164317713119090E-003;
2.402833333333334E+009;1.624319851398468E-001;6.285678595304489E-002;-3.494376316666603E-003;-9.095505811274052E-004;
2.403000000000000E+009;1.636899113655090E-001;6.052501127123833E-002;-3.602983197197318E-003;-9.484042529948056E-004;
2.403166666666667E+009;1.655985116958618E-001;5.835774168372154E-002;-3.675490152090788E-003;-7.868108223192394E-004;
2.403333333333334E+009;1.670261919498444E-001;5.605566501617432E-002;-3.787193680182099E-003;-3.341449191793799E-004;
2.403500000000000E+009;1.688425093889237E-001;5.399755015969276E-002;-3.806495573371649E-003;-3.983164206147194E-004;
2.403666666666667E+009;1.706437170505524E-001;5.197337269783020E-002;-3.989261109381914E-003;-1.191777482745238E-004;
2.403833333333334E+009;1.723798215389252E-001;4.996186122298241E-002;-3.902956144884229E-003;1.845579245127738E-004;
2.404000000000000E+009;1.738010644912720E-001;4.823190346360207E-002;-3.891769330948591E-003;2.467118611093611E-004;
2.404166666666667E+009;1.756105422973633E-001;4.663743451237679E-002;-3.759152954444289E-003;4.866861272603273E-004;
2.404333333333334E+009;1.774636059999466E-001;4.504465311765671E-002;-3.660377347841859E-003;5.356299225240946E-004;
2.404500000000000E+009;1.791079789400101E-001;4.373347386717796E-002;-3.625691169872880E-003;9.185292874462903E-004;
2.404666666666667E+009;1.809116750955582E-001;4.254384338855743E-002;-3.617242211475968E-003;1.164988731034100E-003;
2.404833333333334E+009;1.826196014881134E-001;4.138190299272537E-002;-3.324966412037611E-003;1.222320483066142E-003;
2.405000000000000E+009;1.839606612920761E-001;4.071252048015595E-002;-3.276322502642870E-003;1.269633532501757E-003;
2.405166666666667E+009;1.855673193931580E-001;3.996619954705238E-002;-3.116457723081112E-003;1.400686684064567E-003;
2.405333333333334E+009;1.869489848613739E-001;3.941636905074120E-002;-2.908069873228669E-003;1.596978167071939E-003;
2.405500000000000E+009;1.885780245065689E-001;3.914270922541618E-002;-2.896812744438648E-003;1.686062663793564E-003;
2.405666666666667E+009;1.898117065429688E-001;3.858141601085663E-002;-2.686792751774192E-003;1.797624980099499E-003;
2.405833333333334E+009;1.911376118659973E-001;3.836072608828545E-002;-2.467909827828407E-003;1.806778833270073E-003;
2.406000000000000E+009;1.922518908977509E-001;3.822344541549683E-002;-2.477559028193355E-003;1.998665975406766E-003;
2.406166666666667E+009;1.933282166719437E-001;3.807527199387550E-002;-2.188050653785467E-003;2.027775393798947E-003;
2.406333333333334E+009;1.942394673824310E-001;3.816655278205872E-002;-2.174698980525136E-003;2.050599083304405E-003;
2.406500000000000E+009;1.950969696044922E-001;3.838892653584480E-002;-1.912534353323281E-003;2.103471197187901E-003;
2.406666666666667E+009;1.958429664373398E-001;3.843569010496140E-002;-1.817609183490276E-003;2.018621191382408E-003;
2.406833333333334E+009;1.962554305791855E-001;3.859380260109901E-002;-1.699585118331015E-003;2.068697474896908E-003;
2.407000000000000E+009;1.966241002082825E-001;3.882413357496262E-002;-1.419979846104980E-003;1.877132803201675E-003;
2.407166666666667E+009;1.971415877342224E-001;3.882043436169624E-002;-1.328634098172188E-003;1.890719868242741E-003;
2.407333333333334E+009;1.970514953136444E-001;3.917659074068070E-002;-1.264528254978359E-003;1.936016953550279E-003;
2.407500000000000E+009;1.970549970865250E-001;3.944920375943184E-002;-1.180601306259632E-003;1.531363348476589E-003;
2.407666666666667E+009;1.972295492887497E-001;3.949036821722984E-002;-1.111287041567266E-003;1.576959388330579E-003;
2.407833333333334E+009;1.967123150825501E-001;3.948329016566277E-002;-1.123641850426793E-003;1.448402297683060E-003;
2.408000000000000E+009;1.965060532093048E-001;3.932232037186623E-002;-9.700151276774705E-004;1.532816560938954E-003;
2.408166666666667E+009;1.961752921342850E-001;3.916343674063683E-002;-1.017616363242269E-003;1.302032615058124E-003;
2.408333333333334E+009;1.957168430089951E-001;3.886078298091888E-002;-9.390600025653839E-004;1.104076742194593E-003;
2.408500000000000E+009;1.950252801179886E-001;3.861270472407341E-002;-1.006090431474149E-003;1.199258957058191E-003;
2.408666666666667E+009;1.943857520818710E-001;3.829091787338257E-002;-1.076034153811634E-003;8.882168331183493E-004;
2.408833333333334E+009;1.936166733503342E-001;3.770465776324272E-002;-1.071081031113863E-003;9.382595308125019E-004;
2.409000000000000E+009;1.926964223384857E-001;3.683022037148476E-002;-1.007225597277284E-003;8.649975061416626E-004;
2.409166666666667E+009;1.917548924684525E-001;3.595980629324913E-002;-1.024405006319284E-003;8.282386697828770E-004;
2.409333333333334E+009;1.908021122217178E-001;3.518601506948471E-002;-1.195678603835404E-003;8.256891742348671E-004;
2.409500000000000E+009;1.896310746669769E-001;3.393604978919029E-002;-1.348059857264161E-003;7.713777013123035E-004;
2.409666666666667E+009;1.886977255344391E-001;3.263879194855690E-002;-1.279453630559146E-003;7.706178585067391E-004;
2.409833333333334E+009;1.875280886888504E-001;3.109380230307579E-002;-1.342309755273163E-003;6.414881790988147E-004;
2.410000000000000E+009;1.866566985845566E-001;2.946238778531551E-002;-1.496507553383708E-003;8.330458658747375E-004;
2.410166666666667E+009;1.854568272829056E-001;2.777362987399101E-002;-1.645963988266885E-003;8.171889348886907E-004;
2.410333333333334E+009;1.844420880079269E-001;2.599241584539414E-002;-1.604469609446824E-003;9.399974951520562E-004;
2.410500000000000E+009;1.836240142583847E-001;2.418590523302555E-002;-1.746852882206440E-003;9.295438067056239E-004;
2.410666666666667E+009;1.825286000967026E-001;2.185494452714920E-002;-1.728662755340338E-003;7.720312569290400E-004;
2.410833333333334E+009;1.819256991147995E-001;1.974966935813427E-002;-1.795871648937464E-003;8.848659927025437E-004;
2.411000000000000E+009;1.811308860778809E-001;1.738565415143967E-002;-1.891294959932566E-003;8.714033756405115E-004;
2.411166666666667E+009;1.803448796272278E-001;1.529473438858986E-002;-1.740862964652479E-003;1.099774846807122E-003;
2.411333333333334E+009;1.798238605260849E-001;1.274023670703173E-002;-1.981409732252359E-003;1.195311197079718E-003;
2.411500000000000E+009;1.794242411851883E-001;1.039256900548935E-002;-1.877186703495681E-003;1.063073519617319E-003;
2.411666666666667E+009;1.793559491634369E-001;7.861747406423092E-003;-2.046341774985194E-003;1.113262842409313E-003;
2.411833333333334E+009;1.788916587829590E-001;5.726675037294626E-003;-2.063248539343476E-003;1.137423212639988E-003;
2.412000000000000E+009;1.790215820074081E-001;3.003696212545037E-003;-2.120500430464745E-003;1.325759105384350E-003;
2.412166666666667E+009;1.790958940982819E-001;4.854455473832786E-004;-2.136767841875553E-003;1.323254313319922E-003;
2.412333333333334E+009;1.793125271797180E-001;-2.103644190356135E-003;-2.176300855353475E-003;1.342717208899558E-003;
2.412500000000000E+009;1.797113269567490E-001;-4.592386074364185E-003;-2.410463290289044E-003;1.403052010573447E-003;
2.412666666666667E+009;1.802908480167389E-001;-7.210939191281796E-003;-2.300367690622807E-003;1.464050030335784E-003;
2.412833333333334E+009;1.808587014675140E-001;-9.597770869731903E-003;-2.528676763176918E-003;1.719637890346348E-003;
2.413000000000000E+009;1.818210035562515E-001;-1.208556536585093E-002;-2.410544082522392E-003;1.855368376709521E-003;
2.413166666666667E+009;1.826904416084290E-001;-1.443723682314158E-002;-2.394541399553418E-003;2.019313629716635E-003;
2.413333333333334E+009;1.836185157299042E-001;-1.675217971205711E-002;-2.666529966518283E-003;2.277594292536378E-003;
2.413500000000000E+009;1.844480335712433E-001;-1.906408928334713E-002;-2.625101013109088E-003;2.521489979699254E-003;
2.413666666666667E+009;1.856774091720581E-001;-2.137085795402527E-002;-2.581104170531035E-003;2.592434640973806E-003;
2.413833333333334E+009;1.868501454591751E-001;-2.357759512960911E-002;-2.544654300436378E-003;2.864180831238627E-003;
2.414000000000000E+009;1.879934221506119E-001;-2.557186223566532E-002;-2.489797538146377E-003;3.184765344485641E-003;
2.414166666666667E+009;1.893768459558487E-001;-2.749560400843620E-002;-2.459293231368065E-003;3.226447850465775E-003;
2.414333333333334E+009;1.906017065048218E-001;-2.951777726411820E-002;-2.140048658475280E-003;3.328389255329967E-003;
2.414500000000000E+009;1.918286979198456E-001;-3.108243644237518E-002;-2.097120042890310E-003;3.764692461118102E-003;
2.414666666666667E+009;1.932190805673599E-001;-3.251702338457108E-002;-1.883769640699029E-003;3.854643553495407E-003;
2.414833333333334E+009;1.943961828947067E-001;-3.403451293706894E-002;-1.829333486966789E-003;4.085985478013754E-003;
2.415000000000000E+009;1.956489086151123E-001;-3.552785888314247E-002;-1.596922287717462E-003;4.318279214203358E-003;
2.415166666666667E+009;1.970819085836411E-001;-3.664528205990791E-002;-1.391057507134974E-003;4.438183736056089E-003;
2.415333333333334E+009;1.981559395790100E-001;-3.758027404546738E-002;-1.039186958223581E-003;4.551063291728497E-003;
2.415500000000000E+009;1.993886381387711E-001;-3.837744519114494E-002;-9.421377326361835E-004;4.674986936151981E-003;
2.415666666666667E+009;2.005405575037003E-001;-3.931029886007309E-002;-8.007690194062889E-004;4.701260942965746E-003;
2.415833333333334E+009;2.014795541763306E-001;-3.989448025822640E-002;-5.022268742322922E-004;4.794349428266287E-003;
2.416000000000000E+009;2.023668140172958E-001;-4.051609709858894E-002;-1.451752759749070E-004;4.821742884814739E-003;
2.416166666666667E+009;2.031802982091904E-001;-4.102102667093277E-002;5.379351568990387E-005;4.810774698853493E-003;
2.416333333333334E+009;2.037514001131058E-001;-4.137789085507393E-002;2.959688135888428E-004;4.937180783599615E-003;
2.416500000000000E+009;2.043269574642181E-001;-4.166647791862488E-002;7.746083429083228E-004;5.032837856560946E-003;
2.416666666666667E+009;2.047568708658218E-001;-4.193367436528206E-002;9.229565621353686E-004;4.915665835142136E-003;
2.416833333333334E+009;2.049474418163300E-001;-4.196144640445709E-002;1.192823983728886E-003;4.766739904880524E-003;
2.417000000000000E+009;2.050256878137589E-001;-4.210654646158218E-002;1.571014523506165E-003;4.583362489938736E-003;
2.417166666666667E+009;2.048506587743759E-001;-4.197700694203377E-002;1.636746106669307E-003;4.601096734404564E-003;
2.417333333333334E+009;2.047197371721268E-001;-4.161435365676880E-002;1.766779692843556E-003;4.521913826465607E-003;
2.417500000000000E+009;2.044384330511093E-001;-4.183655232191086E-002;1.995892263948917E-003;4.486153833568096E-003;
2.417666666666667E+009;2.039702981710434E-001;-4.145820438861847E-002;2.220005262643099E-003;4.343527369201183E-003;
2.417833333333334E+009;2.035525888204575E-001;-4.120052233338356E-002;2.497853245586157E-003;4.246667958796024E-003;
2.418000000000000E+009;2.029836326837540E-001;-4.091725125908852E-002;2.606811234727502E-003;3.993196412920952E-003;
2.418166666666667E+009;2.020670175552368E-001;-4.088434949517250E-002;2.751002321019769E-003;3.827139968052506E-003;
2.418333333333334E+009;2.012179940938950E-001;-4.052717983722687E-002;2.800817135721445E-003;3.724666079506278E-003;
2.418500000000000E+009;2.002341151237488E-001;-4.057541117072105E-002;2.854797989130020E-003;3.709152340888977E-003;
2.418666666666667E+009;1.991317421197891E-001;-4.046506434679031E-002;3.010016633197665E-003;3.395729465410113E-003;
2.418833333333334E+009;1.978866457939148E-001;-4.053590074181557E-002;3.127994015812874E-003;3.408925374969840E-003;
2.419000000000000E+009;1.965168565511704E-001;-4.063123837113380E-002;3.264490980654955E-003;3.329853294417262E-003;
2.419166666666667E+009;1.951462179422379E-001;-4.079797863960266E-002;3.289003856480122E-003;3.083918476477265E-003;
2.419333333333334E+009;1.938040405511856E-001;-4.133503511548042E-002;3.528354456648231E-003;2.882077591493726E-003;
2.419500000000000E+009;1.921201497316361E-001;-4.170842841267586E-002;3.622609889134765E-003;2.752621890977025E-003;
2.419666666666667E+009;1.905341744422913E-001;-4.256000369787216E-002;3.569876542314887E-003;2.678932622075081E-003;
2.419833333333334E+009;1.888411790132523E-001;-4.316028952598572E-002;3.592730499804020E-003;2.375910757109523E-003;
2.420000000000000E+009;1.871267408132553E-001;-4.408990591764450E-002;3.726459806784987E-003;2.329427050426602E-003;
2.420166666666667E+009;1.854822784662247E-001;-4.502431303262711E-002;3.762065200135112E-003;2.208377700299025E-003;
2.420333333333334E+009;1.837909072637558E-001;-4.621914029121399E-002;3.762054955586791E-003;1.967472257092595E-003;
2.420500000000000E+009;1.819790005683899E-001;-4.742159694433212E-002;4.043902736157179E-003;1.730938092805445E-003;
2.420666666666667E+009;1.804244667291641E-001;-4.858665913343430E-002;3.865153295919299E-003;1.771948067471385E-003;
2.420833333333334E+009;1.787989884614945E-001;-5.019202083349228E-002;3.958630841225386E-003;1.448162249289453E-003;
2.421000000000000E+009;1.771206259727478E-001;-5.162733048200607E-002;3.970460034906864E-003;1.310158637352288E-003;
2.421166666666667E+009;1.756660193204880E-001;-5.338671430945396E-002;3.860373748466373E-003;1.257027848623693E-003;
2.421333333333334E+009;1.739324182271957E-001;-5.506293475627899E-002;3.859256859868765E-003;1.084495452232659E-003;
2.421500000000000E+009;1.726144850254059E-001;-5.710883438587189E-002;3.846948267892003E-003;9.201426873914897E-004;
2.421666666666667E+009;1.711397022008896E-001;-5.909611284732819E-002;3.756772493943572E-003;7.960405200719833E-004;
2.421833333333334E+009;1.700265109539032E-001;-6.084392592310906E-002;3.718630643561482E-003;5.996801191940904E-004;
2.422000000000000E+009;1.687856316566467E-001;-6.283542513847351E-002;3.696396481245756E-003;5.656849825754762E-004;
2.422166666666667E+009;1.680428236722946E-001;-6.528154760599136E-002;3.743196139112115E-003;3.557786694727838E-004;
2.422333333333334E+009;1.668973863124847E-001;-6.717897206544876E-002;3.682632232084870E-003;2.806842094287276E-004;
2.422500000000000E+009;1.661060303449631E-001;-6.932463496923447E-002;3.487220266833901E-003;1.297167473239824E-004;
2.422666666666667E+009;1.653313785791397E-001;-7.148259878158569E-002;3.553761634975672E-003;-2.716489689191803E-005;
2.422833333333334E+009;1.648596823215485E-001;-7.360995560884476E-002;3.385247662663460E-003;-1.356256416329416E-005;
2.423000000000000E+009;1.644429117441177E-001;-7.584583014249802E-002;3.335334593430162E-003;-1.644797885091975E-004;
2.423166666666667E+009;1.639738976955414E-001;-7.785430550575256E-002;3.364315023645759E-003;-1.808246597647667E-004;
2.423333333333334E+009;1.638784259557724E-001;-7.984847575426102E-002;3.012215951457620E-003;-3.172245342284441E-004;
2.423500000000000E+009;1.635704934597015E-001;-8.189184218645096E-002;3.122094552963972E-003;-2.014364872593433E-004;
2.423666666666667E+009;1.639073938131332E-001;-8.381388336420059E-002;3.238481702283025E-003;-3.407633339520544E-004;
2.423833333333334E+009;1.637777239084244E-001;-8.590131253004074E-002;3.095962340012193E-003;-2.750375424511731E-004;
2.424000000000000E+009;1.638353765010834E-001;-8.767405897378922E-002;3.033662680536509E-003;-4.026835667900741E-004;
2.424166666666667E+009;1.638727486133575E-001;-8.936627954244614E-002;2.945329761132598E-003;-3.927283687517047E-004;
2.424333333333334E+009;1.644046604633331E-001;-9.107724577188492E-002;3.008051309734583E-003;-3.148457035422325E-004;
2.424500000000000E+009;1.646772176027298E-001;-9.294133633375168E-002;2.941016573458910E-003;-5.253424751572311E-004;
2.424666666666667E+009;1.650479286909103E-001;-9.427808225154877E-002;2.968102460727096E-003;-4.371395625639707E-004;
2.424833333333334E+009;1.656945645809174E-001;-9.577220678329468E-002;2.930206246674061E-003;-4.718253330793232E-004;
2.425000000000000E+009;1.659795790910721E-001;-9.702570736408234E-002;3.076861612498760E-003;-5.270871333777905E-004;
2.425166666666667E+009;1.665035337209702E-001;-9.820905327796936E-002;3.049934282898903E-003;-5.228518857620657E-004;
2.425333333333334E+009;1.669546812772751E-001;-9.923105686903000E-002;2.919935388490558E-003;-7.740193395875394E-004;
2.425500000000000E+009;1.674781292676926E-001;-1.003288254141808E-001;2.995129907503724E-003;-6.102886400185525E-004;
2.425666666666667E+009;1.678669899702072E-001;-1.010177880525589E-001;2.929919166490436E-003;-7.343203178606927E-004;
2.425833333333334E+009;1.682603210210800E-001;-1.018716171383858E-001;3.059469629079104E-003;-8.586480398662388E-004;
2.426000000000000E+009;1.688510030508041E-001;-1.023786589503288E-001;2.999500837177038E-003;-7.783494656905532E-004;
2.426166666666667E+009;1.692576557397842E-001;-1.029111519455910E-001;3.026806982234120E-003;-7.970089209266007E-004;
2.426333333333334E+009;1.695816665887833E-001;-1.034250184893608E-001;2.990579931065440E-003;-9.274905896745622E-004;
2.426500000000000E+009;1.699714660644531E-001;-1.036417111754417E-001;2.895442536100745E-003;-9.931944077834487E-004;
2.426666666666667E+009;1.703609377145767E-001;-1.039344072341919E-001;2.988842781633139E-003;-1.037665060721338E-003;
2.426833333333334E+009;1.707903146743774E-001;-1.041720286011696E-001;3.035652684047818E-003;-1.261088182218373E-003;
2.427000000000000E+009;1.706890165805817E-001;-1.043373271822929E-001;2.930934773758054E-003;-1.251263660378754E-003;
2.427166666666667E+009;1.707609444856644E-001;-1.045089513063431E-001;3.028270322829485E-003;-1.512439688667655E-003;
2.427333333333334E+009;1.708322018384934E-001;-1.045445948839188E-001;2.894557313993573E-003;-1.462341402657330E-003;
2.427500000000000E+009;1.707089990377426E-001;-1.048023626208305E-001;3.028360428288579E-003;-1.435084850527346E-003;
2.427666666666667E+009;1.703902184963226E-001;-1.046625897288322E-001;2.922568935900927E-003;-1.578958937898278E-003;
2.427833333333334E+009;1.700867265462875E-001;-1.047738492488861E-001;2.848044503480196E-003;-1.623683725483716E-003;
