# Version 1.00
#
freq[Hz];re:Trc1_S11;im:Trc1_S11;re:Trc2_S21;im:Trc2_S21;
2.400000000000000E+009;1.549585908651352E-001;1.086671724915505E-001;-2.114575589075685E-003;-3.132879966869950E-003;
2.400166666666667E+009;1.547382324934006E-001;1.065393611788750E-001;-2.170551801100373E-003;-3.099974943324924E-003;
2.400333333333334E+009;1.548168212175369E-001;1.041958332061768E-001;-2.462564269080758E-003;-2.902404405176640E-003;
2.400500000000000E+009;1.545133888721466E-001;1.013402119278908E-001;-2.708486746996641E-003;-2.864892594516277E-003;
2.400666666666667E+009;1.546536982059479E-001;9.881365299224854E-002;-2.755563240498304E-003;-2.569109201431274E-003;
2.400833333333334E+009;1.545438468456268E-001;9.582534432411194E-002;-2.778827445581555E-003;-2.486663404852152E-003;
2.401000000000000E+009;1.547704637050629E-001;9.300705045461655E-002;-3.087979275733233E-003;-2.214983804151416E-003;
2.401166666666667E+009;1.546109914779663E-001;9.016824513673782E-002;-3.203578293323517E-003;-2.159428084269166E-003;
2.401333333333334E+009;1.550743728876114E-001;8.736240118741989E-002;-3.158162813633680E-003;-1.972793601453304E-003;
2.401500000000000E+009;1.556339263916016E-001;8.463871479034424E-002;-3.234386444091797E-003;-1.826046733185649E-003;
2.401666666666667E+009;1.557674407958984E-001;8.154882490634918E-002;-3.350825747475028E-003;-1.709160744212568E-003;
2.401833333333334E+009;1.560697257518768E-001;7.877405732870102E-002;-3.257523290812969E-003;-1.493414631113410E-003;
2.402000000000000E+009;1.570300906896591E-001;7.587159425020218E-002;-3.301383927464485E-003;-1.526148407720029E-003;
2.402166666666667E+009;1.578551232814789E-001;7.329034060239792E-002;-3.299235133454204E-003;-1.338490052148700E-003;
2.402333333333334E+009;1.588280200958252E-001;7.061459869146347E-002;-3.398674074560404E-003;-1.256262883543968E-003;
2.402500000000000E+009;1.598540693521500E-001;6.785308569669724E-002;-3.412800375372171E-003;-1.220537931658328E-003;
2.402666666666667E+009;1.610045582056046E-001;6.571842730045319E-002;-3.577890573069453E-003;-1.000303542241454E-003;
2.402833333333334E+009;1.624186784029007E-001;6.297282874584198E-002;-3.560781478881836E-003;-8.577834232710302E-004;
2.403000000000000E+009;1.638247668743134E-001;6.067231297492981E-002;-3.631897736340761E-003;-1.064968877471983E-003;
2.403166666666667E+009;1.655969917774200E-001;5.830747634172440E-002;-3.759380197152495E-003;-7.218413520604372E-004;
2.403333333333334E+009;1.668982058763504E-001;5.593872070312500E-002;-3.731118980795145E-003;-5.258758901618421E-004;
2.403500000000000E+009;1.687800139188767E-001;5.380696058273315E-002;-3.774930257350206E-003;-2.597180427983403E-004;
2.403666666666667E+009;1.706882119178772E-001;5.191320180892944E-002;-3.847757354378700E-003;-2.045470755547285E-004;
2.403833333333334E+009;1.723290532827377E-001;5.000760033726692E-002;-3.957794513553381E-003;1.506578701082617E-004;
2.404000000000000E+009;1.739158630371094E-001;4.827332869172096E-002;-3.948590252548456E-003;1.777366705937311E-004;
2.404166666666667E+009;1.757446974515915E-001;4.665839672088623E-002;-3.911000210791826E-003;4.716276016552001E-004;
2.404333333333334E+009;1.774847656488419E-001;4.501541703939438E-002;-3.718250663951039E-003;6.049888907000423E-004;
2.404500000000000E+009;1.792000830173492E-001;4.350899904966354E-002;-3.658396657556295E-003;9.420622955076397E-004;
2.404666666666667E+009;1.808748543262482E-001;4.249656572937965E-002;-3.633876331150532E-003;1.086375676095486E-003;
2.404833333333334E+009;1.825815737247467E-001;4.131254926323891E-002;-3.436279715970159E-003;1.076967804692686E-003;
2.405000000000000E+009;1.840800195932388E-001;4.065304994583130E-002;-3.314474131911993E-003;1.347775571048260E-003;
2.405166666666667E+009;1.856526732444763E-001;3.994819521903992E-002;-3.263189690187573E-003;1.559207797981799E-003;
2.405333333333334E+009;1.869691014289856E-001;3.936818987131119E-002;-2.948697190731764E-003;1.682472066022456E-003;
2.405500000000000E+009;1.885372847318649E-001;3.886016830801964E-002;-2.792051527649164E-003;1.758524449542165E-003;
2.405666666666667E+009;1.898604482412338E-001;3.845328465104103E-002;-2.788007957860827E-003;1.916153472848237E-003;
2.405833333333334E+009;1.911733150482178E-001;3.830904886126518E-002;-2.514603082090616E-003;1.942743198014796E-003;
2.406000000000000E+009;1.922093033790588E-001;3.823262080550194E-002;-2.278365427628160E-003;1.990642165765166E-003;
2.406166666666667E+009;1.932790130376816E-001;3.818647935986519E-002;-2.342846710234880E-003;1.918702269904316E-003;
2.406333333333334E+009;1.943221986293793E-001;3.818861767649651E-002;-2.072584116831422E-003;2.117877127602696E-003;
2.406500000000000E+009;1.950898170471191E-001;3.837620094418526E-002;-2.081531332805753E-003;2.079352503642440E-003;
2.406666666666667E+009;1.957852095365524E-001;3.853495791554451E-002;-1.889043720439076E-003;2.028914866968989E-003;
2.406833333333334E+009;1.964352577924728E-001;3.851224854588509E-002;-1.608823076821864E-003;1.977525185793638E-003;
2.407000000000000E+009;1.967068165540695E-001;3.891149535775185E-002;-1.470728660933673E-003;1.918108086101711E-003;
2.407166666666667E+009;1.971585750579834E-001;3.885119780898094E-002;-1.350736711174250E-003;1.898644492030144E-003;
2.407333333333334E+009;1.971372216939926E-001;3.908347338438034E-002;-1.283789984881878E-003;1.842534402385354E-003;
2.407500000000000E+009;1.971028149127960E-001;3.938761726021767E-002;-1.182905398309231E-003;1.837429241277278E-003;
2.407666666666667E+009;1.971613019704819E-001;3.944069892168045E-002;-1.010110718198121E-003;1.575674396008253E-003;
2.407833333333334E+009;1.967514008283615E-001;3.945417329668999E-002;-9.363924036733806E-004;1.552029978483915E-003;
2.408000000000000E+009;1.967441886663437E-001;3.936874121427536E-002;-1.090131234377623E-003;1.502183731645346E-003;
2.408166666666667E+009;1.962080448865891E-001;3.927341103553772E-002;-1.043252763338387E-003;1.488245208747685E-003;
2.408333333333334E+009;1.956403106451035E-001;3.890790417790413E-002;-9.365918813273311E-004;1.252819900400937E-003;
2.408500000000000E+009;1.950287222862244E-001;3.873977065086365E-002;-1.006940728984773E-003;1.124412054196000E-003;
2.408666666666667E+009;1.944117695093155E-001;3.827385976910591E-002;-1.031118445098400E-003;9.984496282413602E-004;
2.408833333333334E+009;1.936052739620209E-001;3.761339560151100E-002;-1.080325804650784E-003;9.753603953868151E-004;
2.409000000000000E+009;1.926884055137634E-001;3.682667762041092E-002;-1.078870263881981E-003;9.561663027852774E-004;
2.409166666666667E+009;1.918425261974335E-001;3.586172685027123E-002;-1.045606448315084E-003;8.550693164579570E-004;
2.409333333333334E+009;1.908506751060486E-001;3.509622439742088E-002;-1.013072789646685E-003;8.073294302448630E-004;
2.409500000000000E+009;1.896346360445023E-001;3.386722877621651E-002;-1.187625224702060E-003;8.665387867949903E-004;
2.409666666666667E+009;1.885999888181686E-001;3.250038996338844E-002;-1.335967797785997E-003;8.081156411208212E-004;
2.409833333333334E+009;1.876521110534668E-001;3.126540780067444E-002;-1.414237311109901E-003;8.181158918887377E-004;
2.410000000000000E+009;1.866142004728317E-001;2.944450266659260E-002;-1.430433942005038E-003;7.312045781873167E-004;
2.410166666666667E+009;1.855996698141098E-001;2.782148309051991E-002;-1.506944186985493E-003;7.456692401319742E-004;
2.410333333333334E+009;1.845663040876389E-001;2.609397284686565E-002;-1.560296630486846E-003;6.897264975123107E-004;
2.410500000000000E+009;1.834526360034943E-001;2.409899048507214E-002;-1.593535882420838E-003;7.599850068800151E-004;
2.410666666666667E+009;1.824577748775482E-001;2.183098718523979E-002;-1.690731733106077E-003;9.106242796406150E-004;
2.410833333333334E+009;1.818134784698486E-001;1.972540840506554E-002;-1.823583152145147E-003;9.220257052220404E-004;
2.411000000000000E+009;1.810994446277618E-001;1.745268516242504E-002;-1.779355690814555E-003;9.874871466308832E-004;
2.411166666666667E+009;1.804334521293640E-001;1.534126047044992E-002;-1.888216938823462E-003;9.304751292802393E-004;
2.411333333333334E+009;1.798858940601349E-001;1.262099388986826E-002;-1.894516753964126E-003;1.038738526403904E-003;
2.411500000000000E+009;1.795370131731033E-001;1.038800831884146E-002;-1.938890432938933E-003;1.105580129660666E-003;
2.411666666666667E+009;1.791915297508240E-001;7.990527898073196E-003;-1.902333926409483E-003;1.176909077912569E-003;
2.411833333333334E+009;1.789636313915253E-001;5.537318997085095E-003;-2.021775115281344E-003;1.289205974899232E-003;
2.412000000000000E+009;1.790493428707123E-001;2.951110247522593E-003;-2.059438033029437E-003;1.174227334558964E-003;
2.412166666666667E+009;1.790665984153748E-001;4.420356417540461E-004;-2.191412262618542E-003;1.387224649079144E-003;
2.412333333333334E+009;1.792414784431458E-001;-2.165634650737047E-003;-2.125736791640520E-003;1.398159889504314E-003;
2.412500000000000E+009;1.797523647546768E-001;-4.646320361644030E-003;-2.284304704517126E-003;1.441993750631809E-003;
2.412666666666667E+009;1.802009046077728E-001;-7.234808988869190E-003;-2.262262860313058E-003;1.483753439970315E-003;
2.412833333333334E+009;1.807840615510941E-001;-9.669440798461437E-003;-2.345258602872491E-003;1.724059809930623E-003;
2.413000000000000E+009;1.816534101963043E-001;-1.204736717045307E-002;-2.548140706494451E-003;1.871436252258718E-003;
2.413166666666667E+009;1.824307143688202E-001;-1.442443113774061E-002;-2.456514164805412E-003;2.058714861050248E-003;
2.413333333333334E+009;1.835007965564728E-001;-1.679708249866962E-002;-2.609188901260495E-003;2.220986876636744E-003;
2.413500000000000E+009;1.846613883972168E-001;-1.924375072121620E-002;-2.604807959869504E-003;2.385671716183424E-003;
2.413666666666667E+009;1.858219057321549E-001;-2.139055542647839E-002;-2.642918378114700E-003;2.568307099863887E-003;
2.413833333333334E+009;1.867131441831589E-001;-2.359239384531975E-002;-2.557024825364351E-003;2.901508240029216E-003;
2.414000000000000E+009;1.881865262985230E-001;-2.571246400475502E-002;-2.554034814238548E-003;3.139383625239134E-003;
2.414166666666667E+009;1.894561946392059E-001;-2.752420306205750E-002;-2.397280652076006E-003;3.241274971514940E-003;
2.414333333333334E+009;1.904517561197281E-001;-2.955557592213154E-002;-2.323905238881707E-003;3.509499365463853E-003;
2.414500000000000E+009;1.919272840023041E-001;-3.109560906887054E-002;-2.195792971178889E-003;3.684005932882428E-003;
2.414666666666667E+009;1.933442056179047E-001;-3.271492943167687E-002;-1.959364162757993E-003;3.884439123794437E-003;
2.414833333333334E+009;1.942828446626663E-001;-3.415115550160408E-002;-1.731217023916543E-003;4.103583749383688E-003;
2.415000000000000E+009;1.957197785377502E-001;-3.538006544113159E-002;-1.477371668443084E-003;4.275637213140726E-003;
2.415166666666667E+009;1.970729380846024E-001;-3.665065020322800E-002;-1.315764617174864E-003;4.343237262219191E-003;
2.415333333333334E+009;1.982503086328507E-001;-3.760290145874023E-002;-1.090147648938000E-003;4.455966874957085E-003;
2.415500000000000E+009;1.994000822305679E-001;-3.828814998269081E-002;-9.123155614361167E-004;4.643550142645836E-003;
2.415666666666667E+009;2.005454301834106E-001;-3.926326707005501E-002;-6.827128236182034E-004;4.635116085410118E-003;
2.415833333333334E+009;2.015629261732101E-001;-3.982429206371307E-002;-2.592602395452559E-004;4.887276794761419E-003;
2.416000000000000E+009;2.023361325263977E-001;-4.056742787361145E-002;-1.140091480920091E-004;4.896341823041439E-003;
2.416166666666667E+009;2.032104432582855E-001;-4.111988469958305E-002;2.750229032244533E-004;4.885364323854446E-003;
2.416333333333334E+009;2.038809806108475E-001;-4.142582416534424E-002;4.692102666012943E-004;4.883883986622095E-003;
2.416500000000000E+009;2.044243067502976E-001;-4.163390770554543E-002;6.748292362317443E-004;4.827042110264301E-003;
2.416666666666667E+009;2.046854645013809E-001;-4.201380908489227E-002;9.084897465072572E-004;4.843386355787516E-003;
2.416833333333334E+009;2.049951106309891E-001;-4.197556152939796E-002;1.266044448129833E-003;4.724360071122646E-003;
2.417000000000000E+009;2.051234394311905E-001;-4.209428653120995E-002;1.460887724533677E-003;4.777066409587860E-003;
2.417166666666667E+009;2.049407958984375E-001;-4.191471636295319E-002;1.721879001706839E-003;4.594202153384686E-003;
2.417333333333334E+009;2.047028839588165E-001;-4.173038899898529E-002;1.797916949726641E-003;4.631259478628635E-003;
2.417500000000000E+009;2.044348567724228E-001;-4.172822088003159E-002;1.979562919586897E-003;4.482851829379797E-003;
2.417666666666667E+009;2.040226012468338E-001;-4.147044941782951E-002;2.229014877229929E-003;4.312821663916111E-003;
2.417833333333334E+009;2.033970952033997E-001;-4.112254828214645E-002;2.440101234242320E-003;4.099743906408548E-003;
2.418000000000000E+009;2.028752416372299E-001;-4.095112159848213E-002;2.537508727982640E-003;3.982123918831348E-003;
2.418166666666667E+009;2.021638602018356E-001;-4.078679159283638E-002;2.750142710283399E-003;3.854703856632114E-003;
2.418333333333334E+009;2.011219561100006E-001;-4.065374284982681E-002;2.813259605318308E-003;3.646175609901547E-003;
2.418500000000000E+009;2.001810371875763E-001;-4.067781567573547E-002;2.803360112011433E-003;3.615216352045536E-003;
2.418666666666667E+009;1.991754621267319E-001;-4.048991948366165E-002;3.237751079723239E-003;3.452552482485771E-003;
2.418833333333334E+009;1.978594809770584E-001;-4.063945263624191E-002;3.079785732552409E-003;3.358496353030205E-003;
2.419000000000000E+009;1.964748352766037E-001;-4.069411754608154E-002;3.188497619703412E-003;3.170356620103121E-003;
2.419166666666667E+009;1.953223943710327E-001;-4.092270880937576E-002;3.266138955950737E-003;3.105681389570236E-003;
2.419333333333334E+009;1.937377601861954E-001;-4.132556915283203E-002;3.237783908843994E-003;2.903019310906529E-003;
2.419500000000000E+009;1.921269744634628E-001;-4.172142595052719E-002;3.639507107436657E-003;2.761103678494692E-003;
2.419666666666667E+009;1.905848979949951E-001;-4.249293729662895E-002;3.623507218435407E-003;2.574848709627986E-003;
2.419833333333334E+009;1.888933777809143E-001;-4.316645488142967E-002;3.620322793722153E-003;2.565668430179358E-003;
2.420000000000000E+009;1.872601509094238E-001;-4.396142065525055E-002;3.751148236915469E-003;2.367923036217690E-003;
2.420166666666667E+009;1.855867505073547E-001;-4.508741572499275E-002;3.810547059401870E-003;2.146003535017371E-003;
2.420333333333334E+009;1.836892962455750E-001;-4.610059410333633E-002;3.908133599907160E-003;2.060756320133805E-003;
2.420500000000000E+009;1.820634752511978E-001;-4.738388955593109E-002;3.891535568982363E-003;1.865908736363053E-003;
2.420666666666667E+009;1.803870350122452E-001;-4.859686642885208E-002;3.866489510983229E-003;1.713611651211977E-003;
2.420833333333334E+009;1.787739247083664E-001;-5.028494819998741E-002;3.978262189775705E-003;1.520594931207597E-003;
2.421000000000000E+009;1.770145893096924E-001;-5.165949836373329E-002;3.959517460316420E-003;1.374361570924521E-003;
2.421166666666667E+009;1.757246851921082E-001;-5.339338630437851E-002;3.850598121061921E-003;1.190733979456127E-003;
2.421333333333334E+009;1.739793568849564E-001;-5.498566478490830E-002;3.819511272013187E-003;1.067381352186203E-003;
2.421500000000000E+009;1.725749820470810E-001;-5.695666372776032E-002;3.850528271868825E-003;9.908411884680390E-004;
2.421666666666667E+009;1.713070869445801E-001;-5.893537029623985E-002;3.812755690887570E-003;6.953855045139790E-004;
2.421833333333334E+009;1.700735241174698E-001;-6.085069850087166E-002;3.806736553087831E-003;6.272557075135410E-004;
2.422000000000000E+009;1.689249426126480E-001;-6.288036704063416E-002;3.584869904443622E-003;6.478505092673004E-004;
2.422166666666667E+009;1.679304242134094E-001;-6.503288447856903E-002;3.721121698617935E-003;4.043955414090306E-004;
2.422333333333334E+009;1.669207513332367E-001;-6.716545671224594E-002;3.592975903302431E-003;2.112602960551158E-004;
2.422500000000000E+009;1.660297811031342E-001;-6.915119290351868E-002;3.577280789613724E-003;8.604105096310377E-005;
2.422666666666667E+009;1.653414070606232E-001;-7.141260057687759E-002;3.456496633589268E-003;9.674696048023179E-005;
2.422833333333334E+009;1.648287326097488E-001;-7.357015460729599E-002;3.368370933458209E-003;-5.676727232639678E-005;
2.423000000000000E+009;1.642443686723709E-001;-7.582145184278488E-002;3.347279038280249E-003;-1.909521597553976E-005;
2.423166666666667E+009;1.638816744089127E-001;-7.768643647432327E-002;3.236617892980576E-003;-1.321618910878897E-004;
2.423333333333334E+009;1.637103706598282E-001;-8.007799834012985E-002;3.177221631631255E-003;-1.618561364011839E-004;
2.423500000000000E+009;1.636492162942886E-001;-8.191350847482681E-002;3.230976173654199E-003;-1.871417480288073E-004;
2.423666666666667E+009;1.638836264610291E-001;-8.401211351156235E-002;3.211870091035962E-003;-2.470466715749353E-004;
2.423833333333334E+009;1.637375354766846E-001;-8.580264449119568E-002;2.986277686432004E-003;-3.416263207327575E-004;
2.424000000000000E+009;1.638684719800949E-001;-8.782661706209183E-002;3.023509634658694E-003;-2.728165709413588E-004;
2.424166666666667E+009;1.640813350677490E-001;-8.932317793369293E-002;3.093678737059236E-003;-4.120340163353831E-004;
2.424333333333334E+009;1.643818169832230E-001;-9.102674573659897E-002;3.005094360560179E-003;-3.141432825941593E-004;
2.424500000000000E+009;1.646236628293991E-001;-9.290983527898789E-002;2.882842905819416E-003;-4.769858787767589E-004;
2.424666666666667E+009;1.650008857250214E-001;-9.441994130611420E-002;3.008976345881820E-003;-4.631181072909385E-004;
2.424833333333334E+009;1.656278520822525E-001;-9.572660923004150E-002;2.874243305996060E-003;-6.158742471598089E-004;
2.425000000000000E+009;1.660469472408295E-001;-9.712333232164383E-002;3.089195815846324E-003;-5.682463524863124E-004;
2.425166666666667E+009;1.663732975721359E-001;-9.817436337471008E-002;3.112926846370101E-003;-5.986541509628296E-004;
2.425333333333334E+009;1.668664515018463E-001;-9.913770109415054E-002;3.088560886681080E-003;-6.363173015415669E-004;
2.425500000000000E+009;1.674451828002930E-001;-1.002706289291382E-001;2.828409196808934E-003;-6.819626432843506E-004;
2.425666666666667E+009;1.679860353469849E-001;-1.010300442576408E-001;3.000411204993725E-003;-7.640345720574260E-004;
2.425833333333334E+009;1.682788282632828E-001;-1.019212752580643E-001;2.870347350835800E-003;-7.948546553961933E-004;
2.426000000000000E+009;1.687970459461212E-001;-1.023551896214485E-001;2.968580927699804E-003;-8.177066338248551E-004;
2.426166666666667E+009;1.693511158227921E-001;-1.027468442916870E-001;3.020167816430330E-003;-9.537090081721544E-004;
2.426333333333334E+009;1.694423258304596E-001;-1.033686250448227E-001;2.997562522068620E-003;-9.998385794460774E-004;
2.426500000000000E+009;1.700153499841690E-001;-1.035522669553757E-001;2.994684269651771E-003;-1.188638038001955E-003;
2.426666666666667E+009;1.702185869216919E-001;-1.039299890398979E-001;3.071024781093001E-003;-1.061434857547283E-003;
2.426833333333334E+009;1.706926673650742E-001;-1.041657552123070E-001;3.003590507432818E-003;-1.309295068494976E-003;
2.427000000000000E+009;1.707115322351456E-001;-1.043165177106857E-001;3.042712341994047E-003;-1.369964447803795E-003;
2.427166666666667E+009;1.707734316587448E-001;-1.043436005711556E-001;2.893627854064107E-003;-1.271754619665444E-003;
2.427333333333334E+009;1.708296239376068E-001;-1.046211048960686E-001;2.903882879763842E-003;-1.410463475622237E-003;
2.427500000000000E+009;1.705650240182877E-001;-1.047081798315048E-001;3.005064791068435E-003;-1.648787059821188E-003;
2.427666666666667E+009;1.704159080982208E-001;-1.046103239059448E-001;3.023869823664427E-003;-1.623363816179335E-003;
2.427833333333334E+009;1.701104491949081E-001;-1.047166809439659E-001;2.945035230368376E-003;-1.613296219147742E-003;
