# Hz S RI R 50
2400000000.0000000000 0.168434426188468905349893134371 0.040899664163589477539062500000 0.001743439352139831022975302588 -0.000893536489456892013549804688 0 0 0 0 
2400166666.6666665077 0.169022530317306490799111884371 0.040368717163801193237304687500 0.001940805348567665056941367041 -0.001119012595154345035552978516 0 0 0 0 
2400333333.3333334923 0.169456705451011713225994981258 0.039461184293031692504882812500 0.001894557615742086930515908350 -0.001078003668226302103755331885 0 0 0 0 
2400500000.0000000000 0.170024052262306213378906250000 0.038414474576711661601979841407 0.001994051504880189895629882812 -0.001183980028145015022875141675 0 0 0 0 
2400666666.6666665077 0.170396685600280789474325615629 0.037469424307346337055246721093 0.001879159710370003960253071362 -0.001345912576653063080431294019 0 0 0 0 
2400833333.3333334923 0.170905679464340209960937500000 0.036798793822526931762695312500 0.001912994077429174943211220850 -0.001478974591009319045423198169 0 0 0 0 
2401000000.0000000000 0.171071171760559109786825615629 0.035793785005807876586914062500 0.001807484892196953079820942456 -0.001672470942139625982997275244 0 0 0 0 
2401166666.6666665077 0.171277612447738702972088731258 0.035036131739616387104074846093 0.001654942869208752892137836987 -0.001677716034464538097381591797 0 0 0 0 
2401333333.3333334923 0.171498462557792691329794365629 0.034314684569835662841796875000 0.001544054364785552024841308594 -0.001686331466771662018419575269 0 0 0 0 
2401500000.0000000000 0.171607926487922696212606865629 0.033413857221603386615793596093 0.001552191679365932941436767578 -0.001921311370097100951551127856 0 0 0 0 
2401666666.6666665077 0.171878412365913391113281250000 0.032527241855859763408620466407 0.001362288254313170909881591797 -0.001696192543022335009333945166 0 0 0 0 
2401833333.3333334923 0.171851232647895812988281250000 0.031690783798694610595703125000 0.001282416633330285982844687354 -0.001766701694577931924107216943 0 0 0 0 
2402000000.0000000000 0.171719327569007901290731865629 0.030959784984588619577428048046 0.001221276586875319914576865088 -0.001641142531298100948333740234 0 0 0 0 
2402166666.6666665077 0.171969503164291409591513115629 0.029887765645980838430384451954 0.001184630673378705978393554688 -0.001729693380184472040889120947 0 0 0 0 
2402333333.3333334923 0.171976223587989807128906250000 0.028927348554134368896484375000 0.001126841641962528011919331128 -0.001599760609678924083709716797 0 0 0 0 
2402500000.0000000000 0.171934038400649996658486884371 0.028203975409269329416295235546 0.001253599300980567932128906250 -0.001751993317157030105590820312 0 0 0 0 
2402666666.6666665077 0.171885654330253601074218750000 0.027159903198480609548548514454 0.001116586150601506016374897534 -0.001690285047516226985334086841 0 0 0 0 
2402833333.3333334923 0.171718284487724304199218750000 0.026090113446116450918177420704 0.001202847692184150002123188550 -0.001693722326308489062665629810 0 0 0 0 
2403000000.0000000000 0.171627983450889587402343750000 0.024974547326564788818359375000 0.001046921010129153945325541919 -0.001742083812132477977155375903 0 0 0 0 
2403166666.6666665077 0.171538561582565307617187500000 0.023923749104142189025878906250 0.001061943708918988921521830981 -0.001701566856354475021362304688 0 0 0 0 
2403333333.3333334923 0.171618387103080805022869981258 0.022856423631310459482213204296 0.001268169027753174088121723706 -0.001837960677221416993382119287 0 0 0 0 
2403500000.0000000000 0.171181231737136813064736884371 0.021728076040744781494140625000 0.001119065913371741988538432544 -0.001765043940395117022870707935 0 0 0 0 
2403666666.6666665077 0.171022042632102994064169365629 0.020495345816016200674036795704 0.001128006726503371975542378003 -0.001954758306965231895446777344 0 0 0 0 
2403833333.3333334923 0.171142637729644803146200615629 0.019304394721984859811803048046 0.001206820015795529105542827075 -0.002116170478984713988063193213 0 0 0 0 
2404000000.0000000000 0.170795857906341608245526231258 0.018083445727825171733815778907 0.001144199166446923992754292065 -0.001992269186303019957301474463 0 0 0 0 
2404166666.6666665077 0.170680567622184808929119981258 0.016689777374267581594446951954 0.001149923889897763945935893481 -0.002152546076104044914245605469 0 0 0 0 
2404333333.3333334923 0.170490249991416903396768134371 0.015325883403420450037946132227 0.001044240780174731991411518628 -0.002434152411296964125392294775 0 0 0 0 
2404500000.0000000000 0.170307263731956509689169365629 0.013888243585824969900111014454 0.000931496964767575263977050781 -0.002360482700169086889979697119 0 0 0 0 
2404666666.6666665077 0.170220658183097811599893134371 0.012636525556445120030413242773 0.000718752737157046794891357422 -0.002401595935225487189051962744 0 0 0 0 
2404833333.3333334923 0.170208513736724909026776231258 0.011090574786067010706891444727 0.000881995016243308782577514648 -0.002672810107469559149501181494 0 0 0 0 
2405000000.0000000000 0.169968530535697909256143134371 0.009671342559158802032470703125 0.000581993197556585073471069336 -0.002654335927218199209925986182 0 0 0 0 
2405166666.6666665077 0.170021429657936096191406250000 0.008080353960394859313964843750 0.000705627084244042634963989258 -0.002639167243614792823791503906 0 0 0 0 
2405333333.3333334923 0.170096471905708312988281250000 0.006443353835493326187133789062 0.000426944432547316009372156964 -0.002604426583275198936462402344 0 0 0 0 
2405500000.0000000000 0.169906541705131503006143134371 0.005013907328248023986816406250 0.000399828481022268479496556415 -0.002790274797007441954371786963 0 0 0 0 
2405666666.6666665077 0.169861704111099187652911268742 0.003352018538862466812133789062 0.000405969214625656604766845703 -0.002716665156185626983642578125 0 0 0 0 
2405833333.3333334923 0.169694378972053500076455634371 0.001854451489634812095044780200 0.000222431670408695909097948618 -0.002934769960120319886448525537 0 0 0 0 
2406000000.0000000000 0.169539153575897189041299384371 0.000039733415178488940000534058 -0.000027487016268423758447170258 -0.002968437038362026214599609375 0 0 0 0 
2406166666.6666665077 0.169504746794700594803018134371 -0.001357503235340117974522256006 -0.000194356442079879289299565448 -0.002882773056626319885253906250 0 0 0 0 
2406333333.3333334923 0.169663399457931490799111884371 -0.003065155586227775053737021338 -0.000313945201924070715904235840 -0.003021312411874533133265829932 0 0 0 0 
2406500000.0000000000 0.169330939650535611251669365629 -0.004783418495208024978637695312 -0.000391073437640443390041905536 -0.002851221244782208962681435693 0 0 0 0 
2406666666.6666665077 0.169114246964454706390057481258 -0.006112413946539163589477539062 -0.000636575627140700817108154297 -0.002838311018422245979309082031 0 0 0 0 
2406833333.3333334923 0.169084772467613192459268134371 -0.007896609604358673095703125000 -0.000655827869195491075515747070 -0.002844153437763452963588095557 0 0 0 0 
2407000000.0000000000 0.169024154543876703460369981258 -0.009352553635835647583007812500 -0.000780078058596700429916381836 -0.002614379394799470901489257812 0 0 0 0 
2407166666.6666665077 0.168923527002334594726562500000 -0.010745965875685220200508318555 -0.000741586030926555395126342773 -0.002838707063347101211547851562 0 0 0 0 
2407333333.3333334923 0.168665409088134793380575615629 -0.012281080707907680166224295704 -0.000896506069693714380264282227 -0.002531900070607662200927734375 0 0 0 0 
2407500000.0000000000 0.168594717979431207854901231258 -0.013609576039016250265101248829 -0.001040594652295113043544150244 -0.002431566826999187903163290869 0 0 0 0 
2407666666.6666665077 0.168577685952186612228231865629 -0.014812950044870380056361014454 -0.000858679122757166624069213867 -0.002455470152199267907383584131 0 0 0 0 
2407833333.3333334923 0.168309271335601806640625000000 -0.016063179820775989187220389454 -0.000919271493330597877502441406 -0.002428946085274219946620322119 0 0 0 0 
2408000000.0000000000 0.168176725506782503982705634371 -0.017311016097664829599400704296 -0.001010397914797068075892783057 -0.002402676502242683930637978662 0 0 0 0 
2408166666.6666665077 0.168200582265853909591513115629 -0.018165213987231261516530622657 -0.001092176069505512931226420825 -0.002431627362966537909266806494 0 0 0 0 
2408333333.3333334923 0.168521165847778292556924384371 -0.019225044175982478750208670704 -0.001019639195874332947971963037 -0.002636234043166040940525673975 0 0 0 0 
2408500000.0000000000 0.168408721685409601409588731258 -0.020221622660756111145019531250 -0.001100144465453922965406108325 -0.002482964890077710151672363281 0 0 0 0 
2408666666.6666665077 0.168406113982200594803018134371 -0.021171053871512409555455391796 -0.001198201556690037033678364331 -0.002557815983891487121582031250 0 0 0 0 
2408833333.3333334923 0.168472886085510309417401231258 -0.021974781528115269052525704296 -0.001278994488529860973358154297 -0.002678189892321825027465820312 0 0 0 0 
2409000000.0000000000 0.168563976883888189117755018742 -0.022849936038255691528320312500 -0.001327692531049251990077353369 -0.002629539696499704880955361475 0 0 0 0 
2409166666.6666665077 0.168764919042587308029013115629 -0.023637317121028900146484375000 -0.001638467772863805077196430737 -0.002534380881115794181823730469 0 0 0 0 
2409333333.3333334923 0.168865188956260708907919365629 -0.024679344147443771362304687500 -0.001921568065881728909136128003 -0.002638633130118250846862792969 0 0 0 0 
2409500000.0000000000 0.169131338596343994140625000000 -0.025661591440439220773717110546 -0.001904555829241872050641704028 -0.002640050835907458825352334131 0 0 0 0 
2409666666.6666665077 0.169188410043716402908486884371 -0.026479272171854969369908516796 -0.002150038955733180046081542969 -0.002312105381861329078674316406 0 0 0 0 
2409833333.3333334923 0.169370099902152987381143134371 -0.027085557579994201660156250000 -0.002245186362415552139282226562 -0.002371959621086717085597372900 0 0 0 0 
2410000000.0000000000 0.169525384902954101562500000000 -0.028092099353671070444127266796 -0.002545929281041026115417480469 -0.002218207111582159996032714844 0 0 0 0 
2410166666.6666665077 0.169664129614829989334268134371 -0.028985610231757160532017891796 -0.002547913696616888046264648438 -0.002063173335045576095581054688 0 0 0 0 
2410333333.3333334923 0.169580355286598205566406250000 -0.029812017455697059631347656250 -0.002545378636568785147425986182 -0.001981437439098954200744628906 0 0 0 0 
2410500000.0000000000 0.169768378138542203048544365629 -0.030766772106289860116978829296 -0.002718291245400906042811728369 -0.001867053564637898965122841943 0 0 0 0 
2410666666.6666665077 0.169540271162986810882244981258 -0.031677510589361190795898437500 -0.002877035411074758009669638525 -0.001702488632872700908063579028 0 0 0 0 
2410833333.3333334923 0.169624865055084200760049384371 -0.032472338527441031719167341407 -0.002977669937536119981053017725 -0.001443759887479246096370077979 0 0 0 0 
2411000000.0000000000 0.169514924287795992752236884371 -0.033122062683105468750000000000 -0.002676540054380894140956259619 -0.001346154720522463104845356519 0 0 0 0 
2411166666.6666665077 0.169385313987731905838174384371 -0.034018397331237792968750000000 -0.002634928561747074127197265625 -0.001247684005647897937177348560 0 0 0 0 
2411333333.3333334923 0.169202014803886413574218750000 -0.034960165619850158691406250000 -0.002810461446642876105067587744 -0.001362600480206310965894389575 0 0 0 0 
2411500000.0000000000 0.169042035937309292892294365629 -0.035890281200408942485768903907 -0.002719915239140390916111611475 -0.001071368809789418957353901440 0 0 0 0 
2411666666.6666665077 0.168915003538131713867187500000 -0.036513671278953552246093750000 -0.002821575151756405830383300781 -0.000958277669269591569900512695 0 0 0 0 
2411833333.3333334923 0.168512493371963500976562500000 -0.037451449781656272197682966407 -0.002820725552737712860107421875 -0.000883556960616260766983032227 0 0 0 0 
2412000000.0000000000 0.168430879712104797363281250000 -0.038239046931266791606862653907 -0.002832558006048202948329306494 -0.000774164742324501276016235352 0 0 0 0 
2412166666.6666665077 0.168020159006118802169638115629 -0.039161100983619689941406250000 -0.002926549874246120886561728369 -0.000722282042261213064193725586 0 0 0 0 
2412333333.3333334923 0.167855575680732699295205634371 -0.040040452033281333232839216407 -0.002826226642355322837829589844 -0.000828600313980132341384887695 0 0 0 0 
2412500000.0000000000 0.167295351624488802810830634371 -0.040895327925682067871093750000 -0.002826501848176122145411826025 -0.000805239425972104072570800781 0 0 0 0 
2412666666.6666665077 0.167085036635398892501669365629 -0.042104970663785927509348283593 -0.002932754112407565116882324219 -0.000631840492133051156997680664 0 0 0 0 
2412833333.3333334923 0.166656762361526489257812500000 -0.043176397681236267089843750000 -0.003012411296367644829991006006 -0.000699767901096493005752563477 0 0 0 0 
2413000000.0000000000 0.166412323713302612304687500000 -0.043923340737819671630859375000 -0.002914128359407186941859579932 -0.000519905181135982275009155273 0 0 0 0 
2413166666.6666665077 0.165719747543334988693075615629 -0.044936254620552062988281250000 -0.003112562233582139015197753906 -0.000410658918553963303565979004 0 0 0 0 
2413333333.3333334923 0.165241613984107998946981865629 -0.045875519514083862304687500000 -0.003181879175826907157897949219 -0.000285323156276717782020568848 0 0 0 0 
2413500000.0000000000 0.164657726883888189117755018742 -0.046765137463808059692382812500 -0.003246048232540487809422158350 0.000034673521440709009766578674 0 0 0 0 
2413666666.6666665077 0.164287537336349487304687500000 -0.047934029251337051391601562500 -0.003394167171791195869445800781 -0.000030123796022962778806686401 0 0 0 0 
2413833333.3333334923 0.163663774728774996658486884371 -0.048923134803771972656250000000 -0.003408730030059814886805868994 0.000170237195561639991685590201 0 0 0 0 
2414000000.0000000000 0.163097694516182001311932481258 -0.049882076680660247802734375000 -0.003266045823693275885341025244 0.000416873692302033305168151855 0 0 0 0 
2414166666.6666665077 0.162687093019485501388388115629 -0.050792403519153601909597028907 -0.003511033020913600921630859375 0.000739824783522635698318481445 0 0 0 0 
2414333333.3333334923 0.162177994847297696212606865629 -0.051954053342342376708984375000 -0.003241569735109806060791015625 0.000931368733290582895278930664 0 0 0 0 
2414500000.0000000000 0.162091001868248013595419365629 -0.052829485386610031127929687500 -0.003293920308351517157313681494 0.001140783308073878071428608472 0 0 0 0 
2414666666.6666665077 0.161495700478553799728231865629 -0.053723737597465522075612653907 -0.003160657593980431990382529150 0.001316592097282410101649618994 0 0 0 0 
2414833333.3333334923 0.161183789372444208343182481258 -0.054966934025287628173828125000 -0.003012472530826925797703408350 0.001486937981098890087724995190 0 0 0 0 
2415000000.0000000000 0.160973161458969088455361884371 -0.055905856192111968994140625000 -0.002848151838406919999363564600 0.001775244483724236922023154150 0 0 0 0 
2415166666.6666665077 0.160723194479942294021768134371 -0.056983347982168197631835937500 -0.002607675967738031907322548975 0.001736291800625622055651020581 0 0 0 0 
2415333333.3333334923 0.160648480057716397384481865629 -0.058220878243446350097656250000 -0.002370210830122232003452920068 0.001988123403862119154689169775 0 0 0 0 
2415500000.0000000000 0.160423859953880310058593750000 -0.059450060129165649414062500000 -0.002143859863281250000000000000 0.002102800644934176965000771631 0 0 0 0 
2415666666.6666665077 0.160144627094268798828125000000 -0.060439191758632659912109375000 -0.001906530465930700085283588940 0.002071890281513332886936806787 0 0 0 0 
2415833333.3333334923 0.160049796104431207854901231258 -0.061818983405828482891042341407 -0.001789093832485378005384135669 0.002148245228454471068141318213 0 0 0 0 
2416000000.0000000000 0.159706994891166687011718750000 -0.063027150928974151611328125000 -0.001496741315349936918971396338 0.002141371369361877007725381006 0 0 0 0 
2416166666.6666665077 0.159658133983612088302450615629 -0.064233884215354919433593750000 -0.001334724482148885943769145435 0.002032619202509522004368447412 0 0 0 0 
2416333333.3333334923 0.159379616379737909515057481258 -0.065490365028381347656250000000 -0.001290867920033633925794291919 0.001941202208399773077723837744 0 0 0 0 
2416500000.0000000000 0.159153357148170498946981865629 -0.066792905330657958984375000000 -0.001000867807306349060655903394 0.001886296900920569896697998047 0 0 0 0 
2416666666.6666665077 0.158770903944969205001669365629 -0.067980252206325531005859375000 -0.000827824871521443128585815430 0.001736057689413428089739155347 0 0 0 0 
2416833333.3333334923 0.158639013767242403885049384371 -0.069400109350681304931640625000 -0.000876883452292531728744506836 0.001539914985187351920484233325 0 0 0 0 
2417000000.0000000000 0.158036544919014004806356865629 -0.070430003106594085693359375000 -0.000807564705610275268554687500 0.001372246071696280999424599756 0 0 0 0 
2417166666.6666665077 0.157866403460502596756143134371 -0.071599937975406646728515625000 -0.000899959995876997709274291992 0.001143872621469200091121054541 0 0 0 0 
2417333333.3333334923 0.157609179615974398513955634371 -0.072663992643356323242187500000 -0.000693558016791939735412597656 0.001099954242818057970759726416 0 0 0 0 
2417500000.0000000000 0.157283529639244107345419365629 -0.073772430419921875000000000000 -0.000918343837838619947433471680 0.000927319342736154794692993164 0 0 0 0 
2417666666.6666665077 0.157018512487411499023437500000 -0.074694886803627014160156250000 -0.000954839924816042184829711914 0.000820180110167711973190307617 0 0 0 0 
2417833333.3333334923 0.156740933656692504882812500000 -0.075468368828296661376953125000 -0.000892443640623241662979125977 0.000820183136966079473495483398 0 0 0 0 
2418000000.0000000000 0.156409725546836908538494981258 -0.076644949615001678466796875000 -0.001096973894163965962053608472 0.000801387999672442674636840820 0 0 0 0 
2418166666.6666665077 0.156018689274787902832031250000 -0.077206805348396301269531250000 -0.001154159661382436969159770435 0.000631437636911869049072265625 0 0 0 0 
2418333333.3333334923 0.156189605593681307693643134371 -0.078273057937622070312500000000 -0.001152751850895584063289023291 0.000566701346542686223983764648 0 0 0 0 
2418500000.0000000000 0.155788019299507113357705634371 -0.079058855772018432617187500000 -0.001372740720398724079132080078 0.000712881621439009904861450195 0 0 0 0 
2418666666.6666665077 0.155714839696884210784588731258 -0.079957745969295501708984375000 -0.001450609881430863900425576318 0.000633607152849435806274414062 0 0 0 0 
2418833333.3333334923 0.155226081609726007659588731258 -0.080715961754322052001953125000 -0.001546896644867957072017050635 0.000798662425950169563293457031 0 0 0 0 
2419000000.0000000000 0.154991611838340787032919365629 -0.081338867545127868652343750000 -0.001654741354286670901654887622 0.000814682862255722284317016602 0 0 0 0 
2419166666.6666665077 0.154721155762672396560830634371 -0.082125119864940643310546875000 -0.001766068278811872005462646484 0.000937104516196995973587036133 0 0 0 0 
2419333333.3333334923 0.154248774051666287521200615629 -0.082566589117050170898437500000 -0.001882556243799627044080424731 0.001109632779844105026842426831 0 0 0 0 
2419500000.0000000000 0.154068708419799804687500000000 -0.083336010575294494628906250000 -0.001721448148600756905199360425 0.001211797236464918093440390479 0 0 0 0 
2419666666.6666665077 0.153814315795898409744424384371 -0.084197953343391418457031250000 -0.002006283728405832810642861475 0.001281182514503597996355366284 0 0 0 0 
2419833333.3333334923 0.153489068150520296951455634371 -0.084450453519821166992187500000 -0.001897862763144076087354350513 0.001346857752650975964189838940 0 0 0 0 
