# Hz S RI R 50
2400000000.0000000000 0.168411076068878201583700615629 0.040939781814813606952707658593 0.001975534716621040864231728662 -0.000946191605180501937866210938 0 0 0 0 
2400166666.6666665077 0.168943747878074701507244981258 0.040156964212656021118164062500 0.002002279972657560868504189600 -0.001081220572814344926121377100 0 0 0 0 
2400333333.3333334923 0.169394612312316894531250000000 0.039474386721849441528320312500 0.002024929504841566085815429688 -0.001047147670760750987409282153 0 0 0 0 
2400500000.0000000000 0.170015498995780889313067518742 0.038552954792976379394531250000 0.001902453601360321044921875000 -0.001099528744816780090332031250 0 0 0 0 
2400666666.6666665077 0.170257076621055603027343750000 0.037580043077468872070312500000 0.001989844487980008125305175781 -0.001303686993196607069728232275 0 0 0 0 
2400833333.3333334923 0.170734196901321411132812500000 0.036887150257825851440429687500 0.001833256799727678082109760815 -0.001411570934578775925877236475 0 0 0 0 
2401000000.0000000000 0.171096116304397610763388115629 0.035838924348354339599609375000 0.001764729968272149996516562354 -0.001543391961604356982587504810 0 0 0 0 
2401166666.6666665077 0.171285197138786288162393134371 0.034917924553155899047851562500 0.001847547246143222072004008716 -0.001559521304443479017970419775 0 0 0 0 
2401333333.3333334923 0.171467989683151300628338731258 0.034243412315845489501953125000 0.001683621201664208932163857568 -0.001582998083904386000392294775 0 0 0 0 
2401500000.0000000000 0.171718344092369107345419365629 0.033440664410591132427175153907 0.001621873816475271961809467847 -0.001908453647047281048418354565 0 0 0 0 
2401666666.6666665077 0.171805813908576993087606865629 0.032597362995147712017018903907 0.001493085408583282990696572412 -0.001747427857480942986131977612 0 0 0 0 
2401833333.3333334923 0.171906843781471307952557481258 0.031646896153688430786132812500 0.001419811160303652069689106519 -0.001964823808521031899693154443 0 0 0 0 
2402000000.0000000000 0.171811938285827608963174384371 0.030719289556145671499232108204 0.001351562561467289924621582031 -0.001846059691160917065264057690 0 0 0 0 
2402166666.6666665077 0.171881347894668606857138115629 0.029781963676214221609095389454 0.001368919620290399031398154150 -0.001776409335434437014936137622 0 0 0 0 
2402333333.3333334923 0.171852454543113708496093750000 0.028947496786713600158691406250 0.001288364059291779994964599609 -0.001720815082080662033678364331 0 0 0 0 
2402500000.0000000000 0.172003731131553705413494981258 0.028133308514952659606933593750 0.001268588588573039011714316260 -0.001818484975956379933598183740 0 0 0 0 
2402666666.6666665077 0.171867281198501586914062500000 0.027385903522372249258021170704 0.001259333686903119087219238281 -0.001659907633438705964329384912 0 0 0 0 
2402833333.3333334923 0.171763375401496887207031250000 0.026124654337763789785364920704 0.001366280950605869076372456128 -0.001759559032507240989087748950 0 0 0 0 
2403000000.0000000000 0.171803027391433688064736884371 0.025104638189077380788782889454 0.001235317788086832003352499854 -0.001787435146979988054988242041 0 0 0 0 
2403166666.6666665077 0.171590015292167691329794365629 0.023996613919734958303431326954 0.001236006733961402936222695459 -0.001818329095840454101562500000 0 0 0 0 
2403333333.3333334923 0.171473100781440707107705634371 0.022835932672023769723912423046 0.001222370308823883967158652197 -0.002026646863669157028198242188 0 0 0 0 
2403500000.0000000000 0.171239688992500305175781250000 0.021605560556054118764857108204 0.001207009074278176047681498950 -0.001940956222824751897099160303 0 0 0 0 
2403666666.6666665077 0.171070456504821805099325615629 0.020496053621172908437708670704 0.001257449854165316061732626807 -0.001965640112757682800292968750 0 0 0 0 
2403833333.3333334923 0.171213090419769287109375000000 0.019311500713229179382324218750 0.001191186951473355076433491284 -0.002131825545802712006809853662 0 0 0 0 
2404000000.0000000000 0.170981466770172091385049384371 0.017978962510824200021763985546 0.001031214138492942073224711841 -0.002145929960533976988551474463 0 0 0 0 
2404166666.6666665077 0.170630425214767511565838731258 0.016653122380375858652135079296 0.001156669110059737942339253003 -0.002412222558632493019104003906 0 0 0 0 
2404333333.3333334923 0.170445621013641412933026231258 0.015366052277386190241803554102 0.001050879014655947902082133716 -0.002503966679796576933619833838 0 0 0 0 
2404500000.0000000000 0.170422285795211791992187500000 0.013922040350735189265241054102 0.000839505752082914113998413086 -0.002464730525389314131495810400 0 0 0 0 
2404666666.6666665077 0.170416906476020812988281250000 0.012589224614202979696253592579 0.000738113652914762496948242188 -0.002522425493225454850437783350 0 0 0 0 
2404833333.3333334923 0.170200720429420498946981865629 0.011102506890892980748186680273 0.000721958582289516925811767578 -0.002571881283074616952183388818 0 0 0 0 
2405000000.0000000000 0.170220151543617304046307481258 0.009490619413554668426513671875 0.000764952797908335924148559570 -0.002592055592685937881469726562 0 0 0 0 
2405166666.6666665077 0.170131087303161593338174384371 0.008030152879655361175537109375 0.000483085605083033388287144794 -0.002786071971058845953700400244 0 0 0 0 
2405333333.3333334923 0.170193761587142888824786268742 0.006463299039751291275024414062 0.000657081604003906250000000000 -0.002890503499656916098353720557 0 0 0 0 
2405500000.0000000000 0.170035809278488186935263115629 0.004905140027403832349295331738 0.000408722407883033210605067120 -0.002863570116460322900059365381 0 0 0 0 
2405666666.6666665077 0.169951438903808593750000000000 0.003412652760744094848632812500 0.000304783781757578307956141339 -0.002794970292598009109497070312 0 0 0 0 
2405833333.3333334923 0.169812545180320711990518134371 0.001644574804231524901149130713 0.000299442908726632595062255859 -0.003079992253333330154418945312 0 0 0 0 
2406000000.0000000000 0.169818431138992309570312500000 -0.000134081899886950904696863995 -0.000016350668374798260629177094 -0.002973765600472689108607626807 0 0 0 0 
2406166666.6666665077 0.169629007577896090408486884371 -0.001532323425635696107979799585 -0.000130124652059748795911511832 -0.003012949600815773010253906250 0 0 0 0 
2406333333.3333334923 0.169591158628463800628338731258 -0.003303778124973177909851074219 -0.000287874165223911404609680176 -0.002929527079686522917506552588 0 0 0 0 
2406500000.0000000000 0.169413983821868896484375000000 -0.004859663080424070358276367188 -0.000552105833776295185089111328 -0.002873992547392845153808593750 0 0 0 0 
2406666666.6666665077 0.169174134731292696853799384371 -0.006373990792781114578247070312 -0.000541913497727364301681518555 -0.002767412690445781187770224463 0 0 0 0 
2406833333.3333334923 0.169135555624961908538494981258 -0.007972681894898414611816406250 -0.000744350953027606010437011719 -0.002836750354617834091186523438 0 0 0 0 
2407000000.0000000000 0.169141814112663296798544365629 -0.009486155584454536437988281250 -0.000876475125551223754882812500 -0.002745614852756261825561523438 0 0 0 0 
2407166666.6666665077 0.168990805745124789138955634371 -0.010887262411415580404261405079 -0.000875683908816426992416381836 -0.002677096286788582801818847656 0 0 0 0 
2407333333.3333334923 0.168770641088485690017861884371 -0.012301314622163770848284336523 -0.000904285116121172904968261719 -0.002615111181512475013732910156 0 0 0 0 
2407500000.0000000000 0.168689295649528503417968750000 -0.013560827821493150538434413477 -0.000961455865763127803802490234 -0.002480261726304889158961630713 0 0 0 0 
2407666666.6666665077 0.168654292821884210784588731258 -0.014761258848011490213414376171 -0.001071796868927777030347514575 -0.002555847633630036874058388818 0 0 0 0 
2407833333.3333334923 0.168349742889404296875000000000 -0.016233066096901890146275704296 -0.000994097325019538402557373047 -0.002583691384643315835240029443 0 0 0 0 
2408000000.0000000000 0.168355032801628112792968750000 -0.017301317304372790945032889454 -0.001017925562337040901184082031 -0.002555152401328086853027343750 0 0 0 0 
2408166666.6666665077 0.168235957622528103927450615629 -0.018273070454597469675084298046 -0.001072351820766926028608012622 -0.002474493114277720885035849463 0 0 0 0 
2408333333.3333334923 0.168478712439537103850994981258 -0.019312599673867229116419608204 -0.001038019079715013937709189307 -0.002466863486915826797485351562 0 0 0 0 
2408500000.0000000000 0.168358474969863891601562500000 -0.020234324038028720510462576954 -0.001133185462094842953922890771 -0.002600428182631731033325195312 0 0 0 0 
2408666666.6666665077 0.168615251779556302169638115629 -0.021167362108826640737513358204 -0.001395139610394835905787802588 -0.002715008100494741959812783350 0 0 0 0 
2408833333.3333334923 0.168476954102516202071981865629 -0.022010821849107738840123360546 -0.001274931011721492030500102466 -0.002596980659291148185729980469 0 0 0 0 
2409000000.0000000000 0.168608963489532498458700615629 -0.022986499592661861074427420704 -0.001578840310685337023494101416 -0.002551991492509841918945312500 0 0 0 0 
2409166666.6666665077 0.168826282024383489410723768742 -0.023802690207958221435546875000 -0.001663412782363594012019492041 -0.002664836822077631950378417969 0 0 0 0 
2409333333.3333334923 0.169028967618942288497763115629 -0.024655509740114208566685860546 -0.001907611847855150916455913013 -0.002617104444652795791625976562 0 0 0 0 
2409500000.0000000000 0.169096589088439913650674384371 -0.025751903653144839895228201954 -0.002054036129266024069545126807 -0.002461659722030162811279296875 0 0 0 0 
2409666666.6666665077 0.169211298227310208419638115629 -0.026457343250513080251673514454 -0.002142899902537465095520019531 -0.002300076186656951904296875000 0 0 0 0 
2409833333.3333334923 0.169312179088592501541299384371 -0.027372872456908229482630545704 -0.002234267769381403923034667969 -0.002298134844750165939331054688 0 0 0 0 
2410000000.0000000000 0.169764652848243713378906250000 -0.028198719024658199655553048046 -0.002470612293109298186061240088 -0.002114416798576713042018271338 0 0 0 0 
2410166666.6666665077 0.169736281037330599685830634371 -0.029029764235019680368443673046 -0.002489996841177343888523720850 -0.002129741013050078912022256006 0 0 0 0 
2410333333.3333334923 0.169637829065322903732138115629 -0.029824424535036090505579764454 -0.002601209329441190199611044775 -0.001904200413264333984972309644 0 0 0 0 
2410500000.0000000000 0.169797599315643310546875000000 -0.030752992257475849496861641796 -0.002687265630811452865600585938 -0.001704497030004858970642089844 0 0 0 0 
2410666666.6666665077 0.169719785451889010330361884371 -0.031789589673280722881276716407 -0.002562450943514705137965536963 -0.001712619559839368083356547778 0 0 0 0 
2410833333.3333334923 0.169745355844497708419638115629 -0.032380029559135437011718750000 -0.002726723207160830931422568213 -0.001480427337810396931291889722 0 0 0 0 
2411000000.0000000000 0.169407591223716708084268134371 -0.033316336572170257568359375000 -0.002811309415847063064575195312 -0.001368564320728183009504008716 0 0 0 0 
2411166666.6666665077 0.169388622045516995529013115629 -0.034280989319086081767995466407 -0.002694915514439343972447060693 -0.001271186862140893936157226562 0 0 0 0 
2411333333.3333334923 0.169146344065666198730468750000 -0.035034146159887306903879533593 -0.002721284748986362977268838037 -0.001247506705112755081774067456 0 0 0 0 
2411500000.0000000000 0.169016420841217013260049384371 -0.035935342311859130859375000000 -0.002679529832676053047180175781 -0.001006559818051754994633339990 0 0 0 0 
2411666666.6666665077 0.168928354978561401367187500000 -0.036510478705167770385742187500 -0.002905389294028282165527343750 -0.000930442532990127801895141602 0 0 0 0 
2411833333.3333334923 0.168661624193191500564736884371 -0.037462305277585983276367187500 -0.002828412456437944932224892725 -0.000998440664261579513549804688 0 0 0 0 
2412000000.0000000000 0.168331220746040288727130018742 -0.038465250283479690551757812500 -0.002825476229190825982334756006 -0.000933645525947213172912597656 0 0 0 0 
2412166666.6666665077 0.168018937110900906661825615629 -0.039403848350048072124440778907 -0.002715979004278779029846191406 -0.000763685500714927911758422852 0 0 0 0 
2412333333.3333334923 0.167833819985389709472656250000 -0.040107067674398422241210937500 -0.002832633676007390022277832031 -0.000681014964357018470764160156 0 0 0 0 
2412500000.0000000000 0.167248591780662508865518134371 -0.040941927582025527954101562500 -0.002892389660701156096217490088 -0.000649777590297162532806396484 0 0 0 0 
2412666666.6666665077 0.167075321078300503829794365629 -0.042197573930025100708007812500 -0.002983312355354427857639931787 -0.000638934958260506391525268555 0 0 0 0 
2412833333.3333334923 0.166555300354957608321981865629 -0.043064571917057037353515625000 -0.002998084528371692137477255713 -0.000624524254817515611648559570 0 0 0 0 
2413000000.0000000000 0.166168808937072809417401231258 -0.044024176895618438720703125000 -0.003067475510761142210719443213 -0.000502943003084510564804077148 0 0 0 0 
2413166666.6666665077 0.165595173835754394531250000000 -0.044976536184549331665039062500 -0.003019923344254494147059775244 -0.000453532731626182794570922852 0 0 0 0 
2413333333.3333334923 0.164917454123497009277343750000 -0.045903790742158889770507812500 -0.003225312102586030960083007812 -0.000333869975293055176734924316 0 0 0 0 
2413500000.0000000000 0.164726987481117304046307481258 -0.046856533735990517353098283593 -0.003178919898346066908595419775 -0.000148410093970596790313720703 0 0 0 0 
2413666666.6666665077 0.164223253726959200760049384371 -0.048152353614568710327148437500 -0.003509984118863939805271767725 0.000090942987299058586359024048 0 0 0 0 
2413833333.3333334923 0.163684085011482211013955634371 -0.048998847603797912597656250000 -0.003377024782821536064147949219 0.000326259410940110683441162109 0 0 0 0 
2414000000.0000000000 0.163099646568298312088174384371 -0.049918297678232192993164062500 -0.003488239133730531172511435400 0.000445227051386609673500061035 0 0 0 0 
2414166666.6666665077 0.162727966904640197753906250000 -0.050811007618904106830637346093 -0.003410751698538661003112792969 0.000739308248739689588546752930 0 0 0 0 
2414333333.3333334923 0.162152543663978604415731865629 -0.051905397325754172588307966407 -0.003269798588007688956019736182 0.000884653534740209579467773438 0 0 0 0 
2414500000.0000000000 0.162001833319664001464843750000 -0.052971068769693381572682966407 -0.003169867908582090897801064600 0.001155826961621641895891499097 0 0 0 0 
2414666666.6666665077 0.161582738161087008377236884371 -0.053936511278152472759206403907 -0.003028906416147946877720498193 0.001285747392103075981140136719 0 0 0 0 
2414833333.3333334923 0.161105290055274991134481865629 -0.055095497518777847290039062500 -0.003009484149515628814697265625 0.001540088560432196097133017432 0 0 0 0 
2415000000.0000000000 0.160808384418487604339276231258 -0.055928051471710212017018903907 -0.002922837855294346809387207031 0.001734540681354701952693320166 0 0 0 0 
2415166666.6666665077 0.160630747675895690917968750000 -0.057151798158884048461914062500 -0.002609177492558956146240234375 0.001832793699577450969098735278 0 0 0 0 
2415333333.3333334923 0.160468861460685702224893134371 -0.058334253728389739990234375000 -0.002561028813943266868591308594 0.001893547014333307959912944263 0 0 0 0 
2415500000.0000000000 0.160305917263031005859375000000 -0.059517681598663330078125000000 -0.002193029737100005149841308594 0.002040583174675703048706054688 0 0 0 0 
2415666666.6666665077 0.160020112991333007812500000000 -0.060508444905281066894531250000 -0.002001900225877761840820312500 0.001962466631084680990931845557 0 0 0 0 
2415833333.3333334923 0.159915462136268587967080634371 -0.061880294233560562133789062500 -0.001800200901925564029096293872 0.002149773063138126893284463037 0 0 0 0 
2416000000.0000000000 0.159568756818771390060263115629 -0.063131317496299743652343750000 -0.001505768275819719054578471606 0.002133299130946398215052939307 0 0 0 0 
2416166666.6666665077 0.159664094448089599609375000000 -0.064403392374515533447265625000 -0.001470731338486074967625283350 0.001919777365401386997820210034 0 0 0 0 
2416333333.3333334923 0.159272372722625704666299384371 -0.065574228763580322265625000000 -0.001222872058860958056208945166 0.001900820992887019894243549878 0 0 0 0 
2416500000.0000000000 0.158968925476074190994424384371 -0.066933140158653259277343750000 -0.001085556927137077071546245044 0.001677867141552269892451620947 0 0 0 0 
2416666666.6666665077 0.158631727099418612381143134371 -0.068090133368968963623046875000 -0.000991169479675590991973876953 0.001610569306649268107173300635 0 0 0 0 
2416833333.3333334923 0.158528104424476595779580634371 -0.069464936852455139160156250000 -0.000911625334993004798889160156 0.001411955105140805027605366284 0 0 0 0 
2417000000.0000000000 0.158059164881706210037393134371 -0.070563808083534240722656250000 -0.000792323320638388395309448242 0.001435073208995163007023476709 0 0 0 0 
2417166666.6666665077 0.157755494117736788650674384371 -0.071611650288105010986328125000 -0.000756204244680702686309814453 0.001300233067013323090196919019 0 0 0 0 
2417333333.3333334923 0.157472521066665704925213731258 -0.072648100554943084716796875000 -0.000768889149185270071029663086 0.001011403859592973969103169019 0 0 0 0 
2417500000.0000000000 0.157052025198936490157919365629 -0.073801249265670776367187500000 -0.000839606916997581720352172852 0.001102511072531342940089560400 0 0 0 0 
2417666666.6666665077 0.156953915953636197189169365629 -0.074564568698406219482421875000 -0.000933165370952337980270385742 0.000934994721319526433944702148 0 0 0 0 
2417833333.3333334923 0.156671002507209805587606865629 -0.075567118823528289794921875000 -0.001126102870330214934108115088 0.000996705261059105396270751953 0 0 0 0 
2418000000.0000000000 0.156268090009689303299111884371 -0.076545156538486480712890625000 -0.000992256565950810909271240234 0.000814575701951980590820312500 0 0 0 0 
2418166666.6666665077 0.155987292528152493575888115629 -0.077311895787715911865234375000 -0.001170319970697164969203329932 0.000800113717559725046157836914 0 0 0 0 
2418333333.3333334923 0.156142979860305786132812500000 -0.078100681304931640625000000000 -0.001181072439067065932630229419 0.000767529534641653299331665039 0 0 0 0 
2418500000.0000000000 0.155759990215301513671875000000 -0.079018540680408477783203125000 -0.001247332547791301987291645581 0.000743035168852657079696655273 0 0 0 0 
2418666666.6666665077 0.155620321631431607345419365629 -0.079787030816078186035156250000 -0.001507944194599986076354980469 0.000761294446419924497604370117 0 0 0 0 
2418833333.3333334923 0.155239656567573602874432481258 -0.080571301281452178955078125000 -0.001715777441859245083452534253 0.000876852369401603937149047852 0 0 0 0 
2419000000.0000000000 0.154823675751686096191406250000 -0.081336848437786102294921875000 -0.001769351423718035004259419019 0.000923110288567841053009033203 0 0 0 0 
2419166666.6666665077 0.154752820730209406097088731258 -0.082101382315158843994140625000 -0.001888720318675040981890034253 0.001141041750088334083557128906 0 0 0 0 
2419333333.3333334923 0.154232650995254488845986884371 -0.082655534148216247558593750000 -0.001923464238643646023393940503 0.001125148963183165030238486182 0 0 0 0 
2419500000.0000000000 0.154167428612709100921307481258 -0.083404764533042907714843750000 -0.002013135002925992012023925781 0.001288125175051390907884907300 0 0 0 0 
2419666666.6666665077 0.153909638524055508712606865629 -0.084020338952541351318359375000 -0.001960198394954204993007040869 0.001513303141109644932987832178 0 0 0 0 
2419833333.3333334923 0.153488352894782992263955634371 -0.084472849965095520019531250000 -0.001987997675314546065089560400 0.001505986321717500903485942310 0 0 0 0 
