# Version 1.00
#
freq[Hz];re:Trc1_S11;im:Trc1_S11;re:Trc2_S21;im:Trc2_S21;
2.400000000000000E+009;1.583648622035980E-001;6.267166882753372E-002;-8.713916031410918E-005;3.395861713215709E-003;
2.400166666666667E+009;1.581089794635773E-001;6.114581599831581E-002;-8.603739843238145E-005;3.457546932622790E-003;
2.400333333333334E+009;1.579194962978363E-001;5.920484662055969E-002;1.289292122237384E-004;3.309722989797592E-003;
2.400500000000000E+009;1.579675674438477E-001;5.735280364751816E-002;1.679878041613847E-004;3.425397211685777E-003;
2.400666666666667E+009;1.578579843044281E-001;5.521237477660179E-002;3.159073239658028E-004;3.311934182420373E-003;
2.400833333333334E+009;1.579549908638001E-001;5.329101532697678E-002;2.706448722165078E-004;3.219638485461474E-003;
2.401000000000000E+009;1.579560935497284E-001;5.127435550093651E-002;4.562007088679820E-004;3.384811570867896E-003;
2.401166666666667E+009;1.581850945949554E-001;4.909140989184380E-002;4.827643278986216E-004;3.308645682409406E-003;
2.401333333333334E+009;1.582563817501068E-001;4.700801149010658E-002;6.198966875672340E-004;3.192604519426823E-003;
2.401500000000000E+009;1.586260497570038E-001;4.496889933943749E-002;7.413459825329483E-004;3.199554514139891E-003;
2.401666666666667E+009;1.587279140949249E-001;4.301521554589272E-002;6.839379784651101E-004;3.245706669986248E-003;
2.401833333333334E+009;1.592625081539154E-001;4.083728417754173E-002;9.115625289268792E-004;3.259902587160468E-003;
2.402000000000000E+009;1.594224125146866E-001;3.898889198899269E-002;1.052532112225890E-003;3.209046088159084E-003;
2.402166666666667E+009;1.601715534925461E-001;3.704997524619103E-002;1.248404849320650E-003;3.020161530002952E-003;
2.402333333333334E+009;1.605364531278610E-001;3.506873920559883E-002;9.726321441121399E-004;3.297347342595458E-003;
2.402500000000000E+009;1.614363342523575E-001;3.328350931406021E-002;1.277311588637531E-003;3.140517743304372E-003;
2.402666666666667E+009;1.619648188352585E-001;3.141484037041664E-002;1.323489123024046E-003;3.099215449765325E-003;
2.402833333333334E+009;1.628318876028061E-001;2.976598031818867E-002;1.335244975052774E-003;2.987047424539924E-003;
2.403000000000000E+009;1.635128855705261E-001;2.789404243230820E-002;1.487098168581724E-003;3.101818263530731E-003;
2.403166666666667E+009;1.643462926149368E-001;2.639843896031380E-002;1.549496315419674E-003;2.912581665441394E-003;
2.403333333333334E+009;1.652995645999908E-001;2.489976771175861E-002;1.763021922670305E-003;2.786250319331884E-003;
2.403500000000000E+009;1.662434339523315E-001;2.342371270060539E-002;1.626462559215725E-003;2.996148541569710E-003;
2.403666666666667E+009;1.671302914619446E-001;2.193254791200161E-002;1.817857148125768E-003;2.956690266728401E-003;
2.403833333333334E+009;1.682843565940857E-001;2.069540321826935E-002;1.931397011503577E-003;2.758149057626724E-003;
2.404000000000000E+009;1.691752374172211E-001;1.947151310741901E-002;2.081477781757712E-003;2.778339665383101E-003;
2.404166666666667E+009;1.701724231243134E-001;1.848837174475193E-002;1.937757129780948E-003;2.856257371604443E-003;
2.404333333333334E+009;1.710355430841446E-001;1.744128577411175E-002;2.152219647541642E-003;2.636794233694673E-003;
2.404500000000000E+009;1.719405055046082E-001;1.637182943522930E-002;2.304746303707361E-003;2.454800764098764E-003;
2.404666666666667E+009;1.731014251708984E-001;1.551528368145227E-002;2.230898942798376E-003;2.522667404264212E-003;
2.404833333333334E+009;1.738503277301788E-001;1.480974722653627E-002;2.457635942846537E-003;2.414742484688759E-003;
2.405000000000000E+009;1.747649461030960E-001;1.408333517611027E-002;2.569554373621941E-003;2.370402915403247E-003;
2.405166666666667E+009;1.757257133722305E-001;1.337027829140425E-002;2.627241890877485E-003;2.436172682791948E-003;
2.405333333333334E+009;1.764750033617020E-001;1.267643366008997E-002;2.734379377216101E-003;2.274825470522046E-003;
2.405500000000000E+009;1.772946119308472E-001;1.237983442842960E-002;2.745145466178656E-003;2.204872202128172E-003;
2.405666666666667E+009;1.780100613832474E-001;1.191466115415096E-002;2.885211724787951E-003;2.250735880807042E-003;
2.405833333333334E+009;1.783399730920792E-001;1.149939652532339E-002;2.880057785660029E-003;2.093169838190079E-003;
2.406000000000000E+009;1.789985746145248E-001;1.101562753319740E-002;2.978199394419789E-003;2.050896175205708E-003;
2.406166666666667E+009;1.795132458209992E-001;1.093497592955828E-002;3.128395415842533E-003;1.831523841246963E-003;
2.406333333333334E+009;1.800343543291092E-001;1.048637647181749E-002;3.244296880438924E-003;1.774244010448456E-003;
2.406500000000000E+009;1.803670078516007E-001;1.022361032664776E-002;3.315997077152133E-003;1.620389986783266E-003;
2.406666666666667E+009;1.804284453392029E-001;1.007003709673882E-002;3.321060212329030E-003;1.483639469370246E-003;
2.406833333333334E+009;1.807296276092529E-001;9.577101096510887E-003;3.494579810649157E-003;1.452495460398495E-003;
2.407000000000000E+009;1.808333545923233E-001;9.331587702035904E-003;3.549195360392332E-003;1.400673179887235E-003;
2.407166666666667E+009;1.809898018836975E-001;8.990162052214146E-003;3.629437880590558E-003;1.158018480055034E-003;
2.407333333333334E+009;1.808475852012634E-001;8.618324063718319E-003;3.688718890771270E-003;1.078361761756241E-003;
2.407500000000000E+009;1.807160377502441E-001;8.204064331948757E-003;3.810713766142726E-003;7.762950262986124E-004;
2.407666666666667E+009;1.804893612861633E-001;7.749224081635475E-003;3.741646418347955E-003;7.705607567913830E-004;
2.407833333333334E+009;1.800067424774170E-001;7.182459346950054E-003;3.884475212544203E-003;6.455887923948467E-004;
2.408000000000000E+009;1.798105835914612E-001;6.600768771022558E-003;3.881974378600717E-003;3.408961929380894E-004;
2.408166666666667E+009;1.793182194232941E-001;6.004799157381058E-003;3.850671462714672E-003;2.544437593314797E-004;
2.408333333333334E+009;1.791132092475891E-001;5.286172032356262E-003;3.941330593079329E-003;1.547130377730355E-004;
2.408500000000000E+009;1.782935857772827E-001;4.573821090161800E-003;3.766214707866311E-003;-1.180678809760138E-004;
2.408666666666667E+009;1.777764409780502E-001;3.606473561376333E-003;3.782751969993115E-003;-2.620505983941257E-004;
2.408833333333334E+009;1.771483421325684E-001;2.757782582193613E-003;3.875845577567816E-003;-2.086441236315295E-004;
2.409000000000000E+009;1.765094697475433E-001;1.780439633876085E-003;3.841869998723269E-003;-4.382780170999467E-004;
2.409166666666667E+009;1.757721304893494E-001;6.009837379679084E-004;3.808290464803577E-003;-6.920115556567907E-004;
2.409333333333334E+009;1.751366704702377E-001;-5.711294943466783E-004;3.926656208932400E-003;-7.919174386188388E-004;
2.409500000000000E+009;1.744656860828400E-001;-2.104445360600948E-003;3.660591552034020E-003;-7.889325497671962E-004;
2.409666666666667E+009;1.735135912895203E-001;-3.291159169748426E-003;3.691756166517735E-003;-1.128831761889160E-003;
2.409833333333334E+009;1.728675812482834E-001;-4.568839911371470E-003;3.745536785572767E-003;-1.190776121802628E-003;
2.410000000000000E+009;1.723130196332932E-001;-6.153997965157032E-003;3.726602299138904E-003;-1.179419807158411E-003;
2.410166666666667E+009;1.717371642589569E-001;-7.798630744218826E-003;3.478835569694638E-003;-1.497870543971658E-003;
2.410333333333334E+009;1.710459589958191E-001;-9.369764477014542E-003;3.426629817113280E-003;-1.519154990091920E-003;
2.410500000000000E+009;1.705462932586670E-001;-1.119815185666084E-002;3.199255093932152E-003;-1.662992755882442E-003;
2.410666666666667E+009;1.699781715869904E-001;-1.300565991550684E-002;3.111745230853558E-003;-1.822913181968033E-003;
2.410833333333334E+009;1.695757657289505E-001;-1.470238622277975E-002;3.219443373382092E-003;-1.846942934207618E-003;
2.411000000000000E+009;1.691057085990906E-001;-1.644389517605305E-002;3.139392938464880E-003;-1.899063703604043E-003;
2.411166666666667E+009;1.688907444477081E-001;-1.863001845777035E-002;2.958758501335979E-003;-2.172064501792193E-003;
2.411333333333334E+009;1.683956980705261E-001;-2.032486163079739E-002;2.880506450310350E-003;-2.208660123869777E-003;
2.411500000000000E+009;1.681338846683502E-001;-2.243456244468689E-002;2.949185436591506E-003;-2.303611254319549E-003;
2.411666666666667E+009;1.682258099317551E-001;-2.436588890850544E-002;2.592598786577582E-003;-2.444751793518663E-003;
2.411833333333334E+009;1.680627912282944E-001;-2.631272748112679E-002;2.576169557869434E-003;-2.522127702832222E-003;
2.412000000000000E+009;1.681234389543533E-001;-2.825224585831165E-002;2.473105210810900E-003;-2.412718720734119E-003;
2.412166666666667E+009;1.681775897741318E-001;-3.029369376599789E-002;2.381096361204982E-003;-2.650094451382756E-003;
2.412333333333334E+009;1.685296595096588E-001;-3.212814033031464E-002;2.321282401680946E-003;-2.677536569535732E-003;
2.412500000000000E+009;1.685204505920410E-001;-3.398128226399422E-002;1.900778966955841E-003;-2.731701824814081E-003;
2.412666666666667E+009;1.688343137502670E-001;-3.614670410752296E-002;1.915502129122615E-003;-2.958756405860186E-003;
2.412833333333334E+009;1.692337989807129E-001;-3.798382356762886E-002;1.834963681176305E-003;-2.958399243652821E-003;
2.413000000000000E+009;1.694280952215195E-001;-3.972529247403145E-002;1.753973891027272E-003;-2.938123187050223E-003;
2.413166666666667E+009;1.698442548513413E-001;-4.153855517506599E-002;1.595587469637394E-003;-2.983677666634321E-003;
2.413333333333334E+009;1.703691035509110E-001;-4.322004690766335E-002;1.482564490288496E-003;-3.142525209113956E-003;
2.413500000000000E+009;1.707937419414520E-001;-4.482128098607063E-002;1.451395917683840E-003;-3.142401343211532E-003;
2.413666666666667E+009;1.713486462831497E-001;-4.650074988603592E-002;1.134342513978481E-003;-3.094673389568925E-003;
2.413833333333334E+009;1.718487590551376E-001;-4.789386689662933E-002;1.095430925488472E-003;-3.062931122258306E-003;
2.414000000000000E+009;1.721990257501602E-001;-4.937596991658211E-002;1.063518458977342E-003;-3.143099136650562E-003;
2.414166666666667E+009;1.731079816818237E-001;-5.055977776646614E-002;7.322047604247928E-004;-3.154042642563582E-003;
2.414333333333334E+009;1.735531091690064E-001;-5.206452310085297E-002;7.118146750144661E-004;-3.133174031972885E-003;
2.414500000000000E+009;1.741587519645691E-001;-5.289119854569435E-002;5.647713551297784E-004;-3.230491885915399E-003;
2.414666666666667E+009;1.747124940156937E-001;-5.400400236248970E-002;4.162573604844511E-004;-3.008008003234863E-003;
2.414833333333334E+009;1.749800890684128E-001;-5.504012107849121E-002;2.607812639325857E-004;-3.089220263063908E-003;
2.415000000000000E+009;1.756288558244705E-001;-5.586398392915726E-002;3.087113436777145E-004;-3.051476785913110E-003;
2.415166666666667E+009;1.759761273860931E-001;-5.661585181951523E-002;-4.934283060720190E-005;-3.009948879480362E-003;
2.415333333333334E+009;1.764549612998962E-001;-5.743195116519928E-002;-1.911797007778660E-004;-2.897836500778794E-003;
2.415500000000000E+009;1.768283396959305E-001;-5.787912011146545E-002;-2.709194086492062E-004;-2.990809734910727E-003;
2.415666666666667E+009;1.770258396863937E-001;-5.853259563446045E-002;-4.438880714587867E-004;-2.859394531697035E-003;
2.415833333333334E+009;1.772539466619492E-001;-5.890851840376854E-002;-3.940197057090700E-004;-2.920025261119008E-003;
2.416000000000000E+009;1.772561967372894E-001;-5.938105285167694E-002;-5.801098304800689E-004;-2.702358644455671E-003;
2.416166666666667E+009;1.776531338691711E-001;-5.970826745033264E-002;-5.795473698526621E-004;-2.704243408516049E-003;
2.416333333333334E+009;1.775284707546234E-001;-6.004056334495544E-002;-7.607324514538050E-004;-2.537545515224338E-003;
2.416500000000000E+009;1.773531287908554E-001;-6.035845354199410E-002;-7.489621639251709E-004;-2.475711749866605E-003;
2.416666666666667E+009;1.771944314241409E-001;-6.048456951975822E-002;-7.553015602752566E-004;-2.496186876669526E-003;
2.416833333333334E+009;1.771048605442047E-001;-6.082107499241829E-002;-8.618288557045162E-004;-2.538715023547411E-003;
2.417000000000000E+009;1.765360385179520E-001;-6.099135801196098E-002;-9.873167145997286E-004;-2.475209534168243E-003;
2.417166666666667E+009;1.762857139110565E-001;-6.125707924365997E-002;-9.392839856445789E-004;-2.498999238014221E-003;
2.417333333333334E+009;1.756983846426010E-001;-6.136334314942360E-002;-1.078712055459619E-003;-2.272554207593203E-003;
2.417500000000000E+009;1.750571131706238E-001;-6.172654777765274E-002;-1.023694640025497E-003;-2.242267597466707E-003;
2.417666666666667E+009;1.746205240488052E-001;-6.179320067167282E-002;-1.325245480984449E-003;-2.135465387254953E-003;
2.417833333333334E+009;1.736454814672470E-001;-6.212399154901505E-002;-1.095243263989687E-003;-2.105799037963152E-003;
2.418000000000000E+009;1.727748960256577E-001;-6.243941560387611E-002;-1.219932455569506E-003;-1.912229345180094E-003;
2.418166666666667E+009;1.717815995216370E-001;-6.260338425636292E-002;-1.376179861836135E-003;-1.953526400029659E-003;
2.418333333333334E+009;1.711094826459885E-001;-6.308989971876144E-002;-1.464159809984267E-003;-1.893932698294520E-003;
2.418500000000000E+009;1.699364483356476E-001;-6.344953179359436E-002;-1.531703630462289E-003;-1.858284464105964E-003;
2.418666666666667E+009;1.690448373556137E-001;-6.393173336982727E-002;-1.393799087963998E-003;-1.856729155406356E-003;
2.418833333333334E+009;1.676469594240189E-001;-6.452713906764984E-002;-1.589097664691508E-003;-1.781263388693333E-003;
2.419000000000000E+009;1.664997637271881E-001;-6.499347835779190E-002;-1.604992663487792E-003;-1.645767362788320E-003;
2.419166666666667E+009;1.653206199407578E-001;-6.570423394441605E-002;-1.657382934354246E-003;-1.528285094536841E-003;
2.419333333333334E+009;1.639736443758011E-001;-6.620892137289047E-002;-1.528105349279940E-003;-1.452374737709761E-003;
2.419500000000000E+009;1.629208326339722E-001;-6.727646291255951E-002;-1.683228649199009E-003;-1.400230219587684E-003;
2.419666666666667E+009;1.617302298545837E-001;-6.822635978460312E-002;-1.671484322287142E-003;-1.397941610775888E-003;
2.419833333333334E+009;1.605095416307449E-001;-6.889928132295609E-002;-1.643383875489235E-003;-1.356853405013681E-003;
2.420000000000000E+009;1.594888269901276E-001;-6.994280964136124E-002;-1.693579484708607E-003;-1.185860717669129E-003;
2.420166666666667E+009;1.582641005516052E-001;-7.131393253803253E-002;-1.853881520219147E-003;-1.301290816627443E-003;
2.420333333333334E+009;1.572685539722443E-001;-7.243321835994721E-002;-1.814461778849363E-003;-9.234801400452852E-004;
2.420500000000000E+009;1.561860442161560E-001;-7.342036068439484E-002;-1.823905506171286E-003;-9.205313399434090E-004;
2.420666666666667E+009;1.550709605216980E-001;-7.478420436382294E-002;-1.834915368817747E-003;-8.789642597548664E-004;
2.420833333333334E+009;1.542068719863892E-001;-7.638973742723465E-002;-1.876671100035310E-003;-8.957074023783207E-004;
2.421000000000000E+009;1.532817929983139E-001;-7.785239815711975E-002;-1.808814820833504E-003;-6.622429355047643E-004;
2.421166666666667E+009;1.526280045509338E-001;-7.927322387695313E-002;-1.735171535983682E-003;-6.380847771652043E-004;
2.421333333333334E+009;1.520398557186127E-001;-8.088576048612595E-002;-1.774008851498365E-003;-5.692178965546191E-004;
2.421500000000000E+009;1.512648314237595E-001;-8.245156705379486E-002;-1.898116199299693E-003;-4.411904956214130E-004;
2.421666666666667E+009;1.507361233234406E-001;-8.401689678430557E-002;-1.825504703447223E-003;-3.121100016869605E-004;
2.421833333333334E+009;1.503010243177414E-001;-8.560493588447571E-002;-1.710306620225310E-003;-3.668272402137518E-004;
2.422000000000000E+009;1.499416232109070E-001;-8.736097812652588E-002;-1.820893841795623E-003;-3.410300414543599E-004;
2.422166666666667E+009;1.496589481830597E-001;-8.929073065519333E-002;-1.726279850117862E-003;-1.077873166650534E-004;
2.422333333333334E+009;1.496009081602097E-001;-9.071198105812073E-002;-1.790109905414283E-003;-1.251149515155703E-004;
2.422500000000000E+009;1.493508666753769E-001;-9.240125864744186E-002;-1.641058945097029E-003;-3.210318755009212E-005;
2.422666666666667E+009;1.491528749465942E-001;-9.433840215206146E-002;-1.521487953141332E-003;4.536767391982721E-006;
2.422833333333334E+009;1.494858115911484E-001;-9.596732258796692E-002;-1.517732394859195E-003;1.632831990718842E-004;
2.423000000000000E+009;1.495299041271210E-001;-9.757398068904877E-002;-1.592492335475981E-003;2.562680165283382E-004;
2.423166666666667E+009;1.498480737209320E-001;-9.926934540271759E-002;-1.373919076286256E-003;2.861510729417205E-004;
2.423333333333334E+009;1.500775516033173E-001;-1.006964594125748E-001;-1.408108859322965E-003;3.130460099782795E-004;
2.423500000000000E+009;1.504799574613571E-001;-1.023290753364563E-001;-1.313781831413508E-003;3.337461675982922E-004;
2.423666666666667E+009;1.505687087774277E-001;-1.038966551423073E-001;-1.191116403788328E-003;4.297218401916325E-004;
2.423833333333334E+009;1.511222571134567E-001;-1.054817140102387E-001;-1.155040459707379E-003;4.550031735561788E-004;
2.424000000000000E+009;1.514640450477600E-001;-1.067631691694260E-001;-1.200455357320607E-003;4.881007480435073E-004;
2.424166666666667E+009;1.519848555326462E-001;-1.080491542816162E-001;-9.649539715610445E-004;5.657358560711145E-004;
2.424333333333334E+009;1.525105237960815E-001;-1.092352047562599E-001;-9.992906125262380E-004;5.174903781153262E-004;
2.424500000000000E+009;1.530138552188873E-001;-1.106086149811745E-001;-7.762118475511670E-004;3.854559327010065E-004;
2.424666666666667E+009;1.536832898855209E-001;-1.113629415631294E-001;-8.216951973736286E-004;4.456939350347966E-004;
2.424833333333334E+009;1.540118753910065E-001;-1.125566810369492E-001;-6.350686307996512E-004;5.612556124106050E-004;
2.425000000000000E+009;1.545498073101044E-001;-1.135555431246758E-001;-6.799687398597598E-004;5.124768940731883E-004;
2.425166666666667E+009;1.547482609748840E-001;-1.143171191215515E-001;-6.630482967011631E-004;5.078543908894062E-004;
2.425333333333334E+009;1.551489233970642E-001;-1.150229498744011E-001;-7.215621299110353E-004;4.596703802235425E-004;
2.425500000000000E+009;1.556394100189209E-001;-1.158773452043533E-001;-5.083482828922570E-004;4.578536318149418E-004;
2.425666666666667E+009;1.558931767940521E-001;-1.164638102054596E-001;-4.576427745632827E-004;3.599636256694794E-004;
2.425833333333334E+009;1.561350524425507E-001;-1.170333325862885E-001;-5.509033217094839E-004;3.812334034591913E-004;
2.426000000000000E+009;1.562743335962296E-001;-1.175005808472633E-001;-4.351547104306519E-004;3.859419957734644E-004;
2.426166666666667E+009;1.566437333822250E-001;-1.178709194064140E-001;-2.763971278909594E-004;3.062053874600679E-004;
2.426333333333334E+009;1.564998179674149E-001;-1.182244569063187E-001;-4.166154831182212E-004;3.601898206397891E-004;
2.426500000000000E+009;1.566328257322311E-001;-1.185658574104309E-001;-2.711665001697838E-004;2.801108639687300E-004;
2.426666666666667E+009;1.566393971443176E-001;-1.185627505183220E-001;-2.906110312324017E-004;2.784193202387542E-004;
2.426833333333334E+009;1.562625318765640E-001;-1.188576892018318E-001;-2.396207273704931E-004;1.474974560551345E-004;
2.427000000000000E+009;1.560330092906952E-001;-1.190884113311768E-001;-3.490484959911555E-004;1.472747535444796E-004;
2.427166666666667E+009;1.556383222341538E-001;-1.190693005919457E-001;-1.736096019158140E-004;1.001164127956145E-004;
2.427333333333334E+009;1.551159918308258E-001;-1.191249787807465E-001;-1.630407641641796E-004;-3.314785135444254E-005;
2.427500000000000E+009;1.546999961137772E-001;-1.192490532994270E-001;-1.699494459899142E-004;-2.533508450142108E-005;
2.427666666666667E+009;1.539259105920792E-001;-1.194113120436668E-001;-2.313699224032462E-004;6.534136628033593E-005;
