# Version 1.00
#
freq[Hz];re:Trc1_S11;im:Trc1_S11;re:Trc2_S21;im:Trc2_S21;
2.400000000000000E+009;1.581390053033829E-001;6.254474073648453E-002;-3.003510937560350E-004;3.400595625862479E-003;
2.400166666666667E+009;1.580917984247208E-001;6.110655516386032E-002;-1.084845716832206E-004;3.380140289664269E-003;
2.400333333333334E+009;1.578045785427094E-001;5.926620215177536E-002;1.708071358734742E-004;3.476639511063695E-003;
2.400500000000000E+009;1.577640175819397E-001;5.747598409652710E-002;1.902327639982104E-004;3.541229292750359E-003;
2.400666666666667E+009;1.577448695898056E-001;5.517445504665375E-002;2.412017638562247E-004;3.512403694912791E-003;
2.400833333333334E+009;1.577201634645462E-001;5.328655242919922E-002;4.037815670017153E-004;3.327450715005398E-003;
2.401000000000000E+009;1.578296869993210E-001;5.130530521273613E-002;3.528568486217409E-004;3.249209141358733E-003;
2.401166666666667E+009;1.578438282012940E-001;4.908832162618637E-002;4.812828847207129E-004;3.218831494450569E-003;
2.401333333333334E+009;1.580798327922821E-001;4.693942144513130E-002;5.962725263088942E-004;3.394380211830139E-003;
2.401500000000000E+009;1.585291922092438E-001;4.501840472221375E-002;6.768747698515654E-004;3.269039094448090E-003;
2.401666666666667E+009;1.586862355470657E-001;4.305946081876755E-002;5.431221798062325E-004;3.128182608634234E-003;
2.401833333333334E+009;1.593170762062073E-001;4.094826430082321E-002;7.133510080166161E-004;3.185376292094588E-003;
2.402000000000000E+009;1.594819277524948E-001;3.890648484230042E-002;8.562448201701045E-004;3.202324965968728E-003;
2.402166666666667E+009;1.600163280963898E-001;3.676729649305344E-002;9.777338709682226E-004;3.310592845082283E-003;
2.402333333333334E+009;1.603944152593613E-001;3.502763435244560E-002;1.035218243487179E-003;3.083693329244852E-003;
2.402500000000000E+009;1.613493859767914E-001;3.319227322936058E-002;1.138590974733234E-003;3.076208988204598E-003;
2.402666666666667E+009;1.620933115482330E-001;3.150327876210213E-002;1.186325913295150E-003;3.200037404894829E-003;
2.402833333333334E+009;1.628097146749497E-001;2.960971742868424E-002;1.332803280092776E-003;2.993548754602671E-003;
2.403000000000000E+009;1.635328084230423E-001;2.794333733618259E-002;1.420262386091054E-003;3.020784817636013E-003;
2.403166666666667E+009;1.644073724746704E-001;2.632160484790802E-002;1.405232818797231E-003;3.190024755895138E-003;
2.403333333333334E+009;1.652512997388840E-001;2.493063360452652E-002;1.515510142780840E-003;3.015473252162337E-003;
2.403500000000000E+009;1.660704016685486E-001;2.353801578283310E-002;1.671193633228540E-003;2.823158632963896E-003;
2.403666666666667E+009;1.671054512262344E-001;2.202758379280567E-002;1.802167855203152E-003;2.917213132604957E-003;
2.403833333333334E+009;1.681755930185318E-001;2.081920392811298E-002;1.807600841857493E-003;2.924983855336905E-003;
2.404000000000000E+009;1.690859347581863E-001;1.959695108234882E-002;1.949474681168795E-003;2.718853764235973E-003;
2.404166666666667E+009;1.701311022043228E-001;1.849661767482758E-002;2.024359069764614E-003;2.693469636142254E-003;
2.404333333333334E+009;1.710968315601349E-001;1.751142367720604E-002;2.223131246864796E-003;2.747889142483473E-003;
2.404500000000000E+009;1.719721108675003E-001;1.646188274025917E-002;2.270134165883064E-003;2.682486083358526E-003;
2.404666666666667E+009;1.729403585195541E-001;1.559949386864901E-002;2.333960728719831E-003;2.516853623092175E-003;
2.404833333333334E+009;1.737594157457352E-001;1.492048799991608E-002;2.590450458228588E-003;2.672425704076886E-003;
2.405000000000000E+009;1.748260557651520E-001;1.418470684438944E-002;2.407130086794496E-003;2.493005478754640E-003;
2.405166666666667E+009;1.757524460554123E-001;1.338746026158333E-002;2.622528467327356E-003;2.311458112671971E-003;
2.405333333333334E+009;1.765681803226471E-001;1.278783008456230E-002;2.731777727603912E-003;2.234669169411063E-003;
2.405500000000000E+009;1.772537082433701E-001;1.236262358725071E-002;2.664110157638788E-003;2.203112235292792E-003;
2.405666666666667E+009;1.780245006084442E-001;1.210861653089523E-002;2.817438915371895E-003;1.979139400646091E-003;
2.405833333333334E+009;1.783895492553711E-001;1.162116229534149E-002;2.994035137817264E-003;2.178420312702656E-003;
2.406000000000000E+009;1.790996789932251E-001;1.104183401912451E-002;3.152364399284124E-003;2.170828171074390E-003;
2.406166666666667E+009;1.794407516717911E-001;1.089562568813562E-002;3.001241944730282E-003;1.842516590841115E-003;
2.406333333333334E+009;1.801950186491013E-001;1.052708923816681E-002;3.267086343839765E-003;1.790850888937712E-003;
2.406500000000000E+009;1.803035736083984E-001;1.018106192350388E-002;3.371667582541704E-003;1.660077832639217E-003;
2.406666666666667E+009;1.805857568979263E-001;9.907426312565804E-003;3.414343576878309E-003;1.614483306184411E-003;
2.406833333333334E+009;1.807476878166199E-001;9.639850817620754E-003;3.571786917746067E-003;1.452125608921051E-003;
2.407000000000000E+009;1.808013170957565E-001;9.322596713900566E-003;3.541686106473208E-003;1.434057136066258E-003;
2.407166666666667E+009;1.809995174407959E-001;9.081637486815453E-003;3.802117891609669E-003;1.159305218607187E-003;
2.407333333333334E+009;1.808298230171204E-001;8.555538021028042E-003;3.662568982690573E-003;1.042677089571953E-003;
2.407500000000000E+009;1.808152049779892E-001;8.151496760547161E-003;3.657930996268988E-003;9.153833962045610E-004;
2.407666666666667E+009;1.804971843957901E-001;7.717577274888754E-003;3.810901427641511E-003;8.515245863236487E-004;
2.407833333333334E+009;1.800083816051483E-001;7.193848025053740E-003;3.803479485213757E-003;5.720544140785933E-004;
2.408000000000000E+009;1.798077374696732E-001;6.526320707052946E-003;3.835514886304736E-003;3.844352613668889E-004;
2.408166666666667E+009;1.792901754379273E-001;6.057429127395153E-003;3.909898921847343E-003;2.870019525289536E-004;
2.408333333333334E+009;1.790260523557663E-001;5.326275248080492E-003;3.864762140437961E-003;2.857184445019811E-004;
2.408500000000000E+009;1.783151030540466E-001;4.437927622348070E-003;3.990395925939083E-003;6.816371751483530E-005;
2.408666666666667E+009;1.778152436017990E-001;3.542094724252820E-003;3.868510248139501E-003;-3.591672793845646E-005;
2.408833333333334E+009;1.770775467157364E-001;2.670685993507505E-003;3.917479887604713E-003;-1.997053623199463E-004;
2.409000000000000E+009;1.764835268259049E-001;1.702682697214186E-003;3.824433311820030E-003;-3.478896105661988E-004;
2.409166666666667E+009;1.757837682962418E-001;5.410342710092664E-004;3.893613815307617E-003;-6.101253675296903E-004;
2.409333333333334E+009;1.750933825969696E-001;-7.055351161397994E-004;3.832675516605377E-003;-6.653438322246075E-004;
2.409500000000000E+009;1.743417978286743E-001;-2.002308843657374E-003;3.851964138448238E-003;-8.380988147109747E-004;
2.409666666666667E+009;1.735629886388779E-001;-3.352564759552479E-003;3.709733719006181E-003;-9.526096982881427E-004;
2.409833333333334E+009;1.728742867708206E-001;-4.797053057700396E-003;3.563064383342862E-003;-1.145702204667032E-003;
2.410000000000000E+009;1.723029762506485E-001;-6.173288449645042E-003;3.738216590136290E-003;-1.222908729687333E-003;
2.410166666666667E+009;1.716153919696808E-001;-7.876217365264893E-003;3.517819568514824E-003;-1.303490251302719E-003;
2.410333333333334E+009;1.709925085306168E-001;-9.371575899422169E-003;3.337186994031072E-003;-1.541088218800724E-003;
2.410500000000000E+009;1.705548018217087E-001;-1.118986308574677E-002;3.323248587548733E-003;-1.577434362843633E-003;
2.410666666666667E+009;1.698252111673355E-001;-1.309425104409456E-002;3.252319991588593E-003;-1.687612617388368E-003;
2.410833333333334E+009;1.694365590810776E-001;-1.467260904610157E-002;3.303283359855413E-003;-1.845516962930560E-003;
2.411000000000000E+009;1.690923869609833E-001;-1.653824746608734E-002;3.136070910841227E-003;-1.994856400415301E-003;
2.411166666666667E+009;1.685463190078735E-001;-1.851458288729191E-002;3.139113076031208E-003;-2.127172891050577E-003;
2.411333333333334E+009;1.682815402746201E-001;-2.038795500993729E-002;2.984091872349381E-003;-2.343783387914300E-003;
2.411500000000000E+009;1.681376397609711E-001;-2.246058918535709E-002;2.955991309136152E-003;-2.235103398561478E-003;
2.411666666666667E+009;1.680058687925339E-001;-2.430044859647751E-002;2.666093874722719E-003;-2.446970436722040E-003;
2.411833333333334E+009;1.678412407636643E-001;-2.628412842750549E-002;2.546293428167701E-003;-2.391648711636663E-003;
2.412000000000000E+009;1.680250912904739E-001;-2.835620194673538E-002;2.442531054839492E-003;-2.627670764923096E-003;
2.412166666666667E+009;1.678844392299652E-001;-3.029241785407066E-002;2.436241367831826E-003;-2.688192762434483E-003;
2.412333333333334E+009;1.683244705200195E-001;-3.227357566356659E-002;2.083367900922895E-003;-2.782304771244526E-003;
2.412500000000000E+009;1.682983487844467E-001;-3.397479280829430E-002;2.070911927148700E-003;-2.623962936922908E-003;
2.412666666666667E+009;1.687166690826416E-001;-3.599058464169502E-002;1.782846986316145E-003;-2.832536119967699E-003;
2.412833333333334E+009;1.691208928823471E-001;-3.789194673299789E-002;1.713946694508195E-003;-2.899441868066788E-003;
2.413000000000000E+009;1.694705784320831E-001;-3.967362642288208E-002;1.641633221879602E-003;-2.898350823670626E-003;
2.413166666666667E+009;1.698682010173798E-001;-4.144020006060600E-002;1.613710192032158E-003;-2.949329325929284E-003;
2.413333333333334E+009;1.702117174863815E-001;-4.310966283082962E-002;1.523617771454155E-003;-2.917317906394601E-003;
2.413500000000000E+009;1.707299202680588E-001;-4.478291794657707E-002;1.372943632304668E-003;-3.082712646573782E-003;
2.413666666666667E+009;1.713047325611115E-001;-4.637261852622032E-002;1.123682246543467E-003;-2.851726021617651E-003;
2.413833333333334E+009;1.716672033071518E-001;-4.775893315672875E-002;1.112348749302328E-003;-2.977500902488828E-003;
2.414000000000000E+009;1.722466796636581E-001;-4.934356734156609E-002;9.176213643513620E-004;-3.089472185820341E-003;
2.414166666666667E+009;1.728735268115997E-001;-5.051375925540924E-002;7.784792687743902E-004;-3.134077647700906E-003;
2.414333333333334E+009;1.734146177768707E-001;-5.183469504117966E-002;6.783086573705077E-004;-3.060142975300551E-003;
2.414500000000000E+009;1.740685850381851E-001;-5.307283252477646E-002;4.172274202574045E-004;-2.994267735630274E-003;
2.414666666666667E+009;1.745826452970505E-001;-5.391518026590347E-002;4.484136879909784E-004;-3.012843197211623E-003;
2.414833333333334E+009;1.750411987304688E-001;-5.484332516789436E-002;3.650667204055935E-004;-3.073093015700579E-003;
2.415000000000000E+009;1.755746155977249E-001;-5.581523105502129E-002;1.319144648732618E-004;-2.957633696496487E-003;
2.415166666666667E+009;1.758884489536285E-001;-5.659270659089088E-002;1.309166254941374E-004;-3.037533024325967E-003;
2.415333333333334E+009;1.763531118631363E-001;-5.738909542560577E-002;2.120994224696915E-008;-2.975024515762925E-003;
2.415500000000000E+009;1.766104549169540E-001;-5.783031508326531E-002;-1.826442749006674E-004;-2.981485798954964E-003;
2.415666666666667E+009;1.769420653581619E-001;-5.831627920269966E-002;-2.651420363690704E-004;-2.966336207464337E-003;
2.415833333333334E+009;1.771973520517349E-001;-5.895441025495529E-002;-4.395319847390056E-004;-2.767599420621991E-003;
2.416000000000000E+009;1.772621572017670E-001;-5.941060185432434E-002;-3.888543578796089E-004;-2.779721049591899E-003;
2.416166666666667E+009;1.775903105735779E-001;-5.974307656288147E-002;-5.634836852550507E-004;-2.796514425426722E-003;
2.416333333333334E+009;1.776079982519150E-001;-5.997211858630180E-002;-6.298900116235018E-004;-2.817113418132067E-003;
2.416500000000000E+009;1.772823035717011E-001;-6.028221547603607E-002;-7.090223953127861E-004;-2.759200520813465E-003;
2.416666666666667E+009;1.772190332412720E-001;-6.053696945309639E-002;-8.487597806379199E-004;-2.707253443077207E-003;
2.416833333333334E+009;1.770769208669663E-001;-6.090119108557701E-002;-8.846258278936148E-004;-2.439234405755997E-003;
2.417000000000000E+009;1.765833199024200E-001;-6.108925119042397E-002;-1.006489852443337E-003;-2.569517586380243E-003;
2.417166666666667E+009;1.762150377035141E-001;-6.123292073607445E-002;-1.005996484309435E-003;-2.524591516703367E-003;
2.417333333333334E+009;1.755965352058411E-001;-6.132850050926209E-002;-1.255917828530073E-003;-2.273373771458864E-003;
2.417500000000000E+009;1.750930249691010E-001;-6.173581257462502E-002;-1.144664245657623E-003;-2.267873613163829E-003;
2.417666666666667E+009;1.744797229766846E-001;-6.187256798148155E-002;-1.223330385982990E-003;-2.250049030408263E-003;
2.417833333333334E+009;1.736991703510284E-001;-6.202503293752670E-002;-1.286002574488521E-003;-2.231227466836572E-003;
2.418000000000000E+009;1.727518439292908E-001;-6.241782754659653E-002;-1.393910381011665E-003;-1.981011824682355E-003;
2.418166666666667E+009;1.717132329940796E-001;-6.257817149162293E-002;-1.421076594851911E-003;-2.069299342110753E-003;
2.418333333333334E+009;1.711159199476242E-001;-6.305925548076630E-002;-1.459261635318399E-003;-1.908404054120183E-003;
2.418500000000000E+009;1.699142158031464E-001;-6.340402364730835E-002;-1.579704345203936E-003;-1.900433679111302E-003;
2.418666666666667E+009;1.689567416906357E-001;-6.393386423587799E-002;-1.510957255959511E-003;-1.782238250598311E-003;
2.418833333333334E+009;1.677069216966629E-001;-6.449976563453674E-002;-1.626077690161765E-003;-1.785715925507247E-003;
2.419000000000000E+009;1.664067804813385E-001;-6.497097760438919E-002;-1.535678631626070E-003;-1.692879246547818E-003;
2.419166666666667E+009;1.652452200651169E-001;-6.575623154640198E-002;-1.646712655201554E-003;-1.538698677904904E-003;
2.419333333333334E+009;1.639655530452728E-001;-6.622285395860672E-002;-1.751798088662326E-003;-1.537778531201184E-003;
2.419500000000000E+009;1.628777831792831E-001;-6.721591204404831E-002;-1.594593748450279E-003;-1.492483192123473E-003;
2.419666666666667E+009;1.618304252624512E-001;-6.814584881067276E-002;-1.716069877147675E-003;-1.521021826192737E-003;
2.419833333333334E+009;1.605312377214432E-001;-6.902922689914703E-002;-1.653892570175231E-003;-1.377053442411125E-003;
2.420000000000000E+009;1.593919247388840E-001;-7.010205835103989E-002;-1.760307583026588E-003;-1.149508869275451E-003;
2.420166666666667E+009;1.582564711570740E-001;-7.114703953266144E-002;-1.742396620102227E-003;-1.149427378550172E-003;
2.420333333333334E+009;1.572728455066681E-001;-7.241897284984589E-002;-1.819654018618166E-003;-1.053279032930732E-003;
2.420500000000000E+009;1.563401967287064E-001;-7.362364232540131E-002;-1.803863677196205E-003;-9.993193671107292E-004;
2.420666666666667E+009;1.551889777183533E-001;-7.466927170753479E-002;-1.716154045425355E-003;-8.429033914580941E-004;
2.420833333333334E+009;1.543353945016861E-001;-7.628661394119263E-002;-1.918026013299823E-003;-6.176962051540613E-004;
2.421000000000000E+009;1.534748226404190E-001;-7.781964540481567E-002;-1.886521233245730E-003;-7.264096639119089E-004;
2.421166666666667E+009;1.527015268802643E-001;-7.920307666063309E-002;-1.985123613849282E-003;-6.046687485650182E-004;
2.421333333333334E+009;1.519715934991837E-001;-8.091237396001816E-002;-1.880925730802119E-003;-5.744619411416352E-004;
2.421500000000000E+009;1.512906700372696E-001;-8.239429444074631E-002;-1.796020660549402E-003;-5.635906709358096E-004;
2.421666666666667E+009;1.509871035814285E-001;-8.395903557538986E-002;-1.823640894144774E-003;-2.723576617427170E-004;
2.421833333333334E+009;1.505425274372101E-001;-8.565802127122879E-002;-1.820373348891735E-003;-2.637639408931136E-004;
2.422000000000000E+009;1.500218510627747E-001;-8.741515129804611E-002;-1.801944454200566E-003;-2.180772571591660E-004;
2.422166666666667E+009;1.496561914682388E-001;-8.913420885801315E-002;-1.602494390681386E-003;-1.052864317898639E-004;
2.422333333333334E+009;1.497746109962463E-001;-9.073308110237122E-002;-1.622604439035058E-003;-3.819176345132291E-005;
2.422500000000000E+009;1.495831608772278E-001;-9.233242273330689E-002;-1.650305581279099E-003;-3.309188105049543E-005;
2.422666666666667E+009;1.494208276271820E-001;-9.421040862798691E-002;-1.637124340049923E-003;4.674425872508436E-005;
2.422833333333334E+009;1.495129615068436E-001;-9.598919004201889E-002;-1.534227514639497E-003;1.224482257384807E-004;
2.423000000000000E+009;1.495558470487595E-001;-9.765303879976273E-002;-1.400837907567620E-003;2.767236437648535E-004;
2.423166666666667E+009;1.498043090105057E-001;-9.943699091672897E-002;-1.352234510704875E-003;2.145688777090982E-004;
2.423333333333334E+009;1.502449661493301E-001;-1.006824523210526E-001;-1.404161797836423E-003;2.034907956840470E-004;
2.423500000000000E+009;1.504456698894501E-001;-1.024683266878128E-001;-1.298018847592175E-003;3.042785101570189E-004;
2.423666666666667E+009;1.506631374359131E-001;-1.040548011660576E-001;-1.312160515226424E-003;2.971701323986054E-004;
2.423833333333334E+009;1.513149291276932E-001;-1.054933741688728E-001;-1.162453787401319E-003;3.691267338581383E-004;
2.424000000000000E+009;1.516145616769791E-001;-1.067534089088440E-001;-1.154099241830409E-003;4.956432385370135E-004;
2.424166666666667E+009;1.519369632005692E-001;-1.081248745322228E-001;-1.090986654162407E-003;4.456506867427379E-004;
2.424333333333334E+009;1.525369137525559E-001;-1.092846468091011E-001;-8.929256582632661E-004;5.026282742619515E-004;
2.424500000000000E+009;1.530850529670715E-001;-1.103853955864906E-001;-9.541467297822237E-004;4.552238970063627E-004;
2.424666666666667E+009;1.536496430635452E-001;-1.114410087466240E-001;-8.325563976541162E-004;5.572855588980019E-004;
2.424833333333334E+009;1.540925502777100E-001;-1.125379875302315E-001;-7.891893619671464E-004;4.149506276007742E-004;
2.425000000000000E+009;1.544453054666519E-001;-1.134596019983292E-001;-7.192416815087199E-004;4.993816255591810E-004;
2.425166666666667E+009;1.547458171844482E-001;-1.143443509936333E-001;-6.343434215523303E-004;5.029019084759057E-004;
2.425333333333334E+009;1.553092747926712E-001;-1.152303889393807E-001;-6.567738018929958E-004;3.353166976012290E-004;
2.425500000000000E+009;1.556921750307083E-001;-1.159032061696053E-001;-6.330723990686238E-004;5.267990054562688E-004;
2.425666666666667E+009;1.558845788240433E-001;-1.165686994791031E-001;-4.611084877979010E-004;3.907141799572855E-004;
2.425833333333334E+009;1.562104970216751E-001;-1.170205548405647E-001;-3.092630649916828E-004;4.884444642812014E-004;
2.426000000000000E+009;1.563502699136734E-001;-1.175941452383995E-001;-4.095350159332156E-004;4.612186457961798E-004;
2.426166666666667E+009;1.567156463861466E-001;-1.180797219276428E-001;-2.993021043948829E-004;2.964206505566835E-004;
2.426333333333334E+009;1.565003097057343E-001;-1.182147338986397E-001;-3.260265802964568E-004;2.342146908631548E-004;
2.426500000000000E+009;1.566663086414337E-001;-1.186580061912537E-001;-4.553865292109549E-004;2.854990307241678E-004;
2.426666666666667E+009;1.565802991390228E-001;-1.187288761138916E-001;-2.459622628521174E-004;1.988603617064655E-004;
2.426833333333334E+009;1.563608497381210E-001;-1.189186871051788E-001;-3.411020152270794E-004;1.537518546683714E-004;
2.427000000000000E+009;1.560952961444855E-001;-1.191213726997376E-001;-2.367918350500986E-004;7.060355710564181E-005;
2.427166666666667E+009;1.556669771671295E-001;-1.191214695572853E-001;-3.850581706501544E-004;9.095237328438088E-005;
2.427333333333334E+009;1.551496833562851E-001;-1.193731427192688E-001;-1.547738793306053E-004;-6.277947250055149E-005;
2.427500000000000E+009;1.546554565429688E-001;-1.194030269980431E-001;-3.296374925412238E-004;1.336301647825167E-005;
2.427666666666667E+009;1.539769023656845E-001;-1.194383576512337E-001;-1.834956201491877E-004;2.421712451905478E-005;
