# Hz S RI R 50
2400000000.0000000000 0.168943226337432889083700615629 0.045519996434450149536132812500 -0.001392246922478080012677836841 0.000611466821283102035522460938 0 0 0 0 
2400166666.6666665077 0.169756069779396112640057481258 0.045102749019861221313476562500 -0.001179374870844184918644570459 0.001133403158746659972547221606 0 0 0 0 
2400333333.3333334923 0.170743584632873507400674384371 0.044114023447036743164062500000 -0.000915093463845551013946533203 0.001351191313005984046338725513 0 0 0 0 
2400500000.0000000000 0.171719819307327298263388115629 0.042871642857789993286132812500 -0.001004255493171513080596923828 0.000664950348436832427978515625 0 0 0 0 
2400666666.6666665077 0.172672420740127591232138115629 0.041804995387792587280273437500 -0.000729137449525296688079833984 0.000745811383239924907684326172 0 0 0 0 
2400833333.3333334923 0.173796638846397399902343750000 0.041207965463399887084960937500 -0.000836649269331246614456176758 0.000636418000794947147369384766 0 0 0 0 
2401000000.0000000000 0.174402698874473599532919365629 0.040239360183477401733398437500 -0.000550225086044520139694213867 0.000504846917465329170227050781 0 0 0 0 
2401166666.6666665077 0.175254568457603510100994981258 0.039558440446853637695312500000 -0.000763276417274028062820434570 0.000396847026422619819641113281 0 0 0 0 
2401333333.3333334923 0.175901979207992609222088731258 0.038937401026487350463867187500 -0.000613219279330223798751831055 0.000369275832781568223803919659 0 0 0 0 
2401500000.0000000000 0.176762416958808898925781250000 0.038182903081178672100026716407 -0.000603297317866235971450805664 0.000165193283464759588241577148 0 0 0 0 
2401666666.6666665077 0.177358970046043395996093750000 0.037749074399471282958984375000 -0.000709933578036725521087646484 0.000070823603891767561435699463 0 0 0 0 
2401833333.3333334923 0.178075373172760009765625000000 0.036998573690652847290039062500 -0.000596273632254451513290405273 -0.000096792071417439728975296021 0 0 0 0 
2402000000.0000000000 0.178333014249801607986611884371 0.036384243518114089965820312500 -0.000732035259716212749481201172 -0.000046280481910798698663711548 0 0 0 0 
2402166666.6666665077 0.178642347455024691482705634371 0.035788774490356452251393903907 -0.000795791856944561004638671875 -0.000053036983445053920149803162 0 0 0 0 
2402333333.3333334923 0.179115563631057711502236884371 0.035305056720972061157226562500 -0.000797587854322046041488647461 -0.000135544920340180397033691406 0 0 0 0 
2402500000.0000000000 0.179720893502235412597656250000 0.034672625362873077392578125000 -0.000957958225626498460769653320 -0.000365843006875366026729029523 0 0 0 0 
2402666666.6666665077 0.179805576801300104339276231258 0.033916123211383819580078125000 -0.000872789940331131219863891602 -0.000343372841598465984493809833 0 0 0 0 
2402833333.3333334923 0.179859712719917297363281250000 0.033221337944269180297851562500 -0.000936019350774586200714111328 -0.000394007918657734990119934082 0 0 0 0 
2403000000.0000000000 0.180000543594360407073651231258 0.032587133347988128662109375000 -0.001085715601220726966857910156 -0.000571004871744662523269653320 0 0 0 0 
2403166666.6666665077 0.180123478174209594726562500000 0.031763184815645217895507812500 -0.001252638641744852066040039062 -0.000489029916934669017791748047 0 0 0 0 
2403333333.3333334923 0.179959550499916104415731865629 0.030913285911083221435546875000 -0.001301951939240097999572753906 -0.000509163772221654653549194336 0 0 0 0 
2403500000.0000000000 0.179867193102836608886718750000 0.030070820823311809194544608204 -0.001236886368133127906202006763 -0.000615537399426102638244628906 0 0 0 0 
2403666666.6666665077 0.179482817649841308593750000000 0.029178498312830928457239920704 -0.001474463031627238013623881763 -0.000757299363613128662109375000 0 0 0 0 
2403833333.3333334923 0.179324328899383489410723768742 0.027955424040555950510045235546 -0.001676256302744149944902729565 -0.000701524899341166019439697266 0 0 0 0 
2404000000.0000000000 0.178972393274307306487713731258 0.026848543435335159301757812500 -0.001842690166085958914515829932 -0.000703337951563298702239990234 0 0 0 0 
2404166666.6666665077 0.178545996546745300292968750000 0.025580460205674171447753906250 -0.002160145202651619911193847656 -0.000623453117441385984420776367 0 0 0 0 
2404333333.3333334923 0.178002744913101196289062500000 0.024515455588698390615443045704 -0.002075410215184092955348349463 -0.000701875600498169660568237305 0 0 0 0 
2404500000.0000000000 0.177555397152900695800781250000 0.023174760863184928894042968750 -0.002349575515836476845982216943 -0.000512071826960891485214233398 0 0 0 0 
2404666666.6666665077 0.177171185612678500076455634371 0.021730240434408191335657889454 -0.002532824408262968063354492188 -0.000446683261543512290150242938 0 0 0 0 
2404833333.3333334923 0.176590964198112487792968750000 0.020229378715157508850097656250 -0.002738704904913901849033974756 -0.000571362150367349386215209961 0 0 0 0 
2405000000.0000000000 0.176065042614936800857705634371 0.018843084573745731008509451954 -0.002698695519939064979553222656 -0.000223676863242872086450299673 0 0 0 0 
2405166666.6666665077 0.175619378685951205154580634371 0.017185591161251071584681326954 -0.002723415149375795884373330225 -0.000049949754611589021306445463 0 0 0 0 
2405333333.3333334923 0.175122469663619995117187500000 0.015503272414207460230817225977 -0.002943492960184812979457236182 -0.000106387422420084503576001578 0 0 0 0 
2405500000.0000000000 0.174677044153213500976562500000 0.013911549933254720515241054102 -0.003082466311752796173095703125 -0.000010956926416838539932864342 0 0 0 0 
2405666666.6666665077 0.174331814050674410720986884371 0.012271037325263019907017891796 -0.003252523718401790098903036963 0.000326171371852979118197840558 0 0 0 0 
2405833333.3333334923 0.173726722598075894454794365629 0.010569391772150989877721016796 -0.003365774638950825171229697119 0.000429186504334211403697413312 0 0 0 0 
2406000000.0000000000 0.173524782061576787750567518742 0.008540282025933265686035156250 -0.003308509243652224974391318213 0.000488291087094694375991821289 0 0 0 0 
2406166666.6666665077 0.173141688108444213867187500000 0.006658985745161771774291992188 -0.003457736456766725020167685400 0.000700728793162852525711059570 0 0 0 0 
2406333333.3333334923 0.173054844141006497482138115629 0.004825635813176631927490234375 -0.003339676419273018836975097656 0.000936712662223726511001586914 0 0 0 0 
2406500000.0000000000 0.172864153981208801269531250000 0.002773614600300788879394531250 -0.003661722177639604048487997900 0.001078284811228513934491801685 0 0 0 0 
2406666666.6666665077 0.172638788819313104827557481258 0.000683732738252729177474975586 -0.003586833365261555151698447119 0.001352127641439438083051371997 0 0 0 0 
2406833333.3333334923 0.172631591558456393142861884371 -0.001290024723857641003252338940 -0.003760315943509339852574013818 0.001745508867315948009490966797 0 0 0 0 
2407000000.0000000000 0.172737449407577486892861884371 -0.003486481495201588110682822119 -0.003542713588103652000427246094 0.001858004019595683054683066260 0 0 0 0 
2407166666.6666665077 0.172959268093109103103799384371 -0.005355207249522209167480468750 -0.003643816104158759117126464844 0.002061721868813037872314453125 0 0 0 0 
2407333333.3333334923 0.172937273979187011718750000000 -0.007685580290853977203369140625 -0.003571194829419254822971963037 0.002319985069334506988525390625 0 0 0 0 
2407500000.0000000000 0.173184439539909390548544365629 -0.009633677080273628234863281250 -0.003620998933911323981044150244 0.002642843406647444205043173682 0 0 0 0 
2407666666.6666665077 0.173458501696586608886718750000 -0.011758448556065559387207031250 -0.003492585849016904830932617188 0.002838561777025461196899414062 0 0 0 0 
2407833333.3333334923 0.173640727996826199630575615629 -0.013937993906438350677490234375 -0.003266421845182776884791708838 0.003030413296073675155639648438 0 0 0 0 
2408000000.0000000000 0.174104630947113009353799384371 -0.015872782096266749990443045704 -0.003145860508084297180175781250 0.003421186935156583786010742188 0 0 0 0 
2408166666.6666665077 0.174371972680091913421307481258 -0.017932306975126269948939139454 -0.002971573965623974800109863281 0.003538402961567043824436806787 0 0 0 0 
2408333333.3333334923 0.175012588500976590255575615629 -0.020034538581967350351353829296 -0.002794295549392700195312500000 0.003836761927232145829441689600 0 0 0 0 
2408500000.0000000000 0.175244212150573702713174384371 -0.021984783932566639291783516796 -0.002795608947053552107570029150 0.003973655402660369873046875000 0 0 0 0 
2408666666.6666665077 0.175671458244323702713174384371 -0.023877166211605068552037423046 -0.002539695240557194189784384619 0.004143237601965665817260742188 0 0 0 0 
2408833333.3333334923 0.175879597663879394531250000000 -0.025561617687344551086425781250 -0.002218138659372926192042685400 0.004312288016080856323242187500 0 0 0 0 
2409000000.0000000000 0.176236495375633211990518134371 -0.027191782370209690439244454296 -0.002078903838992118835449218750 0.004360211547464132308959960938 0 0 0 0 
2409166666.6666665077 0.176631286740303011795205634371 -0.028930880129337310791015625000 -0.001761183259077369949938129956 0.004583611153066158294677734375 0 0 0 0 
2409333333.3333334923 0.177163243293762207031250000000 -0.030250029638409621501882185157 -0.001595276291482150988337851416 0.004638410639017820358276367188 0 0 0 0 
2409500000.0000000000 0.177494511008262606521768134371 -0.031629595905542366718332658593 -0.001434881589375436089159321362 0.004676449578255414962768554688 0 0 0 0 
2409666666.6666665077 0.177969679236412103850994981258 -0.032972510904073722148854841407 -0.001151121454313396973850869287 0.004810558632016181945800781250 0 0 0 0 
2409833333.3333334923 0.178341537714004488845986884371 -0.034025844186544418334960937500 -0.000902482192032039165496826172 0.004814114421606063842773437500 0 0 0 0 
2410000000.0000000000 0.178840488195419311523437500000 -0.034896213561296463012695312500 -0.000777009932789951562881469727 0.004941411316394805908203125000 0 0 0 0 
2410166666.6666665077 0.179461747407913208007812500000 -0.035810135304927832866628278907 -0.000431367632700130289227086200 0.004984110593795776367187500000 0 0 0 0 
2410333333.3333334923 0.179770216345787103850994981258 -0.036650288850069052959401716407 -0.000284219539025798385769444598 0.004990356974303722381591796875 0 0 0 0 
2410500000.0000000000 0.180138081312179593185263115629 -0.037552576512098312377929687500 0.000188578909728676107808789664 0.005186252761632204055786132812 0 0 0 0 
2410666666.6666665077 0.180486932396888705154580634371 -0.038307037204504013061523437500 0.000329467526171356385380345477 0.005047223530709744367117597363 0 0 0 0 
2410833333.3333334923 0.180934295058250399490518134371 -0.038719590753316879272460937500 0.000475217879284173304408472882 0.004984696861356496810913085938 0 0 0 0 
2411000000.0000000000 0.181142702698707608321981865629 -0.039333768188953399658203125000 0.000776939152274280786514282227 0.004946706816554070386404706738 0 0 0 0 
2411166666.6666665077 0.181501656770706204513388115629 -0.039894763380289077758789062500 0.001033891574479639963862753760 0.005002150777727366361136152051 0 0 0 0 
2411333333.3333334923 0.181612506508827209472656250000 -0.040496133267879493022878278907 0.001371467136777936978581093896 0.004863489419221878051757812500 0 0 0 0 
2411500000.0000000000 0.181633248925209100921307481258 -0.040932510048151023174245466407 0.001519554643891751983045268481 0.004766929429024457931518554688 0 0 0 0 
2411666666.6666665077 0.181759342551231412032919365629 -0.041446808725595467304270158593 0.001551218214444815895677876050 0.004729654174298048019409179688 0 0 0 0 
2411833333.3333334923 0.181552216410636901855468750000 -0.041715286672115332866628278907 0.001983320573344827131984091650 0.004605650901794433593750000000 0 0 0 0 
2412000000.0000000000 0.181408956646919305999432481258 -0.042210508137941360473632812500 0.002128971507772802872898720850 0.004641427192836999893188476562 0 0 0 0 
2412166666.6666665077 0.181272044777870205978231865629 -0.042494006454944610595703125000 0.002384633990004659132716513525 0.004424725193530321121215820312 0 0 0 0 
2412333333.3333334923 0.181051373481750488281250000000 -0.042810216546058661724050153907 0.002623290056362748146057128906 0.004090948961675167083740234375 0 0 0 0 
2412500000.0000000000 0.180200725793838500976562500000 -0.043273501098155982280690778907 0.002811298007145524024963378906 0.004012288991361857327933027051 0 0 0 0 
2412666666.6666665077 0.179842337965965298751669365629 -0.043662216514348976825754533593 0.002734979847446084022521972656 0.003908539190888404846191406250 0 0 0 0 
2412833333.3333334923 0.179324179887771606445312500000 -0.043915763497352600097656250000 0.003017045091837645010707236182 0.003630505176261066956761025537 0 0 0 0 
2413000000.0000000000 0.178595110774040194412393134371 -0.044389825314283370971679687500 0.003015556838363409042358398438 0.003503682790324091911315917969 0 0 0 0 
2413166666.6666665077 0.177467465400695800781250000000 -0.044731050729751586914062500000 0.003077556844800711111781454932 0.003429244738072156906127929688 0 0 0 0 
2413333333.3333334923 0.176541268825531005859375000000 -0.044996626675128936767578125000 0.003110638586804271178004599463 0.003263657679781318144557333838 0 0 0 0 
2413500000.0000000000 0.175783783197403009612713731258 -0.045741014182567603374440778907 0.003278413321822882132289267432 0.002993813715875149206874228369 0 0 0 0 
2413666666.6666665077 0.174780413508415194412393134371 -0.046098407357931137084960937500 0.003248293185606598854064941406 0.002897835802286862893345498193 0 0 0 0 
2413833333.3333334923 0.173624619841575594803018134371 -0.046517372131347663188893903907 0.003339556511491537094116210938 0.002918229671195148988011025537 0 0 0 0 
2414000000.0000000000 0.172291845083236694335937500000 -0.047271922230720520019531250000 0.003233615774661303000209189307 0.002746540121734141869785927881 0 0 0 0 
2414166666.6666665077 0.171393319964408902267294365629 -0.047965269535779953002929687500 0.003398788394406437873840332031 0.002619851147755980925319052588 0 0 0 0 
2414333333.3333334923 0.170152127742767306228799384371 -0.048796266317367546772043596093 0.003394161351025104956385947119 0.002680818783119320869445800781 0 0 0 0 
2414500000.0000000000 0.169186607003212002853231865629 -0.049534071236848831176757812500 0.003334623994305729866027832031 0.002539014676585793928859091650 0 0 0 0 
2414666666.6666665077 0.167856276035308810135049384371 -0.050428904592990882183034528907 0.003488042159005999998805380713 0.002529890974983572959899902344 0 0 0 0 
2414833333.3333334923 0.166582047939300509353799384371 -0.051576662808656692504882812500 0.003645997494459151787998818506 0.002502219984307885169982910156 0 0 0 0 
2415000000.0000000000 0.165510013699531610686932481258 -0.052581831812858581542968750000 0.003558696247637271881103515625 0.002453484805300831794738769531 0 0 0 0 
2415166666.6666665077 0.164097622036933898925781250000 -0.053737897425889968872070312500 0.003599011106416583061218261719 0.002292452380061150030848837744 0 0 0 0 
2415333333.3333334923 0.163182407617568997482138115629 -0.055089134722948067401926408593 0.004030717536807060241699218750 0.002468036487698554992675781250 0 0 0 0 
2415500000.0000000000 0.161896333098411587814169365629 -0.056429762393236160278320312500 0.004065143875777721405029296875 0.002505206735804677009582519531 0 0 0 0 
2415666666.6666665077 0.160871744155883789062500000000 -0.057930257171392440795898437500 0.004158788360655307769775390625 0.002193120075389742851257324219 0 0 0 0 
2415833333.3333334923 0.159747466444969205001669365629 -0.059479884803295142436940778907 0.004277909174561501416678144238 0.002122392179444431824925088037 0 0 0 0 
2416000000.0000000000 0.158639684319496210296307481258 -0.061073023825883872295339216407 0.004498140420764684677124023438 0.002005203394219278855564736475 0 0 0 0 
2416166666.6666665077 0.157760277390480013748330634371 -0.062897644937038421630859375000 0.004671687260270118713378906250 0.001759741455316544012782431494 0 0 0 0 
2416333333.3333334923 0.156682595610618591308593750000 -0.064571782946586608886718750000 0.004723907448351383209228515625 0.001631375751458107991459511865 0 0 0 0 
2416500000.0000000000 0.155794084072113009353799384371 -0.066430352628231048583984375000 0.004887451417744159698486328125 0.001497972058132291056989360278 0 0 0 0 
2416666666.6666665077 0.154869109392166109939736884371 -0.068201825022697448730468750000 0.005116095300763844576363847949 0.001274338690564035935642861475 0 0 0 0 
2416833333.3333334923 0.154199764132499694824218750000 -0.070286430418491363525390625000 0.005224718712270259857177734375 0.001086603733710945086238242041 0 0 0 0 
2417000000.0000000000 0.153104886412620488922442518742 -0.072166197001934051513671875000 0.005213685799390077590942382812 0.000622811028733849525451660156 0 0 0 0 
2417166666.6666665077 0.152573540806770296951455634371 -0.073898926377296447753906250000 0.005399128887802361574654863574 0.000571408658288419246673583984 0 0 0 0 
2417333333.3333334923 0.151920586824417086502236884371 -0.075875416398048400878906250000 0.005317871458828449249267578125 0.000277014885796234011650085449 0 0 0 0 
2417500000.0000000000 0.151409432291984613616619981258 -0.077892154455184936523437500000 0.005329865496605634689331054688 -0.000103938640677370103910723276 0 0 0 0 
2417666666.6666665077 0.150991648435592706878338731258 -0.079634785652160644531250000000 0.005382460542023181915283203125 -0.000311731593683362007141113281 0 0 0 0 
2417833333.3333334923 0.150461718440055902679119981258 -0.081460081040859222412109375000 0.005510200746357440948486328125 -0.000593773729633539915084838867 0 0 0 0 
2418000000.0000000000 0.150096744298934908767861884371 -0.083331078290939331054687500000 0.005442144349217414855957031250 -0.000914506556000560522079467773 0 0 0 0 
2418166666.6666665077 0.149746254086494501311932481258 -0.084924243390560150146484375000 0.005487472750246524810791015625 -0.001119416207075119018554687500 0 0 0 0 
2418333333.3333334923 0.149768903851509094238281250000 -0.086699143052101135253906250000 0.005160911474376916885375976562 -0.001417137566022574901580810547 0 0 0 0 
2418500000.0000000000 0.149566367268562289138955634371 -0.088266149163246154785156250000 0.005252407398074865341186523438 -0.001764782355166971900342631763 0 0 0 0 
2418666666.6666665077 0.149578765034675598144531250000 -0.089822664856910705566406250000 0.005120105110108852386474609375 -0.002078721765428781943080283057 0 0 0 0 
2418833333.3333334923 0.149473741650581387618856865629 -0.091277614235877990722656250000 0.004897462669759988784790039062 -0.002238003537058829827549599756 0 0 0 0 
2419000000.0000000000 0.149431213736534090896768134371 -0.092726618051528930664062500000 0.004620512947440147399902343750 -0.002516660606488585905787802588 0 0 0 0 
2419166666.6666665077 0.149479582905769403655682481258 -0.093889407813549041748046875000 0.004497699905186892423147870801 -0.002634874312207103209254599463 0 0 0 0 
2419333333.3333334923 0.149502769112587002853231865629 -0.094804450869560241699218750000 0.004398894030600786209106445312 -0.002740872325375676155090332031 0 0 0 0 
2419500000.0000000000 0.149707362055778503417968750000 -0.096144452691078186035156250000 0.004177656956017017364501953125 -0.002988492371514440016505576025 0 0 0 0 
2419666666.6666665077 0.149967417120933504959268134371 -0.097047254443168640136718750000 0.004068977665156126022338867188 -0.003256484866142272949218750000 0 0 0 0 
2419833333.3333334923 0.150110140442848205566406250000 -0.097703650593757629394531250000 0.003937378525733947753906250000 -0.003173483535647391839268349756 0 0 0 0 
