# Hz S RI R 50
2400000000.0000000000 0.168870270252227810958700615629 0.045743126422166817401926408593 -0.001195335178636014895198202979 0.000879902159795165061950683594 0 0 0 0 
2400166666.6666665077 0.169848933815956087967080634371 0.044841043651103973388671875000 -0.001081640715710818984388041919 0.000866385176777839660644531250 0 0 0 0 
2400333333.3333334923 0.170914694666862487792968750000 0.043667551130056381225585937500 -0.000840402499306946992874145508 0.000766273238696157932281494141 0 0 0 0 
2400500000.0000000000 0.171977490186691311935263115629 0.042737923562526702880859375000 -0.000850074808113276958465576172 0.000635615841019898653030395508 0 0 0 0 
2400666666.6666665077 0.172703444957733209808026231258 0.041771575808525092388112653907 -0.000616153061855584383010864258 0.000738203816581517457962036133 0 0 0 0 
2400833333.3333334923 0.173429071903228787521200615629 0.041115704923868179321289062500 -0.000814228667877614498138427734 0.000549144577234983444213867188 0 0 0 0 
2401000000.0000000000 0.174245461821556091308593750000 0.040331948548555367206613908593 -0.000543094531167298555374145508 0.000468407408334314823150634766 0 0 0 0 
2401166666.6666665077 0.175220966339111300369424384371 0.039449285715818412090261091407 -0.000632092764135450124740600586 0.000389589054975658709376734601 0 0 0 0 
2401333333.3333334923 0.175859287381172207931356865629 0.038897857069969177246093750000 -0.000601596431806683540344238281 0.000262830581050366217463892804 0 0 0 0 
2401500000.0000000000 0.176625356078147888183593750000 0.038105763494968407367746721093 -0.000669775181449949741363525391 0.000351998663973063176304417743 0 0 0 0 
2401666666.6666665077 0.177326217293739291092080634371 0.037712320685386657714843750000 -0.000471077684778720086247044696 0.000227310025366023209974011832 0 0 0 0 
2401833333.3333334923 0.177960112690925598144531250000 0.036938320845365517353098283593 -0.000564810645300894975662231445 0.000049882313760463148355484009 0 0 0 0 
2402000000.0000000000 0.178307399153709411621093750000 0.036469135433435440063476562500 -0.000598890590481460094451904297 -0.000126287995954044190332135611 0 0 0 0 
2402166666.6666665077 0.178895533084869412521200615629 0.035810422152280807495117187500 -0.000684090424329042434692382812 -0.000222671820665709701463422232 0 0 0 0 
2402333333.3333334923 0.179196894168853787521200615629 0.035269249230623252178151716407 -0.000809146789833903312683105469 -0.000126427708892151713371276855 0 0 0 0 
2402500000.0000000000 0.179638028144836398025674384371 0.034647628664970397949218750000 -0.000867141818162053823471069336 -0.000324324879329651594161987305 0 0 0 0 
2402666666.6666665077 0.179793596267700195312500000000 0.034050624817609786987304687500 -0.001017894945107399983647011865 -0.000585815811064094305038452148 0 0 0 0 
2402833333.3333334923 0.179982379078865106780682481258 0.033201824873685836791992187500 -0.000941207632422447204589843750 -0.000443945871666073799133300781 0 0 0 0 
2403000000.0000000000 0.180025249719619806487713731258 0.032696668058633797382395158593 -0.001025753561407328085658408057 -0.000494104227982461452484130859 0 0 0 0 
2403166666.6666665077 0.180064797401428194900674384371 0.031648926436901092529296875000 -0.001163584296591579914093017578 -0.000688683940097689628601074219 0 0 0 0 
2403333333.3333334923 0.180058762431144686599893134371 0.030987981706857681274414062500 -0.001389523036777972958208393628 -0.000595825025811791419982910156 0 0 0 0 
2403500000.0000000000 0.179637819528579711914062500000 0.030162163078784939157506173046 -0.001459936844184994914411235278 -0.000777363544330000877380371094 0 0 0 0 
2403666666.6666665077 0.179506540298461886306924384371 0.029098303988575938833216483204 -0.001467522117309272072435688550 -0.000685939274262636899948120117 0 0 0 0 
2403833333.3333334923 0.179408475756645202636718750000 0.027995113283395770681361014454 -0.001565204584039747931836772388 -0.000759991875384002923965454102 0 0 0 0 
2404000000.0000000000 0.178973570466041592696981865629 0.026831248775124549865722656250 -0.001746382447890936894657754053 -0.000724643352441489696502685547 0 0 0 0 
2404166666.6666665077 0.178451761603355407714843750000 0.025595119222998619079589843750 -0.002023121574893593788146972656 -0.000537192390765994787216186523 0 0 0 0 
2404333333.3333334923 0.178001940250396700760049384371 0.024499475955963141704518903907 -0.002290002768859266801121377100 -0.000864383997395634651184082031 0 0 0 0 
2404500000.0000000000 0.177392721176147488693075615629 0.023111814633011821401575858204 -0.002461615717038511796238564600 -0.000593776116147637367248535156 0 0 0 0 
2404666666.6666665077 0.177079543471336392501669365629 0.021775107830762859689732735546 -0.002323379507288337187526083838 -0.000376190262613818103640955792 0 0 0 0 
2404833333.3333334923 0.176542922854423495193643134371 0.020379800349473949777623360546 -0.002608004258945583863499306787 -0.000470851402496918981701451434 0 0 0 0 
2405000000.0000000000 0.176189631223678588867187500000 0.018832094967365268362025076954 -0.002621606690809131102321005713 -0.000296175974654033780097961426 0 0 0 0 
2405166666.6666665077 0.175491705536842401702557481258 0.017139786854386329650878906250 -0.002800603397190570831298828125 -0.000135615904582664397641858511 0 0 0 0 
2405333333.3333334923 0.175088927149772588531817518742 0.015571163967251779383649257227 -0.002934666816145182089564658057 0.000051367744163144379854202271 0 0 0 0 
2405500000.0000000000 0.174741610884666387359942518742 0.014019503258168700826624686329 -0.003225717460736631913426064600 0.000241017871303483789593297137 0 0 0 0 
2405666666.6666665077 0.174324646592140197753906250000 0.012362257577478890854805193555 -0.003145054448395967917201376807 0.000231453901506029096528729849 0 0 0 0 
2405833333.3333334923 0.173839598894119290450888115629 0.010590109042823319870918474805 -0.003205314045771956010105752100 0.000426619662903249317973536359 0 0 0 0 
2406000000.0000000000 0.173665910959243802169638115629 0.008486730977892875671386718750 -0.003477009478956460952758789062 0.000602362211793661117553710938 0 0 0 0 
2406166666.6666665077 0.173220038414001492599325615629 0.006790819577872753143310546875 -0.003572303103283048109767294775 0.000741298135835677385330200195 0 0 0 0 
2406333333.3333334923 0.173115760087966891189736884371 0.004940335638821125030517578125 -0.003424854716286063194274902344 0.000821412075310945510864257812 0 0 0 0 
2406500000.0000000000 0.172877535223960904220419365629 0.002831922378391027884242392432 -0.003544076811522244973423623193 0.001154010300524533011792827075 0 0 0 0 
2406666666.6666665077 0.172640830278396606445312500000 0.000837860221508890390396118164 -0.003496511140838264985325478662 0.001486729946918786005732870947 0 0 0 0 
2406833333.3333334923 0.172700688242912292480468750000 -0.001213432988151907920837402344 -0.003795356024056673049926757812 0.001572219189256430105922079932 0 0 0 0 
2407000000.0000000000 0.172872468829154996017294365629 -0.003353100502863525910618447412 -0.003626866033300756974461220850 0.001961247762665152983424521338 0 0 0 0 
2407166666.6666665077 0.172956347465515108963174384371 -0.005352431908249855041503906250 -0.003624415723606944084167480469 0.002147997030988336043116904150 0 0 0 0 
2407333333.3333334923 0.173090770840644808670205634371 -0.007610158994793891906738281250 -0.003769880393519998030421591650 0.002589850686490536169764853369 0 0 0 0 
2407500000.0000000000 0.173147663474083002288494981258 -0.009748916141688823699951171875 -0.003345236880704760985133505713 0.002607049420475960211512900244 0 0 0 0 
2407666666.6666665077 0.173426434397697504241619981258 -0.011679321527481080836285975977 -0.003399753477424383163452148438 0.002909064525738358931300497900 0 0 0 0 
2407833333.3333334923 0.173630684614181490799111884371 -0.013821876607835289346715157421 -0.003261158242821692986729287256 0.003177751554176210923435830225 0 0 0 0 
2408000000.0000000000 0.174031183123588589767294365629 -0.016018668189644810068150704296 -0.003162886016070843176600790869 0.003337320638820528984069824219 0 0 0 0 
2408166666.6666665077 0.174349322915077209472656250000 -0.017831137403845790517786795704 -0.003037918591871858076808310400 0.003643948351964354948756552588 0 0 0 0 
2408333333.3333334923 0.175013616681098910232705634371 -0.019990617409348491323450858204 -0.002934241434559226036071777344 0.003878538031131029129028320312 0 0 0 0 
2408500000.0000000000 0.175255134701728793045205634371 -0.021802525967359539377232735546 -0.002649541711434721946716308594 0.003895063186064362959620810400 0 0 0 0 
2408666666.6666665077 0.175679564476013211349325615629 -0.023756416514515880239466483204 -0.002484551165252923965454101562 0.004127788823097944259643554688 0 0 0 0 
2408833333.3333334923 0.176027834415435791015625000000 -0.025580588728189468383789062500 -0.002253394108265637917759560693 0.004359177779406309127807617188 0 0 0 0 
2409000000.0000000000 0.176213204860687311370526231258 -0.027257939800620079040527343750 -0.002100779674947261810302734375 0.004336742218583822250366210938 0 0 0 0 
2409166666.6666665077 0.176887810230255099197549384371 -0.028782332316040989267369454296 -0.001985226757824420928955078125 0.004640336614102125167846679688 0 0 0 0 
2409333333.3333334923 0.177226886153221102615518134371 -0.030340339988470080984095389454 -0.001527282176539302089093852466 0.004606185015290975570678710938 0 0 0 0 
2409500000.0000000000 0.177484482526779202560263115629 -0.031848788261413567279856096093 -0.001379488967359066009521484375 0.004669426009058952331542968750 0 0 0 0 
2409666666.6666665077 0.177893087267875699142294365629 -0.032820869237184531475026716407 -0.001219803816638886928558349609 0.004735981114208698272705078125 0 0 0 0 
2409833333.3333334923 0.178575381636619595626669365629 -0.033956449478864669799804687500 -0.000886923226062208414077758789 0.004806927405297756195068359375 0 0 0 0 
2410000000.0000000000 0.178898528218269403655682481258 -0.034901704639196402812917341407 -0.000718436145689338554083669397 0.004882906563580036163330078125 0 0 0 0 
2410166666.6666665077 0.179344281554222106933593750000 -0.035928860306739807128906250000 -0.000499710906296968460083007812 0.004971890244632959365844726562 0 0 0 0 
2410333333.3333334923 0.179744616150855990310830634371 -0.036629881709814071655273437500 -0.000156275520566850900650024414 0.005007474217563867568969726562 0 0 0 0 
2410500000.0000000000 0.180154338479042108733807481258 -0.037486854940652847290039062500 0.000039460064726881682872772217 0.005097276065498591336722089551 0 0 0 0 
2410666666.6666665077 0.180547222495079012771768134371 -0.038276452571153640747070312500 0.000336174183757975697517395020 0.004985678941011428833007812500 0 0 0 0 
2410833333.3333334923 0.180969923734664889236611884371 -0.038874145597219467163085937500 0.000478166824905201792716979980 0.005178636871278285980224609375 0 0 0 0 
2411000000.0000000000 0.181243613362312289138955634371 -0.039370369166135787963867187500 0.000758168462198227643966674805 0.004970935173332691192626953125 0 0 0 0 
2411166666.6666665077 0.181423664093017605880575615629 -0.040049046277999877929687500000 0.001143972505815326950670551831 0.005063557997345924377441406250 0 0 0 0 
2411333333.3333334923 0.181578531861305209060830634371 -0.040474571287631988525390625000 0.001312077860347927050349570166 0.004962813574820756912231445312 0 0 0 0 
2411500000.0000000000 0.181745201349258395095986884371 -0.041124060750007629394531250000 0.001561424578540026924730610425 0.004777360707521438598632812500 0 0 0 0 
2411666666.6666665077 0.181789994239807101150674384371 -0.041489891707897193218190778907 0.001779883052222430922864604419 0.004693758208304643630981445312 0 0 0 0 
2411833333.3333334923 0.181654021143913296798544365629 -0.041717510670423507690429687500 0.001995725091546773910522460938 0.004710910376161336898803710938 0 0 0 0 
2412000000.0000000000 0.181384310126304598709268134371 -0.042036518454551696777343750000 0.002098034135997294945957802881 0.004539325833320617675781250000 0 0 0 0 
2412166666.6666665077 0.181194573640823392013388115629 -0.042599171400070190429687500000 0.002469614380970596833470009912 0.004323420580476521578316972949 0 0 0 0 
2412333333.3333334923 0.181016504764556912521200615629 -0.042968001216650009155273437500 0.002628746908158063888549804688 0.004104866646230220794677734375 0 0 0 0 
2412500000.0000000000 0.180317416787147494217080634371 -0.043155610561370849609375000000 0.002617107005789875984191894531 0.004073346965014935407156659863 0 0 0 0 
2412666666.6666665077 0.179720282554626492599325615629 -0.043639328330755226825754533593 0.002833592472597957091090536963 0.003690140321850777106044150244 0 0 0 0 
2412833333.3333334923 0.179115206003189086914062500000 -0.043931402266025543212890625000 0.003042394528165460066554404150 0.003645107150077819824218750000 0 0 0 0 
2413000000.0000000000 0.178293198347091702560263115629 -0.044365100562572479248046875000 0.002869739662855864004847861182 0.003434310201555490927455283057 0 0 0 0 
2413166666.6666665077 0.177647531032562311370526231258 -0.044808417558670037006418596093 0.003062641480937600135803222656 0.003358258167281746864318847656 0 0 0 0 
2413333333.3333334923 0.176473721861839294433593750000 -0.045216444879770278930664062500 0.003193246666342020034790039062 0.003146511502563952965977334131 0 0 0 0 
2413500000.0000000000 0.175469458103179903885049384371 -0.045604109764099121093750000000 0.003089674515649675889256142725 0.003063142066821455955505371094 0 0 0 0 
2413666666.6666665077 0.174795985221862792968750000000 -0.046109318733215332031250000000 0.003229592693969606919529580225 0.002918118843808770179748535156 0 0 0 0 
2413833333.3333334923 0.173691570758819607833700615629 -0.046581637114286422729492187500 0.003284821985289454893824911963 0.002847582800313829941990517725 0 0 0 0 
2414000000.0000000000 0.172488689422607394119424384371 -0.047344990074634552001953125000 0.003190470626577734947204589844 0.002765400102362037138697958838 0 0 0 0 
2414166666.6666665077 0.171477854251861600021200615629 -0.047937966883182532573659528907 0.003214637748897076086757040869 0.002741835312917828993556357275 0 0 0 0 
2414333333.3333334923 0.170037090778350802322549384371 -0.048873137682676322246511091407 0.003280086209997535185572958838 0.002666990039870142936706542969 0 0 0 0 
2414500000.0000000000 0.169129520654678289215411268742 -0.049558062106370932842214216407 0.003386663971468805833103798975 0.002514330437406897978541708838 0 0 0 0 
2414666666.6666665077 0.167835444211959811111611884371 -0.050591778010129928588867187500 0.003473642980679870085475302588 0.002683828817680478096008300781 0 0 0 0 
2414833333.3333334923 0.166515126824378995040731865629 -0.051523439586162567138671875000 0.003572156885638833045959472656 0.002551368903368711905238486182 0 0 0 0 
2415000000.0000000000 0.165344595909118707854901231258 -0.052499059587717063213307966407 0.003700645873323082923889160156 0.002417508745566010908839560400 0 0 0 0 
2415166666.6666665077 0.164122581481933593750000000000 -0.053781896829605102539062500000 0.003743954235687851905822753906 0.002359356032684444947483681787 0 0 0 0 
2415333333.3333334923 0.163177624344825689117755018742 -0.055184416472911841655690778907 0.004023016430437564849853515625 0.002378939883783460097071982275 0 0 0 0 
2415500000.0000000000 0.161955729126930209060830634371 -0.056545358151197426532785783593 0.004159694071859121322631835938 0.002392879221588373184204101562 0 0 0 0 
2415666666.6666665077 0.160819739103317288497763115629 -0.057917173951864242553710937500 0.004237994085997343063354492188 0.002281776629388331933262490381 0 0 0 0 
2415833333.3333334923 0.159816965460777310470419365629 -0.059509575366973876953125000000 0.004472463857382535934448242188 0.002187011297792195840122841943 0 0 0 0 
2416000000.0000000000 0.158501863479614313323651231258 -0.061104748398065567016601562500 0.004426538944244384765625000000 0.002103532664477825164794921875 0 0 0 0 
2416166666.6666665077 0.157719239592552212814169365629 -0.062827125191688537597656250000 0.004701097030192613601684570312 0.001731637632474303028703999097 0 0 0 0 
2416333333.3333334923 0.156757339835166903396768134371 -0.064481258392333984375000000000 0.004824623465538024902343750000 0.001480665989220141930821084131 0 0 0 0 
2416500000.0000000000 0.155809566378593389313067518742 -0.066470436751842498779296875000 0.005089951213449239730834960938 0.001341344323009252981898642432 0 0 0 0 
2416666666.6666665077 0.154936224222183199783486884371 -0.068192332983016967773437500000 0.005006528459489346417898847363 0.001161871827207505919812846606 0 0 0 0 
2416833333.3333334923 0.154159471392631503006143134371 -0.070246994495391845703125000000 0.005261462647467851638793945312 0.000805328541900962591171264648 0 0 0 0 
2417000000.0000000000 0.153195753693580599685830634371 -0.072140112519264221191406250000 0.005264985840767621994018554688 0.000638835306745022535324096680 0 0 0 0 
2417166666.6666665077 0.152525052428245488922442518742 -0.073934987187385559082031250000 0.005340031813830137252807617188 0.000446280173491686582565307617 0 0 0 0 
2417333333.3333334923 0.151985406875610407073651231258 -0.075725778937339782714843750000 0.005357718560844659805297851562 0.000225130512262694510534563608 0 0 0 0 
2417500000.0000000000 0.151390090584754888336505018742 -0.077995680272579193115234375000 0.005451476667076349258422851562 -0.000087585147412028163671493530 0 0 0 0 
2417666666.6666665077 0.151063084602356012542401231258 -0.079577699303627014160156250000 0.005567063577473163604736328125 -0.000387117819627746885449010028 0 0 0 0 
2417833333.3333334923 0.150549963116645812988281250000 -0.081410802900791168212890625000 0.005446020048111677169799804688 -0.000641585502307862043380737305 0 0 0 0 
2418000000.0000000000 0.150019317865371704101562500000 -0.083400726318359375000000000000 0.005600220523774623870849609375 -0.001002710429020226001739501953 0 0 0 0 
2418166666.6666665077 0.149796053767204312423544365629 -0.084910444915294647216796875000 0.005454733036458492279052734375 -0.001139196916483343081233359229 0 0 0 0 
2418333333.3333334923 0.149908930063247708419638115629 -0.086710691452026367187500000000 0.005370053462684155377859784863 -0.001597249414771795055986713940 0 0 0 0 
2418500000.0000000000 0.149501323699951199630575615629 -0.088166318833827972412109375000 0.005278760567307472229003906250 -0.001786516513675451061846088940 0 0 0 0 
2418666666.6666665077 0.149678260087966891189736884371 -0.089737914502620697021484375000 0.005142489913851022720336914062 -0.002018852392211556000950478662 0 0 0 0 
2418833333.3333334923 0.149369388818740789215411268742 -0.091283433139324188232421875000 0.004856636747717857360839843750 -0.002313339151442050933837890625 0 0 0 0 
2419000000.0000000000 0.149377405643463107010049384371 -0.092600189149379730224609375000 0.004928024485707283020019531250 -0.002421243349090218977687216650 0 0 0 0 
2419166666.6666665077 0.149518087506294305999432481258 -0.093894407153129577636718750000 0.004680962767452001571655273438 -0.002684897044673562049865722656 0 0 0 0 
2419333333.3333334923 0.149529948830604608733807481258 -0.094871595501899719238281250000 0.004415191709995269775390625000 -0.002926135202869772911071777344 0 0 0 0 
2419500000.0000000000 0.149767264723777798751669365629 -0.096092842519283294677734375000 0.004208680707961320877075195312 -0.003064637072384357886073447119 0 0 0 0 
2419666666.6666665077 0.149983391165733309646768134371 -0.097022458910942077636718750000 0.003995958715677261352539062500 -0.003262086538597940964939736475 0 0 0 0 
2419833333.3333334923 0.150199994444847106933593750000 -0.097585529088973999023437500000 0.003679629415273665948155068506 -0.003417066996917128996608115088 0 0 0 0 
