# Hz S RI R 50
2400000000.0000000000 0.168895334005355807205361884371 0.045881807804107672954518903907 -0.001204396598041058020350790869 0.001026523532345890998840332031 0 0 0 0 
2400166666.6666665077 0.169908300042152404785156250000 0.044668674468994140625000000000 -0.001133127487264574007747031104 0.000987418810836970806121826172 0 0 0 0 
2400333333.3333334923 0.170885160565376309493856865629 0.043773878365755081176757812500 -0.000936070573516190052032470703 0.000893970194738358259201049805 0 0 0 0 
2400500000.0000000000 0.171717464923858587066973768742 0.042642854154109961772878278907 -0.000863160239532589912414550781 0.000711011991370469331741333008 0 0 0 0 
2400666666.6666665077 0.172497987747192410568075615629 0.041747644543647773052175153907 -0.000844677095301449298858642578 0.000870750925969332456588745117 0 0 0 0 
2400833333.3333334923 0.173548638820648193359375000000 0.041046116501092910766601562500 -0.000730116560589522123336791992 0.000673444417770951986312866211 0 0 0 0 
2401000000.0000000000 0.174425169825553894042968750000 0.040162265300750732421875000000 -0.000685686129145324230194091797 0.000468509359052404815524500714 0 0 0 0 
2401166666.6666665077 0.175255835056304903885049384371 0.039490032941102981567382812500 -0.000796001462731510400772094727 0.000382131460355594808429163800 0 0 0 0 
2401333333.3333334923 0.175887733697891207595986884371 0.038866758346557617187500000000 -0.000664650229737162590026855469 0.000258168816799297874600011005 0 0 0 0 
2401500000.0000000000 0.176557525992393493652343750000 0.038112692534923553466796875000 -0.000730666739400476217269897461 0.000280106614809483289718627930 0 0 0 0 
2401666666.6666665077 0.177303731441497802734375000000 0.037714939564466483379323591407 -0.000694451329763978719711303711 0.000009691632840258534997701645 0 0 0 0 
2401833333.3333334923 0.177930399775505093673544365629 0.037135008722543723369557966407 -0.000662568956613540649414062500 0.000131969747599214288309374399 0 0 0 0 
2402000000.0000000000 0.178056955337524386306924384371 0.036281496286392211914062500000 -0.000840888940729200839996337891 -0.000208924262551590800285339355 0 0 0 0 
2402166666.6666665077 0.179109558463096590896768134371 0.035542696714401252056081403907 -0.000694646616466343402862548828 -0.000269823794951662421226501465 0 0 0 0 
2402333333.3333334923 0.179643988609313992599325615629 0.034762632101774222637136091407 -0.000778052723035216331481933594 -0.000395749928429722785949707031 0 0 0 0 
2402500000.0000000000 0.178551301360130310058593750000 0.035253766924142837524414062500 -0.001199802150949835994123149341 0.000244021459366194903850555420 0 0 0 0 
2402666666.6666665077 0.179949685931205805022869981258 0.034493826329708099365234375000 -0.000648827059194445610046386719 -0.000050414539146004251461436613 0 0 0 0 
2402833333.3333334923 0.179697588086128207107705634371 0.033593513071537017822265625000 -0.001108470954932272000553750146 -0.000173250155057758092880249023 0 0 0 0 
2403000000.0000000000 0.180001482367515591720419365629 0.032698448747396469116210937500 -0.001156175276264548084856342847 -0.000460816925624385476112365723 0 0 0 0 
2403166666.6666665077 0.179906874895095797439736884371 0.031616311520338058471679687500 -0.001178644364699720902683877100 -0.000430845771916210705607813702 0 0 0 0 
2403333333.3333334923 0.179865702986717196365518134371 0.030992984771728519094446951954 -0.001430813106708229021785117041 -0.000793776416685432195663452148 0 0 0 0 
2403500000.0000000000 0.179627224802970886230468750000 0.030110854655504230154017264454 -0.001383879221975802941563271631 -0.000724095385521650314331054688 0 0 0 0 
2403666666.6666665077 0.179545670747757013518963731258 0.028953280299901958810826485546 -0.001451740972697735049604106372 -0.000701785029377788305282592773 0 0 0 0 
2403833333.3333334923 0.179363965988159207443075615629 0.027922905981540679931640625000 -0.001841724966652690930607461084 -0.000776512257289141416549682617 0 0 0 0 
2404000000.0000000000 0.179030582308769198318643134371 0.026801584288477901113489920704 -0.001829597284086049036738730322 -0.000726123980712145566940307617 0 0 0 0 
2404166666.6666665077 0.178440287709236200530682481258 0.025693401694297790527343750000 -0.002048803493380547003505087744 -0.000651803507935255765914916992 0 0 0 0 
2404333333.3333334923 0.178065076470375088790731865629 0.024490712210535999643346016796 -0.002165151759982109069824218750 -0.000551818695385009050369262695 0 0 0 0 
2404500000.0000000000 0.177506640553474398513955634371 0.023179734125733379018763358204 -0.002447702689096332030055380713 -0.000613145180977880954742431641 0 0 0 0 
2404666666.6666665077 0.177201315760612487792968750000 0.021809065714478489267369454296 -0.002485055942088365988490439307 -0.000385434686904773116111755371 0 0 0 0 
2404833333.3333334923 0.176571428775787409026776231258 0.020106930285692218435267264454 -0.002676756819710135893580771338 -0.000272137287538498585850316180 0 0 0 0 
2405000000.0000000000 0.176147818565368707854901231258 0.018781773746013641357421875000 -0.002768610836938024000880576025 -0.000092320900876075029373168945 0 0 0 0 
2405166666.6666665077 0.175484851002693204025106865629 0.017232352867722511291503906250 -0.002890989650040864944458007812 -0.000151209285832010209560394287 0 0 0 0 
2405333333.3333334923 0.175182864069938687423544365629 0.015461488626897340256660662305 -0.003009964944794774055480957031 -0.000076629250543192028999328613 0 0 0 0 
2405500000.0000000000 0.174684077501296997070312500000 0.013890260830521580087681954296 -0.003070014761760830879211425781 0.000169526581885293099001207895 0 0 0 0 
2405666666.6666665077 0.174288704991340609451455634371 0.012205881997942919295341290820 -0.003189196577295660972595214844 0.000298158440273255109786987305 0 0 0 0 
2405833333.3333334923 0.173793971538543701171875000000 0.010519382543861869466761405079 -0.003191652474924921989440917969 0.000497486558742821216583251953 0 0 0 0 
2406000000.0000000000 0.173623487353324890136718750000 0.008498545736074447631835937500 -0.003257491393014789061305380713 0.000723692297469824552536010742 0 0 0 0 
2406166666.6666665077 0.173156335949897793868856865629 0.006792235188186168670654296875 -0.003465548390522598786595009912 0.000877782935276627540588378906 0 0 0 0 
2406333333.3333334923 0.173175364732742309570312500000 0.004816203843802213668823242188 -0.003503354964777826829197548975 0.000798342865891754627227783203 0 0 0 0 
2406500000.0000000000 0.172866761684417696853799384371 0.002785749733448028998133993994 -0.003473056480288505987880087744 0.001261287368834018924115825122 0 0 0 0 
2406666666.6666665077 0.172579690814018305022869981258 0.000837592408061027526855468750 -0.003671759273856877846958779443 0.001422703731805085919023823315 0 0 0 0 
2406833333.3333334923 0.172660425305366488357705634371 -0.001332335756160319068311381763 -0.003627216909080743789672851562 0.001581520889885724024531699072 0 0 0 0 
2407000000.0000000000 0.172676160931587191482705634371 -0.003451455850154161886927939307 -0.003500028746202588081359863281 0.001921439892612398104426718604 0 0 0 0 
2407166666.6666665077 0.172983288764953613281250000000 -0.005426542833447456359863281250 -0.003470523981377481980564736475 0.002304603578522800965550088037 0 0 0 0 
2407333333.3333334923 0.172917410731315612792968750000 -0.007664973847568035125732421875 -0.003596152877435088157653808594 0.002383447252213954925537109375 0 0 0 0 
2407500000.0000000000 0.173242598772049005706463731258 -0.009840820915997028350830078125 -0.003532847855240107016322470557 0.002649041824042797088623046875 0 0 0 0 
2407666666.6666665077 0.173418343067169189453125000000 -0.011804438196122649801234061329 -0.003510162234306335015537881006 0.002917977282777429060695029150 0 0 0 0 
2407833333.3333334923 0.173670172691345187088174384371 -0.014055511914193630218505859375 -0.003265401348471641974208212744 0.003126437077298759980442666162 0 0 0 0 
2408000000.0000000000 0.173982203006744412521200615629 -0.016085116192698478698730468750 -0.003210441675037146048304892432 0.003218635451048613028285361182 0 0 0 0 
2408166666.6666665077 0.174390748143196105957031250000 -0.017916740849614139902135079296 -0.002805439755320549011230468750 0.003562533995136619047877646338 0 0 0 0 
2408333333.3333334923 0.174837261438369806487713731258 -0.019975993782281879079798514454 -0.002825163304805756048915243994 0.003804630134254693984985351562 0 0 0 0 
2408500000.0000000000 0.175290122628212002853231865629 -0.021919393911957740783691406250 -0.002863432513549923896789550781 0.003864431288093328909633017432 0 0 0 0 
2408666666.6666665077 0.175521999597549410720986884371 -0.023846259340643879282017891796 -0.002491063904017210006713867188 0.004186849109828472137451171875 0 0 0 0 
2408833333.3333334923 0.175841599702835110763388115629 -0.025476714596152309072474295704 -0.002272543730214238166809082031 0.004348848015069962415213300488 0 0 0 0 
2409000000.0000000000 0.176310598850250188629473768742 -0.027170661836862560617467110546 -0.001969088334590197043177939307 0.004394136834889650344848632812 0 0 0 0 
2409166666.6666665077 0.176787033677101107498330634371 -0.028622392565011981618861014454 -0.001826718333177268938777304541 0.004593655001372098922729492188 0 0 0 0 
2409333333.3333334923 0.177158772945404108245526231258 -0.030373590067028999328613281250 -0.001570398337207735018489218604 0.004584569018334150314331054688 0 0 0 0 
2409500000.0000000000 0.177544370293617304046307481258 -0.031704146414995186542551408593 -0.001390286022797226905822753906 0.004791406914591789245605468750 0 0 0 0 
2409666666.6666665077 0.177885204553604098220986884371 -0.032868459820747382427175153907 -0.001120737637393176989314413916 0.004754122812300921353811933301 0 0 0 0 
2409833333.3333334923 0.178288534283638000488281250000 -0.033849507570266716693918596093 -0.000802335562184453010559082031 0.004944949410855770111083984375 0 0 0 0 
2410000000.0000000000 0.178910195827484103103799384371 -0.034780833870172500610351562500 -0.000750206818338483572006225586 0.004954905249178409576416015625 0 0 0 0 
2410166666.6666665077 0.179353535175323486328125000000 -0.035740435123443596576731096093 -0.000416153226979076916545313702 0.004813269246369600296020507812 0 0 0 0 
2410333333.3333334923 0.179720848798751803299111884371 -0.036651264876127243041992187500 -0.000198953872313722995206555777 0.004983501043170691403860761426 0 0 0 0 
2410500000.0000000000 0.180110886693000793457031250000 -0.037413075566291809082031250000 0.000057370172726223252039363248 0.004961262922734022140502929688 0 0 0 0 
2410666666.6666665077 0.180550679564476013183593750000 -0.038185816258192062377929687500 0.000253412435995414907306116925 0.005050007253885269165039062500 0 0 0 0 
2410833333.3333334923 0.181163564324378995040731865629 -0.038667637854814529418945312500 0.000493617146275937557220458984 0.005105294752866029739379882812 0 0 0 0 
2411000000.0000000000 0.181073814630508395095986884371 -0.039106953889131552959401716407 0.000747525424230843782424926758 0.005028229206800460815429687500 0 0 0 0 
2411166666.6666665077 0.181457296013832092285156250000 -0.039961766451597206806223283593 0.001010257867164910056470561450 0.004864208865910769376272870801 0 0 0 0 
2411333333.3333334923 0.181651726365089388748330634371 -0.040194485336542129516601562500 0.001304763252846897082087851416 0.004914787597954273223876953125 0 0 0 0 
2411500000.0000000000 0.181492984294891412933026231258 -0.040904190391302108764648437500 0.001441300963051616928697895581 0.004938628524541854858398437500 0 0 0 0 
2411666666.6666665077 0.181730076670646695236044365629 -0.041394971311092376708984375000 0.001718130311928689913508749854 0.004825339652597904205322265625 0 0 0 0 
2411833333.3333334923 0.181607335805892888824786268742 -0.041656769812107093120534528907 0.002051263116300106048583984375 0.004566861316561698913574218750 0 0 0 0 
2412000000.0000000000 0.181515887379646301269531250000 -0.042220555245876312255859375000 0.002351711504161357879638671875 0.004495441913604736328125000000 0 0 0 0 
2412166666.6666665077 0.181114614009857205489950615629 -0.042471460998058319091796875000 0.002253672340884805159327841650 0.004297903273254632949829101562 0 0 0 0 
2412333333.3333334923 0.181060776114463806152343750000 -0.042853731662034988403320312500 0.002596790669485927061793661963 0.004235875327140092849731445312 0 0 0 0 
2412500000.0000000000 0.180500194430351312835369981258 -0.043075609952211380004882812500 0.002564665628597139878513955225 0.003971811383962631225585937500 0 0 0 0 
2412666666.6666665077 0.179852709174156188964843750000 -0.043479323387146003032643903907 0.002773635555058718161342001807 0.003746691858395934104919433594 0 0 0 0 
2412833333.3333334923 0.179089725017547607421875000000 -0.043908786028623580932617187500 0.002952716313302516937255859375 0.003734157653525472120997763525 0 0 0 0 
2413000000.0000000000 0.178532332181930486481036268742 -0.044314187020063400268554687500 0.003011758206412196159362792969 0.003330204170197248892543173682 0 0 0 0 
2413166666.6666665077 0.177656352519989013671875000000 -0.044761426746845252300222028907 0.002958087716251612143275595557 0.003448145464062691168544150244 0 0 0 0 
2413333333.3333334923 0.176579624414443997482138115629 -0.045158788561820976947824846093 0.003182105021551250977757119287 0.003206052584573626951930380713 0 0 0 0 
2413500000.0000000000 0.175757780671119689941406250000 -0.045558638870716101909597028907 0.003115055616945027871372841943 0.003086526412516831918003701318 0 0 0 0 
2413666666.6666665077 0.174751564860343905349893134371 -0.046138361096382141113281250000 0.003173036733642220930812216650 0.002879667794331907792332314600 0 0 0 0 
2413833333.3333334923 0.173659920692443903167401231258 -0.046690538525581359863281250000 0.003118443302810192108154296875 0.002920621074736117882969521631 0 0 0 0 
2414000000.0000000000 0.172491326928138705154580634371 -0.047397084534168243408203125000 0.003080468391999601884129189600 0.002804496325552463965175009619 0 0 0 0 
2414166666.6666665077 0.171414643526077298263388115629 -0.047956801950931549072265625000 0.003360071219503879980800009619 0.002637566998600960211512900244 0 0 0 0 
2414333333.3333334923 0.170239061117172213455361884371 -0.048846982419490807270090471093 0.003491060808300971984863281250 0.002573407487943768934962607275 0 0 0 0 
2414500000.0000000000 0.169089838862419100662393134371 -0.049533613026142120361328125000 0.003423615591600536866428994287 0.002597241662442684173583984375 0 0 0 0 
2414666666.6666665077 0.167857751250267001053018134371 -0.050563763827085501934011091407 0.003349796636030077934265136719 0.002636713441461325125453329932 0 0 0 0 
2414833333.3333334923 0.166612967848777798751669365629 -0.051501557230949401855468750000 0.003507178742438555197474814307 0.002527917968109250068664550781 0 0 0 0 
2415000000.0000000000 0.165384337306022588531817518742 -0.052731443196535110473632812500 0.003571637906134129004237509619 0.002343589672818779945373535156 0 0 0 0 
2415166666.6666665077 0.164239570498466491699218750000 -0.053838983178138732910156250000 0.003709378885105251832249306787 0.002390017500147223906276083838 0 0 0 0 
2415333333.3333334923 0.163114815950393704513388115629 -0.055255569517612457275390625000 0.003861886216327548027038574219 0.002395393559709190888645791162 0 0 0 0 
2415500000.0000000000 0.161958009004592895507812500000 -0.056528862565755837177317033593 0.003830688772723079161403036963 0.002304054098203777833225869287 0 0 0 0 
2415666666.6666665077 0.160786747932434109786825615629 -0.057969372719526290893554687500 0.004041668027639389038085937500 0.002182148164138197898864746094 0 0 0 0 
2415833333.3333334923 0.159850060939788790603799384371 -0.059481468051671981811523437500 0.004154045600444077578072832324 0.002101260237395762963535927881 0 0 0 0 
2416000000.0000000000 0.158555492758750887771768134371 -0.061218451708555221557617187500 0.004432596731930971145629882812 0.002004920970648527145385742188 0 0 0 0 
2416166666.6666665077 0.157803326845169095138388115629 -0.062973812222480773925781250000 0.004592034965753555297851562500 0.001809702836908400058746337891 0 0 0 0 
2416333333.3333334923 0.156771942973136901855468750000 -0.064610950648784637451171875000 0.004731750581413508328909589551 0.001641140901483594937565468896 0 0 0 0 
2416500000.0000000000 0.155816614627838107010049384371 -0.066417165100574493408203125000 0.004990287125110626220703125000 0.001501146354712546088575053638 0 0 0 0 
2416666666.6666665077 0.154876276850700406173544365629 -0.068204313516616821289062500000 0.005015759263187646865844726562 0.001132138073444367105599428491 0 0 0 0 
2416833333.3333334923 0.154144719243049593826455634371 -0.070256911218166351318359375000 0.005113528110086917877197265625 0.001005410915240644974949502100 0 0 0 0 
2417000000.0000000000 0.153301760554313687423544365629 -0.072183474898338317871093750000 0.005168475676327943801879882812 0.000716821989044547080993652344 0 0 0 0 
2417166666.6666665077 0.152535840868949890136718750000 -0.074020661413669586181640625000 0.005193240940570831298828125000 0.000485466007376089692115783691 0 0 0 0 
2417333333.3333334923 0.151989132165908813476562500000 -0.076006926596164703369140625000 0.005401775240898132324218750000 0.000271600991254672408103942871 0 0 0 0 
2417500000.0000000000 0.151414871215820312500000000000 -0.077985979616641998291015625000 0.005296187940984964370727539062 0.000038454265450127422809600830 0 0 0 0 
2417666666.6666665077 0.151003390550613403320312500000 -0.079560346901416778564453125000 0.005452480167150496569161699512 -0.000287040165858343189388829364 0 0 0 0 
2417833333.3333334923 0.150489568710327203948651231258 -0.081477567553520202636718750000 0.005443004425615072250366210938 -0.000616687699221074581146240234 0 0 0 0 
2418000000.0000000000 0.150238245725631713867187500000 -0.083271354436874389648437500000 0.005364407319575548171997070312 -0.000962181075010448694229125977 0 0 0 0 
2418166666.6666665077 0.149866968393325805664062500000 -0.084860138595104217529296875000 0.005339166615158320340628339551 -0.001179299899376929023145366138 0 0 0 0 
2418333333.3333334923 0.149898335337638910491619981258 -0.086700387299060821533203125000 0.005239143967628479003906250000 -0.001257565221749245903612446362 0 0 0 0 
2418500000.0000000000 0.149466231465339688400106865629 -0.088260047137737274169921875000 0.005085818003863096237182617188 -0.001665194635279477076289511572 0 0 0 0 
2418666666.6666665077 0.149689987301826504806356865629 -0.089818917214870452880859375000 0.005075785797089338302612304688 -0.001933154650032520077349018628 0 0 0 0 
2418833333.3333334923 0.149475544691085787674111884371 -0.091328628361225128173828125000 0.004766981583088636398315429688 -0.002313667675480246977565146338 0 0 0 0 
2419000000.0000000000 0.149372279644012506683026231258 -0.092695608735084533691406250000 0.004512077197432518005371093750 -0.002528812969103455977198935400 0 0 0 0 
2419166666.6666665077 0.149586662650108309646768134371 -0.093901291489601135253906250000 0.004532653372734785079956054688 -0.002642439678311347961425781250 0 0 0 0 
2419333333.3333334923 0.149375393986701993087606865629 -0.094799086451530456542968750000 0.004329037852585315704345703125 -0.002947215456515551047084189307 0 0 0 0 
2419500000.0000000000 0.149756371974945096114950615629 -0.096117660403251647949218750000 0.004203072283416987332815839551 -0.003076253226026893095729208838 0 0 0 0 
2419666666.6666665077 0.149974584579467801193075615629 -0.097093075513839721679687500000 0.003906590398401021957397460938 -0.003155933227390050888061523438 0 0 0 0 
2419833333.3333334923 0.150267794728279113769531250000 -0.097680509090423583984375000000 0.003926249220967292785644531250 -0.003434725571423768997192382812 0 0 0 0 
