# Version 1.00
#
freq[Hz];re:Trc1_S11;im:Trc1_S11;re:Trc2_S21;im:Trc2_S21;
2.400000000000000E+009;1.664833128452301E-001;4.150123894214630E-002;-1.095428131520748E-003;-3.327693324536085E-003;
2.400166666666667E+009;1.668382883071899E-001;4.071800410747528E-002;-1.080503338016570E-003;-3.302678698673844E-003;
2.400333333333334E+009;1.674771755933762E-001;3.957829996943474E-002;-1.489452086389065E-003;-3.274497576057911E-003;
2.400500000000000E+009;1.679411977529526E-001;3.877715393900871E-002;-1.503510517068207E-003;-3.138401079922915E-003;
2.400666666666667E+009;1.683685928583145E-001;3.762521594762802E-002;-1.610032981261611E-003;-3.130534663796425E-003;
2.400833333333334E+009;1.685861647129059E-001;3.651966154575348E-002;-1.689983648248017E-003;-3.036711830645800E-003;
2.401000000000000E+009;1.688998490571976E-001;3.564392775297165E-002;-1.894921530038118E-003;-2.863052766770124E-003;
2.401166666666667E+009;1.693551689386368E-001;3.465124964714050E-002;-2.053736010566354E-003;-2.874923637136817E-003;
2.401333333333334E+009;1.692718416452408E-001;3.364463895559311E-002;-2.124111633747816E-003;-2.654514508321881E-003;
2.401500000000000E+009;1.698074042797089E-001;3.252991661429405E-002;-2.255733590573072E-003;-2.559545682743192E-003;
2.401666666666667E+009;1.699000597000122E-001;3.169748932123184E-002;-2.408725442364812E-003;-2.524035284295678E-003;
2.401833333333334E+009;1.701409369707108E-001;3.064518980681896E-002;-2.380941063165665E-003;-2.371727023273706E-003;
2.402000000000000E+009;1.701393574476242E-001;2.968870475888252E-002;-2.562173409387469E-003;-2.267337637022138E-003;
2.402166666666667E+009;1.704432964324951E-001;2.858282439410687E-002;-2.723706653341651E-003;-2.159266499802470E-003;
2.402333333333334E+009;1.703685075044632E-001;2.756709791719914E-002;-2.732065273448825E-003;-1.888619968667626E-003;
2.402500000000000E+009;1.708489805459976E-001;2.673807740211487E-002;-2.712132409214973E-003;-1.478110440075398E-003;
2.402666666666667E+009;1.706866323947907E-001;2.562404423952103E-002;-2.638573758304119E-003;-1.518122269771993E-003;
2.402833333333334E+009;1.708973199129105E-001;2.447617799043655E-002;-2.715633716434240E-003;-1.296986942179501E-003;
2.403000000000000E+009;1.710035204887390E-001;2.339679002761841E-002;-2.575517632067204E-003;-1.265692641027272E-003;
2.403166666666667E+009;1.711409986019135E-001;2.232917584478855E-002;-2.689779736101627E-003;-1.205567270517349E-003;
2.403333333333334E+009;1.710582077503204E-001;2.126047573983669E-002;-2.609603805467486E-003;-1.002380624413490E-003;
2.403500000000000E+009;1.710830032825470E-001;2.006714604794979E-002;-2.390244975686073E-003;-1.047620200552046E-003;
2.403666666666667E+009;1.710841357707977E-001;1.874881424009800E-002;-2.203759970143437E-003;-8.074786746874452E-004;
2.403833333333334E+009;1.712177842855454E-001;1.754403300583363E-002;-2.132195513695478E-003;-7.517485064454377E-004;
2.404000000000000E+009;1.711932718753815E-001;1.641794294118881E-002;-2.314377808943391E-003;-8.882927359081805E-004;
2.404166666666667E+009;1.710642874240875E-001;1.498197671025991E-002;-2.275706036016345E-003;-9.023665916174650E-004;
2.404333333333334E+009;1.711638867855072E-001;1.385067217051983E-002;-2.233494771644473E-003;-8.226833888329566E-004;
2.404500000000000E+009;1.711588352918625E-001;1.247220207005739E-002;-1.995419384911656E-003;-8.492533816024661E-004;
2.404666666666667E+009;1.711755096912384E-001;1.116285007447004E-002;-2.199318027123809E-003;-6.580429035238922E-004;
2.404833333333334E+009;1.711428761482239E-001;9.786415845155716E-003;-2.259027678519487E-003;-7.408329984173179E-004;
2.405000000000000E+009;1.711576730012894E-001;8.589465171098709E-003;-2.188308397307992E-003;-6.590759148821235E-004;
2.405166666666667E+009;1.712420731782913E-001;7.120364345610142E-003;-2.252433681860566E-003;-7.190962787717581E-004;
2.405333333333334E+009;1.713152825832367E-001;5.537556018680334E-003;-2.162665361538529E-003;-7.037909235805273E-004;
2.405500000000000E+009;1.712658703327179E-001;4.143498837947846E-003;-2.082466147840023E-003;-4.397158045321703E-004;
2.405666666666667E+009;1.713021844625473E-001;2.763286232948303E-003;-2.143984427675605E-003;-7.606640574522317E-004;
2.405833333333334E+009;1.710218191146851E-001;1.482534804381430E-003;-2.202335512265563E-003;-6.519474554806948E-004;
2.406000000000000E+009;1.710765361785889E-001;-3.108794917352498E-004;-2.117979805916548E-003;-8.021664107218385E-004;
2.406166666666667E+009;1.710075885057449E-001;-1.529820379801095E-003;-2.260262379422784E-003;-8.017088985070586E-004;
2.406333333333334E+009;1.709060817956924E-001;-3.032913897186518E-003;-2.312799217179418E-003;-5.151578807272017E-004;
2.406500000000000E+009;1.707079857587814E-001;-4.509737715125084E-003;-2.366943052038550E-003;-6.063921609893441E-004;
2.406666666666667E+009;1.703717410564423E-001;-5.793471354991198E-003;-2.366024535149336E-003;-5.572038353420794E-004;
2.406833333333334E+009;1.702985912561417E-001;-7.334536872804165E-003;-2.552611520513892E-003;-5.550659261643887E-004;
2.407000000000000E+009;1.700786650180817E-001;-8.565193042159081E-003;-2.376814605668187E-003;-4.072439332958311E-004;
2.407166666666667E+009;1.698814928531647E-001;-9.875820018351078E-003;-2.605481073260307E-003;-2.491061168257147E-004;
2.407333333333334E+009;1.694910824298859E-001;-1.131737884134054E-002;-2.424208447337151E-003;-1.019630581140518E-004;
2.407500000000000E+009;1.693560183048248E-001;-1.233472395688295E-002;-2.430442720651627E-003;-2.088033943437040E-004;
2.407666666666667E+009;1.691152155399323E-001;-1.345859933644533E-002;-2.548585413023830E-003;-2.349085298192222E-005;
2.407833333333334E+009;1.686692684888840E-001;-1.475413236767054E-002;-2.595341997221112E-003;6.675679469481111E-005;
2.408000000000000E+009;1.685491651296616E-001;-1.578240469098091E-002;-2.410725224763155E-003;5.526166569325142E-005;
2.408166666666667E+009;1.683285683393478E-001;-1.652383618056774E-002;-2.448322484269738E-003;-1.338168658548966E-004;
2.408333333333334E+009;1.682866215705872E-001;-1.751695573329926E-002;-2.431337488815188E-003;-3.755809666472487E-005;
2.408500000000000E+009;1.681509315967560E-001;-1.858465932309628E-002;-2.362781902775168E-003;-8.146373147610575E-005;
2.408666666666667E+009;1.680904775857925E-001;-1.944745332002640E-002;-2.470010193064809E-003;1.869266452558804E-005;
2.408833333333334E+009;1.679609715938568E-001;-2.039010077714920E-002;-2.533329650759697E-003;6.251555896596983E-005;
2.409000000000000E+009;1.678888499736786E-001;-2.106942608952522E-002;-2.613410819321871E-003;-1.018746406771243E-004;
2.409166666666667E+009;1.679939329624176E-001;-2.203974314033985E-002;-2.807850483804941E-003;5.621308810077608E-005;
2.409333333333334E+009;1.681314706802368E-001;-2.290013618767262E-002;-2.868893789127469E-003;2.507868048269302E-004;
2.409500000000000E+009;1.680911034345627E-001;-2.403189241886139E-002;-2.791236387565732E-003;2.766386314760894E-004;
2.409666666666667E+009;1.680827289819717E-001;-2.487980760633946E-002;-2.860932843759656E-003;3.697843931149691E-004;
2.409833333333334E+009;1.681095063686371E-001;-2.597742527723312E-002;-2.958980156108737E-003;4.438106552697718E-004;
2.410000000000000E+009;1.682593822479248E-001;-2.668100968003273E-002;-3.076012711971998E-003;5.607791244983673E-004;
2.410166666666667E+009;1.681563556194305E-001;-2.779791504144669E-002;-3.132078330963850E-003;8.002378162927926E-004;
2.410333333333334E+009;1.678831279277802E-001;-2.892058901488781E-002;-3.007087390869856E-003;7.581958197988570E-004;
2.410500000000000E+009;1.680482923984528E-001;-2.986435405910015E-002;-3.012369852513075E-003;1.025945530273020E-003;
2.410666666666667E+009;1.678694039583206E-001;-3.107943385839462E-002;-2.957016462460160E-003;1.119915745221078E-003;
2.410833333333334E+009;1.678901016712189E-001;-3.197573497891426E-002;-3.089569043368101E-003;1.260816934518516E-003;
2.411000000000000E+009;1.674304753541946E-001;-3.292484581470490E-002;-3.015186870470643E-003;1.643228926695883E-003;
2.411166666666667E+009;1.674466431140900E-001;-3.401453420519829E-002;-3.034973749890924E-003;1.647599274292588E-003;
2.411333333333334E+009;1.673356890678406E-001;-3.503316268324852E-002;-3.080253722146154E-003;1.690600649453700E-003;
2.411500000000000E+009;1.671032309532166E-001;-3.613452613353729E-002;-3.147460520267487E-003;1.931877806782723E-003;
2.411666666666667E+009;1.668290942907333E-001;-3.684293851256371E-002;-2.872994169592857E-003;2.035682555288076E-003;
2.411833333333334E+009;1.666118502616882E-001;-3.791227564215660E-002;-2.804819494485855E-003;2.236149506643415E-003;
2.412000000000000E+009;1.665613800287247E-001;-3.897680342197418E-002;-2.755441004410386E-003;2.393214963376522E-003;
2.412166666666667E+009;1.662299931049347E-001;-3.994638472795487E-002;-2.552195684984326E-003;2.705269958823919E-003;
2.412333333333334E+009;1.662500351667404E-001;-4.112248495221138E-002;-2.447984414175153E-003;2.642890671268106E-003;
2.412500000000000E+009;1.657503694295883E-001;-4.217037186026573E-002;-2.311140298843384E-003;2.856973325833678E-003;
2.412666666666667E+009;1.655481308698654E-001;-4.325462132692337E-002;-2.049129223451018E-003;2.834580838680267E-003;
2.412833333333334E+009;1.652154475450516E-001;-4.432239383459091E-002;-1.996822422370315E-003;2.964165760204196E-003;
2.413000000000000E+009;1.649114042520523E-001;-4.535851255059242E-002;-1.974491635337472E-003;3.033521585166454E-003;
2.413166666666667E+009;1.645953208208084E-001;-4.638854041695595E-002;-1.731079886667430E-003;3.146921284496784E-003;
2.413333333333334E+009;1.641295105218887E-001;-4.756201803684235E-002;-1.495901262387633E-003;3.195957746356726E-003;
2.413500000000000E+009;1.637656837701798E-001;-4.857342690229416E-002;-1.408802578225732E-003;3.101813606917858E-003;
2.413666666666667E+009;1.634266525506973E-001;-4.952449351549149E-002;-1.374306040816009E-003;3.374158637598157E-003;
2.413833333333334E+009;1.630972772836685E-001;-5.052064359188080E-002;-1.024114550091326E-003;3.264734521508217E-003;
2.414000000000000E+009;1.625848412513733E-001;-5.156328156590462E-002;-8.690165122970939E-004;3.262351499870420E-003;
2.414166666666667E+009;1.624630242586136E-001;-5.244942381978035E-002;-7.529345457442105E-004;3.254909534007311E-003;
2.414333333333334E+009;1.622114628553391E-001;-5.336685478687286E-002;-5.231804680079222E-004;3.216196317225695E-003;
2.414500000000000E+009;1.621073633432388E-001;-5.430226400494576E-002;-3.454074903856963E-004;3.112681442871690E-003;
2.414666666666667E+009;1.617693752050400E-001;-5.514294654130936E-002;-1.310066290898249E-004;3.120156703516841E-003;
2.414833333333334E+009;1.615954935550690E-001;-5.631411820650101E-002;-1.876973874459509E-005;3.002669662237167E-003;
2.415000000000000E+009;1.614790409803391E-001;-5.715314671397209E-002;2.213414518337231E-005;2.914116019383073E-003;
2.415166666666667E+009;1.613006293773651E-001;-5.815118551254273E-002;1.340124144917354E-004;2.854790305718780E-003;
2.415333333333334E+009;1.614115834236145E-001;-5.927773192524910E-002;3.118731547147036E-004;2.466587116941810E-003;
2.415500000000000E+009;1.612113267183304E-001;-6.018926203250885E-002;2.564536116551608E-004;2.532921731472015E-003;
2.415666666666667E+009;1.609561741352081E-001;-6.122734025120735E-002;4.406643565744162E-004;2.381587401032448E-003;
2.415833333333334E+009;1.609561294317246E-001;-6.233160942792893E-002;4.573806945700198E-004;2.376140095293522E-003;
2.416000000000000E+009;1.606421172618866E-001;-6.348979473114014E-002;2.809270226862282E-004;2.173156710341573E-003;
2.416166666666667E+009;1.607172936201096E-001;-6.462574005126953E-002;3.951681719627231E-004;1.926095574162900E-003;
2.416333333333334E+009;1.604496985673904E-001;-6.561063230037689E-002;3.868327476084232E-004;2.018300583586097E-003;
2.416500000000000E+009;1.600817143917084E-001;-6.679069995880127E-002;2.112847869284451E-004;2.023235196247697E-003;
2.416666666666667E+009;1.597909033298492E-001;-6.768964231014252E-002;3.074515843763948E-004;1.969804521650076E-003;
2.416833333333334E+009;1.596703678369522E-001;-6.887733191251755E-002;3.394478117115796E-004;1.929656136780977E-003;
2.417000000000000E+009;1.590110361576080E-001;-6.997175514698029E-002;5.563954982790165E-005;1.770491362549365E-003;
2.417166666666667E+009;1.588329225778580E-001;-7.077222317457199E-002;1.339798764092848E-004;1.762532046996057E-003;
2.417333333333334E+009;1.584490239620209E-001;-7.168971747159958E-002;1.569419837323949E-004;1.736692618578672E-003;
2.417500000000000E+009;1.579417437314987E-001;-7.270493358373642E-002;5.655338463839144E-005;1.758108846843243E-003;
2.417666666666667E+009;1.578034907579422E-001;-7.330183684825897E-002;6.045465488568880E-005;1.707127084955573E-003;
2.417833333333334E+009;1.575046032667160E-001;-7.412534952163696E-002;5.591163062490523E-005;1.792465103790164E-003;
2.418000000000000E+009;1.568861603736877E-001;-7.511935383081436E-002;-1.463710941607133E-004;1.814353046938777E-003;
2.418166666666667E+009;1.566684097051621E-001;-7.576768100261688E-002;-1.893919688882306E-004;1.815388794057071E-003;
2.418333333333334E+009;1.564445495605469E-001;-7.657063007354736E-002;-1.188005189760588E-004;1.893074018880725E-003;
2.418500000000000E+009;1.560169309377670E-001;-7.725543528795242E-002;-1.166785586974584E-004;2.016800222918391E-003;
2.418666666666667E+009;1.557845026254654E-001;-7.806380838155747E-002;-3.046308993361890E-004;2.157934010028839E-003;
2.418833333333334E+009;1.551939547061920E-001;-7.890850305557251E-002;-2.357213961658999E-004;2.350789494812489E-003;
2.419000000000000E+009;1.548285186290741E-001;-7.935208827257156E-002;-1.644094299990684E-004;2.382895210757852E-003;
2.419166666666667E+009;1.543798297643662E-001;-8.023355901241303E-002;-3.138105385005474E-004;2.499814378097653E-003;
2.419333333333334E+009;1.538105756044388E-001;-8.075686544179916E-002;-2.049654576694593E-004;2.638330683112145E-003;
2.419500000000000E+009;1.534232348203659E-001;-8.149452507495880E-002;-4.844018621952273E-005;2.807454904541373E-003;
2.419666666666667E+009;1.530510634183884E-001;-8.228317648172379E-002;1.913316227728501E-004;2.892217133194208E-003;
2.419833333333334E+009;1.526222378015518E-001;-8.270367980003357E-002;9.360969852423295E-005;2.990359673276544E-003;
2.420000000000000E+009;1.523652672767639E-001;-8.332885801792145E-002;2.673704002518207E-004;2.935195108875632E-003;
2.420166666666667E+009;1.518018841743469E-001;-8.395206183195114E-002;4.357236321084201E-004;3.212918061763048E-003;
2.420333333333334E+009;1.514606624841690E-001;-8.460434526205063E-002;5.644444026984274E-004;3.179173916578293E-003;
2.420500000000000E+009;1.510131657123566E-001;-8.523122966289520E-002;6.005844334140420E-004;3.108782228082418E-003;
2.420666666666667E+009;1.503385603427887E-001;-8.595269918441773E-002;9.430759237147868E-004;3.210416296496987E-003;
2.420833333333334E+009;1.500334590673447E-001;-8.655269443988800E-002;1.150562311522663E-003;3.217450808733702E-003;
2.421000000000000E+009;1.496742665767670E-001;-8.749069273471832E-002;1.181972445920110E-003;3.383792936801910E-003;
2.421166666666667E+009;1.493014097213745E-001;-8.815073221921921E-002;1.402107533067465E-003;3.278959775343537E-003;
2.421333333333334E+009;1.488347351551056E-001;-8.910887688398361E-002;1.729300827719271E-003;3.236775286495686E-003;
2.421500000000000E+009;1.480088233947754E-001;-8.972426503896713E-002;1.745627727359533E-003;3.205895191058517E-003;
2.421666666666667E+009;1.474798172712326E-001;-9.046620130538940E-002;1.809860114008188E-003;3.364736447110772E-003;
2.421833333333334E+009;1.471898108720779E-001;-9.141167998313904E-002;1.938647823408246E-003;3.186731366440654E-003;
2.422000000000000E+009;1.464342027902603E-001;-9.209463000297546E-002;2.326880116015673E-003;3.047090722247958E-003;
2.422166666666667E+009;1.458799839019775E-001;-9.317786246538162E-002;2.398266224190593E-003;2.973877359181643E-003;
2.422333333333334E+009;1.452513784170151E-001;-9.399833530187607E-002;2.577708335593343E-003;3.213271265849471E-003;
2.422500000000000E+009;1.446240544319153E-001;-9.470798075199127E-002;2.684765961021185E-003;2.776770852506161E-003;
2.422666666666667E+009;1.440175622701645E-001;-9.569455683231354E-002;2.927740802988410E-003;2.717511029914022E-003;
2.422833333333334E+009;1.434331834316254E-001;-9.655196964740753E-002;2.983592450618744E-003;2.694375580176711E-003;
2.423000000000000E+009;1.428390890359879E-001;-9.748433530330658E-002;3.235503798350692E-003;2.625540364533663E-003;
2.423166666666667E+009;1.424098908901215E-001;-9.842049330472946E-002;3.437780775129795E-003;2.434049965813756E-003;
2.423333333333334E+009;1.418135166168213E-001;-9.917508065700531E-002;3.691149409860373E-003;2.256273757666349E-003;
2.423500000000000E+009;1.411998718976975E-001;-1.004362329840660E-001;3.578797681257129E-003;2.002787776291370E-003;
2.423666666666667E+009;1.404094099998474E-001;-1.014266908168793E-001;3.840296529233456E-003;1.768909860402346E-003;
2.423833333333334E+009;1.401426494121552E-001;-1.022539213299751E-001;3.823937149718404E-003;1.513121183961630E-003;
2.424000000000000E+009;1.394613087177277E-001;-1.031883507966995E-001;3.919981885701418E-003;1.330460654571652E-003;
2.424166666666667E+009;1.387909054756165E-001;-1.042021065950394E-001;3.930050414055586E-003;1.089926110580564E-003;
2.424333333333334E+009;1.382884234189987E-001;-1.050494313240051E-001;3.934341948479414E-003;9.476522100158036E-004;
2.424500000000000E+009;1.378887295722961E-001;-1.060078069567680E-001;3.932524472475052E-003;7.555086631327868E-004;
2.424666666666667E+009;1.373417973518372E-001;-1.067661717534065E-001;3.781953360885382E-003;6.039937143214047E-004;
2.424833333333334E+009;1.367254704236984E-001;-1.079893335700035E-001;3.737974213436246E-003;3.516694996505976E-004;
2.425000000000000E+009;1.363107860088348E-001;-1.089049503207207E-001;3.716558218002319E-003;4.131371970288456E-004;
2.425166666666667E+009;1.356153339147568E-001;-1.097787842154503E-001;3.687029471620917E-003;1.887523249024525E-004;
2.425333333333334E+009;1.353512704372406E-001;-1.107185557484627E-001;3.695090534165502E-003;-8.620321750640869E-005;
2.425500000000000E+009;1.350508779287338E-001;-1.116874888539314E-001;3.854387905448675E-003;7.512205229431856E-006;
2.425666666666667E+009;1.342285275459290E-001;-1.125384569168091E-001;3.661374328657985E-003;-2.586902701295912E-004;
2.425833333333334E+009;1.339776664972305E-001;-1.134548783302307E-001;3.716574981808662E-003;-2.429800078971312E-004;
2.426000000000000E+009;1.335230171680450E-001;-1.143533065915108E-001;3.760722000151873E-003;-5.000386736355722E-004;
2.426166666666667E+009;1.333023607730866E-001;-1.152870357036591E-001;3.606033744290471E-003;-6.922555621713400E-004;
2.426333333333334E+009;1.327640712261200E-001;-1.160299628973007E-001;3.536778036504984E-003;-8.618732099421322E-004;
2.426500000000000E+009;1.324356645345688E-001;-1.168090626597405E-001;3.635986475273967E-003;-1.129264477640390E-003;
2.426666666666667E+009;1.321382224559784E-001;-1.174629703164101E-001;3.438798245042563E-003;-1.063333824276924E-003;
2.426833333333334E+009;1.316788345575333E-001;-1.181753575801849E-001;3.305742051452398E-003;-1.385697512887418E-003;
2.427000000000000E+009;1.313072144985199E-001;-1.190413534641266E-001;3.197064856067300E-003;-1.508367131464183E-003;
2.427166666666667E+009;1.309732943773270E-001;-1.195209026336670E-001;3.231395501643419E-003;-1.642354647628963E-003;
2.427333333333334E+009;1.305764168500900E-001;-1.202422603964806E-001;2.770397812128067E-003;-1.725026872009039E-003;
2.427500000000000E+009;1.303320974111557E-001;-1.209675669670105E-001;2.828559139743447E-003;-1.712518045678735E-003;
2.427666666666667E+009;1.299209147691727E-001;-1.216446980834007E-001;2.648005727678537E-003;-1.811366761103272E-003;
