# Version 1.00
#
freq[Hz];re:Trc1_S11;im:Trc1_S11;re:Trc2_S21;im:Trc2_S21;
2.400000000000000E+009;1.610029041767120E-001;5.662791430950165E-002;6.049364455975592E-004;5.028562154620886E-003;
2.400166666666667E+009;1.610108017921448E-001;5.516650527715683E-002;6.244044634513557E-004;5.251629278063774E-003;
2.400333333333334E+009;1.610763221979141E-001;5.333511158823967E-002;7.943129166960716E-004;5.251393653452396E-003;
2.400500000000000E+009;1.613389998674393E-001;5.144939944148064E-002;9.253029129467905E-004;5.399944726377726E-003;
2.400666666666667E+009;1.613434702157974E-001;4.975084215402603E-002;1.112946541979909E-003;5.447923671454191E-003;
2.400833333333334E+009;1.615373194217682E-001;4.796552285552025E-002;1.366783981211484E-003;5.568375345319510E-003;
2.401000000000000E+009;1.617453545331955E-001;4.584768414497376E-002;1.534509123302996E-003;5.690867546945810E-003;
2.401166666666667E+009;1.619656533002853E-001;4.431069269776344E-002;1.869415282271802E-003;5.625460762530565E-003;
2.401333333333334E+009;1.621626615524292E-001;4.237728565931320E-002;2.176837529987097E-003;5.682908464223146E-003;
2.401500000000000E+009;1.627065390348434E-001;4.039255157113075E-002;2.407452557235956E-003;5.865406710654497E-003;
2.401666666666667E+009;1.629625707864761E-001;3.877946361899376E-002;2.665709005668759E-003;5.719430744647980E-003;
2.401833333333334E+009;1.633416265249252E-001;3.686397150158882E-002;2.866240451112390E-003;5.787926260381937E-003;
2.402000000000000E+009;1.636356562376022E-001;3.508571535348892E-002;3.268447471782565E-003;5.815209355205298E-003;
2.402166666666667E+009;1.640399247407913E-001;3.319716081023216E-002;3.569516120478511E-003;5.789193790405989E-003;
2.402333333333334E+009;1.644333750009537E-001;3.147460520267487E-002;3.909367602318525E-003;5.809967871755362E-003;
2.402500000000000E+009;1.651700288057327E-001;3.003744222223759E-002;4.361749626696110E-003;5.667086690664291E-003;
2.402666666666667E+009;1.657366305589676E-001;2.851828187704086E-002;4.711964633315802E-003;5.399502348154783E-003;
2.402833333333334E+009;1.663847267627716E-001;2.695149369537830E-002;4.866119939833880E-003;5.338277667760849E-003;
2.403000000000000E+009;1.671201437711716E-001;2.550144493579865E-002;5.178402643650770E-003;5.110602360218763E-003;
2.403166666666667E+009;1.676989197731018E-001;2.390301786363125E-002;5.564903840422630E-003;4.929019138216972E-003;
2.403333333333334E+009;1.683485954999924E-001;2.267892286181450E-002;5.917591974139214E-003;4.426022991538048E-003;
2.403500000000000E+009;1.691441237926483E-001;2.173108421266079E-002;6.173633038997650E-003;4.410003777593374E-003;
2.403666666666667E+009;1.696976572275162E-001;2.015372179448605E-002;6.465345155447722E-003;4.064620472490788E-003;
2.403833333333334E+009;1.705568879842758E-001;1.910679601132870E-002;6.627880036830902E-003;3.693489823490381E-003;
2.404000000000000E+009;1.713717132806778E-001;1.795972138643265E-002;6.732115987688303E-003;3.336801193654537E-003;
2.404166666666667E+009;1.721195727586746E-001;1.697318814694881E-002;7.001751102507114E-003;2.961227670311928E-003;
2.404333333333334E+009;1.725689023733139E-001;1.606913469731808E-002;7.097165100276470E-003;2.654812531545758E-003;
2.404500000000000E+009;1.730747073888779E-001;1.523397117853165E-002;7.308225613087416E-003;2.296521561220288E-003;
2.404666666666667E+009;1.739280819892883E-001;1.438732258975506E-002;7.472620811313391E-003;2.000202424824238E-003;
2.404833333333334E+009;1.746017038822174E-001;1.363077014684677E-002;7.394010666757822E-003;1.408432144671679E-003;
2.405000000000000E+009;1.751203835010529E-001;1.296452991664410E-002;7.444045040756464E-003;1.074862550012767E-003;
2.405166666666667E+009;1.755749583244324E-001;1.234942581504583E-002;7.490605115890503E-003;5.733933649025857E-004;
2.405333333333334E+009;1.762610971927643E-001;1.162678375840187E-002;7.428326644003391E-003;1.756561978254467E-004;
2.405500000000000E+009;1.767206788063049E-001;1.131419930607081E-002;7.375425659120083E-003;-1.609656173968688E-004;
2.405666666666667E+009;1.770086586475372E-001;1.084978878498077E-002;7.415903732180595E-003;-3.836763498838991E-004;
2.405833333333334E+009;1.772148758172989E-001;1.045231986790896E-002;7.255584932863712E-003;-8.376559708267450E-004;
2.406000000000000E+009;1.776901632547379E-001;9.847315028309822E-003;7.289811968803406E-003;-1.186832436360419E-003;
2.406166666666667E+009;1.777878999710083E-001;9.671065025031567E-003;7.056425791233778E-003;-1.432285993359983E-003;
2.406333333333334E+009;1.781477481126785E-001;9.232953190803528E-003;6.864101625978947E-003;-1.836612471379340E-003;
2.406500000000000E+009;1.781125962734222E-001;8.711268194019795E-003;6.561076734215021E-003;-2.092924434691668E-003;
2.406666666666667E+009;1.780916899442673E-001;8.345712907612324E-003;6.499210838228464E-003;-2.478425158187747E-003;
2.406833333333334E+009;1.782169342041016E-001;7.932973094284535E-003;6.225411780178547E-003;-2.781056333333254E-003;
2.407000000000000E+009;1.780669093132019E-001;7.509319111704826E-003;6.123939994722605E-003;-2.932646078988910E-003;
2.407166666666667E+009;1.781802624464035E-001;6.945590954273939E-003;5.827799905091524E-003;-3.102684626355767E-003;
2.407333333333334E+009;1.777994334697723E-001;6.417843978852034E-003;5.744250491261482E-003;-3.396707354113460E-003;
2.407500000000000E+009;1.775750964879990E-001;6.027105264365673E-003;5.524436477571726E-003;-3.518753685057163E-003;
2.407666666666667E+009;1.774124950170517E-001;5.498734768480063E-003;5.289813503623009E-003;-3.742696484550834E-003;
2.407833333333334E+009;1.769441813230515E-001;4.527332261204720E-003;4.915600176900625E-003;-3.869461361318827E-003;
2.408000000000000E+009;1.765720993280411E-001;3.801306243985891E-003;4.832299891859293E-003;-3.965411800891161E-003;
2.408166666666667E+009;1.760673969984055E-001;3.225254593417049E-003;4.461168311536312E-003;-4.086583852767944E-003;
2.408333333333334E+009;1.759072095155716E-001;2.356643788516522E-003;4.185525234788656E-003;-4.247966688126326E-003;
2.408500000000000E+009;1.753116846084595E-001;1.338174100965262E-003;3.916142508387566E-003;-4.323231056332588E-003;
2.408666666666667E+009;1.748653054237366E-001;2.765679091680795E-004;3.740884596481919E-003;-4.457550588995218E-003;
2.408833333333334E+009;1.740997135639191E-001;-9.071230306290090E-004;3.473362419754267E-003;-4.493868909776211E-003;
2.409000000000000E+009;1.736940592527390E-001;-1.900017959997058E-003;3.343429183587432E-003;-4.470563028007746E-003;
2.409166666666667E+009;1.731631606817246E-001;-3.147726412862539E-003;2.962142461910844E-003;-4.569091368466616E-003;
2.409333333333334E+009;1.726086288690567E-001;-4.609141498804092E-003;2.871265634894371E-003;-4.458979237824678E-003;
2.409500000000000E+009;1.719857603311539E-001;-5.788560956716538E-003;2.652135910466313E-003;-4.515175241976976E-003;
2.409666666666667E+009;1.713752597570419E-001;-7.270330563187599E-003;2.379443962126970E-003;-4.645335488021374E-003;
2.409833333333334E+009;1.709244996309280E-001;-8.753337897360325E-003;2.269526710733771E-003;-4.492242820560932E-003;
2.410000000000000E+009;1.704603135585785E-001;-1.032797247171402E-002;2.008191309869289E-003;-4.419022239744663E-003;
2.410166666666667E+009;1.701233834028244E-001;-1.180045958608389E-002;1.860622316598892E-003;-4.370152484625578E-003;
2.410333333333334E+009;1.696786433458328E-001;-1.369403395801783E-002;1.749816467054188E-003;-4.307169467210770E-003;
2.410500000000000E+009;1.692116856575012E-001;-1.530990190804005E-002;1.629110425710678E-003;-4.199044778943062E-003;
2.410666666666667E+009;1.689449250698090E-001;-1.716839149594307E-002;1.557065756060183E-003;-4.147820640355349E-003;
2.410833333333334E+009;1.687042564153671E-001;-1.885766163468361E-002;1.314726192504168E-003;-4.179511684924364E-003;
2.411000000000000E+009;1.683835387229919E-001;-2.056979387998581E-002;1.323203439824283E-003;-4.220935981720686E-003;
2.411166666666667E+009;1.681938618421555E-001;-2.260330878198147E-002;1.109897159039974E-003;-4.042540211230516E-003;
2.411333333333334E+009;1.680536270141602E-001;-2.433960512280464E-002;9.287978755310178E-004;-4.167259670794010E-003;
2.411500000000000E+009;1.680030822753906E-001;-2.640561573207378E-002;1.070926547981799E-003;-3.904345212504268E-003;
2.411666666666667E+009;1.680740416049957E-001;-2.817007154226303E-002;8.688953239470720E-004;-3.978340420871973E-003;
2.411833333333334E+009;1.682064533233643E-001;-3.014676272869110E-002;9.454257087782025E-004;-3.870032960548997E-003;
2.412000000000000E+009;1.681960970163345E-001;-3.192783892154694E-002;8.372897864319384E-004;-3.835615701973438E-003;
2.412166666666667E+009;1.683412641286850E-001;-3.388060629367828E-002;8.836904307827354E-004;-3.837026888504624E-003;
2.412333333333334E+009;1.687033027410507E-001;-3.541712090373039E-002;4.958515637554228E-004;-3.955556079745293E-003;
2.412500000000000E+009;1.688891649246216E-001;-3.741761669516563E-002;5.503880092874169E-004;-4.041862674057484E-003;
2.412666666666667E+009;1.691418141126633E-001;-3.917371854186058E-002;5.560988211072981E-004;-3.938259091228247E-003;
2.412833333333334E+009;1.696365922689438E-001;-4.101881384849548E-002;4.249640624038875E-004;-3.930052742362022E-003;
2.413000000000000E+009;1.700347959995270E-001;-4.263888299465179E-002;3.311321197543293E-004;-4.040668718516827E-003;
2.413166666666667E+009;1.702832728624344E-001;-4.418754577636719E-002;3.313685301691294E-004;-3.988580312579870E-003;
2.413333333333334E+009;1.707309186458588E-001;-4.572953283786774E-002;1.451696007279679E-004;-4.082879051566124E-003;
2.413500000000000E+009;1.713832467794418E-001;-4.724773019552231E-002;-3.828142871498130E-005;-4.057301674038172E-003;
2.413666666666667E+009;1.718996763229370E-001;-4.873168841004372E-002;-9.978224989026785E-005;-4.002936184406281E-003;
2.413833333333334E+009;1.722679734230042E-001;-5.003479495644569E-002;-2.342204825254157E-004;-4.065395332872868E-003;
2.414000000000000E+009;1.726742535829544E-001;-5.140289664268494E-002;-3.372258506715298E-004;-4.062162246555090E-003;
2.414166666666667E+009;1.732087731361389E-001;-5.242649838328362E-002;-5.657505244016647E-004;-4.069162067025900E-003;
2.414333333333334E+009;1.736936718225479E-001;-5.364618822932243E-002;-7.094634929671884E-004;-4.091562703251839E-003;
2.414500000000000E+009;1.743260473012924E-001;-5.461177229881287E-002;-8.731481502763927E-004;-4.069717600941658E-003;
2.414666666666667E+009;1.746800839900971E-001;-5.556546896696091E-002;-9.139792528003454E-004;-3.965234383940697E-003;
2.414833333333334E+009;1.748730838298798E-001;-5.663310363888741E-002;-1.080463291145861E-003;-3.880443749949336E-003;
2.415000000000000E+009;1.751772314310074E-001;-5.724392458796501E-002;-1.018908456899226E-003;-3.965317271649838E-003;
2.415166666666667E+009;1.755722463130951E-001;-5.791439488530159E-002;-1.127528026700020E-003;-3.895681584253907E-003;
2.415333333333334E+009;1.759632229804993E-001;-5.860945209860802E-002;-1.453921315260232E-003;-3.731788601726294E-003;
2.415500000000000E+009;1.760714352130890E-001;-5.918418988585472E-002;-1.541698002256453E-003;-3.752646036446095E-003;
2.415666666666667E+009;1.763256341218948E-001;-5.947077646851540E-002;-1.701721223071218E-003;-3.785761306062341E-003;
2.415833333333334E+009;1.764728277921677E-001;-5.997176840901375E-002;-1.621979521587491E-003;-3.548953449353576E-003;
2.416000000000000E+009;1.762459278106690E-001;-6.042391434311867E-002;-2.009470714256167E-003;-3.567874198779464E-003;
2.416166666666667E+009;1.766287237405777E-001;-6.073636189103127E-002;-2.063008956611157E-003;-3.556801704689860E-003;
2.416333333333334E+009;1.763749867677689E-001;-6.101559102535248E-002;-2.170116640627384E-003;-3.620162606239319E-003;
2.416500000000000E+009;1.761670112609863E-001;-6.125093623995781E-002;-2.315182937309146E-003;-3.243645885959268E-003;
2.416666666666667E+009;1.758618801832199E-001;-6.148006394505501E-002;-2.503244206309319E-003;-3.244980471208692E-003;
2.416833333333334E+009;1.756498217582703E-001;-6.193604320287705E-002;-2.523273229598999E-003;-3.152001881971955E-003;
2.417000000000000E+009;1.749896258115768E-001;-6.199807301163673E-002;-2.667344873771071E-003;-2.988959429785609E-003;
2.417166666666667E+009;1.744132786989212E-001;-6.222602352499962E-002;-2.837516833096743E-003;-2.921826671808958E-003;
2.417333333333334E+009;1.739470511674881E-001;-6.242821365594864E-002;-2.823971444740892E-003;-2.691031899303198E-003;
2.417500000000000E+009;1.731045693159103E-001;-6.283558160066605E-002;-2.980050863698125E-003;-2.667064545676112E-003;
2.417666666666667E+009;1.726265251636505E-001;-6.287240236997604E-002;-2.938839606940746E-003;-2.511037979274988E-003;
2.417833333333334E+009;1.717862337827683E-001;-6.321035325527191E-002;-3.080146387219429E-003;-2.353492425754666E-003;
2.418000000000000E+009;1.708165407180786E-001;-6.365419924259186E-002;-3.015042981132865E-003;-2.273248741403222E-003;
2.418166666666667E+009;1.698315739631653E-001;-6.377974897623062E-002;-3.092781640589237E-003;-1.936010783538222E-003;
2.418333333333334E+009;1.690690815448761E-001;-6.422960013151169E-002;-3.128634300082922E-003;-1.988216768950224E-003;
2.418500000000000E+009;1.678072512149811E-001;-6.466853618621826E-002;-3.063808893784881E-003;-1.793880830518901E-003;
2.418666666666667E+009;1.669160574674606E-001;-6.526690721511841E-002;-3.040639450773597E-003;-1.502139028161764E-003;
2.418833333333334E+009;1.655679345130920E-001;-6.583657860755920E-002;-3.208081703633070E-003;-1.628680503927171E-003;
2.419000000000000E+009;1.643483340740204E-001;-6.644033640623093E-002;-3.103030612692237E-003;-1.353986095637083E-003;
2.419166666666667E+009;1.633833795785904E-001;-6.707401573657990E-002;-3.123296657577157E-003;-1.264471327885985E-003;
2.419333333333334E+009;1.618779003620148E-001;-6.762938201427460E-002;-3.063484560698271E-003;-1.201856532134116E-003;
2.419500000000000E+009;1.608201861381531E-001;-6.869773566722870E-002;-3.190782386809588E-003;-1.152696553617716E-003;
2.419666666666667E+009;1.597376763820648E-001;-6.986234337091446E-002;-3.220891579985619E-003;-9.371601045131683E-004;
2.419833333333334E+009;1.584117412567139E-001;-7.062249630689621E-002;-3.161470638588071E-003;-9.760349057614803E-004;
2.420000000000000E+009;1.575554162263870E-001;-7.158964872360230E-002;-3.085052594542503E-003;-6.450734217651188E-004;
2.420166666666667E+009;1.562511771917343E-001;-7.270860671997070E-002;-3.044049488380551E-003;-6.247145356610417E-004;
2.420333333333334E+009;1.553641706705093E-001;-7.397388666868210E-002;-3.064721589908004E-003;-4.652308416552842E-004;
2.420500000000000E+009;1.542624384164810E-001;-7.520118355751038E-002;-3.011682769283652E-003;-3.588797408156097E-004;
2.420666666666667E+009;1.532740592956543E-001;-7.638271152973175E-002;-2.941132755950093E-003;-2.566267794463784E-004;
2.420833333333334E+009;1.524109989404678E-001;-7.774273306131363E-002;-2.932342467829585E-003;-2.071446215268225E-004;
2.421000000000000E+009;1.514449119567871E-001;-7.935155183076859E-002;-2.823520451784134E-003;-3.647727135103196E-005;
2.421166666666667E+009;1.507233530282974E-001;-8.083643019199371E-002;-2.864747075363994E-003;8.963121217675507E-005;
2.421333333333334E+009;1.501324325799942E-001;-8.236482739448547E-002;-2.667103661224246E-003;1.418626343365759E-004;
2.421500000000000E+009;1.493713259696960E-001;-8.400503545999527E-002;-2.661049365997315E-003;1.177999656647444E-004;
2.421666666666667E+009;1.489100009202957E-001;-8.559609949588776E-002;-2.557919593527913E-003;2.085058949887753E-004;
2.421833333333334E+009;1.484552919864655E-001;-8.716416358947754E-002;-2.495701191946864E-003;3.622047661338002E-004;
2.422000000000000E+009;1.479148417711258E-001;-8.891389518976212E-002;-2.336683450266719E-003;4.318819555919617E-004;
2.422166666666667E+009;1.475817561149597E-001;-9.072212874889374E-002;-2.266740892082453E-003;3.404986055102199E-004;
2.422333333333334E+009;1.473974138498306E-001;-9.245614707469940E-002;-2.238228451460600E-003;4.343033360783011E-004;
2.422500000000000E+009;1.471223682165146E-001;-9.390507638454437E-002;-2.185600344091654E-003;6.504397606477141E-004;
2.422666666666667E+009;1.469414681196213E-001;-9.573177993297577E-002;-2.157390350475907E-003;6.385242450051010E-004;
2.422833333333334E+009;1.469548046588898E-001;-9.759560972452164E-002;-2.023111796006560E-003;5.155275575816631E-004;
2.423000000000000E+009;1.470631659030914E-001;-9.908734261989594E-002;-1.958182547241449E-003;4.868296091444790E-004;
2.423166666666667E+009;1.471900194883347E-001;-1.006778702139854E-001;-1.847493345849216E-003;4.587615549098700E-004;
2.423333333333334E+009;1.473060995340347E-001;-1.020789369940758E-001;-1.897844835184515E-003;4.550892044790089E-004;
2.423500000000000E+009;1.475947648286820E-001;-1.037860587239265E-001;-1.820131554268301E-003;5.050674080848694E-004;
2.423666666666667E+009;1.476064771413803E-001;-1.054453551769257E-001;-1.869729836471379E-003;3.723236732184887E-004;
2.423833333333334E+009;1.480984240770340E-001;-1.069361492991447E-001;-1.848829793743789E-003;5.657558795064688E-004;
2.424000000000000E+009;1.482979506254196E-001;-1.080886125564575E-001;-1.735884114168584E-003;5.384804098866880E-004;
2.424166666666667E+009;1.485244780778885E-001;-1.095586866140366E-001;-1.616812194697559E-003;6.361061241477728E-004;
2.424333333333334E+009;1.489827781915665E-001;-1.106954142451286E-001;-1.667166245169938E-003;3.933788393624127E-004;
2.424500000000000E+009;1.493615657091141E-001;-1.120123937726021E-001;-1.558133168146014E-003;4.521431110333651E-004;
2.424666666666667E+009;1.498628854751587E-001;-1.128848567605019E-001;-1.551044639199972E-003;4.839146276935935E-004;
2.424833333333334E+009;1.499670594930649E-001;-1.140248328447342E-001;-1.563626457937062E-003;4.846050869673491E-004;
2.425000000000000E+009;1.503231972455978E-001;-1.151157170534134E-001;-1.637700363062322E-003;3.893236571457237E-004;
2.425166666666667E+009;1.505264937877655E-001;-1.159641444683075E-001;-1.633976120501757E-003;5.825599073432386E-004;
2.425333333333334E+009;1.508922278881073E-001;-1.165814772248268E-001;-1.661820686422288E-003;5.659492453560233E-004;
2.425500000000000E+009;1.512562632560730E-001;-1.175036057829857E-001;-1.800734084099531E-003;5.067530437372625E-004;
2.425666666666667E+009;1.511857360601425E-001;-1.181135252118111E-001;-1.628781785257161E-003;5.880382959730923E-004;
2.425833333333334E+009;1.514919698238373E-001;-1.186425462365151E-001;-1.663827919401228E-003;7.005970692262054E-004;
2.426000000000000E+009;1.515728533267975E-001;-1.192476451396942E-001;-1.640671282075346E-003;6.564616342075169E-004;
2.426166666666667E+009;1.518172174692154E-001;-1.197598278522492E-001;-1.554202055558562E-003;7.572633330710232E-004;
2.426333333333334E+009;1.516941934823990E-001;-1.201270744204521E-001;-1.565758138895035E-003;8.147907210513949E-004;
2.426500000000000E+009;1.516621857881546E-001;-1.204083040356636E-001;-1.499971607699990E-003;7.799303275533021E-004;
2.426666666666667E+009;1.517667174339294E-001;-1.206673607230187E-001;-1.604663906618953E-003;9.138011373579502E-004;
2.426833333333334E+009;1.513665467500687E-001;-1.208637878298760E-001;-1.575744245201349E-003;9.324235143139958E-004;
2.427000000000000E+009;1.510797739028931E-001;-1.211455836892128E-001;-1.519708312116563E-003;7.702974253334105E-004;
2.427166666666667E+009;1.508142054080963E-001;-1.211392283439636E-001;-1.511202426627278E-003;9.528601076453924E-004;
2.427333333333334E+009;1.502679288387299E-001;-1.213027313351631E-001;-1.355236279778183E-003;9.397009853273630E-004;
2.427500000000000E+009;1.498451977968216E-001;-1.215645372867584E-001;-1.493502059020102E-003;9.072495740838349E-004;
2.427666666666667E+009;1.490889638662338E-001;-1.216494068503380E-001;-1.381898182444274E-003;8.467963198199868E-004;
