# Version 1.00
#
freq[Hz];re:Trc1_S11;im:Trc1_S11;re:Trc2_S21;im:Trc2_S21;
2.400000000000000E+009;1.609289795160294E-001;5.673399940133095E-002;5.636075511574745E-004;5.164785310626030E-003;
2.400166666666667E+009;1.609261333942413E-001;5.519232898950577E-002;6.351097836159170E-004;5.228846333920956E-003;
2.400333333333334E+009;1.611569821834564E-001;5.353304371237755E-002;9.049421059899032E-004;5.301263183355331E-003;
2.400500000000000E+009;1.611740589141846E-001;5.161216855049133E-002;9.181358036585152E-004;5.380698479712009E-003;
2.400666666666667E+009;1.612537801265717E-001;4.960202425718308E-002;1.145126298069954E-003;5.513939540833235E-003;
2.400833333333334E+009;1.616664230823517E-001;4.785836115479469E-002;1.282264594919980E-003;5.596153438091278E-003;
2.401000000000000E+009;1.616502553224564E-001;4.602009430527687E-002;1.536831725388765E-003;5.792642943561077E-003;
2.401166666666667E+009;1.619604974985123E-001;4.406569525599480E-002;1.680678455159068E-003;5.694017279893160E-003;
2.401333333333334E+009;1.621235460042954E-001;4.229646548628807E-002;2.120207762345672E-003;5.736764520406723E-003;
2.401500000000000E+009;1.624121814966202E-001;4.031166434288025E-002;2.225525444373488E-003;5.835904274135828E-003;
2.401666666666667E+009;1.627100110054016E-001;3.843904286623001E-002;2.517614513635635E-003;5.846749991178513E-003;
2.401833333333334E+009;1.633147001266480E-001;3.647427633404732E-002;2.843530382961035E-003;5.923991091549397E-003;
2.402000000000000E+009;1.635676324367523E-001;3.483602777123451E-002;3.269489156082273E-003;5.948036443442106E-003;
2.402166666666667E+009;1.643445342779160E-001;3.322809189558029E-002;3.574651665985584E-003;5.926473066210747E-003;
2.402333333333334E+009;1.645043939352036E-001;3.142049536108971E-002;3.773845266550779E-003;5.822387989610434E-003;
2.402500000000000E+009;1.654869467020035E-001;2.985671907663345E-002;4.125808365643024E-003;5.533539224416018E-003;
2.402666666666667E+009;1.657615602016449E-001;2.846373058855534E-002;4.514238331466913E-003;5.479259882122278E-003;
2.402833333333334E+009;1.664892435073853E-001;2.702979184687138E-002;4.915899597108364E-003;5.170903168618679E-003;
2.403000000000000E+009;1.670260727405548E-001;2.548527531325817E-002;5.205676425248385E-003;5.048660095781088E-003;
2.403166666666667E+009;1.677969396114349E-001;2.415446564555168E-002;5.542198661714792E-003;4.871780052781105E-003;
2.403333333333334E+009;1.684742420911789E-001;2.293139882385731E-002;5.918635986745358E-003;4.598352126777172E-003;
2.403500000000000E+009;1.692084670066834E-001;2.141420915722847E-002;6.005203817039728E-003;4.299053456634283E-003;
2.403666666666667E+009;1.698362082242966E-001;2.021159604191780E-002;6.443405523896217E-003;3.937090281397104E-003;
2.403833333333334E+009;1.706043630838394E-001;1.900464855134487E-002;6.535592954605818E-003;3.729431657120585E-003;
2.404000000000000E+009;1.712813973426819E-001;1.801614463329315E-002;6.671805400401354E-003;3.367359982803464E-003;
2.404166666666667E+009;1.719971597194672E-001;1.701181754469872E-002;7.041045930236578E-003;3.099883673712611E-003;
2.404333333333334E+009;1.725914478302002E-001;1.616770401597023E-002;7.259885314851999E-003;2.607950707897544E-003;
2.404500000000000E+009;1.733636409044266E-001;1.513239089399576E-002;7.288228720426559E-003;2.345737535506487E-003;
2.404666666666667E+009;1.739789247512817E-001;1.444428693503141E-002;7.382990326732397E-003;1.809440902434290E-003;
2.404833333333334E+009;1.744477599859238E-001;1.372948568314314E-002;7.499596104025841E-003;1.444382010959089E-003;
2.405000000000000E+009;1.750609576702118E-001;1.292629726231098E-002;7.301525212824345E-003;9.305131388828158E-004;
2.405166666666667E+009;1.756144165992737E-001;1.235218998044729E-002;7.352103013545275E-003;6.014271057210863E-004;
2.405333333333334E+009;1.763450503349304E-001;1.165647245943546E-002;7.443326991051436E-003;2.430238237138838E-004;
2.405500000000000E+009;1.766579598188400E-001;1.136440783739090E-002;7.285473402589560E-003;-1.104857510654256E-004;
2.405666666666667E+009;1.769770979881287E-001;1.083641871809959E-002;7.326207589358091E-003;-5.030845059081912E-004;
2.405833333333334E+009;1.772373020648956E-001;1.037887670099735E-002;7.203109562397003E-003;-7.913443841971457E-004;
2.406000000000000E+009;1.777333766222000E-001;9.893190115690231E-003;7.073235232383013E-003;-1.208081957884133E-003;
2.406166666666667E+009;1.777871400117874E-001;9.643707424402237E-003;6.906977389007807E-003;-1.346586504951119E-003;
2.406333333333334E+009;1.781299263238907E-001;9.095706976950169E-003;6.890975870192051E-003;-1.889317994937301E-003;
2.406500000000000E+009;1.781546473503113E-001;8.763847872614861E-003;6.697564851492643E-003;-2.043490996584296E-003;
2.406666666666667E+009;1.779814064502716E-001;8.398336358368397E-003;6.555534433573484E-003;-2.333114389330149E-003;
2.406833333333334E+009;1.782356202602387E-001;7.891747169196606E-003;6.421689875423908E-003;-2.570269862189889E-003;
2.407000000000000E+009;1.781409382820129E-001;7.428717799484730E-003;6.087501998990774E-003;-2.889471594244242E-003;
2.407166666666667E+009;1.781727671623230E-001;7.151964586228132E-003;5.933949258178473E-003;-3.159280400723219E-003;
2.407333333333334E+009;1.777524948120117E-001;6.340894382447004E-003;5.696837790310383E-003;-3.456912934780121E-003;
2.407500000000000E+009;1.775894463062286E-001;5.948659498244524E-003;5.264176055788994E-003;-3.611268242821097E-003;
2.407666666666667E+009;1.774342358112335E-001;5.371156148612499E-003;5.187010858207941E-003;-3.666212549433112E-003;
2.407833333333334E+009;1.769052147865295E-001;4.624729044735432E-003;4.911329597234726E-003;-3.882836084812880E-003;
2.408000000000000E+009;1.766057014465332E-001;3.889707848429680E-003;4.712149966508150E-003;-3.909070044755936E-003;
2.408166666666667E+009;1.760806888341904E-001;3.192121163010597E-003;4.498360212892294E-003;-4.148638341575861E-003;
2.408333333333334E+009;1.757769286632538E-001;2.321504289284349E-003;4.203205462545157E-003;-4.185600671917200E-003;
2.408500000000000E+009;1.752986311912537E-001;1.308106933720410E-003;4.037139471620321E-003;-4.402207676321268E-003;
2.408666666666667E+009;1.747316271066666E-001;3.065104247070849E-004;3.560642246156931E-003;-4.454759415239096E-003;
2.408833333333334E+009;1.740828603506088E-001;-8.531654020771384E-004;3.636820241808891E-003;-4.462779033929110E-003;
2.409000000000000E+009;1.735834628343582E-001;-1.897190697491169E-003;3.246407257393003E-003;-4.489887505769730E-003;
2.409166666666667E+009;1.733036488294601E-001;-3.134463680908084E-003;2.957165241241455E-003;-4.619588609784842E-003;
2.409333333333334E+009;1.727356910705566E-001;-4.455822985619307E-003;2.787755336612463E-003;-4.501424729824066E-003;
2.409500000000000E+009;1.720732599496841E-001;-6.000298541039228E-003;2.534118713811040E-003;-4.492809530347586E-003;
2.409666666666667E+009;1.713687330484390E-001;-7.360971532762051E-003;2.236105734482408E-003;-4.385401494801045E-003;
2.409833333333334E+009;1.708939969539642E-001;-8.746508508920670E-003;2.108984626829624E-003;-4.450808744877577E-003;
2.410000000000000E+009;1.704310625791550E-001;-1.016798242926598E-002;1.998951891437173E-003;-4.307471215724945E-003;
2.410166666666667E+009;1.699954122304916E-001;-1.194761041551828E-002;1.783325918950141E-003;-4.271871410310268E-003;
2.410333333333334E+009;1.697172075510025E-001;-1.352231577038765E-002;1.670437981374562E-003;-4.346432164311409E-003;
2.410500000000000E+009;1.693091690540314E-001;-1.528886053711176E-002;1.446672715246677E-003;-4.231840837746859E-003;
2.410666666666667E+009;1.687980443239212E-001;-1.723182201385498E-002;1.496934215538204E-003;-4.132333677262068E-003;
2.410833333333334E+009;1.686697751283646E-001;-1.877525076270104E-002;1.372460857965052E-003;-4.052434582263231E-003;
2.411000000000000E+009;1.683336645364761E-001;-2.059019356966019E-002;1.255713868886232E-003;-4.211563151329756E-003;
2.411166666666667E+009;1.682086884975433E-001;-2.260193787515163E-002;1.244115759618580E-003;-4.010335076600313E-003;
2.411333333333334E+009;1.681491583585739E-001;-2.444935031235218E-002;1.182218431495130E-003;-4.021836910396814E-003;
2.411500000000000E+009;1.680872142314911E-001;-2.630037441849709E-002;1.215729280374944E-003;-3.980992827564478E-003;
2.411666666666667E+009;1.681384146213532E-001;-2.823557704687119E-002;1.015845453366637E-003;-3.942764829844236E-003;
2.411833333333334E+009;1.681725829839706E-001;-3.005160763859749E-002;9.816010715439916E-004;-3.952291328459978E-003;
2.412000000000000E+009;1.682872027158737E-001;-3.197913244366646E-002;8.071870543062687E-004;-3.786799730733037E-003;
2.412166666666667E+009;1.684220135211945E-001;-3.384837880730629E-002;7.935891044326127E-004;-3.916316200047731E-003;
2.412333333333334E+009;1.687289774417877E-001;-3.547052666544914E-002;8.174672839231789E-004;-3.959319554269314E-003;
2.412500000000000E+009;1.688485443592072E-001;-3.737407550215721E-002;7.207678863778710E-004;-3.861637320369482E-003;
2.412666666666667E+009;1.692658215761185E-001;-3.919104486703873E-002;5.061582196503878E-004;-4.044861532747746E-003;
2.412833333333334E+009;1.697060614824295E-001;-4.103268310427666E-002;5.581918521784246E-004;-4.093499388545752E-003;
2.413000000000000E+009;1.700118482112885E-001;-4.266690835356712E-002;4.822106857318431E-004;-4.085486289113760E-003;
2.413166666666667E+009;1.703757941722870E-001;-4.428663477301598E-002;1.299415307585150E-004;-4.078728612512350E-003;
2.413333333333334E+009;1.707274466753006E-001;-4.578287154436112E-002;2.046132431132719E-004;-4.039851482957602E-003;
2.413500000000000E+009;1.714384853839874E-001;-4.735065624117851E-002;7.097719208104536E-005;-4.056618083268404E-003;
2.413666666666667E+009;1.718421280384064E-001;-4.873028770089150E-002;-7.601072138641030E-005;-4.044098313897848E-003;
2.413833333333334E+009;1.721695959568024E-001;-4.992618039250374E-002;-2.585897746030241E-004;-4.187426064163446E-003;
2.414000000000000E+009;1.726828217506409E-001;-5.131370201706886E-002;-3.060127492062748E-004;-4.012734629213810E-003;
2.414166666666667E+009;1.732019186019898E-001;-5.250724032521248E-002;-5.450362805277109E-004;-4.157647956162691E-003;
2.414333333333334E+009;1.736707389354706E-001;-5.361025035381317E-002;-6.116277654655278E-004;-4.070589784532785E-003;
2.414500000000000E+009;1.742550879716873E-001;-5.456663668155670E-002;-5.561668658629060E-004;-3.975950647145510E-003;
2.414666666666667E+009;1.746478676795960E-001;-5.557205900549889E-002;-8.688707603141666E-004;-4.086295608431101E-003;
2.414833333333334E+009;1.748847812414169E-001;-5.635606497526169E-002;-9.998199529945850E-004;-3.820111742243171E-003;
2.415000000000000E+009;1.752845495939255E-001;-5.704969167709351E-002;-1.144173205830157E-003;-3.936251625418663E-003;
2.415166666666667E+009;1.756504327058792E-001;-5.789735540747643E-002;-1.244463841430843E-003;-3.916596993803978E-003;
2.415333333333334E+009;1.759605109691620E-001;-5.861204862594605E-002;-1.331702573224902E-003;-3.881704760715365E-003;
2.415500000000000E+009;1.762839555740356E-001;-5.920242518186569E-002;-1.516026793979108E-003;-3.818671219050884E-003;
2.415666666666667E+009;1.762585192918778E-001;-5.950844287872315E-002;-1.610587933100760E-003;-3.809594549238682E-003;
2.415833333333334E+009;1.763988584280014E-001;-5.997087061405182E-002;-1.874938956461847E-003;-3.694341983646154E-003;
2.416000000000000E+009;1.763692498207092E-001;-6.045064330101013E-002;-1.842524856328964E-003;-3.743421053513885E-003;
2.416166666666667E+009;1.765359491109848E-001;-6.071953475475311E-002;-2.084108069539070E-003;-3.556258976459503E-003;
2.416333333333334E+009;1.764073967933655E-001;-6.102244928479195E-002;-2.133448375388980E-003;-3.397857770323753E-003;
2.416500000000000E+009;1.761854141950607E-001;-6.127585843205452E-002;-2.312934491783381E-003;-3.324987133964896E-003;
2.416666666666667E+009;1.758337020874023E-001;-6.147643551230431E-002;-2.524044830352068E-003;-3.135150996968150E-003;
2.416833333333334E+009;1.756604015827179E-001;-6.184558197855949E-002;-2.590904245153070E-003;-3.137172199785709E-003;
2.417000000000000E+009;1.749549359083176E-001;-6.205358356237412E-002;-2.599090337753296E-003;-3.009195905178785E-003;
2.417166666666667E+009;1.745204180479050E-001;-6.214461848139763E-002;-2.746520563960075E-003;-2.806936856359243E-003;
2.417333333333334E+009;1.739634573459625E-001;-6.229847297072411E-002;-2.934987191110849E-003;-2.769951010122895E-003;
2.417500000000000E+009;1.732379198074341E-001;-6.287844479084015E-002;-2.775819506496191E-003;-2.633321098983288E-003;
2.417666666666667E+009;1.725692301988602E-001;-6.281502544879913E-002;-2.964187879115343E-003;-2.519811969250441E-003;
2.417833333333334E+009;1.717408001422882E-001;-6.319458037614822E-002;-2.965457970276475E-003;-2.330759074538946E-003;
2.418000000000000E+009;1.707765012979507E-001;-6.367359310388565E-002;-2.930402057245374E-003;-2.291015814989805E-003;
2.418166666666667E+009;1.697535812854767E-001;-6.371418386697769E-002;-3.111059544607997E-003;-2.061831299215555E-003;
2.418333333333334E+009;1.690862476825714E-001;-6.440087407827377E-002;-3.034923924133182E-003;-2.045975998044014E-003;
2.418500000000000E+009;1.679057180881500E-001;-6.475348025560379E-002;-3.091605380177498E-003;-1.821195008233190E-003;
2.418666666666667E+009;1.667623966932297E-001;-6.525142490863800E-002;-3.215514356270433E-003;-1.724935136735439E-003;
2.418833333333334E+009;1.656203418970108E-001;-6.589076668024063E-002;-3.009382635354996E-003;-1.494224881753326E-003;
2.419000000000000E+009;1.643009185791016E-001;-6.638136506080627E-002;-3.189293900504708E-003;-1.349400263279676E-003;
2.419166666666667E+009;1.632468104362488E-001;-6.704567372798920E-002;-3.148359013721347E-003;-1.321124960668385E-003;
2.419333333333334E+009;1.619842499494553E-001;-6.770543754100800E-002;-3.168358467519283E-003;-1.095262472517788E-003;
2.419500000000000E+009;1.607789546251297E-001;-6.876549869775772E-002;-3.029834711924195E-003;-1.085674040950835E-003;
2.419666666666667E+009;1.597972959280014E-001;-6.974022090435028E-002;-3.132113022729754E-003;-9.645472164265811E-004;
2.419833333333334E+009;1.583866477012634E-001;-7.051967084407806E-002;-3.241730388253927E-003;-8.997450349852443E-004;
2.420000000000000E+009;1.573998183012009E-001;-7.171004265546799E-002;-3.076600143685937E-003;-7.490716525353491E-004;
2.420166666666667E+009;1.562393158674240E-001;-7.272122800350189E-002;-3.044391283765435E-003;-5.837266216985881E-004;
2.420333333333334E+009;1.553596705198288E-001;-7.392740249633789E-002;-3.078877460211515E-003;-4.718038253486157E-004;
2.420500000000000E+009;1.541887968778610E-001;-7.507663220167160E-002;-2.929588314145804E-003;-4.203327116556466E-004;
2.420666666666667E+009;1.534113436937332E-001;-7.639226317405701E-002;-2.949682530015707E-003;-4.084366373717785E-004;
2.420833333333334E+009;1.523876190185547E-001;-7.797315716743469E-002;-2.965685678645968E-003;-1.127460636780597E-004;
2.421000000000000E+009;1.514566093683243E-001;-7.935889065265656E-002;-2.852905774489045E-003;-3.967564043705352E-005;
2.421166666666667E+009;1.508335024118424E-001;-8.070722222328186E-002;-2.921102568507195E-003;-2.020489091592026E-006;
2.421333333333334E+009;1.500647813081741E-001;-8.250085264444351E-002;-2.769182436168194E-003;1.554601767566055E-004;
2.421500000000000E+009;1.493664979934692E-001;-8.401302248239517E-002;-2.607018686830998E-003;1.545999984955415E-004;
2.421666666666667E+009;1.488442569971085E-001;-8.546940237283707E-002;-2.492703730240464E-003;2.522836148273200E-004;
2.421833333333334E+009;1.484003961086273E-001;-8.722281455993652E-002;-2.386646578088403E-003;3.852934751193970E-004;
2.422000000000000E+009;1.479764580726624E-001;-8.898239582777023E-002;-2.418046584352851E-003;4.319464496802539E-004;
2.422166666666667E+009;1.475910693407059E-001;-9.058491140604019E-002;-2.330680610612035E-003;4.297117993701249E-004;
2.422333333333334E+009;1.472202539443970E-001;-9.242596477270126E-002;-2.244903473183513E-003;4.333134274929762E-004;
2.422500000000000E+009;1.470653861761093E-001;-9.401603043079376E-002;-2.173582790419459E-003;4.574132035486400E-004;
2.422666666666667E+009;1.469572335481644E-001;-9.577899426221848E-002;-2.033788245171309E-003;4.187195736449212E-004;
2.422833333333334E+009;1.469664126634598E-001;-9.736138582229614E-002;-1.908498117700219E-003;4.064709937665612E-004;
2.423000000000000E+009;1.469161510467529E-001;-9.913992136716843E-002;-1.941707567311823E-003;5.139590357430279E-004;
2.423166666666667E+009;1.472458690404892E-001;-1.007541269063950E-001;-2.061503008008003E-003;4.834430874325335E-004;
2.423333333333334E+009;1.472786664962769E-001;-1.022878140211105E-001;-1.787882531061769E-003;5.462947883643210E-004;
2.423500000000000E+009;1.474788486957550E-001;-1.037394851446152E-001;-1.848445390351117E-003;6.177379400469363E-004;
2.423666666666667E+009;1.475655734539032E-001;-1.055113971233368E-001;-1.690427423454821E-003;4.157148359809071E-004;
2.423833333333334E+009;1.481050848960877E-001;-1.069813072681427E-001;-1.658017514273524E-003;5.014531197957695E-004;
2.424000000000000E+009;1.483516991138458E-001;-1.081282347440720E-001;-1.820338307879865E-003;4.810485988855362E-004;
2.424166666666667E+009;1.485773026943207E-001;-1.095507964491844E-001;-1.827644882723689E-003;4.640733241103590E-004;
2.424333333333334E+009;1.488895863294601E-001;-1.106787696480751E-001;-1.709937583655119E-003;4.964948166161776E-004;
2.424500000000000E+009;1.493294984102249E-001;-1.120270416140556E-001;-1.698593026958406E-003;4.662944120354950E-004;
2.424666666666667E+009;1.498079895973206E-001;-1.129495203495026E-001;-1.777226221747696E-003;3.877339477185160E-004;
2.424833333333334E+009;1.499463021755219E-001;-1.140352040529251E-001;-1.718194806016982E-003;5.603020545095205E-004;
2.425000000000000E+009;1.504146605730057E-001;-1.150704845786095E-001;-1.646527438424528E-003;6.684308173134923E-004;
2.425166666666667E+009;1.505671292543411E-001;-1.159751415252686E-001;-1.558846328407526E-003;5.446358118206263E-004;
2.425333333333334E+009;1.509526222944260E-001;-1.167398765683174E-001;-1.581605174578726E-003;6.727071595378220E-004;
2.425500000000000E+009;1.511567085981369E-001;-1.175785809755325E-001;-1.636469736695290E-003;7.096160552464426E-004;
2.425666666666667E+009;1.512292623519898E-001;-1.181395873427391E-001;-1.715438906103373E-003;5.828769644722343E-004;
2.425833333333334E+009;1.514463722705841E-001;-1.187073439359665E-001;-1.530085457488895E-003;6.471086526289582E-004;
2.426000000000000E+009;1.515964865684509E-001;-1.192302033305168E-001;-1.747775822877884E-003;7.077674963511527E-004;
2.426166666666667E+009;1.518500596284866E-001;-1.196642592549324E-001;-1.601337338797748E-003;8.234769338741899E-004;
2.426333333333334E+009;1.517091095447540E-001;-1.200254485011101E-001;-1.666512573137879E-003;7.100194343365729E-004;
2.426500000000000E+009;1.516881585121155E-001;-1.203609779477119E-001;-1.640290953218937E-003;8.000549278222024E-004;
2.426666666666667E+009;1.517610698938370E-001;-1.205731555819511E-001;-1.534012728370726E-003;7.877142634242773E-004;
2.426833333333334E+009;1.514505296945572E-001;-1.207876577973366E-001;-1.455700374208391E-003;8.586680633015931E-004;
2.427000000000000E+009;1.510549634695053E-001;-1.211068779230118E-001;-1.506923115812242E-003;8.514350629411638E-004;
2.427166666666667E+009;1.506854444742203E-001;-1.211222410202026E-001;-1.541306148283184E-003;9.062784374691546E-004;
2.427333333333334E+009;1.501599699258804E-001;-1.213729381561279E-001;-1.452136086300015E-003;8.641899912618101E-004;
2.427500000000000E+009;1.497439742088318E-001;-1.214150488376617E-001;-1.367527642287314E-003;9.076031856238842E-004;
2.427666666666667E+009;1.491419523954392E-001;-1.216702014207840E-001;-1.432306948117912E-003;9.690089500509203E-004;
