# Hz S RI R 
2400000000.0000000000 0.156821280717849703689736884371 0.105513140559196499923544365629 0.007939919829368591308593750000 -0.004776331596076489362234784863 0 0 0 0 
2400166666.6666665077 0.156570017337799100021200615629 0.103222556412220001220703125000 0.007906317710876464843750000000 -0.005173856858164072036743164062 0 0 0 0 
2400333333.3333334923 0.157084971666336087325888115629 0.100961253046989399284605326557 0.007517301943153142929077148438 -0.005617015063762664794921875000 0 0 0 0 
2400500000.0000000000 0.156489327549934387207031250000 0.098428390920162200927734375000 0.007956693880259990692138671875 -0.005072607658803462982177734375 0 0 0 0 
2400666666.6666665077 0.157003000378608703613281250000 0.095522120594978332519531250000 0.007305026985704898834228515625 -0.005405624862760305404663085938 0 0 0 0 
2400833333.3333334923 0.157119393348693903167401231258 0.093994431197643280029296875000 0.008245356380939483642578125000 -0.006121229846030473709106445312 0 0 0 0 
2401000000.0000000000 0.157032012939453097244424384371 0.091908589005470275878906250000 0.008101900108158588409423828125 -0.006430476903915405273437500000 0 0 0 0 
2401166666.6666665077 0.158716678619384793380575615629 0.087397277355194091796875000000 0.005558459088206291198730468750 -0.007482492364943028363699628613 0 0 0 0 
2401333333.3333334923 0.158302262425422696212606865629 0.084604211151599884033203125000 0.006050296593457460403442382812 -0.006740908138453960418701171875 0 0 0 0 
2401500000.0000000000 0.158321276307105990310830634371 0.082615859806537628173828125000 0.006616301834583283338064862988 -0.006848204415291547775268554688 0 0 0 0 
2401666666.6666665077 0.159150362014770507812500000000 0.080174051225185394287109375000 0.006800760515034198760986328125 -0.007561601232737302780151367188 0 0 0 0 
2401833333.3333334923 0.159605294466018704513388115629 0.076993830502033233642578125000 0.005915328860282897949218750000 -0.007432100828737021359915448926 0 0 0 0 
2402000000.0000000000 0.161014869809150695800781250000 0.074858672916889190673828125000 0.005866989027708768844604492188 -0.008077567443251609802246093750 0 0 0 0 
2402166666.6666665077 0.161600083112716702560263115629 0.072353281080722808837890625000 0.005584964528679847717285156250 -0.008210737258195877075195312500 0 0 0 0 
2402333333.3333334923 0.162647873163223294357138115629 0.069756336510181427001953125000 0.005262719467282295227050781250 -0.008564432151615619659423828125 0 0 0 0 
2402500000.0000000000 0.163581252098083496093750000000 0.067441642284393310546875000000 0.004993869923055171966552734375 -0.008734542876482009887695312500 0 0 0 0 
2402666666.6666665077 0.164665952324867304046307481258 0.065281227231025695800781250000 0.004801680333912372589111328125 -0.008939522318542003631591796875 0 0 0 0 
2402833333.3333334923 0.165882945060730008224325615629 0.063045665621757507324218750000 0.004548520781099796295166015625 -0.009115259163081645965576171875 0 0 0 0 
2403000000.0000000000 0.167316213250160189529580634371 0.060998514294624328613281250000 0.004255908541381359100341796875 -0.009391648694872856140136718750 0 0 0 0 
2403166666.6666665077 0.168822839856147793868856865629 0.058799277991056442260742187500 0.003979223314672709378714277051 -0.009489421732723712921142578125 0 0 0 0 
2403333333.3333334923 0.170130297541618402679119981258 0.056639559566974639892578125000 0.003504655091091990904567099463 -0.009646466001868247985839843750 0 0 0 0 
2403500000.0000000000 0.171621248126029996017294365629 0.054764192551374442363698591407 0.003134895814582705931422568213 -0.010160621255636220414131365430 0 0 0 0 
2403666666.6666665077 0.173381432890892001053018134371 0.052992988377809531475026716407 0.002830195240676403045654296875 -0.010266263037919999903668788477 0 0 0 0 
2403833333.3333334923 0.174804940819740295410156250000 0.051172040402889251708984375000 0.002632001414895058111903525244 -0.010302145034074779855748360546 0 0 0 0 
2404000000.0000000000 0.175992682576179504394531250000 0.049508091062307357788085937500 0.002054353710263967947718954932 -0.010487178340554240835169608204 0 0 0 0 
2404166666.6666665077 0.177553176879882812500000000000 0.048049278557300567626953125000 0.001536465482786298014997172778 -0.010460609570145610464075858204 0 0 0 0 
2404333333.3333334923 0.179028272628784207443075615629 0.046632647514343261718750000000 0.001146234455518424944636679541 -0.010649100877344610041608241602 0 0 0 0 
2404500000.0000000000 0.180419206619262695312500000000 0.045028120279312126850168596093 0.000793570012319833040237426758 -0.010890374891459940129290195898 0 0 0 0 
2404666666.6666665077 0.181912690401077298263388115629 0.044202927500009536743164062500 0.000285708141745999509662073956 -0.010846260935068130493164062500 0 0 0 0 
2404833333.3333334923 0.183219105005264309982138115629 0.042966056615114212036132812500 -0.000362548133125528693199157715 -0.010837539099156860006312186329 0 0 0 0 
2405000000.0000000000 0.184499531984329195877236884371 0.042505700141191482543945312500 -0.000869563315063714981079101562 -0.010877963155508039647112461523 0 0 0 0 
2405166666.6666665077 0.185691669583320589920205634371 0.041571266949176788330078125000 -0.001377608510665595965144492041 -0.010815606452524660283098789648 0 0 0 0 
2405333333.3333334923 0.186929821968078613281250000000 0.040967188775539398193359375000 -0.001783350598998368003247905200 -0.010908246971666809427281563671 0 0 0 0 
2405500000.0000000000 0.188101038336753900725994981258 0.040417764335870742797851562500 -0.002236049855127931074855185400 -0.010642588138580320530901524023 0 0 0 0 
2405666666.6666665077 0.189024001359939602950888115629 0.039917845278978347778320312500 -0.002860520966351031823399209131 -0.010350959375500680750836757227 0 0 0 0 
2405833333.3333334923 0.190162196755409212967080634371 0.039570149034261696552317033593 -0.003315043170005083084106445312 -0.010300963185727599752405936329 0 0 0 0 
2406000000.0000000000 0.191105961799621609786825615629 0.039360437542200088500976562500 -0.003794094314798713164088583838 -0.009881765581667423248291015625 0 0 0 0 
2406166666.6666665077 0.191870152950286892989950615629 0.039023451507091522216796875000 -0.004113235976547002792358398438 -0.009815287776291370391845703125 0 0 0 0 
2406333333.3333334923 0.192628189921379089355468750000 0.038998764008283622051198591407 -0.004479337483644486340994550488 -0.009328373707830905914306640625 0 0 0 0 
2406500000.0000000000 0.193237304687500000000000000000 0.038799606263637542724609375000 -0.004653991665691137313842773438 -0.008928761817514896392822265625 0 0 0 0 
2406666666.6666665077 0.193709015846252413650674384371 0.038804505020380020141601562500 -0.005061354022473096847534179688 -0.008739194832742214202880859375 0 0 0 0 
2406833333.3333334923 0.194172814488411005218182481258 0.038602381944656372070312500000 -0.005345830228179693222045898438 -0.008402641862630844116210937500 0 0 0 0 
2407000000.0000000000 0.194412037730217007736044365629 0.038672029972076422954518903907 -0.005332073196768760681152343750 -0.008068675175309181213378906250 0 0 0 0 
2407166666.6666665077 0.194772362709045410156250000000 0.038264557719230651855468750000 -0.005684004630893468856811523438 -0.007886790670454502105712890625 0 0 0 0 
2407333333.3333334923 0.194621637463569613357705634371 0.038248673081398010253906250000 -0.005866825580596923828125000000 -0.007651005405932664871215820312 0 0 0 0 
2407500000.0000000000 0.194593787193298312088174384371 0.038271985948085791851003278907 -0.005987700540572404861450195312 -0.007377776782959699630737304688 0 0 0 0 
2407666666.6666665077 0.194570347666740389724893134371 0.037901308387517929077148437500 -0.006109450012445449829101562500 -0.007036399096250534057617187500 0 0 0 0 
2407833333.3333334923 0.194159641861915588378906250000 0.037751488387584693218190778907 -0.006487792823463678359985351562 -0.006780203431844711303710937500 0 0 0 0 
2408000000.0000000000 0.194130286574363708496093750000 0.037306502461433410644531250000 -0.006593618076294660568237304688 -0.006484695710241794586181640625 0 0 0 0 
2408166666.6666665077 0.193527966737747192382812500000 0.037039730697870261455495466407 -0.006529778707772493362426757812 -0.006292698439210653305053710938 0 0 0 0 
2408333333.3333334923 0.193278536200523404220419365629 0.036263551563024520874023437500 -0.006809149868786334991455078125 -0.005959154572337865829467773438 0 0 0 0 
2408500000.0000000000 0.192633301019668606857138115629 0.035811290144920349121093750000 -0.006889291573315858840942382812 -0.005581863690167666348929120801 0 0 0 0 
2408666666.6666665077 0.192206740379333496093750000000 0.035264987498521811748464216407 -0.006878539454191923141479492188 -0.005348967388272286328787519238 0 0 0 0 
2408833333.3333334923 0.191734015941619900802450615629 0.034359257668256759643554687500 -0.007147856988012790679931640625 -0.005247208755463361740112304688 0 0 0 0 
2409000000.0000000000 0.190829053521156311035156250000 0.033417254686355590820312500000 -0.007137317210435867309570312500 -0.004929896909743546572213457324 0 0 0 0 
2409166666.6666665077 0.190153136849403409103231865629 0.032401893287897109985351562500 -0.007112537510693073272705078125 -0.004597281571477651596069335938 0 0 0 0 
2409333333.3333334923 0.189383447170257596114950615629 0.031320989131927490234375000000 -0.006937758997082710266113281250 -0.004346807021647691726684570312 0 0 0 0 
2409500000.0000000000 0.188338577747344998458700615629 0.029902623966336250305175781250 -0.007015659008175134658813476562 -0.004118753131479024887084960938 0 0 0 0 
2409666666.6666665077 0.187721431255340603927450615629 0.028574489057064059865931326954 -0.006936732213944196701049804688 -0.004022170789539813995361328125 0 0 0 0 
2409833333.3333334923 0.186738073825836209396200615629 0.027077609673142429697056954296 -0.007073272950947284698486328125 -0.003725897986441851095912314307 0 0 0 0 
2410000000.0000000000 0.186040699481964111328125000000 0.025592297315597530710240548046 -0.006843353621661663055419921875 -0.003605205798521637916564941406 0 0 0 0 
2410166666.6666665077 0.185167163610458401779013115629 0.023601973429322239267369454296 -0.006951253395527601242065429688 -0.003377726534381508827209472656 0 0 0 0 
2410333333.3333334923 0.184354469180107088943643134371 0.021992772817611690866490548046 -0.007149207405745983123779296875 -0.003298884956166148185729980469 0 0 0 0 
2410500000.0000000000 0.183540970087051391601562500000 0.020258828997611999511718750000 -0.007037297822535037994384765625 -0.003180042374879122214076376807 0 0 0 0 
2410666666.6666665077 0.182890132069587707519531250000 0.018147047609090808523157889454 -0.007090304046869277954101562500 -0.003070417325943707986118935693 0 0 0 0 
2410833333.3333334923 0.182403236627578707595986884371 0.015903731808066371572474295704 -0.007087987381964921951293945312 -0.002848076401278377012965536963 0 0 0 0 
2411000000.0000000000 0.181805744767188998123330634371 0.013960936106741430109967616602 -0.007125952281057834625244140625 -0.002792618004605174064636230469 0 0 0 0 
2411166666.6666665077 0.181305438280105590820312500000 0.011802684515714650589912615430 -0.007102563977241516113281250000 -0.002540584420785307884216308594 0 0 0 0 
2411333333.3333334923 0.180899530649185208419638115629 0.009771781973540782928466796875 -0.007067611441016197204589843750 -0.002447904087603092193603515625 0 0 0 0 
2411500000.0000000000 0.180565357208252008636151231258 0.007454574573785066604614257812 -0.007115740794688463211059570312 -0.002331580035388470129725790869 0 0 0 0 
2411666666.6666665077 0.180522292852401705642861884371 0.005251994822174310684204101562 -0.007295839488506317138671875000 -0.002231847494840621948242187500 0 0 0 0 
2411833333.3333334923 0.180381059646606500823651231258 0.003075081622228025956394814600 -0.007421903312206268310546875000 -0.002109125955030322074890136719 0 0 0 0 
2412000000.0000000000 0.180472627282142611404580634371 0.000660686288028955459594726562 -0.007188659161329269409179687500 -0.001979399472475051879882812500 0 0 0 0 
2412166666.6666665077 0.180539280176162691970986884371 -0.001484249252825974984409951318 -0.007309178356081247329711914062 -0.001908481121063231988194131006 0 0 0 0 
2412333333.3333334923 0.180998399853706387618856865629 -0.003661129390820860862731933594 -0.007477259729057550430297851562 -0.001791635062545537948608398438 0 0 0 0 
2412500000.0000000000 0.181454256176948602874432481258 -0.006020073778927326202392578125 -0.007539919577538967132568359375 -0.001545948907732963995692587744 0 0 0 0 
2412666666.6666665077 0.181999549269676208496093750000 -0.008264791220426559448242187500 -0.007538230158388614654541015625 -0.001446383190341294028638530200 0 0 0 0 
2412833333.3333334923 0.182564571499824496170205634371 -0.010377205908298490696917149023 -0.007731883786618710431570722363 -0.001374520128592848994611430591 0 0 0 0 
2413000000.0000000000 0.183236241340637207031250000000 -0.012694661505520340311070626171 -0.007828084751963615417480468750 -0.001315883127972484068629599463 0 0 0 0 
2413166666.6666665077 0.184108287096023587325888115629 -0.014360017143189910543421561329 -0.007771251723170281323904706738 -0.000919646874535828828811645508 0 0 0 0 
2413333333.3333334923 0.184970483183860806564169365629 -0.016707168892025951040247733204 -0.008096907287836074829101562500 -0.000671469839289784431457519531 0 0 0 0 
2413500000.0000000000 0.185902565717697088043536268742 -0.018804837018251419067382812500 -0.008217545226216316223144531250 -0.000481642375234514474868774414 0 0 0 0 
2413666666.6666665077 0.186938047409057589431924384371 -0.020825229585170749319056326954 -0.008291301317512989044189453125 -0.000286770024104043787151890887 0 0 0 0 
2413833333.3333334923 0.188051715493202209472656250000 -0.022579599171876910818079764454 -0.008281520567834377288818359375 0.000100168137578293694697241512 0 0 0 0 
2414000000.0000000000 0.188772946596145602127236884371 -0.024552261456847190856933593750 -0.008444396778941154479980468750 0.000241235087742097702905377798 0 0 0 0 
2414166666.6666665077 0.189919129014015197753906250000 -0.026119882240891460073450858204 -0.008565973490476608276367187500 0.000559956883080303668975830078 0 0 0 0 
2414333333.3333334923 0.190964922308921786209268134371 -0.027940763160586360586146170704 -0.008636391721665859222412109375 0.000790776801295578479766845703 0 0 0 0 
2414500000.0000000000 0.192168131470680209060830634371 -0.029460886493325229990025704296 -0.008541956543922424316406250000 0.001175505225546658039093017578 0 0 0 0 
2414666666.6666665077 0.193179935216903686523437500000 -0.030838897451758391643483747657 -0.008672385476529598236083984375 0.001281787524931133010266948169 0 0 0 0 
2414833333.3333334923 0.194152116775512695312500000000 -0.031918495893478386615793596093 -0.008490091189742088317871093750 0.001795643940567970059038471753 0 0 0 0 
2415000000.0000000000 0.195267051458358792404013115629 -0.033342652022838592529296875000 -0.008674398995935916900634765625 0.001929586753249167962315224756 0 0 0 0 
2415166666.6666665077 0.196227923035621587555255018742 -0.034396581351757049560546875000 -0.008545197546482086181640625000 0.002269789343699812889099121094 0 0 0 0 
2415333333.3333334923 0.197291061282157897949218750000 -0.035187687724828720092773437500 -0.008534519933164119720458984375 0.002615527715533971786499023438 0 0 0 0 
2415500000.0000000000 0.198241233825683593750000000000 -0.035969607532024376606027971093 -0.008567373268306255340576171875 0.002877101069316267967224121094 0 0 0 0 
2415666666.6666665077 0.199152141809463500976562500000 -0.036821149289608001708984375000 -0.008520161733031272888183593750 0.003218463389202951951267861475 0 0 0 0 
2415833333.3333334923 0.199895486235618591308593750000 -0.037567429244518280029296875000 -0.008374332450330257415771484375 0.003670914098620415167567587744 0 0 0 0 
2416000000.0000000000 0.200494617223739596267861884371 -0.038189016282558441162109375000 -0.008313473314046859741210937500 0.003838119097054005102870322119 0 0 0 0 
2416166666.6666665077 0.201131001114845303634481865629 -0.038786485791206359863281250000 -0.008133449591696262359619140625 0.004266653675585985183715820312 0 0 0 0 
2416333333.3333334923 0.201657533645629910568075615629 -0.039137877523899078369140625000 -0.008011284284293651580810546875 0.004533374682068824768066406250 0 0 0 0 
2416500000.0000000000 0.202024191617965698242187500000 -0.039626151323318481445312500000 -0.007913080975413322448730468750 0.005073188804090023040771484375 0 0 0 0 
2416666666.6666665077 0.202243179082870511154013115629 -0.040015008300542831420898437500 -0.007667935453355312347412109375 0.005213681608438491821289062500 0 0 0 0 
2416833333.3333334923 0.202273890376091003417968750000 -0.040074896067380912090261091407 -0.007369662169367074966430664062 0.005463456735014916333670331738 0 0 0 0 
2417000000.0000000000 0.202390983700752313811932481258 -0.040557269006967551494557966407 -0.007269273512065410614013671875 0.005856116302311419573312090137 0 0 0 0 
2417166666.6666665077 0.202054202556610107421875000000 -0.040565632283687591552734375000 -0.006866809912025929364676191113 0.006171219982206820574288652637 0 0 0 0 
2417333333.3333334923 0.201758012175559997558593750000 -0.040520455688238136982004533593 -0.006584885064512491226196289062 0.006388742942363023757934570312 0 0 0 0 
2417500000.0000000000 0.201416581869125393966513115629 -0.040768023580312728881835937500 -0.006434763316065073013305664062 0.006523328367620707425589277051 0 0 0 0 
2417666666.6666665077 0.200927823781967190841513115629 -0.040736839175224297260324846093 -0.006258915644139050570016191699 0.006711157038807868957519531250 0 0 0 0 
2417833333.3333334923 0.200457841157913208007812500000 -0.040726352483034126972238908593 -0.005914130713790655136108398438 0.006850982550531625747680664062 0 0 0 0 
2418000000.0000000000 0.199845805764198303222656250000 -0.040749281644821166992187500000 -0.005620971322059631347656250000 0.007133354432880877581124590137 0 0 0 0 
2418166666.6666665077 0.199200615286827087402343750000 -0.040824782103300101543386091407 -0.005304696969687938690185546875 0.007159480825066567334646894238 0 0 0 0 
2418333333.3333334923 0.198192030191421508789062500000 -0.040860429406166076660156250000 -0.005330489482730627059936523438 0.007245360873639583587646484375 0 0 0 0 
2418500000.0000000000 0.197333797812461908538494981258 -0.041016656905412667011301408593 -0.004971911665052176389212323926 0.007459336426109076413626386426 0 0 0 0 
2418666666.6666665077 0.196494430303573608398437500000 -0.041084263473749160766601562500 -0.004716967698186635971069335938 0.007704865653067827224731445312 0 0 0 0 
2418833333.3333334923 0.195320129394531305511151231258 -0.041433241218328482891042341407 -0.004318055231124162673950195312 0.007741923443973064422607421875 0 0 0 0 
2419000000.0000000000 0.194166526198387201507244981258 -0.041816271841526031494140625000 -0.004248939920216798782348632812 0.007942330092191696166992187500 0 0 0 0 
2419166666.6666665077 0.192976564168930109222088731258 -0.042275261133909232402761091407 -0.003924743738025426864624023438 0.008002491667866706848144531250 0 0 0 0 
2419333333.3333334923 0.191753804683685302734375000000 -0.042879816144704818725585937500 -0.003667563665658235983607626807 0.008077058941125869750976562500 0 0 0 0 
2419500000.0000000000 0.190274044871330288986044365629 -0.043459907174110412597656250000 -0.003333361120894550843479775537 0.008238245733082294464111328125 0 0 0 0 
2419666666.6666665077 0.188866496086120605468750000000 -0.044312469661235809326171875000 -0.003173344768583775000331259619 0.008236616849899291992187500000 0 0 0 0 
2419833333.3333334923 0.187431335449218805511151231258 -0.045100677758455283428151716407 -0.002963430248200892968418740381 0.008394462056457996368408203125 0 0 0 0 
