# Hz S RI R 50
2400000000.0000000000 0.168066367506980895996093750000 0.040659841150045401836354841407 0.002874637255445123152491904150 0.000270161108346656019061488019 0 0 0 0 
2400166666.6666665077 0.168570071458816500564736884371 0.040156520903110497211496721093 0.003063159994781016869785927881 0.000129127627587877186849871225 0 0 0 0 
2400333333.3333334923 0.169082134962081909179687500000 0.039123188704252243041992187500 0.003131516976282000975367880713 0.000227490265388041707590380258 0 0 0 0 
2400500000.0000000000 0.169753581285476712325888115629 0.038340948522090911865234375000 0.003167058108374475999119423975 0.000068043518695048987865447998 0 0 0 0 
2400666666.6666665077 0.169872343540191705901776231258 0.037339270114898681640625000000 0.003082495881244540214538574219 0.000216581000131554901599884033 0 0 0 0 
2400833333.3333334923 0.170389100909233093261718750000 0.036656707525253302837331403907 0.003345404984429479079005576025 0.000069154055381659418344497681 0 0 0 0 
2401000000.0000000000 0.170520097017288208007812500000 0.035762861371040337299387346093 0.003429151140153408050537109375 -0.000037862915633013471961021423 0 0 0 0 
2401166666.6666665077 0.170865476131439208984375000000 0.034896042197942726825754533593 0.003605825128033757209777832031 -0.000104611717688385397195816040 0 0 0 0 
2401333333.3333334923 0.170842126011848505218182481258 0.033975414931774139404296875000 0.003670228878036140961887978662 -0.000229317898629233186871129169 0 0 0 0 
2401500000.0000000000 0.171225711703300503829794365629 0.033048450946807861328125000000 0.003806187305599451065063476562 -0.000467698031570762395858764648 0 0 0 0 
2401666666.6666665077 0.171275168657302911956463731258 0.032377365976572036743164062500 0.003721846034750341935398720850 -0.000663004175294190753638112756 0 0 0 0 
2401833333.3333334923 0.171448305249214200118856865629 0.031376913189888000488281250000 0.003808423876762390136718750000 -0.000765321659855544567108154297 0 0 0 0 
2402000000.0000000000 0.171337977051734896560830634371 0.030598640441894531250000000000 0.003807352622970939116237021338 -0.000944048049859702587127685547 0 0 0 0 
2402166666.6666665077 0.171467691659927395919638115629 0.029558865353465080261230468750 0.003884790232405066923854208838 -0.001293967710807919935939169775 0 0 0 0 
2402333333.3333334923 0.171397477388382013518963731258 0.028767947107553478586217110546 0.003980637528002262115478515625 -0.001387588796205819086787558447 0 0 0 0 
2402500000.0000000000 0.171584516763687106033486884371 0.027905672788619998586634451954 0.003918192815035581588745117188 -0.001498003490269183895708393628 0 0 0 0 
2402666666.6666665077 0.171548038721084594726562500000 0.026794224977493289602259451954 0.003899703966453671889064169775 -0.001766436384059488990186381763 0 0 0 0 
2402833333.3333334923 0.171394437551498413085937500000 0.025774706155061718332310860546 0.003901724470779300169703818213 -0.002012829761952161788940429688 0 0 0 0 
2403000000.0000000000 0.171357393264770507812500000000 0.024713810533285140991210937500 0.003843703772872685952427529443 -0.002179490402340888977050781250 0 0 0 0 
2403166666.6666665077 0.171222701668739291092080634371 0.023694477975368499755859375000 0.003711285768076777891871786963 -0.002517796820029615922215127100 0 0 0 0 
2403333333.3333334923 0.171065092086791992187500000000 0.022675208747386928903599923046 0.003555674338713287873509072412 -0.002623642561957240104675292969 0 0 0 0 
2403500000.0000000000 0.170788094401359613616619981258 0.021326644346117969858189766796 0.003562439698725938796997070312 -0.002781543182209134101867675781 0 0 0 0 
2403666666.6666665077 0.170723453164100702483807481258 0.020059483125805858266810233204 0.003283984959125518798828125000 -0.002942340681329369978663779150 0 0 0 0 
2403833333.3333334923 0.170884102582931490799111884371 0.018897460773587230337122733204 0.003349552396684885025024414062 -0.003130681812763214111328125000 0 0 0 0 
2404000000.0000000000 0.170746028423309298416299384371 0.017713064327836040151575858204 0.003159925807267427010777138818 -0.003401565132662653923034667969 0 0 0 0 
2404166666.6666665077 0.170414388179779108245526231258 0.016318637877702709543248360546 0.003033621003851294951197958838 -0.003642468946054577827453613281 0 0 0 0 
2404333333.3333334923 0.170468777418136596679687500000 0.015113032422959809739082537305 0.002774397609755396842956542969 -0.003676739986985921859741210938 0 0 0 0 
2404500000.0000000000 0.170125991106033297439736884371 0.013622113503515720367431640625 0.002710568485781549973728798975 -0.003724732669070363044738769531 0 0 0 0 
2404666666.6666665077 0.170311927795410211761151231258 0.012295559979975220071812813671 0.002641339553520082993748330225 -0.003773376811295748190638876807 0 0 0 0 
2404833333.3333334923 0.170240461826324490646200615629 0.010867943055927749979039376171 0.002272905781865119934082031250 -0.003938673064112663269042968750 0 0 0 0 
2405000000.0000000000 0.170028507709503201583700615629 0.009219326078891754150390625000 0.002253243932500482039210654150 -0.004015720915049315366263105176 0 0 0 0 
2405166666.6666665077 0.170220702886581393142861884371 0.007799854502081871032714843750 0.001891861553303896947147988428 -0.004237425047904253005981445312 0 0 0 0 
2405333333.3333334923 0.170114517211914090255575615629 0.006056692916899920377249433301 0.001686905510723591067670512622 -0.004167560022324323654174804688 0 0 0 0 
2405500000.0000000000 0.170118793845176696777343750000 0.004555307328701019287109375000 0.001486823428422213034388876807 -0.004418276250362396240234375000 0 0 0 0 
2405666666.6666665077 0.170013859868049593826455634371 0.003047604579478501839878701318 0.001222451799549161954167031396 -0.004345605149865151319021894238 0 0 0 0 
2405833333.3333334923 0.169852942228317288497763115629 0.001491220318712294101715087891 0.001258223433978856043574667822 -0.004552833270281553268432617188 0 0 0 0 
2406000000.0000000000 0.169998392462730407714843750000 -0.000270202261162921786308288574 0.000847973511554300785064697266 -0.004378808662295342359060956738 0 0 0 0 
2406166666.6666665077 0.169666245579719487945880018742 -0.001723798457533120892168354565 0.000635656120721250772476196289 -0.004385127685964108380789472363 0 0 0 0 
2406333333.3333334923 0.169892191886901910979901231258 -0.003314793808385729789733886719 0.000279348547337576801150721417 -0.004322293214499950408935546875 0 0 0 0 
2406500000.0000000000 0.169600725173950195312500000000 -0.004914851859211921691894531250 0.000277510320302098989486694336 -0.004332989919930697354788495801 0 0 0 0 
2406666666.6666665077 0.169362649321556091308593750000 -0.006483865901827812194824218750 -0.000075868018029723316431045532 -0.004284483846276999387259198926 0 0 0 0 
2406833333.3333334923 0.169419348239898709396200615629 -0.008039386011660099029541015625 -0.000173586900928057703092852182 -0.004174505360424518585205078125 0 0 0 0 
2407000000.0000000000 0.169290140271186800857705634371 -0.009506071917712688446044921875 -0.000396443094359710812568664551 -0.004204836674034596356863691113 0 0 0 0 
2407166666.6666665077 0.169271484017372103592080634371 -0.010959133505821229762067225977 -0.000628318404778838157653808594 -0.004075235221534967422485351562 0 0 0 0 
2407333333.3333334923 0.168850898742675809005575615629 -0.012456966564059259242047694727 -0.000699981523212045431137084961 -0.003999397158622741699218750000 0 0 0 0 
2407500000.0000000000 0.168716698884963989257812500000 -0.013686060905456539499303048046 -0.000852547527756541967391967773 -0.003820848185569047927856445312 0 0 0 0 
2407666666.6666665077 0.168614342808723505218182481258 -0.014860765077173709869384765625 -0.001102593378163873932482075269 -0.003882188117131590843200683594 0 0 0 0 
2407833333.3333334923 0.168478175997734097579794365629 -0.016121169552206989633580391796 -0.001206547953188418908360146631 -0.003592077642679214911219931494 0 0 0 0 
2408000000.0000000000 0.168310731649398803710937500000 -0.017190625891089439392089843750 -0.001447609392926096916198730469 -0.003428029129281640052795410156 0 0 0 0 
2408166666.6666665077 0.168327912688255310058593750000 -0.018258331343531608581542968750 -0.001472472795285284952876425635 -0.003343519987538456916809082031 0 0 0 0 
2408333333.3333334923 0.168496042490005493164062500000 -0.019135417416691780090332031250 -0.001622572774067521095275878906 -0.003236406715586781935450888525 0 0 0 0 
2408500000.0000000000 0.168388605117797907073651231258 -0.020059542730450630187988281250 -0.001663527567870914936065673828 -0.003062687581405044035670615088 0 0 0 0 
2408666666.6666665077 0.168316781520843505859375000000 -0.021008847281336780893346016796 -0.001694261329248547987696982275 -0.003020074684172869162318564307 0 0 0 0 
2408833333.3333334923 0.168370425701141412933026231258 -0.021830921992659568786621093750 -0.001881562173366547064540243994 -0.002760507632046937942504882812 0 0 0 0 
2409000000.0000000000 0.168465375900268610198651231258 -0.022673929110169410705566406250 -0.001747594447806477980372763525 -0.002610162366181612014770507812 0 0 0 0 
2409166666.6666665077 0.168706446886062594314736884371 -0.023657096549868580209752266796 -0.001865836326032876968383789062 -0.002468842314556241035461425781 0 0 0 0 
2409333333.3333334923 0.168855026364326504806356865629 -0.024515777826309200632115548046 -0.001924410113133490085601806641 -0.002352582290768622918369912256 0 0 0 0 
2409500000.0000000000 0.168888002634048489669638115629 -0.025479095056653019296666329296 -0.001902540097944439108010317163 -0.002163407392799853844883584131 0 0 0 0 
2409666666.6666665077 0.168984472751617403885049384371 -0.026361227035522460937500000000 -0.001845224178396164937260293115 -0.001941743656061589934705424731 0 0 0 0 
2409833333.3333334923 0.169206619262695312500000000000 -0.027043102309107780456542968750 -0.001945247990079223892809223706 -0.001921556773595511913299560547 0 0 0 0 
2410000000.0000000000 0.169339731335640009124432481258 -0.027931110933423038827916329296 -0.001932684914208949045894003760 -0.001793400733731687068939208984 0 0 0 0 
2410166666.6666665077 0.169275239109993008712606865629 -0.028977097943425178527832031250 -0.001845571561716496944427490234 -0.001760957646183670000789023291 0 0 0 0 
2410333333.3333334923 0.169296279549598693847656250000 -0.029889045283198360097864920704 -0.001696673687547445080400776440 -0.001584229990839957974077534253 0 0 0 0 
2410500000.0000000000 0.169268682599067687988281250000 -0.030782727524638179433802420704 -0.001835171133279799981358193506 -0.001610698411241173961042094653 0 0 0 0 
2410666666.6666665077 0.169187322258949307540731865629 -0.031673338264226913452148437500 -0.001552764675579964897753071362 -0.001326897530816494984867714990 0 0 0 0 
2410833333.3333334923 0.169156894087791387359942518742 -0.032546561211347579956054687500 -0.001603577053174376921412802588 -0.001437499420717359022853232275 0 0 0 0 
2411000000.0000000000 0.168953299522399902343750000000 -0.033384036272764212871511091407 -0.001461833482608198902727436597 -0.001224247505888343074201274341 0 0 0 0 
2411166666.6666665077 0.168843254446983309646768134371 -0.034296661615371697162668596093 -0.001454857527278363921521830981 -0.001142026274465024904963827979 0 0 0 0 
2411333333.3333334923 0.168585896492004394531250000000 -0.035033538937568671489675153907 -0.001399958506226540045497275244 -0.001226670807227491898777627100 0 0 0 0 
2411500000.0000000000 0.168469443917274502853231865629 -0.036059062927961349487304687500 -0.001281361444853245995165180737 -0.001074912026524543979047465747 0 0 0 0 
2411666666.6666665077 0.168343514204025296310263115629 -0.036733947694301612163503278907 -0.001185635104775428988813090747 -0.001093460945412517027613974463 0 0 0 0 
2411833333.3333334923 0.167856276035308810135049384371 -0.037668921053409583354909528907 -0.001088735647499561092974018628 -0.001175724319182335896732949365 0 0 0 0 
2412000000.0000000000 0.167864337563514709472656250000 -0.038754798471927642822265625000 -0.000980073353275656700134277344 -0.001118559506721795038935995947 0 0 0 0 
2412166666.6666665077 0.167403578758239801604901231258 -0.039603687822818763042409528907 -0.000850437558256089687347412109 -0.001108479453250766017316508716 0 0 0 0 
2412333333.3333334923 0.167424604296684292892294365629 -0.040342926979064941406250000000 -0.000768498750403523553549611780 -0.001214194693602621989009238135 0 0 0 0 
2412500000.0000000000 0.166752114892005892654580634371 -0.041357457637786872173268903907 -0.000920708698686212301254272461 -0.001402429770678282000898051685 0 0 0 0 
2412666666.6666665077 0.166519656777381896972656250000 -0.042587146162986762309987653907 -0.000815568142570555210113525391 -0.001332584652118385054944682544 0 0 0 0 
2412833333.3333334923 0.166018664836883489410723768742 -0.043439403176307678222656250000 -0.000827474403195083141326904297 -0.001314406516030431010602641528 0 0 0 0 
2413000000.0000000000 0.165681064128875704666299384371 -0.044358119368553161621093750000 -0.000744286982808262109756469727 -0.001538951415568589947344135815 0 0 0 0 
2413166666.6666665077 0.165293112397193908691406250000 -0.045443285256624221801757812500 -0.000647542183287441730499267578 -0.001555119059048593044281005859 0 0 0 0 
2413333333.3333334923 0.164624974131584195236044365629 -0.046414002776145941997487653907 -0.000609871058259159326553344727 -0.001690958277322351932525634766 0 0 0 0 
2413500000.0000000000 0.164200693368911687652911268742 -0.047592755407094962383229841407 -0.000650767819024622440338134766 -0.001860829535871743939043354565 0 0 0 0 
2413666666.6666665077 0.163643226027488708496093750000 -0.048503477126359939575195312500 -0.000749648141209036111831665039 -0.001892621978186070919036865234 0 0 0 0 
2413833333.3333334923 0.163138464093208312988281250000 -0.049487374722957611083984375000 -0.000862767628859728574752807617 -0.002235297812148929075953818213 0 0 0 0 
2414000000.0000000000 0.162690103054046603103799384371 -0.050446230918169021606445312500 -0.001009276369586586952209472656 -0.002170334104448556900024414062 0 0 0 0 
2414166666.6666665077 0.162350147962570190429687500000 -0.051350258290767669677734375000 -0.001087292446754873015760112231 -0.002291267970576881928684853662 0 0 0 0 
2414333333.3333334923 0.161925628781318692306356865629 -0.052540615200996398925781250000 -0.001269430969841778061510395581 -0.002423061989247798919677734375 0 0 0 0 
2414500000.0000000000 0.161888107657432611663494981258 -0.053317893296480178833007812500 -0.001295238151215017058728862231 -0.002441474469378591017482138525 0 0 0 0 
2414666666.6666665077 0.161400526762008694747763115629 -0.054250419139862060546875000000 -0.001759500592015684084651327979 -0.002550972858443855805637978662 0 0 0 0 
2414833333.3333334923 0.161032289266586303710937500000 -0.055388920009136199951171875000 -0.001811691327020525932312011719 -0.002569704549387096925022744287 0 0 0 0 
2415000000.0000000000 0.160832718014717102050781250000 -0.056442786008119583129882812500 -0.002036924008280038833618164062 -0.002415944356471300125122070312 0 0 0 0 
2415166666.6666665077 0.160685315728187588790731865629 -0.057540800422430038452148437500 -0.002073092618957161903381347656 -0.002391633810475469069239951025 0 0 0 0 
2415333333.3333334923 0.160587251186370905120526231258 -0.058684509247541427612304687500 -0.002192984335124493078944540869 -0.002358823549002408981323242188 0 0 0 0 
2415500000.0000000000 0.160288274288177490234375000000 -0.059765715152025222778320312500 -0.002357919933274387879612588037 -0.002198070986196399168727255713 0 0 0 0 
2415666666.6666665077 0.160134330391883905608807481258 -0.060944799333810813213307966407 -0.002603098517283796830418252100 -0.002086702967062592940089560400 0 0 0 0 
2415833333.3333334923 0.160091340541839599609375000000 -0.062202028930187232280690778907 -0.002578149549663066864013671875 -0.002067745430395007133483886719 0 0 0 0 
2416000000.0000000000 0.159674987196922302246093750000 -0.063504576683044433593750000000 -0.002594720339402555985691689600 -0.001786639681085943958879780347 0 0 0 0 
2416166666.6666665077 0.159720286726951599121093750000 -0.064632982015609741210937500000 -0.002833199454471468925476074219 -0.001917425310239196040509868091 0 0 0 0 
2416333333.3333334923 0.159380033612251309493856865629 -0.065869361162185668945312500000 -0.002917123725637793974635458838 -0.001757512218318880038020468604 0 0 0 0 
2416500000.0000000000 0.159168213605880709549111884371 -0.067091941833496093750000000000 -0.002936004661023616790771484375 -0.001691226963885128931758261572 0 0 0 0 
2416666666.6666665077 0.158799514174461392501669365629 -0.068236537277698516845703125000 -0.003069484839215875105616904150 -0.001564528909511863968492817456 0 0 0 0 
2416833333.3333334923 0.158672451972961398025674384371 -0.069597795605659484863281250000 -0.003173901000991464094874716650 -0.001577884424477816061732626807 0 0 0 0 
2417000000.0000000000 0.158045753836631802657919365629 -0.070648893713951110839843750000 -0.003224552841857076124904013525 -0.001226544030942023017285991138 0 0 0 0 
2417166666.6666665077 0.157780781388282803634481865629 -0.071634270250797271728515625000 -0.003302532248198986053466796875 -0.001181818195618689060211181641 0 0 0 0 
2417333333.3333334923 0.157549545168876703460369981258 -0.072689808905124664306640625000 -0.003335568588227034048793173682 -0.001064153388142585971234965747 0 0 0 0 
2417500000.0000000000 0.157176077365875188629473768742 -0.073831081390380859375000000000 -0.003367800265550612969639443506 -0.000993436900898814201354980469 0 0 0 0 
2417666666.6666665077 0.156915843486785888671875000000 -0.074538163840770721435546875000 -0.003492565592750906944274902344 -0.000871787371579557657241821289 0 0 0 0 
2417833333.3333334923 0.156583860516548212249432481258 -0.075473748147487640380859375000 -0.003399850334972143173217773438 -0.000774967775214463472366333008 0 0 0 0 
2418000000.0000000000 0.156303137540817288497763115629 -0.076413027942180633544921875000 -0.003597106784582138061523437500 -0.000665259023662656654059255334 0 0 0 0 
2418166666.6666665077 0.156012982130050686935263115629 -0.077041722834110260009765625000 -0.003454268677160143852233886719 -0.000476778455777093822329920636 0 0 0 0 
2418333333.3333334923 0.155902385711669894119424384371 -0.078092418611049652099609375000 -0.003575021633878349824192666162 -0.000264948117546737194061279297 0 0 0 0 
2418500000.0000000000 0.155505940318107604980468750000 -0.078743830323219299316406250000 -0.003543887520208954811096191406 -0.000344480155035853385925292969 0 0 0 0 
2418666666.6666665077 0.155408099293708801269531250000 -0.079505406320095062255859375000 -0.003536240896210073991062783350 0.000018145707144867628812789917 0 0 0 0 
2418833333.3333334923 0.155047133564949007888955634371 -0.080270424485206604003906250000 -0.003610367188230156898498535156 0.000125957652926445007324218750 0 0 0 0 
2419000000.0000000000 0.154562726616859408279580634371 -0.080888256430625915527343750000 -0.003552236128598452048060751807 0.000176343877683393711417597638 0 0 0 0 
2419166666.6666665077 0.154448911547660799881143134371 -0.081627741456031799316406250000 -0.003595182904973626136779785156 0.000320673949318006580502110614 0 0 0 0 
2419333333.3333334923 0.153787463903427096267861884371 -0.082119174301624298095703125000 -0.003503969172015786170959472656 0.000373717688489705324172973633 0 0 0 0 
2419500000.0000000000 0.153743088245391901214276231258 -0.083019286394119262695312500000 -0.003545604879036546187159872900 0.000443183002062141895294189453 0 0 0 0 
2419666666.6666665077 0.153563529253006009200888115629 -0.083605781197547912597656250000 -0.003539977595210074944737099756 0.000507999502588063478469848633 0 0 0 0 
2419833333.3333334923 0.153040692210197504241619981258 -0.084089033305644989013671875000 -0.003525540232658385796787881006 0.000589734874665737152099609375 0 0 0 0 
