# Version 1.00
#
freq[Hz];re:Trc1_S11;im:Trc1_S11;re:Trc2_S21;im:Trc2_S21;
2.400000000000000E+009;1.563350111246109E-001;6.001135706901550E-002;-1.233035814948380E-003;4.020967520773411E-003;
2.400166666666667E+009;1.564942449331284E-001;5.826049298048019E-002;-1.166190137155354E-003;3.974596038460732E-003;
2.400333333333334E+009;1.564641594886780E-001;5.627001076936722E-002;-9.691888117231429E-004;4.085918888449669E-003;
2.400500000000000E+009;1.568605452775955E-001;5.420735105872154E-002;-8.112525101751089E-004;3.974800929427147E-003;
2.400666666666667E+009;1.569738686084747E-001;5.212268233299255E-002;-6.521340692415834E-004;4.112971480935812E-003;
2.400833333333334E+009;1.573106944561005E-001;5.016986653208733E-002;-6.615846650674939E-004;4.112592898309231E-003;
2.401000000000000E+009;1.576568633317947E-001;4.810920730233192E-002;-4.221761773806065E-004;4.490546416491270E-003;
2.401166666666667E+009;1.579972952604294E-001;4.593958705663681E-002;-3.437942359596491E-004;4.058789461851120E-003;
2.401333333333334E+009;1.583012342453003E-001;4.386255517601967E-002;-2.080051635857672E-004;4.211960826069117E-003;
2.401500000000000E+009;1.590361744165421E-001;4.182159528136253E-002;-8.124212035909295E-005;4.328491166234016E-003;
2.401666666666667E+009;1.594584137201309E-001;3.988943994045258E-002;8.625670307083055E-005;4.250490572303534E-003;
2.401833333333334E+009;1.598976701498032E-001;3.800403699278832E-002;1.802364276954904E-004;4.187427926808596E-003;
2.402000000000000E+009;1.606590300798416E-001;3.582867980003357E-002;1.644535077502951E-004;4.270432516932488E-003;
2.402166666666667E+009;1.611374765634537E-001;3.402223438024521E-002;2.043929416686297E-004;4.210024606436491E-003;
2.402333333333334E+009;1.619165688753128E-001;3.242036700248718E-002;3.889473737217486E-004;4.256214480847120E-003;
2.402500000000000E+009;1.629927158355713E-001;3.097925893962383E-002;7.087585981935263E-004;4.321044310927391E-003;
2.402666666666667E+009;1.636431962251663E-001;2.951595373451710E-002;9.551314869895577E-004;4.203818272799254E-003;
2.402833333333334E+009;1.645374745130539E-001;2.781038917601109E-002;9.644340607337654E-004;4.231890197843313E-003;
2.403000000000000E+009;1.655066460371018E-001;2.647593617439270E-002;1.073435181751847E-003;4.124411847442389E-003;
2.403166666666667E+009;1.664185374975205E-001;2.506791986525059E-002;1.204448984935880E-003;4.311466589570046E-003;
2.403333333333334E+009;1.673281341791153E-001;2.398169599473476E-002;1.414585160091519E-003;4.182497970759869E-003;
2.403500000000000E+009;1.681715697050095E-001;2.269810065627098E-002;1.533323316834867E-003;4.106006585061550E-003;
2.403666666666667E+009;1.692326366901398E-001;2.153646387159824E-002;1.714837620966137E-003;4.064833279699087E-003;
2.403833333333334E+009;1.702217459678650E-001;2.047095820307732E-002;1.848221756517887E-003;3.954287618398666E-003;
2.404000000000000E+009;1.711696386337280E-001;1.974777877330780E-002;1.954639330506325E-003;4.123646300286055E-003;
2.404166666666667E+009;1.720202267169952E-001;1.871347613632679E-002;2.255949424579740E-003;3.998767118901014E-003;
2.404333333333334E+009;1.729174405336380E-001;1.799502037465572E-002;2.188555663451552E-003;4.077711608260870E-003;
2.404500000000000E+009;1.737368106842041E-001;1.726136729121208E-002;2.494760090485215E-003;3.735925536602736E-003;
2.404666666666667E+009;1.745748966932297E-001;1.673339866101742E-002;2.520279958844185E-003;3.818734781816602E-003;
2.404833333333334E+009;1.752479225397110E-001;1.618740893900394E-002;2.695770235732198E-003;3.627174068242312E-003;
2.405000000000000E+009;1.761776059865952E-001;1.572807691991329E-002;2.803748007863760E-003;3.506308188661933E-003;
2.405166666666667E+009;1.768628954887390E-001;1.511147338896990E-002;2.937606535851955E-003;3.594700247049332E-003;
2.405333333333334E+009;1.774596124887466E-001;1.462515536695719E-002;3.158914856612682E-003;3.330669365823269E-003;
2.405500000000000E+009;1.778705120086670E-001;1.457788236439228E-002;3.209547838196158E-003;3.296513110399246E-003;
2.405666666666667E+009;1.784494370222092E-001;1.425590086728334E-002;3.464528825134039E-003;3.130337223410606E-003;
2.405833333333334E+009;1.787275373935700E-001;1.403757929801941E-002;3.434260142967105E-003;2.967539709061384E-003;
2.406000000000000E+009;1.790392696857452E-001;1.360231451690197E-002;3.566985717043281E-003;2.837807172909379E-003;
2.406166666666667E+009;1.792870312929153E-001;1.336678769439459E-002;3.562882076948881E-003;2.737185219302774E-003;
2.406333333333334E+009;1.795696914196014E-001;1.303644105792046E-002;3.790557384490967E-003;2.775050001218915E-003;
2.406500000000000E+009;1.795822978019714E-001;1.274548843502998E-002;3.896320471540093E-003;2.515865024179220E-003;
2.406666666666667E+009;1.794177889823914E-001;1.259590685367584E-002;4.004003945738077E-003;2.299071289598942E-003;
2.406833333333334E+009;1.794465184211731E-001;1.218656729906797E-002;4.113951697945595E-003;2.150040818378329E-003;
2.407000000000000E+009;1.793393939733505E-001;1.167548727244139E-002;4.237765446305275E-003;1.896590576507151E-003;
2.407166666666667E+009;1.792157888412476E-001;1.136975269764662E-002;4.199195187538862E-003;1.858810544945300E-003;
2.407333333333334E+009;1.787604987621307E-001;1.089531928300858E-002;4.264301154762507E-003;1.875810907222331E-003;
2.407500000000000E+009;1.785868704319000E-001;1.028252299875021E-002;4.485980607569218E-003;1.281157135963440E-003;
2.407666666666667E+009;1.780844777822495E-001;9.862788952887058E-003;4.377672448754311E-003;1.256339950487018E-003;
2.407833333333334E+009;1.776194572448731E-001;9.068001061677933E-003;4.447227809578180E-003;1.152377109974623E-003;
2.408000000000000E+009;1.770313978195190E-001;8.099126629531384E-003;4.434347618371248E-003;8.705285727046430E-004;
2.408166666666667E+009;1.764571815729141E-001;7.481290958821774E-003;4.467241466045380E-003;7.459521875716746E-004;
2.408333333333334E+009;1.759880483150482E-001;6.497826427221298E-003;4.443123005330563E-003;5.151556106284261E-004;
2.408500000000000E+009;1.752237975597382E-001;5.468853749334812E-003;4.442935343831778E-003;3.463999892119318E-004;
2.408666666666667E+009;1.746264249086380E-001;4.350619390606880E-003;4.486416932195425E-003;2.075131924357265E-004;
2.408833333333334E+009;1.739207655191422E-001;3.200892591848970E-003;4.280464258044958E-003;5.660986062139273E-005;
2.409000000000000E+009;1.733383983373642E-001;1.996784703806043E-003;4.301903769373894E-003;-9.945821511792019E-005;
2.409166666666667E+009;1.725889891386032E-001;5.617756978608668E-004;4.256723914295435E-003;-2.577201230451465E-004;
2.409333333333334E+009;1.720955520868301E-001;-8.578782435506582E-004;4.088460002094507E-003;-3.761103725992143E-004;
2.409500000000000E+009;1.714178919792175E-001;-2.427712082862854E-003;4.157919436693192E-003;-5.491872434504330E-004;
2.409666666666667E+009;1.707059890031815E-001;-4.048205446451902E-003;4.070280119776726E-003;-6.483718752861023E-004;
2.409833333333334E+009;1.701611876487732E-001;-5.473270546644926E-003;3.939073532819748E-003;-8.113835938274860E-004;
2.410000000000000E+009;1.699010133743286E-001;-7.285094354301691E-003;3.850925015285611E-003;-9.298023651354015E-004;
2.410166666666667E+009;1.693203598260880E-001;-9.030397981405258E-003;3.725152229890227E-003;-1.194258918985724E-003;
2.410333333333334E+009;1.687314212322235E-001;-1.088312547653914E-002;3.703596303239465E-003;-1.098164240829647E-003;
2.410500000000000E+009;1.685218364000320E-001;-1.274511776864529E-002;3.632033476606011E-003;-1.201164326630533E-003;
2.410666666666667E+009;1.682038754224777E-001;-1.472581736743450E-002;3.715112805366516E-003;-1.324012409895659E-003;
2.410833333333334E+009;1.679451912641525E-001;-1.645377837121487E-002;3.505695378407836E-003;-1.486411318182945E-003;
2.411000000000000E+009;1.677459180355072E-001;-1.846976019442082E-002;3.405571449548006E-003;-1.760510029271245E-003;
2.411166666666667E+009;1.677206903696060E-001;-2.058553881943226E-002;3.315714886412025E-003;-1.724912784993649E-003;
2.411333333333334E+009;1.676084846258164E-001;-2.245238423347473E-002;3.196190111339092E-003;-1.738081104122102E-003;
2.411500000000000E+009;1.676228940486908E-001;-2.457585372030735E-002;3.144189948216081E-003;-1.818792894482613E-003;
2.411666666666667E+009;1.677581667900085E-001;-2.667240612208843E-002;2.984764985740185E-003;-1.792285125702620E-003;
2.411833333333334E+009;1.679439991712570E-001;-2.845342271029949E-002;2.978866687044501E-003;-1.964884344488382E-003;
2.412000000000000E+009;1.684123873710632E-001;-3.042741306126118E-002;2.695452654734254E-003;-2.137980191037059E-003;
2.412166666666667E+009;1.685290634632111E-001;-3.244641423225403E-002;2.700875746086240E-003;-2.194183180108666E-003;
2.412333333333334E+009;1.690793335437775E-001;-3.410147503018379E-002;2.558479551225901E-003;-2.118963748216629E-003;
2.412500000000000E+009;1.693325936794281E-001;-3.578380495309830E-002;2.561347559094429E-003;-2.145473379641771E-003;
2.412666666666667E+009;1.700724065303803E-001;-3.782078623771668E-002;2.454885747283697E-003;-2.195728709921241E-003;
2.412833333333334E+009;1.705982983112335E-001;-3.944224864244461E-002;2.378577366471291E-003;-2.237228676676750E-003;
2.413000000000000E+009;1.709677875041962E-001;-4.111390933394432E-002;2.308795927092433E-003;-2.307253424078226E-003;
2.413166666666667E+009;1.716360449790955E-001;-4.277776554226875E-002;2.140806289389730E-003;-2.273509046062827E-003;
2.413333333333334E+009;1.719419509172440E-001;-4.433075711131096E-002;2.165405778214335E-003;-2.386795124039054E-003;
2.413500000000000E+009;1.728073358535767E-001;-4.573659971356392E-002;1.999718369916081E-003;-2.365390770137310E-003;
2.413666666666667E+009;1.735867410898209E-001;-4.714696481823921E-002;1.882294076494873E-003;-2.496758010238409E-003;
2.413833333333334E+009;1.741264015436173E-001;-4.840067774057388E-002;1.942072529345751E-003;-2.397700445726514E-003;
2.414000000000000E+009;1.745481193065643E-001;-4.969316348433495E-002;1.807539840228856E-003;-2.580280881375074E-003;
2.414166666666667E+009;1.752101033926010E-001;-5.072772875428200E-002;1.609662896953523E-003;-2.505555748939514E-003;
2.414333333333334E+009;1.758526116609573E-001;-5.178704485297203E-002;1.364027615636587E-003;-2.443772275000811E-003;
2.414500000000000E+009;1.765296906232834E-001;-5.258729681372643E-002;1.575977541506290E-003;-2.658917335793376E-003;
2.414666666666667E+009;1.768158525228500E-001;-5.330542102456093E-002;1.422083936631680E-003;-2.662992104887962E-003;
2.414833333333334E+009;1.773162782192230E-001;-5.431459844112396E-002;1.364006311632693E-003;-2.510863356292248E-003;
2.415000000000000E+009;1.776162683963776E-001;-5.485538393259049E-002;1.409348449669778E-003;-2.709604799747467E-003;
2.415166666666667E+009;1.780172288417816E-001;-5.543884262442589E-002;1.056228647939861E-003;-2.823195187374950E-003;
2.415333333333334E+009;1.783927083015442E-001;-5.611164495348930E-002;1.115883816964924E-003;-2.737818518653512E-003;
2.415500000000000E+009;1.786621212959290E-001;-5.644559860229492E-002;9.503217879682779E-004;-2.817652653902769E-003;
2.415666666666667E+009;1.785940825939179E-001;-5.680582299828529E-002;8.150475914590061E-004;-2.798157511278987E-003;
2.415833333333334E+009;1.788156777620316E-001;-5.717015266418457E-002;7.452924037352204E-004;-2.852217527106404E-003;
2.416000000000000E+009;1.786836087703705E-001;-5.761281400918961E-002;6.575032020919025E-004;-2.863794565200806E-003;
2.416166666666667E+009;1.787026524543762E-001;-5.778978392481804E-002;5.052266642451286E-004;-2.864230424165726E-003;
2.416333333333334E+009;1.784117817878723E-001;-5.815049260854721E-002;5.350771825760603E-004;-2.939437516033649E-003;
2.416500000000000E+009;1.781684011220932E-001;-5.822576954960823E-002;3.352501953486353E-004;-2.909750211983919E-003;
2.416666666666667E+009;1.776997148990631E-001;-5.845005437731743E-002;2.566739858593792E-004;-2.909287810325623E-003;
2.416833333333334E+009;1.774479597806931E-001;-5.884499475359917E-002;2.620484156068414E-004;-2.814183011651039E-003;
2.417000000000000E+009;1.764962822198868E-001;-5.894951522350311E-002;-9.590739500708878E-005;-2.868487499654293E-003;
2.417166666666667E+009;1.758072376251221E-001;-5.914129316806793E-002;3.877396375173703E-005;-2.892503980547190E-003;
2.417333333333334E+009;1.751859188079834E-001;-5.931307747960091E-002;-1.871503336587921E-004;-2.754058688879013E-003;
2.417500000000000E+009;1.742850989103317E-001;-5.979215726256371E-002;-3.099830355495215E-004;-2.695630304515362E-003;
2.417666666666667E+009;1.735832840204239E-001;-5.998481065034866E-002;-3.774057549890131E-004;-2.667601220309734E-003;
2.417833333333334E+009;1.725472211837769E-001;-6.035250425338745E-002;-5.078546237200499E-004;-2.590443938970566E-003;
2.418000000000000E+009;1.713871806859970E-001;-6.087459251284599E-002;-6.626922986470163E-004;-2.561327069997788E-003;
2.418166666666667E+009;1.702903956174851E-001;-6.118135899305344E-002;-7.369306986220181E-004;-2.545198658481240E-003;
2.418333333333334E+009;1.693775951862335E-001;-6.170491501688957E-002;-8.689544047228992E-004;-2.401207340881228E-003;
2.418500000000000E+009;1.680393517017365E-001;-6.234692782163620E-002;-8.772202418185771E-004;-2.300504362210631E-003;
2.418666666666667E+009;1.669022291898727E-001;-6.301278620958328E-002;-7.518735365010798E-004;-2.354954136535525E-003;
2.418833333333334E+009;1.655123680830002E-001;-6.369761377573013E-002;-1.019570161588490E-003;-2.173216547816992E-003;
2.419000000000000E+009;1.641871184110642E-001;-6.442964822053909E-002;-1.042378484271467E-003;-2.103031147271395E-003;
2.419166666666667E+009;1.630766242742539E-001;-6.529715657234192E-002;-1.239674049429596E-003;-2.126237144693732E-003;
2.419333333333334E+009;1.615915745496750E-001;-6.603895127773285E-002;-1.180714112706482E-003;-1.954828388988972E-003;
2.419500000000000E+009;1.604767739772797E-001;-6.720699369907379E-002;-1.168251270428300E-003;-1.840198645368218E-003;
2.419666666666667E+009;1.594322025775909E-001;-6.822831928730011E-002;-1.121609588153660E-003;-1.853752997703850E-003;
2.419833333333334E+009;1.580654382705689E-001;-6.933537125587463E-002;-1.313596963882446E-003;-1.576010719873011E-003;
2.420000000000000E+009;1.572416424751282E-001;-7.051083445549011E-002;-1.352372113615274E-003;-1.597830676473677E-003;
2.420166666666667E+009;1.559179276227951E-001;-7.184647768735886E-002;-1.301170093938708E-003;-1.417880062945187E-003;
2.420333333333334E+009;1.550656110048294E-001;-7.324742525815964E-002;-1.259741373360157E-003;-1.277705421671271E-003;
2.420500000000000E+009;1.541876047849655E-001;-7.441786676645279E-002;-1.277925213798881E-003;-1.200669561512768E-003;
2.420666666666667E+009;1.532433182001114E-001;-7.585361599922180E-002;-1.403456437401474E-003;-1.055742846801877E-003;
2.420833333333334E+009;1.523942500352860E-001;-7.766127586364746E-002;-1.467268913984299E-003;-1.028568833135068E-003;
2.421000000000000E+009;1.515229046344757E-001;-7.920695096254349E-002;-1.253639813512564E-003;-9.029777720570564E-004;
2.421166666666667E+009;1.511478573083878E-001;-8.095742017030716E-002;-1.302090589888394E-003;-8.576455875299871E-004;
2.421333333333334E+009;1.505934447050095E-001;-8.250744640827179E-002;-1.196384197100997E-003;-7.076478214003146E-004;
2.421500000000000E+009;1.501443088054657E-001;-8.398093283176422E-002;-1.215444062836468E-003;-5.907805752940476E-004;
2.421666666666667E+009;1.498689055442810E-001;-8.563119918107987E-002;-1.274075475521386E-003;-5.934202927164733E-004;
2.421833333333334E+009;1.495937258005142E-001;-8.748085796833038E-002;-1.025216304697096E-003;-4.904920933768153E-004;
2.422000000000000E+009;1.493609100580216E-001;-8.904448896646500E-002;-9.632977307774127E-004;-4.651059280149639E-004;
2.422166666666667E+009;1.491763889789581E-001;-9.088285267353058E-002;-1.082122558727861E-003;-2.679033495951444E-004;
2.422333333333334E+009;1.493284553289414E-001;-9.263202548027039E-002;-8.780389907769859E-004;-3.360336995683610E-004;
2.422500000000000E+009;1.494846194982529E-001;-9.421768039464951E-002;-7.937523187138140E-004;-3.195502504240722E-004;
2.422666666666667E+009;1.494354605674744E-001;-9.564231336116791E-002;-6.284380797296763E-004;-2.892276679631323E-004;
2.422833333333334E+009;1.497201621532440E-001;-9.745636582374573E-002;-6.604331429116428E-004;-3.130968543700874E-004;
2.423000000000000E+009;1.499801427125931E-001;-9.896378219127655E-002;-7.163039990700781E-004;-2.468113962095231E-004;
2.423166666666667E+009;1.504627764225006E-001;-1.004949212074280E-001;-3.780928091146052E-004;-2.265140210511163E-004;
2.423333333333334E+009;1.509168595075607E-001;-1.019481495022774E-001;-5.591530352830887E-004;-3.427841002121568E-004;
2.423500000000000E+009;1.512385904788971E-001;-1.034361720085144E-001;-4.186787991784513E-004;-2.789258724078536E-004;
2.423666666666667E+009;1.516233384609222E-001;-1.048800796270371E-001;-3.488533839117736E-004;-3.053552063647658E-004;
2.423833333333334E+009;1.523730903863907E-001;-1.062023267149925E-001;-2.550206554587930E-004;-4.006341623608023E-004;
2.424000000000000E+009;1.527756303548813E-001;-1.072098240256310E-001;-1.937768684001640E-004;-3.746438305824995E-004;
2.424166666666667E+009;1.532040238380432E-001;-1.084602698683739E-001;-1.396582229062915E-004;-4.638284735847265E-004;
2.424333333333334E+009;1.537853777408600E-001;-1.094267293810844E-001;-1.941472728503868E-004;-4.664736625272781E-004;
2.424500000000000E+009;1.542481034994125E-001;-1.104765757918358E-001;-6.871514779049903E-005;-4.934040480293334E-004;
2.424666666666667E+009;1.548349261283875E-001;-1.112371459603310E-001;-1.906876568682492E-004;-5.390188889577985E-004;
2.424833333333334E+009;1.551790237426758E-001;-1.122057661414146E-001;-8.924359281081706E-005;-6.475355476140976E-004;
2.425000000000000E+009;1.556999385356903E-001;-1.129673868417740E-001;-2.037395606748760E-004;-6.673216121271253E-004;
2.425166666666667E+009;1.559309065341950E-001;-1.135637089610100E-001;-9.999674512073398E-005;-4.575044731609523E-004;
2.425333333333334E+009;1.562840044498444E-001;-1.141123622655869E-001;-1.342629839200527E-004;-8.192432578653097E-004;
2.425500000000000E+009;1.568130254745483E-001;-1.146527975797653E-001;-2.699244396353606E-005;-7.213986827991903E-004;
2.425666666666667E+009;1.567976623773575E-001;-1.150778234004974E-001;-2.221017894044053E-005;-8.006067946553230E-004;
2.425833333333334E+009;1.570278108119965E-001;-1.154982894659042E-001;-1.199474718305282E-004;-1.009882311336696E-003;
2.426000000000000E+009;1.569661945104599E-001;-1.159479543566704E-001;-1.502467348473147E-004;-9.175145532935858E-004;
2.426166666666667E+009;1.572274863719940E-001;-1.160547137260437E-001;-6.293749902397394E-005;-9.136761655099690E-004;
2.426333333333334E+009;1.569898724555969E-001;-1.163468658924103E-001;-1.210919363074936E-004;-1.031142310239375E-003;
2.426500000000000E+009;1.568921506404877E-001;-1.165607646107674E-001;-1.795717689674348E-004;-1.092101912945509E-003;
2.426666666666667E+009;1.567730456590653E-001;-1.165915727615356E-001;-1.414166908944026E-004;-1.148448907770217E-003;
2.426833333333334E+009;1.563346982002258E-001;-1.167837306857109E-001;-1.296293630730361E-004;-1.223279396072030E-003;
2.427000000000000E+009;1.558399349451065E-001;-1.168915033340454E-001;-2.001233806367964E-004;-1.322252326644957E-003;
2.427166666666667E+009;1.553110927343369E-001;-1.168619692325592E-001;-1.699755812296644E-004;-1.138748135417700E-003;
2.427333333333334E+009;1.546458601951599E-001;-1.171157360076904E-001;-1.942007511388511E-004;-1.314990571700037E-003;
2.427500000000000E+009;1.541392654180527E-001;-1.171745583415031E-001;-3.555883886292577E-004;-1.378014218062162E-003;
2.427666666666667E+009;1.531511098146439E-001;-1.173498705029488E-001;-3.257370262872428E-004;-1.417455379851162E-003;
