# Version 1.00
#
freq[Hz];re:Trc1_S11;im:Trc1_S11;re:Trc2_S21;im:Trc2_S21;
2.400000000000000E+009;1.565059721469879E-001;5.998685583472252E-002;-1.094731036573649E-003;3.856483614072204E-003;
2.400166666666667E+009;1.564757376909256E-001;5.818625167012215E-002;-1.041725045070052E-003;3.848748747259378E-003;
2.400333333333334E+009;1.566216200590134E-001;5.620318651199341E-002;-1.111398101784289E-003;3.927215933799744E-003;
2.400500000000000E+009;1.566950082778931E-001;5.418527871370316E-002;-8.736513555049896E-004;4.066545516252518E-003;
2.400666666666667E+009;1.568780094385147E-001;5.199833214282990E-002;-7.053716690279543E-004;3.990471363067627E-003;
2.400833333333334E+009;1.572269499301910E-001;5.026360601186752E-002;-5.465412396006286E-004;4.096108954399824E-003;
2.401000000000000E+009;1.573068052530289E-001;4.817355796694756E-002;-5.840974627062678E-004;4.272705875337124E-003;
2.401166666666667E+009;1.580144464969635E-001;4.593217745423317E-002;-2.807890414260328E-004;4.342464730143547E-003;
2.401333333333334E+009;1.582253128290176E-001;4.397076740860939E-002;-1.141462853411213E-004;4.142600111663342E-003;
2.401500000000000E+009;1.588387936353684E-001;4.174249246716499E-002;-1.412198325851932E-004;4.135521128773689E-003;
2.401666666666667E+009;1.594361960887909E-001;3.990648686885834E-002;7.006049418123439E-005;4.248254932463169E-003;
2.401833333333334E+009;1.599618196487427E-001;3.790849819779396E-002;2.341193903703243E-004;4.212724976241589E-003;
2.402000000000000E+009;1.605098247528076E-001;3.611208498477936E-002;3.278100630268455E-004;4.195696208626032E-003;
2.402166666666667E+009;1.613674014806747E-001;3.408339619636536E-002;3.479334700386971E-004;4.297831095755100E-003;
2.402333333333334E+009;1.619888842105866E-001;3.237369656562805E-002;4.101539961993694E-004;4.276113118976355E-003;
2.402500000000000E+009;1.630299240350723E-001;3.079103492200375E-002;6.142604397609830E-004;4.066165070980787E-003;
2.402666666666667E+009;1.637741029262543E-001;2.928984910249710E-002;9.336438379250467E-004;4.325537476688623E-003;
2.402833333333334E+009;1.646274775266647E-001;2.782188914716244E-002;9.915179107338190E-004;4.369403235614300E-003;
2.403000000000000E+009;1.654302328824997E-001;2.651580423116684E-002;1.120434608310461E-003;4.189077299088240E-003;
2.403166666666667E+009;1.663895100355148E-001;2.505998499691486E-002;1.303405850194395E-003;4.218230489641428E-003;
2.403333333333334E+009;1.675136089324951E-001;2.399639971554279E-002;1.455922378227115E-003;4.154482856392860E-003;
2.403500000000000E+009;1.682078689336777E-001;2.271004393696785E-002;1.527357148006558E-003;4.170643165707588E-003;
2.403666666666667E+009;1.694005578756332E-001;2.152786590158939E-002;1.632067724131048E-003;4.080218728631735E-003;
2.403833333333334E+009;1.703017801046372E-001;2.058799192309380E-002;1.730061019770801E-003;4.137087147682905E-003;
2.404000000000000E+009;1.711651533842087E-001;1.954035088419914E-002;1.857969793491066E-003;4.021229222416878E-003;
2.404166666666667E+009;1.722216755151749E-001;1.869549788534641E-002;2.046636538580060E-003;3.851831424981356E-003;
2.404333333333334E+009;1.729022115468979E-001;1.806154660880566E-002;2.375615062192082E-003;3.852437250316143E-003;
2.404500000000000E+009;1.738035976886749E-001;1.717807725071907E-002;2.409361535683274E-003;3.901829710230231E-003;
2.404666666666667E+009;1.746881902217865E-001;1.677821949124336E-002;2.678595017641783E-003;3.780391765758395E-003;
2.404833333333334E+009;1.754533648490906E-001;1.614124886691570E-002;2.818088512867689E-003;3.602200653403997E-003;
2.405000000000000E+009;1.761192083358765E-001;1.556726172566414E-002;2.854229882359505E-003;3.615538589656353E-003;
2.405166666666667E+009;1.767465472221375E-001;1.505939569324255E-002;3.002691082656384E-003;3.550523193553090E-003;
2.405333333333334E+009;1.773779839277268E-001;1.453544758260250E-002;3.025162965059280E-003;3.328455146402121E-003;
2.405500000000000E+009;1.780706495046616E-001;1.448431704193354E-002;3.088795812800527E-003;3.234452800825238E-003;
2.405666666666667E+009;1.782822459936142E-001;1.391606871038675E-002;3.295821370556951E-003;3.189436625689268E-003;
2.405833333333334E+009;1.786956340074539E-001;1.384978089481592E-002;3.354502376168966E-003;2.969509689137340E-003;
2.406000000000000E+009;1.789256930351257E-001;1.363659929484129E-002;3.701327834278345E-003;2.996352501213551E-003;
2.406166666666667E+009;1.791746616363525E-001;1.350075379014015E-002;3.672789316624403E-003;2.649707952514291E-003;
2.406333333333334E+009;1.794792413711548E-001;1.312989275902510E-002;3.757018595933914E-003;2.698065713047981E-003;
2.406500000000000E+009;1.794991642236710E-001;1.275901310145855E-002;4.007323645055294E-003;2.362169325351715E-003;
2.406666666666667E+009;1.793466210365295E-001;1.260044239461422E-002;4.008674062788487E-003;2.393494360148907E-003;
2.406833333333334E+009;1.794237196445465E-001;1.218437030911446E-002;4.187083803117275E-003;2.247341210022569E-003;
2.407000000000000E+009;1.792686283588409E-001;1.180719584226608E-002;4.127178806811571E-003;2.007996430620551E-003;
2.407166666666667E+009;1.791942715644836E-001;1.147640217095614E-002;4.192174877971411E-003;1.785415224730969E-003;
2.407333333333334E+009;1.787762194871903E-001;1.099179312586784E-002;4.355092532932758E-003;1.480877515859902E-003;
2.407500000000000E+009;1.784669011831284E-001;1.040397584438324E-002;4.397776443511248E-003;1.527183223515749E-003;
2.407666666666667E+009;1.781465113162994E-001;9.861779399216175E-003;4.246953409165144E-003;1.163411303423345E-003;
2.407833333333334E+009;1.775552630424500E-001;9.067134000360966E-003;4.510736092925072E-003;1.128233736380935E-003;
2.408000000000000E+009;1.770976036787033E-001;8.365117013454437E-003;4.395264200866222E-003;7.237565587274730E-004;
2.408166666666667E+009;1.765633672475815E-001;7.628787774592638E-003;4.457601346075535E-003;7.622952689416707E-004;
2.408333333333334E+009;1.760937720537186E-001;6.596798542886972E-003;4.418423399329186E-003;6.834507221356034E-004;
2.408500000000000E+009;1.754165887832642E-001;5.630234256386757E-003;4.377758596092463E-003;3.766557492781431E-004;
2.408666666666667E+009;1.747596561908722E-001;4.479093011468649E-003;4.328077193349600E-003;3.288720035925508E-004;
2.408833333333334E+009;1.740438640117645E-001;3.268597647547722E-003;4.396796226501465E-003;8.876363426679745E-005;
2.409000000000000E+009;1.733627468347549E-001;2.129821805283427E-003;4.343765322118998E-003;7.999107765499502E-005;
2.409166666666667E+009;1.728206723928452E-001;5.475271027535200E-004;4.331193864345551E-003;-3.837669501081109E-004;
2.409333333333334E+009;1.722028255462647E-001;-8.185894112102687E-004;4.203114192932844E-003;-3.985925286542624E-004;
2.409500000000000E+009;1.714851558208466E-001;-2.634858014062047E-003;4.077105317264795E-003;-5.850548041053116E-004;
2.409666666666667E+009;1.709420233964920E-001;-3.958292305469513E-003;4.026943817734718E-003;-5.693146376870573E-004;
2.409833333333334E+009;1.703168302774429E-001;-5.537550896406174E-003;3.890799358487129E-003;-8.271306287497282E-004;
2.410000000000000E+009;1.697808206081390E-001;-7.333610672503710E-003;3.870184766128659E-003;-1.124855130910873E-003;
2.410166666666667E+009;1.692728549242020E-001;-9.100238792598248E-003;3.941809292882681E-003;-9.966559009626508E-004;
2.410333333333334E+009;1.688573807477951E-001;-1.090077124536037E-002;3.768047317862511E-003;-1.200869563035667E-003;
2.410500000000000E+009;1.686235219240189E-001;-1.272032596170902E-002;3.568595740944147E-003;-1.287479652091861E-003;
2.410666666666667E+009;1.682572364807129E-001;-1.487270276993513E-002;3.722646972164512E-003;-1.511730020865798E-003;
2.410833333333334E+009;1.679233163595200E-001;-1.665636524558067E-002;3.514674957841635E-003;-1.345969620160759E-003;
2.411000000000000E+009;1.677471101284027E-001;-1.866850629448891E-002;3.377074142917991E-003;-1.671513309702277E-003;
2.411166666666667E+009;1.676674336194992E-001;-2.065927721560001E-002;3.318903036415577E-003;-1.682147383689880E-003;
2.411333333333334E+009;1.675700396299362E-001;-2.258549444377422E-002;3.306622384116054E-003;-1.804216066375375E-003;
2.411500000000000E+009;1.675369143486023E-001;-2.462457492947578E-002;2.975011244416237E-003;-1.751138363033533E-003;
2.411666666666667E+009;1.677292436361313E-001;-2.651890181005001E-002;3.041824791580439E-003;-1.795119140297175E-003;
2.411833333333334E+009;1.679431647062302E-001;-2.847493439912796E-002;2.925444860011339E-003;-1.997055253013969E-003;
2.412000000000000E+009;1.682031303644180E-001;-3.035239316523075E-002;2.762572607025504E-003;-1.978624844923616E-003;
2.412166666666667E+009;1.685170531272888E-001;-3.235930949449539E-002;2.753267064690590E-003;-2.068012487143278E-003;
2.412333333333334E+009;1.689926087856293E-001;-3.407019376754761E-002;2.684919396415353E-003;-2.310986630618572E-003;
2.412500000000000E+009;1.692416816949844E-001;-3.585497662425041E-002;2.579280175268650E-003;-2.200224669650197E-003;
2.412666666666667E+009;1.698700487613678E-001;-3.784824162721634E-002;2.397811505943537E-003;-2.257400890812278E-003;
2.412833333333334E+009;1.705161631107330E-001;-3.946777433156967E-002;2.338564489036799E-003;-2.275801030918956E-003;
2.413000000000000E+009;1.710771769285202E-001;-4.111484438180924E-002;2.303482498973608E-003;-2.341527724638581E-003;
2.413166666666667E+009;1.714312285184860E-001;-4.274032264947891E-002;2.121976809576154E-003;-2.305621746927500E-003;
2.413333333333334E+009;1.720402538776398E-001;-4.429319873452187E-002;2.122829202562571E-003;-2.429550280794501E-003;
2.413500000000000E+009;1.728304922580719E-001;-4.564792290329933E-002;2.157085109502077E-003;-2.347310306504369E-003;
2.413666666666667E+009;1.734486669301987E-001;-4.716114699840546E-002;1.890275510959327E-003;-2.528197364881635E-003;
2.413833333333334E+009;1.740051954984665E-001;-4.834029823541641E-002;1.936892047524452E-003;-2.583794295787811E-003;
2.414000000000000E+009;1.745053976774216E-001;-4.964253678917885E-002;1.716250902973115E-003;-2.500641858205199E-003;
2.414166666666667E+009;1.751817166805267E-001;-5.045370385050774E-002;1.701992470771074E-003;-2.655408112332225E-003;
2.414333333333334E+009;1.756424158811569E-001;-5.163286253809929E-002;1.814134302549064E-003;-2.527198754251003E-003;
2.414500000000000E+009;1.764896214008331E-001;-5.252867937088013E-002;1.714321784675121E-003;-2.539118751883507E-003;
2.414666666666667E+009;1.768831312656403E-001;-5.335643142461777E-002;1.450977753847837E-003;-2.694291761144996E-003;
2.414833333333334E+009;1.772651523351669E-001;-5.427207797765732E-002;1.578968367539346E-003;-2.730591222643852E-003;
2.415000000000000E+009;1.777382344007492E-001;-5.478755384683609E-002;1.401708810590208E-003;-2.885316265746951E-003;
2.415166666666667E+009;1.779210865497589E-001;-5.542558804154396E-002;1.159822568297386E-003;-2.790436614304781E-003;
2.415333333333334E+009;1.782816350460053E-001;-5.605272203683853E-002;1.165652647614479E-003;-2.720958553254604E-003;
2.415500000000000E+009;1.786369979381561E-001;-5.654251575469971E-002;1.189740374684334E-003;-2.792142797261477E-003;
2.415666666666667E+009;1.786644309759140E-001;-5.694741010665894E-002;9.005326428450644E-004;-2.770045073702931E-003;
2.415833333333334E+009;1.788678765296936E-001;-5.727002769708633E-002;7.950288709253073E-004;-2.876586513593793E-003;
2.416000000000000E+009;1.786023825407028E-001;-5.757192149758339E-002;5.748417461290956E-004;-2.881427993997932E-003;
2.416166666666667E+009;1.787640154361725E-001;-5.797810852527618E-002;5.689744721166790E-004;-2.995535265654326E-003;
2.416333333333334E+009;1.783785969018936E-001;-5.807419493794441E-002;5.832191673107445E-004;-2.875897800549865E-003;
2.416500000000000E+009;1.780651509761810E-001;-5.841720476746559E-002;4.195040964987129E-004;-2.921373350545764E-003;
2.416666666666667E+009;1.776023358106613E-001;-5.848951637744904E-002;2.250741963507608E-004;-2.814535750076175E-003;
2.416833333333334E+009;1.772826164960861E-001;-5.888120085000992E-002;2.107346081174910E-004;-2.938943682238460E-003;
2.417000000000000E+009;1.765333563089371E-001;-5.907500907778740E-002;1.017051181406714E-004;-2.824693452566862E-003;
2.417166666666667E+009;1.758754700422287E-001;-5.917976796627045E-002;-8.123817679006606E-005;-2.793843857944012E-003;
2.417333333333334E+009;1.751996725797653E-001;-5.937668681144714E-002;-1.700945140328258E-004;-2.709078602492809E-003;
2.417500000000000E+009;1.741877049207687E-001;-5.974153429269791E-002;-3.784458385780454E-004;-2.741185482591391E-003;
2.417666666666667E+009;1.734967082738876E-001;-5.997263640165329E-002;-4.998929798603058E-004;-2.704504178836942E-003;
2.417833333333334E+009;1.723191589117050E-001;-6.036255881190300E-002;-4.400406323838979E-004;-2.684148959815502E-003;
2.418000000000000E+009;1.714000999927521E-001;-6.085844710469246E-002;-5.115579697303474E-004;-2.485266653820872E-003;
2.418166666666667E+009;1.701404303312302E-001;-6.110581755638123E-002;-6.522385519929230E-004;-2.332771196961403E-003;
2.418333333333334E+009;1.693181097507477E-001;-6.170661002397537E-002;-8.133517694659531E-004;-2.299963729456067E-003;
2.418500000000000E+009;1.679954826831818E-001;-6.230723485350609E-002;-7.033753790892661E-004;-2.266943221911788E-003;
2.418666666666667E+009;1.668388396501541E-001;-6.293228268623352E-002;-9.575202711857855E-004;-2.278926316648722E-003;
2.418833333333334E+009;1.655967384576798E-001;-6.359326839447022E-002;-9.040614822879434E-004;-2.256779698655009E-003;
2.419000000000000E+009;1.641575098037720E-001;-6.448289752006531E-002;-1.013554865494371E-003;-2.192065352573991E-003;
2.419166666666667E+009;1.630026996135712E-001;-6.533555686473846E-002;-1.111487043090165E-003;-2.060323022305965E-003;
2.419333333333334E+009;1.616732478141785E-001;-6.605625152587891E-002;-1.147952280007303E-003;-1.937651424668729E-003;
2.419500000000000E+009;1.605053246021271E-001;-6.722561269998550E-002;-1.238320604898036E-003;-1.765588182024658E-003;
2.419666666666667E+009;1.592679917812347E-001;-6.834675371646881E-002;-1.136056496761739E-003;-1.809224020689726E-003;
2.419833333333334E+009;1.580642163753510E-001;-6.934349983930588E-002;-1.328492886386812E-003;-1.712591503746808E-003;
2.420000000000000E+009;1.570779085159302E-001;-7.055919617414475E-002;-1.504833926446736E-003;-1.553947571665049E-003;
2.420166666666667E+009;1.558206528425217E-001;-7.200129330158234E-002;-1.301887910813093E-003;-1.481950166635215E-003;
2.420333333333334E+009;1.551049798727036E-001;-7.329192757606506E-002;-1.349161146208644E-003;-1.340015325695276E-003;
2.420500000000000E+009;1.540719717741013E-001;-7.466984540224075E-002;-1.348638557828963E-003;-1.261228229850531E-003;
2.420666666666667E+009;1.531326472759247E-001;-7.591255754232407E-002;-1.290221465751529E-003;-1.175693352706730E-003;
2.420833333333334E+009;1.524323523044586E-001;-7.765231281518936E-002;-1.320557435974479E-003;-9.778162930160761E-004;
2.421000000000000E+009;1.515926867723465E-001;-7.935195416212082E-002;-1.390337012708187E-003;-1.031535328365862E-003;
2.421166666666667E+009;1.510252654552460E-001;-8.085811138153076E-002;-1.358500565402210E-003;-9.554898133501411E-004;
2.421333333333334E+009;1.505373567342758E-001;-8.250597864389420E-002;-1.258982345461845E-003;-6.969172391109169E-004;
2.421500000000000E+009;1.501143127679825E-001;-8.405454456806183E-002;-1.229085959494114E-003;-6.577498861588538E-004;
2.421666666666667E+009;1.497171968221664E-001;-8.562008291482925E-002;-1.151205156929791E-003;-5.660798633471131E-004;
2.421833333333334E+009;1.496430486440659E-001;-8.749397099018097E-002;-1.086054951883853E-003;-4.910969873890281E-004;
2.422000000000000E+009;1.492724418640137E-001;-8.906541764736176E-002;-9.320131503045559E-004;-4.324749752413482E-004;
2.422166666666667E+009;1.491445451974869E-001;-9.113530814647675E-002;-9.865509346127510E-004;-5.895186914131045E-004;
2.422333333333334E+009;1.492155343294144E-001;-9.253212809562683E-002;-1.056862762197852E-003;-2.508649195078760E-004;
2.422500000000000E+009;1.491883993148804E-001;-9.405998885631561E-002;-8.531390922144055E-004;-3.488608344923705E-004;
2.422666666666667E+009;1.495039314031601E-001;-9.575404226779938E-002;-6.770984618924558E-004;-4.113781324122101E-004;
2.422833333333334E+009;1.496285796165466E-001;-9.744813293218613E-002;-7.121885428205133E-004;-2.585431211628020E-004;
2.423000000000000E+009;1.500392407178879E-001;-9.900336712598801E-002;-6.827132892794907E-004;-2.968236512970179E-004;
2.423166666666667E+009;1.502779126167297E-001;-1.005506366491318E-001;-4.026959359180182E-004;-2.320181665709242E-004;
2.423333333333334E+009;1.508828103542328E-001;-1.019399240612984E-001;-3.896967391483486E-004;-2.354311000090092E-004;
2.423500000000000E+009;1.512124538421631E-001;-1.032305955886841E-001;-4.037929757032543E-004;-3.046798810828477E-004;
2.423666666666667E+009;1.515066772699356E-001;-1.046714335680008E-001;-3.966605872847140E-004;-1.917846821015701E-004;
2.423833333333334E+009;1.521431654691696E-001;-1.060484051704407E-001;-2.785303513519466E-004;-2.803248353302479E-004;
2.424000000000000E+009;1.526037007570267E-001;-1.072172522544861E-001;-1.761064631864429E-004;-2.386054111411795E-004;
2.424166666666667E+009;1.531531810760498E-001;-1.082827970385552E-001;-2.222667826572433E-004;-3.504692867863923E-004;
2.424333333333334E+009;1.537531167268753E-001;-1.092733815312386E-001;-1.132804536609910E-004;-3.440886794123799E-004;
2.424500000000000E+009;1.542051881551743E-001;-1.103182360529900E-001;-1.260594290215522E-004;-3.210813156329095E-004;
2.424666666666667E+009;1.547488868236542E-001;-1.110131368041039E-001;-2.266995725221932E-004;-3.136720915790647E-004;
2.424833333333334E+009;1.552436798810959E-001;-1.119255274534226E-001;4.741514567285776E-005;-4.447282117325813E-004;
2.425000000000000E+009;1.557284593582153E-001;-1.127542853355408E-001;2.515140658942983E-005;-5.828652065247297E-004;
2.425166666666667E+009;1.559787392616272E-001;-1.132829785346985E-001;-3.532053960952908E-005;-7.655850495211780E-004;
2.425333333333334E+009;1.563478857278824E-001;-1.139522045850754E-001;3.404681046959013E-005;-6.538601010106504E-004;
2.425500000000000E+009;1.568217575550079E-001;-1.144800707697868E-001;-2.562722329457756E-005;-7.299672579392791E-004;
2.425666666666667E+009;1.567701995372772E-001;-1.150343567132950E-001;1.035840177792125E-004;-9.670031140558422E-004;
2.425833333333334E+009;1.569899171590805E-001;-1.154483631253243E-001;5.991888974676840E-005;-8.182633901014924E-004;
2.426000000000000E+009;1.571675986051559E-001;-1.158926412463188E-001;-4.833896309719421E-005;-8.850964950397611E-004;
2.426166666666667E+009;1.572003364562988E-001;-1.160592436790466E-001;-1.531467860331759E-004;-9.444051538594067E-004;
2.426333333333334E+009;1.570893377065659E-001;-1.163368970155716E-001;1.126859278883785E-004;-1.083403243683279E-003;
2.426500000000000E+009;1.570316553115845E-001;-1.164811402559280E-001;-3.771165211219341E-005;-1.088950317353010E-003;
2.426666666666667E+009;1.568056195974350E-001;-1.165459454059601E-001;-1.231964270118624E-004;-8.664857596158981E-004;
2.426833333333334E+009;1.564075052738190E-001;-1.167772412300110E-001;-1.044325690600090E-004;-1.216055243276060E-003;
2.427000000000000E+009;1.559605896472931E-001;-1.169062554836273E-001;-3.148616233374924E-004;-1.251623616553843E-003;
2.427166666666667E+009;1.553018093109131E-001;-1.169530972838402E-001;-2.523783186916262E-004;-1.237415242940188E-003;
2.427333333333334E+009;1.546145826578140E-001;-1.171073839068413E-001;-2.085821324726567E-004;-1.241541234776378E-003;
2.427500000000000E+009;1.540594547986984E-001;-1.171079203486443E-001;-3.816375101450831E-004;-1.338257687166333E-003;
2.427666666666667E+009;1.530545502901077E-001;-1.173763722181320E-001;-5.721892812289298E-004;-1.288852305151522E-003;
