# Hz S RI R 
2400000000.0000000000 0.155427485704421997070312500000 0.106093078851699801345986884371 -0.002702077850699425177333212744 -0.003723500762134789986851357568 0 0 0 0 
2400166666.6666665077 0.155206128954887390136718750000 0.103734292089939103553852817186 -0.003177927574142814116237021338 -0.003538186429068446159362792969 0 0 0 0 
2400333333.3333334923 0.155328065156936701018963731258 0.101360596716404002815004048443 -0.003128396114334464073181152344 -0.003242538543418049812316894531 0 0 0 0 
2400500000.0000000000 0.155216529965400695800781250000 0.098723083734512329101562500000 -0.003274709917604922814610146631 -0.003032472450286149978637695312 0 0 0 0 
2400666666.6666665077 0.155376195907592801193075615629 0.096238620579242706298828125000 -0.003326162463054060935974121094 -0.002699259901419281959533691406 0 0 0 0 
2400833333.3333334923 0.155516266822814913650674384371 0.093282043933868408203125000000 -0.003437710925936698913574218750 -0.002532892394810914993286132812 0 0 0 0 
2401000000.0000000000 0.155480459332466097732705634371 0.090596601366996765136718750000 -0.003496341174468398094177246094 -0.002256910549476743178126669775 0 0 0 0 
2401166666.6666665077 0.155784651637077303787393134371 0.087826497852802276611328125000 -0.003286056453362106843235634912 -0.002126685809344052834751748193 0 0 0 0 
2401333333.3333334923 0.155872121453285189529580634371 0.084995456039905548095703125000 -0.003414572682231665091273642432 -0.001933321822434663989423442310 0 0 0 0 
2401500000.0000000000 0.156511962413787786285723768742 0.082237184047698974609375000000 -0.003333789994940162138697958838 -0.001756519312039017894147563403 0 0 0 0 
2401666666.6666665077 0.156965687870979309082031250000 0.079479962587356567382812500000 -0.003257193369790912108180380713 -0.001631188322789967060089111328 0 0 0 0 
2401833333.3333334923 0.157425507903099087814169365629 0.076681233942508697509765625000 -0.003197848331183195114135742188 -0.001683308742940426089643168872 0 0 0 0 
2402000000.0000000000 0.158327788114547701736611884371 0.073901280760765075683593750000 -0.003296043025329709053039550781 -0.001497281366027892069575644385 0 0 0 0 
2402166666.6666665077 0.159125342965126009842080634371 0.071433097124099731445312500000 -0.003339004470035434202906943213 -0.001488678273744880936266254956 0 0 0 0 
2402333333.3333334923 0.159933194518089294433593750000 0.068889930844306945800781250000 -0.003165771020576357841491699219 -0.001400621724314988093135214697 0 0 0 0 
2402500000.0000000000 0.161073908209800692459268134371 0.066293485462665557861328125000 -0.003320416668429971174952841650 -0.001435705111362040042877197266 0 0 0 0 
2402666666.6666665077 0.162392660975456210037393134371 0.064099468290805816650390625000 -0.003437270177528262138366699219 -0.001364404452033340930938720703 0 0 0 0 
2402833333.3333334923 0.163819938898086603362713731258 0.061392273753881447528879533593 -0.003407121635973453955409384619 -0.001262954086996614933013916016 0 0 0 0 
2403000000.0000000000 0.165076509118080111404580634371 0.059030801057815551757812500000 -0.003393286373466252846958779443 -0.001048830221407115893123007666 0 0 0 0 
2403166666.6666665077 0.166835874319076510330361884371 0.057111945003271102905273437500 -0.003615603083744645118713378906 -0.001168939168564975044847797925 0 0 0 0 
2403333333.3333334923 0.168282628059387207031250000000 0.054896116256713867187500000000 -0.003738009138032793998718261719 -0.000880108680576086044311523438 0 0 0 0 
2403500000.0000000000 0.169806718826294000823651231258 0.052806865423917770385742187500 -0.004003196954727172851562500000 -0.000667703978251665830612182617 0 0 0 0 
2403666666.6666665077 0.171484827995300292968750000000 0.051023736596107482910156250000 -0.003961878363043069839477539062 -0.000477544439490884488255101337 0 0 0 0 
2403833333.3333334923 0.173145040869712801834268134371 0.049252543598413467407226562500 -0.004056777805089951428885175488 -0.000143921803100965890005388803 0 0 0 0 
2404000000.0000000000 0.174527809023857088943643134371 0.047435965389013290405273437500 -0.003844634164124726815464638818 0.000078905199188739061355590820 0 0 0 0 
2404166666.6666665077 0.176385805010795593261718750000 0.045921333134174346923828125000 -0.003905670717358589172363281250 0.000444192643044516389996129169 0 0 0 0 
2404333333.3333334923 0.177968546748161288162393134371 0.044551402330398559570312500000 -0.003850494045764207839965820312 0.000574234349187463521957397461 0 0 0 0 
2404500000.0000000000 0.179638549685478210449218750000 0.043210085481405258178710937500 -0.003645994234830141067504882812 0.000859466032125055789947509766 0 0 0 0 
2404666666.6666665077 0.181276530027389498611611884371 0.042123585939407348632812500000 -0.003271335503086448149440146338 0.001284391270019114017486572266 0 0 0 0 
2404833333.3333334923 0.182719379663467407226562500000 0.041000273078680038452148437500 -0.003166624810546637015101767432 0.001228992943651973984361958081 0 0 0 0 
2405000000.0000000000 0.184079900383949307540731865629 0.040375806391239173198659528907 -0.003021290060132741928100585938 0.001400017179548739953282021631 0 0 0 0 
2405166666.6666665077 0.185650840401649502853231865629 0.039616007357835769653320312500 -0.002724627731367946104762411963 0.001617389614693820910212851416 0 0 0 0 
2405333333.3333334923 0.186962604522705105880575615629 0.039114765822887420654296875000 -0.002563947113230824904200888525 0.001718578860163689093348837744 0 0 0 0 
2405500000.0000000000 0.188295468688011197189169365629 0.038648605346679687500000000000 -0.002468779915943741798400878906 0.001749870949424803040148090894 0 0 0 0 
2405666666.6666665077 0.189517140388488797286825615629 0.038392111659049987792968750000 -0.002179520204663277106044150244 0.001709312666207551956176757812 0 0 0 0 
2405833333.3333334923 0.190771684050559997558593750000 0.038107935339212417602539062500 -0.002090709051117300987243652344 0.001699680346064269976374960791 0 0 0 0 
2406000000.0000000000 0.191749349236488286774005018742 0.037950884550809860229492187500 -0.001737952348776162104365683447 0.001553000882267951965332031250 0 0 0 0 
2406166666.6666665077 0.192707419395446805099325615629 0.037574946880340583110768903907 -0.001752807409502566077588725513 0.001563679892569779916050576318 0 0 0 0 
2406333333.3333334923 0.193570762872695895095986884371 0.037761207669973373413085937500 -0.001602176111191510937334370190 0.001598334638401865959167480469 0 0 0 0 
2406500000.0000000000 0.194307073950767489334268134371 0.037624370306730270385742187500 -0.001367406919598578973057412256 0.001690939883701503059984516675 0 0 0 0 
2406666666.6666665077 0.194912612438201904296875000000 0.037659987807273871684987653907 -0.001354254549369215965270996094 0.001462863059714436964747763525 0 0 0 0 
2406833333.3333334923 0.195252969861030606368856865629 0.037643093615770339965820312500 -0.001221408485434948964359902490 0.001549731474369763894322060693 0 0 0 0 
2407000000.0000000000 0.195668935775756808181924384371 0.037888150662183761596679687500 -0.001022218842990695996525429834 0.001553451409563421986223530347 0 0 0 0 
2407166666.6666665077 0.196087718009948702713174384371 0.037580277770757682109792341407 -0.000961477926466614007949829102 0.001316519104875623962999653394 0 0 0 0 
2407333333.3333334923 0.195854917168617304046307481258 0.037640284746885299682617187500 -0.000805524643510580062866210938 0.001284834695979953029035258716 0 0 0 0 
2407500000.0000000000 0.195815891027450589279013115629 0.037692025303840637207031250000 -0.000644619576632976531982421875 0.001133722136728465990779257666 0 0 0 0 
2407666666.6666665077 0.195821925997734097579794365629 0.037749849259853363037109375000 -0.000651277310680598020553588867 0.000948085275012999773025512695 0 0 0 0 
2407833333.3333334923 0.195360526442527798751669365629 0.037470042705535888671875000000 -0.000593022559769451618194580078 0.000845450151246041059494018555 0 0 0 0 
2408000000.0000000000 0.195198699831962613204794365629 0.037250697612762451171875000000 -0.000511495687533169984817504883 0.000818411179352551698684692383 0 0 0 0 
2408166666.6666665077 0.194580167531967190841513115629 0.036934226751327521587331403907 -0.000605225970502942800521850586 0.000607728783506900072097778320 0 0 0 0 
2408333333.3333334923 0.194197431206703213790731865629 0.036452941596508033061940778907 -0.000554161146283149719238281250 0.000500578316859900951385498047 0 0 0 0 
2408500000.0000000000 0.193462789058685302734375000000 0.036106009036302573467214216407 -0.000509975478053092956542968750 0.000483054376672953421443384991 0 0 0 0 
2408666666.6666665077 0.192818909883499201018963731258 0.035507362335920326923410783593 -0.000714185764081776142120361328 0.000408244435675442218780517578 0 0 0 0 
2408833333.3333334923 0.192050904035568209549111884371 0.034797873347997672344167341407 -0.000623554340563714504241943359 0.000180215050932020003169459210 0 0 0 0 
2409000000.0000000000 0.191213846206665011306924384371 0.033727485686540596698801408593 -0.000727558741346001625061035156 0.000242566631641238900736132211 0 0 0 0 
2409166666.6666665077 0.190266102552413912674111884371 0.032796025276184082031250000000 -0.000889045884832739830017089844 0.000212433049455285099431714468 0 0 0 0 
2409333333.3333334923 0.189254298806190490722656250000 0.031743288040161132812500000000 -0.001036378787830471992492675781 0.000138100149342790300219935284 0 0 0 0 
2409500000.0000000000 0.188260659575462313553018134371 0.030408140271902080881138985546 -0.001087661716155708052991557544 -0.000008288076969620306044816971 0 0 0 0 
2409666666.6666665077 0.187366932630538912674111884371 0.029100751504302028310755545704 -0.001024934346787631945369101416 0.000071579226641915738582611084 0 0 0 0 
2409833333.3333334923 0.186254993081092806717080634371 0.027526056393980979919433593750 -0.001265471801161766052246093750 0.000241299319895915687084197998 0 0 0 0 
2410000000.0000000000 0.185191810131072998046875000000 0.025914626196026798593541329296 -0.001265019527636467976811074365 0.000212313476367853609010419302 0 0 0 0 
2410166666.6666665077 0.184327393770217895507812500000 0.024082105606794360769251639454 -0.001375131658278406100032187354 0.000270940421614795923233032227 0 0 0 0 
2410333333.3333334923 0.183317124843597412109375000000 0.022317547351121898996373360546 -0.001346864621154963970184326172 0.000291897740680724382400512695 0 0 0 0 
2410500000.0000000000 0.182419225573539706131143134371 0.020523037761449810373326485546 -0.001282786601223051981685019385 0.000353527342667803222506922589 0 0 0 0 
2410666666.6666665077 0.181561931967735290527343750000 0.018120413646101951599121093750 -0.001184868742711842060089111328 0.000389776978408917784690856934 0 0 0 0 
2410833333.3333334923 0.180820807814598111251669365629 0.016070585697889331472376639454 -0.001218940247781574942945170825 0.000367638393072411417961120605 0 0 0 0 
2411000000.0000000000 0.180179163813591003417968750000 0.013790435157716270792027657421 -0.001196566270664334080339741284 0.000503898132592439651489257812 0 0 0 0 
2411166666.6666665077 0.179478719830513000488281250000 0.011574371717870240647285662305 -0.000939349411055445671081542969 0.000243963964749127599314013071 0 0 0 0 
2411333333.3333334923 0.179134309291839599609375000000 0.009359817020595073699951171875 -0.001144754118286072991014790112 0.000295667065074667280346470966 0 0 0 0 
2411500000.0000000000 0.178711608052253695388955634371 0.007012267597019672393798828125 -0.001112932572141289927838969653 0.000098515185527503490447998047 0 0 0 0 
2411666666.6666665077 0.178505346179008511642294365629 0.004462162498384714126586914062 -0.001178873586468399004695273291 -0.000012305778909649229182891352 0 0 0 0 
2411833333.3333334923 0.178326383233070401290731865629 0.002304930239915848212001181494 -0.001207182416692375919939350659 -0.000061190192354843020439147949 0 0 0 0 
2412000000.0000000000 0.178446874022483797928018134371 -0.000419956282712519223063868390 -0.001319229602813720919965434497 -0.000067290100560057908296585083 0 0 0 0 
2412166666.6666665077 0.178417295217514010330361884371 -0.002654472365975379943847656250 -0.001430118223652244047877646338 -0.000168153026606887606069287711 0 0 0 0 
2412333333.3333334923 0.178674519062042208572549384371 -0.005020549520850181579589843750 -0.001381869078613817908643413013 -0.000076080286817159503698348999 0 0 0 0 
2412500000.0000000000 0.179063513875007601638955634371 -0.007479126099497079849243164062 -0.001733854413032531955121684497 -0.000239034765399992493077954703 0 0 0 0 
2412666666.6666665077 0.179599642753601101974325615629 -0.009792886674404144287109375000 -0.002022040775045752959010458838 -0.000227527212700806612342280255 0 0 0 0 
2412833333.3333334923 0.180371344089508112151776231258 -0.012319378554821009200126447070 -0.002137551084160805182216025244 -0.000274863181402906775474548340 0 0 0 0 
2413000000.0000000000 0.181042358279228210449218750000 -0.014461993239820000040074532421 -0.002288286341354250907897949219 -0.000149386702105403000682276593 0 0 0 0 
2413166666.6666665077 0.181901410222053500076455634371 -0.016872387379407879220982735546 -0.002461354713886975808384560693 -0.000138463641633279594496050424 0 0 0 0 
2413333333.3333334923 0.182912632822990389724893134371 -0.018853865563869479787806326954 -0.002624488202854990959167480469 0.000189547674381174201339167462 0 0 0 0 
2413500000.0000000000 0.183771774172782897949218750000 -0.021080775186419490468958670704 -0.002889197319746017889735556494 0.000291959440801292712062281476 0 0 0 0 
2413666666.6666665077 0.184970378875732394119424384371 -0.023304937407374378549596016796 -0.002917827572673559188842773438 0.000564578629564493894577026367 0 0 0 0 
2413833333.3333334923 0.186024904251098605056924384371 -0.025153094902634620666503906250 -0.003049886785447597937342978369 0.000955406459979712963104248047 0 0 0 0 
2414000000.0000000000 0.187108010053634588043536268742 -0.027145752683281898498535156250 -0.003075227839872241020202636719 0.001049705431796609921696328271 0 0 0 0 
2414166666.6666665077 0.188367992639541598220986884371 -0.028874827548861500131627266796 -0.003203042782843112945556640625 0.001401322777383029894587851416 0 0 0 0 
2414333333.3333334923 0.189402699470519991775674384371 -0.030661204829812049865722656250 -0.003159161424264311790466308594 0.001748061389662324948551797021 0 0 0 0 
2414500000.0000000000 0.190731942653656005859375000000 -0.032182704657316207885742187500 -0.003071988467127085165736533057 0.001983186695724726156947470557 0 0 0 0 
2414666666.6666665077 0.191713243722915704925213731258 -0.033690143376588821411132812500 -0.002851163037121295928955078125 0.002385281724855304198024130713 0 0 0 0 
2414833333.3333334923 0.192977920174598693847656250000 -0.034958187490701682353932966407 -0.002694216324016451835632324219 0.002409783657640219168422079932 0 0 0 0 
2415000000.0000000000 0.193997859954834012130575615629 -0.036377355456352226947824846093 -0.002447177190333604812622070312 0.002656162716448307037353515625 0 0 0 0 
2415166666.6666665077 0.195098996162414606292401231258 -0.037292972207069396972656250000 -0.002322819549590349197387695312 0.002934129908680915832519531250 0 0 0 0 
2415333333.3333334923 0.196372523903846712967080634371 -0.038290992379188537597656250000 -0.002207382814958692030665732275 0.003074863692745565934422158350 0 0 0 0 
2415500000.0000000000 0.197318017482757596114950615629 -0.039007049053907387470285783593 -0.002023962559178471998927451025 0.003114617429673672156092978369 0 0 0 0 
2415666666.6666665077 0.198552221059799194335937500000 -0.039631921797990798950195312500 -0.001782856881618499972699809497 0.003087582066655158996582031250 0 0 0 0 
2415833333.3333334923 0.199273914098739596267861884371 -0.040406234562397003173828125000 -0.001736044418066740036010742188 0.003289216198027133941650390625 0 0 0 0 
2416000000.0000000000 0.200055673718452509124432481258 -0.041007395833730697631835937500 -0.001455403282307087941410683740 0.003355243010446428818943642725 0 0 0 0 
2416166666.6666665077 0.200710579752922113616619981258 -0.041520401835441589355468750000 -0.001329720020294190103646303491 0.003365305718034505844116210938 0 0 0 0 
2416333333.3333334923 0.201412469148635892013388115629 -0.041862532496452331542968750000 -0.001259801560081541971919394385 0.003450400894507766203639365088 0 0 0 0 
2416500000.0000000000 0.201823800802230807205361884371 -0.042101908475160598754882812500 -0.000927403569221496582031250000 0.003494886914268136024475097656 0 0 0 0 
2416666666.6666665077 0.202032819390296908279580634371 -0.042446568608283996582031250000 -0.000739281997084617614746093750 0.003411204321309924125671386719 0 0 0 0 
2416833333.3333334923 0.202303051948547391036825615629 -0.042363185435533516620676408593 -0.000590068870224058628082275391 0.003573580645024776892421103369 0 0 0 0 
2417000000.0000000000 0.202411562204360989669638115629 -0.042612742632627487182617187500 -0.000490784004796296358108520508 0.003553759306669234795811318506 0 0 0 0 
2417166666.6666665077 0.202115401625633211990518134371 -0.042526118457317352294921875000 -0.000235145213082432801097315656 0.003646770725026727156398154150 0 0 0 0 
2417333333.3333334923 0.201799929141998291015625000000 -0.042402412742376327514648437500 -0.000017354139345115978607927629 0.003508672351017593903782509912 0 0 0 0 
2417500000.0000000000 0.201520621776580810546875000000 -0.042450599372386932373046875000 0.000135482667246833389431553973 0.003604710334911942915675497900 0 0 0 0 
2417666666.6666665077 0.200976788997650201995526231258 -0.042230084538459777832031250000 0.000324219901813194209903162823 0.003645064309239387945887900244 0 0 0 0 
2417833333.3333334923 0.200530454516410799881143134371 -0.042126234620809561992604841407 0.000591975636780261993408203125 0.003398379543796182112452841650 0 0 0 0 
2418000000.0000000000 0.199853271245956393142861884371 -0.041967593133449547504465471093 0.000719254720024764537811279297 0.003370775142684578895568847656 0 0 0 0 
2418166666.6666665077 0.199030816555023193359375000000 -0.041941508650779717182199846093 0.000858851592056453227996826172 0.003242303384467958970310830225 0 0 0 0 
2418333333.3333334923 0.198198676109313992599325615629 -0.041758205741643912578542341407 0.000989045714959502220153808594 0.003194229910150169892552041162 0 0 0 0 
2418500000.0000000000 0.197238519787788391113281250000 -0.041823484003543846820871721093 0.001254395814612508036969829028 0.003222046885639429092407226562 0 0 0 0 
2418666666.6666665077 0.196313098073005704025106865629 -0.041623406112194061279296875000 0.001353046391159296035766601562 0.003216977696865797042846679688 0 0 0 0 
2418833333.3333334923 0.195057034492492703536825615629 -0.041995111852884292602539062500 0.001397660817019640965702675928 0.002934059826657176017761230469 0 0 0 0 
2419000000.0000000000 0.193743631243705805022869981258 -0.042236607521772391582448591407 0.001461543142795562960981059497 0.002765917452052236037013388525 0 0 0 0 
2419166666.6666665077 0.192536413669586209396200615629 -0.042548347264528281475026716407 0.001535341027192771001103066553 0.002580540254712104797363281250 0 0 0 0 
2419333333.3333334923 0.191101700067520113845986884371 -0.043112605810165412212331403907 0.001682790112681687095044780200 0.002472278429195284843444824219 0 0 0 0 
2419500000.0000000000 0.189613103866577203948651231258 -0.043549481779336929321289062500 0.001729586161673069000244140625 0.002410971093922853903529501807 0 0 0 0 
2419666666.6666665077 0.188036561012268094161825615629 -0.044213693588972091674804687500 0.001842595404013990922215127100 0.002129080472514032883885048975 0 0 0 0 
2419833333.3333334923 0.186382323503494290450888115629 -0.044969905167818069458007812500 0.001744482317008078098297119141 0.001934893080033361911773681641 0 0 0 0 
