# Version 1.00
#
freq[Hz];re:Trc1_S11;im:Trc1_S11;re:Trc2_S21;im:Trc2_S21;
2.400000000000000E+009;1.732615232467651E-001;4.941654950380325E-002;3.106876974925399E-003;-5.298675503581762E-003;
2.400166666666667E+009;1.736380159854889E-001;4.911419749259949E-002;3.143484471365809E-003;-5.823286715894938E-003;
2.400333333333334E+009;1.747907102108002E-001;4.861255735158920E-002;2.358677797019482E-003;-6.281791254878044E-003;
2.400500000000000E+009;1.732864379882813E-001;4.733068495988846E-002;2.865663962438703E-003;-5.800410639494658E-003;
2.400666666666667E+009;1.746356040239334E-001;4.713390767574310E-002;2.172627486288548E-003;-6.351349875330925E-003;
2.400833333333334E+009;1.750667840242386E-001;4.599672555923462E-002;1.485019805841148E-003;-6.273378618061543E-003;
2.401000000000000E+009;1.759863197803497E-001;4.567299038171768E-002;9.263664833270013E-004;-6.914737634360790E-003;
2.401166666666667E+009;1.762852370738983E-001;4.509995132684708E-002;6.494883564300835E-004;-7.075197063386440E-003;
2.401333333333334E+009;1.764201372861862E-001;4.347486048936844E-002;-2.581376465968788E-004;-6.574310828000307E-003;
2.401500000000000E+009;1.763464063405991E-001;4.360467195510864E-002;-1.015616580843926E-004;-6.919662933796644E-003;
2.401666666666667E+009;1.758292764425278E-001;4.313129186630249E-002;-2.938641409855336E-004;-6.841078866273165E-003;
2.401833333333334E+009;1.760516613721848E-001;4.238846153020859E-002;-6.297139916568995E-004;-6.932653486728668E-003;
2.402000000000000E+009;1.752087622880936E-001;4.112004116177559E-002;-1.314749708399177E-003;-6.515257526189089E-003;
2.402166666666667E+009;1.752484440803528E-001;3.992664813995361E-002;-1.408153213560581E-003;-6.380567327141762E-003;
2.402333333333334E+009;1.745362877845764E-001;3.899087756872177E-002;-2.026311354711652E-003;-5.972770974040031E-003;
2.402500000000000E+009;1.748305261135101E-001;3.807164356112480E-002;-2.415322698652744E-003;-6.096445955336094E-003;
2.402666666666667E+009;1.747097522020340E-001;3.714168816804886E-002;-2.742324024438858E-003;-6.021010689437389E-003;
2.402833333333334E+009;1.743550598621368E-001;3.601733595132828E-002;-2.971097594127059E-003;-5.689297337085009E-003;
2.403000000000000E+009;1.740014553070068E-001;3.466961160302162E-002;-3.458603285253048E-003;-5.457095336169004E-003;
2.403166666666667E+009;1.739135831594467E-001;3.319510072469711E-002;-3.819380654022098E-003;-5.154541693627834E-003;
2.403333333333334E+009;1.734944283962250E-001;3.199993446469307E-002;-4.006555769592524E-003;-4.858673084527254E-003;
2.403500000000000E+009;1.728578656911850E-001;3.034697659313679E-002;-4.230334423482418E-003;-4.563533235341311E-003;
2.403666666666667E+009;1.727022230625153E-001;2.866910956799984E-002;-4.504406824707985E-003;-4.070554394274950E-003;
2.403833333333334E+009;1.724079847335815E-001;2.688819356262684E-002;-4.440863616764545E-003;-3.574554808437824E-003;
2.404000000000000E+009;1.720388382673264E-001;2.517917566001415E-002;-4.590223077684641E-003;-3.255475079640746E-003;
2.404166666666667E+009;1.716383546590805E-001;2.330593392252922E-002;-4.729542415589094E-003;-2.781192539259791E-003;
2.404333333333334E+009;1.713798642158508E-001;2.162477932870388E-002;-4.584827460348606E-003;-2.356360666453838E-003;
2.404500000000000E+009;1.708759516477585E-001;1.951955258846283E-002;-4.623714834451675E-003;-2.029092749580741E-003;
2.404666666666667E+009;1.707788109779358E-001;1.767794229090214E-002;-4.618395585566759E-003;-1.546397572383285E-003;
2.404833333333334E+009;1.703884601593018E-001;1.581275835633278E-002;-4.601926542818546E-003;-1.060669310390949E-003;
2.405000000000000E+009;1.703835576772690E-001;1.365019287914038E-002;-4.292002879083157E-003;-9.995459113270044E-004;
2.405166666666667E+009;1.701604127883911E-001;1.166113279759884E-002;-4.030064214020968E-003;-6.851037614978850E-004;
2.405333333333334E+009;1.702213138341904E-001;9.554527699947357E-003;-3.939689602702856E-003;-4.256391257513315E-004;
2.405500000000000E+009;1.703562438488007E-001;7.671965751796961E-003;-3.746023867279291E-003;-2.391752495896071E-004;
2.405666666666667E+009;1.705335825681686E-001;5.682551302015781E-003;-3.493379801511765E-003;2.079128171317279E-005;
2.405833333333334E+009;1.705516874790192E-001;3.630332183092833E-003;-3.212823299691081E-003;1.890236162580550E-004;
2.406000000000000E+009;1.707946211099625E-001;1.345368800684810E-003;-2.949853893369436E-003;2.199115115217865E-004;
2.406166666666667E+009;1.709904521703720E-001;-3.014790127053857E-004;-2.766365418210626E-003;3.862773010041565E-004;
2.406333333333334E+009;1.716432720422745E-001;-2.487707417458296E-003;-2.507582772523165E-003;4.629525938071311E-004;
2.406500000000000E+009;1.719349473714829E-001;-4.423469305038452E-003;-2.364720450714231E-003;3.372763749212027E-004;
2.406666666666667E+009;1.723609268665314E-001;-6.362018175423145E-003;-2.023301087319851E-003;4.011111741419882E-004;
2.406833333333334E+009;1.730841398239136E-001;-8.357161656022072E-003;-1.897223293781281E-003;4.922018852084875E-004;
2.407000000000000E+009;1.736649274826050E-001;-1.025631837546825E-002;-1.695225131697953E-003;4.478809132706374E-004;
2.407166666666667E+009;1.743149161338806E-001;-1.207139529287815E-002;-1.517582219094038E-003;3.573675057850778E-004;
2.407333333333334E+009;1.749173998832703E-001;-1.390036568045616E-002;-1.410648692399263E-003;3.494372940622270E-004;
2.407500000000000E+009;1.757130324840546E-001;-1.566836610436440E-002;-1.214132760651410E-003;1.429090916644782E-004;
2.407666666666667E+009;1.764813661575317E-001;-1.728264987468720E-002;-1.110767596401274E-003;1.821006007958204E-004;
2.407833333333334E+009;1.770566105842590E-001;-1.890161074697971E-002;-9.830928174778819E-004;-1.748364447848871E-004;
2.408000000000000E+009;1.777847707271576E-001;-2.055908739566803E-002;-9.367771563120186E-004;-2.962141588795930E-004;
2.408166666666667E+009;1.785674840211868E-001;-2.189027331769466E-002;-8.237409056164324E-004;-2.345393877476454E-004;
2.408333333333334E+009;1.794544607400894E-001;-2.335391566157341E-002;-8.863735129125416E-004;-5.868276348337531E-004;
2.408500000000000E+009;1.799503862857819E-001;-2.477260679006577E-002;-9.475657716393471E-004;-6.828441401012242E-004;
2.408666666666667E+009;1.807062923908234E-001;-2.585857175290585E-002;-9.860222926363349E-004;-7.563906256109476E-004;
2.408833333333334E+009;1.811597049236298E-001;-2.712753973901272E-002;-9.151126723736525E-004;-1.026489888317883E-003;
2.409000000000000E+009;1.814659684896469E-001;-2.817697264254093E-002;-1.074595144018531E-003;-1.002939417958260E-003;
2.409166666666667E+009;1.821398288011551E-001;-2.915134280920029E-002;-1.073951367288828E-003;-1.188051654025912E-003;
2.409333333333334E+009;1.825906336307526E-001;-2.995828725397587E-002;-1.216291449964047E-003;-1.221078098751605E-003;
2.409500000000000E+009;1.827865839004517E-001;-3.090089559555054E-002;-1.337628462351859E-003;-1.402032910846174E-003;
2.409666666666667E+009;1.831755489110947E-001;-3.162440657615662E-002;-1.590939238667488E-003;-1.432155375368893E-003;
2.409833333333334E+009;1.833403706550598E-001;-3.189503401517868E-002;-1.573301735334098E-003;-1.465169130824506E-003;
2.410000000000000E+009;1.837429553270340E-001;-3.255253657698631E-002;-1.871567568741739E-003;-1.508899265900254E-003;
2.410166666666667E+009;1.837610006332398E-001;-3.298076614737511E-002;-2.091262256726623E-003;-1.515559735707939E-003;
2.410333333333334E+009;1.838759183883667E-001;-3.340000659227371E-002;-2.062335144728422E-003;-1.588515704497695E-003;
2.410500000000000E+009;1.839817613363266E-001;-3.376651182770729E-002;-2.379896817728877E-003;-1.356089720502496E-003;
2.410666666666667E+009;1.839257180690765E-001;-3.408041968941689E-002;-2.534769941121340E-003;-1.530287787318230E-003;
2.410833333333334E+009;1.836712360382080E-001;-3.422350436449051E-002;-2.785406773909926E-003;-1.414179452694953E-003;
2.411000000000000E+009;1.833276152610779E-001;-3.453152999281883E-002;-3.003409830853343E-003;-1.360264141112566E-003;
2.411166666666667E+009;1.830628365278244E-001;-3.502214327454567E-002;-3.189435228705406E-003;-9.698871872387826E-004;
2.411333333333334E+009;1.826344281435013E-001;-3.542438521981239E-002;-3.446330083534122E-003;-8.047773735597730E-004;
2.411500000000000E+009;1.820902824401856E-001;-3.575155511498451E-002;-3.521085483953357E-003;-6.495662382803857E-004;
2.411666666666667E+009;1.815592050552368E-001;-3.616967797279358E-002;-3.625074401497841E-003;-4.999066004529595E-004;
2.411833333333334E+009;1.809366345405579E-001;-3.655051067471504E-002;-3.778132377192378E-003;-3.150503034703434E-004;
2.412000000000000E+009;1.801516860723496E-001;-3.686928004026413E-002;-3.881687531247735E-003;1.161753243650310E-004;
2.412166666666667E+009;1.790552586317062E-001;-3.744188696146011E-002;-3.876514500007033E-003;4.004050861112773E-004;
2.412333333333334E+009;1.783261150121689E-001;-3.794509917497635E-002;-3.760989988222718E-003;5.659154267050326E-004;
2.412500000000000E+009;1.772453039884567E-001;-3.832355141639710E-002;-3.615145105868578E-003;9.306986466981471E-004;
2.412666666666667E+009;1.762628406286240E-001;-3.930585831403732E-002;-3.776186378672719E-003;1.160211977548897E-003;
2.412833333333334E+009;1.749891191720963E-001;-3.996206820011139E-002;-3.525368869304657E-003;1.477884128689766E-003;
2.413000000000000E+009;1.738058775663376E-001;-4.080137237906456E-002;-3.306761616840959E-003;1.864076475612819E-003;
2.413166666666667E+009;1.724935919046402E-001;-4.144306480884552E-002;-3.196175908669829E-003;2.097174292430282E-003;
2.413333333333334E+009;1.710812747478485E-001;-4.242362827062607E-002;-2.814132953062654E-003;2.230808371677995E-003;
2.413500000000000E+009;1.699986159801483E-001;-4.352107271552086E-002;-2.794752828776836E-003;2.455441281199455E-003;
2.413666666666667E+009;1.687952131032944E-001;-4.450091719627380E-002;-2.484189346432686E-003;2.545185387134552E-003;
2.413833333333334E+009;1.672044247388840E-001;-4.571518674492836E-002;-2.068361500278115E-003;2.623084234073758E-003;
2.414000000000000E+009;1.658508479595184E-001;-4.702049493789673E-002;-1.784188672900200E-003;2.884542103856802E-003;
2.414166666666667E+009;1.649198681116104E-001;-4.807611554861069E-002;-1.567519269883633E-003;2.815839368849993E-003;
2.414333333333334E+009;1.634016335010529E-001;-4.953696206212044E-002;-1.212568604387343E-003;2.666004700586200E-003;
2.414500000000000E+009;1.626467257738113E-001;-5.089372023940086E-002;-8.968781330622733E-004;2.545739058405161E-003;
2.414666666666667E+009;1.612505465745926E-001;-5.233145877718926E-002;-7.334677502512932E-004;2.601378131657839E-003;
2.414833333333334E+009;1.601473242044449E-001;-5.422556400299072E-002;-3.270042361691594E-004;2.453532069921494E-003;
2.415000000000000E+009;1.590117365121841E-001;-5.574670061469078E-002;-3.427207120694220E-004;2.217556349933147E-003;
2.415166666666667E+009;1.581542193889618E-001;-5.740988254547119E-002;-3.471274249022827E-005;2.127277432009578E-003;
2.415333333333334E+009;1.573346257209778E-001;-5.909389629960060E-002;3.706237475853413E-005;1.954004634171724E-003;
2.415500000000000E+009;1.566077768802643E-001;-6.098429113626480E-002;2.370721776969731E-004;1.620034803636372E-003;
2.415666666666667E+009;1.557851731777191E-001;-6.280408799648285E-002;2.620922168716788E-004;1.427404466085136E-003;
2.415833333333334E+009;1.552363634109497E-001;-6.463900208473206E-002;2.884108398575336E-004;1.274339156225324E-003;
2.416000000000000E+009;1.544687896966934E-001;-6.657177209854126E-002;3.206533729098737E-004;1.246158615685999E-003;
2.416166666666667E+009;1.541572958230972E-001;-6.855716556310654E-002;3.742918197531253E-004;1.065592281520367E-003;
2.416333333333334E+009;1.535902172327042E-001;-7.043571025133133E-002;3.063332987949252E-004;9.108899394050241E-004;
2.416500000000000E+009;1.532492041587830E-001;-7.236361503601074E-002;4.544735711533576E-004;7.746355258859694E-004;
2.416666666666667E+009;1.527918428182602E-001;-7.428946346044540E-002;1.262447331100702E-004;5.287703825160861E-004;
2.416833333333334E+009;1.526618152856827E-001;-7.633487135171890E-002;2.752766304183751E-004;4.999468801543117E-004;
2.417000000000000E+009;1.523086726665497E-001;-7.809334993362427E-002;2.503284486010671E-004;3.257019561715424E-004;
2.417166666666667E+009;1.522240787744522E-001;-7.991029322147369E-002;6.386490713339299E-005;2.703018544707447E-004;
2.417333333333334E+009;1.522714346647263E-001;-8.169849216938019E-002;2.414401969872415E-004;2.161224256269634E-004;
2.417500000000000E+009;1.521466225385666E-001;-8.353889733552933E-002;5.331067222869024E-005;-2.447937913530041E-005;
2.417666666666667E+009;1.522678285837174E-001;-8.496655523777008E-002;-7.490989810321480E-005;-9.292325557908043E-006;
2.417833333333334E+009;1.523777842521668E-001;-8.654385060071945E-002;1.010547639452852E-004;-1.836441660998389E-004;
2.418000000000000E+009;1.523311138153076E-001;-8.813088387250900E-002;-9.328627493232489E-005;-3.400897840037942E-004;
2.418166666666667E+009;1.523785293102264E-001;-8.937784284353256E-002;-6.243408279260621E-005;-4.183467535767704E-004;
2.418333333333334E+009;1.528824269771576E-001;-9.070877730846405E-002;-1.229465124197304E-005;-4.240528505761176E-004;
2.418500000000000E+009;1.528455317020416E-001;-9.175548702478409E-002;-3.271372697781771E-004;-7.004525978118181E-004;
2.418666666666667E+009;1.532915830612183E-001;-9.289309382438660E-002;-4.604603454936296E-004;-6.760699907317758E-004;
2.418833333333334E+009;1.532014310359955E-001;-9.393553435802460E-002;-6.660283543169498E-004;-7.873240974731743E-004;
2.419000000000000E+009;1.534894406795502E-001;-9.482405334711075E-002;-7.593543268740177E-004;-1.006277510896325E-003;
2.419166666666667E+009;1.538228392601013E-001;-9.535328298807144E-002;-9.506930946372449E-004;-1.119537628255785E-003;
2.419333333333334E+009;1.537354439496994E-001;-9.580317139625549E-002;-1.179546350613236E-003;-1.039555761963129E-003;
2.419500000000000E+009;1.539983600378037E-001;-9.652586281299591E-002;-1.441530766896904E-003;-1.106238225474954E-003;
2.419666666666667E+009;1.542968750000000E-001;-9.698999673128128E-002;-1.574878348037601E-003;-1.108749303966761E-003;
2.419833333333334E+009;1.543761938810349E-001;-9.704457968473434E-002;-1.967313000932336E-003;-1.046905177645385E-003;
2.420000000000000E+009;1.544506698846817E-001;-9.720383584499359E-002;-2.214163774624467E-003;-1.009697443805635E-003;
2.420166666666667E+009;1.545790880918503E-001;-9.725961089134216E-002;-2.477949950844050E-003;-9.466222254559398E-004;
2.420333333333334E+009;1.546138375997543E-001;-9.739040583372116E-002;-2.550187986344099E-003;-8.146733744069934E-004;
2.420500000000000E+009;1.547476053237915E-001;-9.704577177762985E-002;-2.794322557747364E-003;-6.977498414926231E-004;
2.420666666666667E+009;1.545998752117157E-001;-9.688821434974670E-002;-3.187955822795630E-003;-5.194415571168065E-004;
2.420833333333334E+009;1.544984430074692E-001;-9.690242260694504E-002;-3.328372957184911E-003;-3.368959296494722E-004;
2.421000000000000E+009;1.542276144027710E-001;-9.648101776838303E-002;-3.406707197427750E-003;-6.769769970560446E-005;
2.421166666666667E+009;1.540579348802567E-001;-9.614823758602142E-002;-3.647170495241880E-003;1.755050034262240E-004;
2.421333333333334E+009;1.537388712167740E-001;-9.609244763851166E-002;-3.658354980871081E-003;4.550572484731674E-004;
2.421500000000000E+009;1.531917601823807E-001;-9.563414752483368E-002;-4.066634923219681E-003;6.241347291506827E-004;
2.421666666666667E+009;1.527597755193710E-001;-9.520775824785233E-002;-4.045002162456513E-003;1.062092371284962E-003;
2.421833333333334E+009;1.522178351879120E-001;-9.511457383632660E-002;-4.035875201225281E-003;1.281861099414527E-003;
2.422000000000000E+009;1.514718085527420E-001;-9.468084573745728E-002;-4.102949984371662E-003;1.628650468774140E-003;
2.422166666666667E+009;1.508240401744843E-001;-9.457449615001679E-002;-4.099358338862658E-003;1.985589042305946E-003;
2.422333333333334E+009;1.499112695455551E-001;-9.412524104118347E-002;-4.111076239496470E-003;2.272889250889421E-003;
2.422500000000000E+009;1.488806158304215E-001;-9.381593018770218E-002;-4.163508303463459E-003;2.624116139486432E-003;
2.422666666666667E+009;1.475375443696976E-001;-9.378957003355026E-002;-3.984026610851288E-003;3.139975713565946E-003;
2.422833333333334E+009;1.467422693967819E-001;-9.362534433603287E-002;-3.775803837925196E-003;3.443689551204443E-003;
2.423000000000000E+009;1.454168856143951E-001;-9.369100630283356E-002;-3.781173611059785E-003;3.702820744365454E-003;
2.423166666666667E+009;1.441749036312103E-001;-9.362976998090744E-002;-3.531572408974171E-003;3.936516121029854E-003;
2.423333333333334E+009;1.428530812263489E-001;-9.327886998653412E-002;-3.430853830650449E-003;4.174292553216219E-003;
2.423500000000000E+009;1.414422690868378E-001;-9.372542053461075E-002;-3.102378454059362E-003;4.581174347549677E-003;
2.423666666666667E+009;1.396747827529907E-001;-9.383960068225861E-002;-2.834843238815665E-003;4.856646060943604E-003;
2.423833333333334E+009;1.382883489131928E-001;-9.405014663934708E-002;-2.453032415360212E-003;4.953720141202211E-003;
2.424000000000000E+009;1.369308531284332E-001;-9.437398612499237E-002;-2.317723818123341E-003;5.193481221795082E-003;
2.424166666666667E+009;1.353045552968979E-001;-9.473526477813721E-002;-1.775722834281623E-003;5.532131530344486E-003;
2.424333333333334E+009;1.338387429714203E-001;-9.526000916957855E-002;-1.558282063342631E-003;5.556578747928143E-003;
2.424500000000000E+009;1.324191242456436E-001;-9.582823514938355E-002;-1.267882646061480E-003;5.706697702407837E-003;
2.424666666666667E+009;1.310250759124756E-001;-9.637340158224106E-002;-8.248665835708380E-004;5.828003399074078E-003;
2.424833333333334E+009;1.293280124664307E-001;-9.712220728397369E-002;-4.461595672182739E-004;5.840159021317959E-003;
2.425000000000000E+009;1.281363815069199E-001;-9.804699569940567E-002;-1.246633910341188E-004;5.958885885775089E-003;
2.425166666666667E+009;1.265319883823395E-001;-9.898034483194351E-002;2.852125617209822E-004;5.895822774618864E-003;
2.425333333333334E+009;1.253709346055985E-001;-1.000047475099564E-001;6.307784351520240E-004;5.783190950751305E-003;
2.425500000000000E+009;1.242415755987167E-001;-1.010885089635849E-001;1.007551327347755E-003;5.654498469084501E-003;
2.425666666666667E+009;1.229034885764122E-001;-1.024069488048554E-001;1.189566333778203E-003;5.738067906349897E-003;
2.425833333333334E+009;1.218931078910828E-001;-1.035406887531281E-001;1.516563701443374E-003;5.489007569849491E-003;
2.426000000000000E+009;1.209018230438232E-001;-1.050147414207459E-001;1.789287314750254E-003;5.350238643586636E-003;
2.426166666666667E+009;1.201681271195412E-001;-1.064217239618301E-001;2.008343115448952E-003;5.041740834712982E-003;
2.426333333333334E+009;1.190986558794975E-001;-1.079109013080597E-001;2.384167863056064E-003;5.007326137274504E-003;
2.426500000000000E+009;1.185333132743835E-001;-1.094473525881767E-001;2.742644166573882E-003;4.669464193284512E-003;
2.426666666666667E+009;1.178380995988846E-001;-1.108911633491516E-001;2.788155572488904E-003;4.475454799830914E-003;
2.426833333333334E+009;1.171824708580971E-001;-1.124903783202171E-001;2.927942434325814E-003;4.322119057178497E-003;
2.427000000000000E+009;1.165740713477135E-001;-1.141235604882240E-001;3.172878408804536E-003;4.102045670151711E-003;
2.427166666666667E+009;1.160568222403526E-001;-1.155700758099556E-001;3.373077372089028E-003;3.897968446835876E-003;
2.427333333333334E+009;1.157090961933136E-001;-1.172878444194794E-001;3.336911555379629E-003;3.480191808193922E-003;
2.427500000000000E+009;1.153987869620323E-001;-1.189006268978119E-001;3.354755695909262E-003;3.323807381093502E-003;
2.427666666666667E+009;1.151855513453484E-001;-1.204661652445793E-001;3.486555535346270E-003;3.040765412151814E-003;
