# Hz S RI R 
2400000000.0000000000 0.155443727970123291015625000000 0.106633886694908100456480326557 0.002023791661486030058619833838 -0.003245618427172303199768066406 0 0 0 0 
2400166666.6666665077 0.154999822378158597091513115629 0.104229755699634593635316548443 0.001997681567445396943333291162 -0.002982647158205509185791015625 0 0 0 0 
2400333333.3333334923 0.155198484659195001800213731258 0.101856529712677001953125000000 0.001873646979220211939570761572 -0.002948919543996452851536416162 0 0 0 0 
2400500000.0000000000 0.154958739876747103592080634371 0.099134311079978942871093750000 0.001940021058544516997096396338 -0.002670780755579472021815634619 0 0 0 0 
2400666666.6666665077 0.155110120773315401931924384371 0.096614770591259002685546875000 0.001976505154743791060206747900 -0.002737279748544096946716308594 0 0 0 0 
2400833333.3333334923 0.154952570796012906173544365629 0.093749210238456726074218750000 0.002081852871924639181849814307 -0.002551164245232940153834677588 0 0 0 0 
2401000000.0000000000 0.155046030879020690917968750000 0.090899236500263214111328125000 0.002263747388496994972229003906 -0.002731892280280590057373046875 0 0 0 0 
2401166666.6666665077 0.154900982975959805587606865629 0.088163815438747406005859375000 0.002411680994555354118347167969 -0.002432990353554486794712685693 0 0 0 0 
2401333333.3333334923 0.155404165387153597732705634371 0.085298024117946624755859375000 0.002530276542529464201686240088 -0.002584426663815975189208984375 0 0 0 0 
2401500000.0000000000 0.155879139900207491775674384371 0.082428984344005584716796875000 0.002535978099331260161158896338 -0.002616304904222487969639443506 0 0 0 0 
2401666666.6666665077 0.156163290143013000488281250000 0.079540163278579711914062500000 0.002777111018076539039611816406 -0.002937389304861425919773720850 0 0 0 0 
2401833333.3333334923 0.156581982970237704178018134371 0.076821938157081604003906250000 0.002809623721987009048461914062 -0.003124350449070334000828408350 0 0 0 0 
2402000000.0000000000 0.157288074493408203125000000000 0.074392281472682952880859375000 0.002793006366118789152858115088 -0.003344750730320810837986611475 0 0 0 0 
2402166666.6666665077 0.158324226737022399902343750000 0.071547098457813262939453125000 0.002811978803947567939758300781 -0.003535006660968064828159951318 0 0 0 0 
2402333333.3333334923 0.159095495939254788497763115629 0.068905018270015716552734375000 0.002805679105222225189208984375 -0.003849959466606378988978720557 0 0 0 0 
2402500000.0000000000 0.160267695784568786621093750000 0.066308945417404174804687500000 0.002663992810994387106654501807 -0.004125132691115140914916992188 0 0 0 0 
2402666666.6666665077 0.161330148577690096756143134371 0.064017832279205322265625000000 0.002498747315257788138148642432 -0.004026021342724561691284179688 0 0 0 0 
2402833333.3333334923 0.162477135658264187911825615629 0.061531376093626022338867187500 0.002307069487869739966151572119 -0.004341695457696914672851562500 0 0 0 0 
2403000000.0000000000 0.164203971624374389648437500000 0.059299726039171218872070312500 0.002312353812158108191249228369 -0.004526271019130945205688476562 0 0 0 0 
2403166666.6666665077 0.165816202759742709060830634371 0.056957606226205832744557966407 0.002126229461282492117640829932 -0.004678022116422653198242187500 0 0 0 0 
2403333333.3333334923 0.167321100831031799316406250000 0.054916027933359153057057966407 0.001751147327013313987134623950 -0.004756642505526542663574218750 0 0 0 0 
2403500000.0000000000 0.168954327702522305587606865629 0.052689932286739349365234375000 0.001673263148404658057569194263 -0.004911704454571008682250976562 0 0 0 0 
2403666666.6666665077 0.170867159962654113769531250000 0.050897214561700820922851562500 0.001401526620611547990086220850 -0.005029399879276753339285566113 0 0 0 0 
2403833333.3333334923 0.172351360321044894119424384371 0.048939444124698638916015625000 0.001330800121650099971173930591 -0.005078142974525690078735351562 0 0 0 0 
2404000000.0000000000 0.174016445875167902190838731258 0.047422055155038826679270158593 0.001044929958879948096034384619 -0.005094090942293406400198652051 0 0 0 0 
2404166666.6666665077 0.175796940922737093826455634371 0.045733585953712463378906250000 0.000960296718403697013854980469 -0.005123883485794067382812500000 0 0 0 0 
2404333333.3333334923 0.177414864301681490799111884371 0.044201891869306557392160783593 0.000728425162378698587417602539 -0.005207047332078219327444745801 0 0 0 0 
2404500000.0000000000 0.179146468639373807052450615629 0.043054979294538497924804687500 0.000636850076261907815933227539 -0.005115928594022989273071289062 0 0 0 0 
2404666666.6666665077 0.180727511644363403320312500000 0.041849330067634582519531250000 0.000518827175255864858627319336 -0.005130380392074584960937500000 0 0 0 0 
2404833333.3333334923 0.182582601904869107345419365629 0.040820010006427771831472028907 0.000339435180649161284596043719 -0.005320666357874870300292968750 0 0 0 0 
2405000000.0000000000 0.183943539857864407638388115629 0.040088765323162078857421875000 0.000052053928811801597476005554 -0.005368009675294160842895507812 0 0 0 0 
2405166666.6666665077 0.185373261570930508712606865629 0.039445795118808753276784528907 -0.000057192941312678158283233643 -0.005442410241812467575073242188 0 0 0 0 
2405333333.3333334923 0.186856344342231805999432481258 0.038890883326530456542968750000 -0.000232685211813077303484240121 -0.005387353245168924331665039062 0 0 0 0 
2405500000.0000000000 0.188222795724868802169638115629 0.038459058851003646850585937500 -0.000494125066325068473815917969 -0.005443756468594074249267578125 0 0 0 0 
2405666666.6666665077 0.189548343420028686523437500000 0.038160972297191619873046875000 -0.000835868064314126968383789062 -0.005375598557293415069580078125 0 0 0 0 
2405833333.3333334923 0.190799117088317898849325615629 0.037769034504890441894531250000 -0.000899485079571604728698730469 -0.005510853137820959091186523438 0 0 0 0 
2406000000.0000000000 0.191843196749687194824218750000 0.037692721933126449584960937500 -0.001298296381719409985783242334 -0.005311257205903530120849609375 0 0 0 0 
2406166666.6666665077 0.192819729447364807128906250000 0.037479255348443991924245466407 -0.001541239791549742004991840894 -0.005195822101086378097534179688 0 0 0 0 
2406333333.3333334923 0.193700432777404812911825615629 0.037508722394704818725585937500 -0.001641724025830626921412802588 -0.005115885753184556961059570312 0 0 0 0 
2406500000.0000000000 0.194474250078201293945312500000 0.037643034011125571514089216407 -0.001798468525521456978441547925 -0.005193301010876893997192382812 0 0 0 0 
2406666666.6666665077 0.195116862654686001876669365629 0.037606664001941680908203125000 -0.001947526005096734003779745947 -0.004976998548954725265502929688 0 0 0 0 
2406833333.3333334923 0.195556372404098510742187500000 0.037764709442853927612304687500 -0.002167866798117756843566894531 -0.004950118251144886016845703125 0 0 0 0 
2407000000.0000000000 0.195844843983650207519531250000 0.038011908531188971782643903907 -0.002428801497444510893580771338 -0.004730299580842257413382245801 0 0 0 0 
2407166666.6666665077 0.196332797408103887359942518742 0.037808623164892196655273437500 -0.002486539771780372099635458838 -0.004571068100631237030029296875 0 0 0 0 
2407333333.3333334923 0.196245819330215509612713731258 0.037860061973333358764648437500 -0.002735392889007925987243652344 -0.004601716063916683197021484375 0 0 0 0 
2407500000.0000000000 0.196284458041191101074218750000 0.038110092282295227050781250000 -0.002599595347419381141662597656 -0.004415766336023808392996503613 0 0 0 0 
2407666666.6666665077 0.196347072720527704436932481258 0.037947792559862136840820312500 -0.002755923429504036903381347656 -0.004426655359566211700439453125 0 0 0 0 
2407833333.3333334923 0.195719987154007013518963731258 0.037856839597225189208984375000 -0.002710801316425203843357705225 -0.004270270466804504394531250000 0 0 0 0 
2408000000.0000000000 0.195612713694572504241619981258 0.037801846861839287494699846093 -0.003099867608398199081420898438 -0.004174929577857255935668945312 0 0 0 0 
2408166666.6666665077 0.195191115140914889236611884371 0.037462353706359863281250000000 -0.002943865954875946044921875000 -0.003840381279587746100184775244 0 0 0 0 
2408333333.3333334923 0.194698110222816495040731865629 0.037118855863809592510182966407 -0.003255035262554883956909179688 -0.003897890914231539206263876807 0 0 0 0 
2408500000.0000000000 0.194076120853424100021200615629 0.036727439612150192260742187500 -0.003191870637238026098964072119 -0.003727519186213612990138388525 0 0 0 0 
2408666666.6666665077 0.193419039249420193771200615629 0.036182221025228500366210937500 -0.003380697453394532203674316406 -0.003697060747072101073024130713 0 0 0 0 
2408833333.3333334923 0.192659869790077209472656250000 0.035541791468858718872070312500 -0.003279764438048005104064941406 -0.003529860870912671089172363281 0 0 0 0 
2409000000.0000000000 0.191871657967567388336505018742 0.034544158726930618286132812500 -0.003341515548527241186854697119 -0.003358532674610615210292197119 0 0 0 0 
2409166666.6666665077 0.190907433629036005218182481258 0.033525276929140090942382812500 -0.003562323981896042823791503906 -0.003438276937231421904322958838 0 0 0 0 
2409333333.3333334923 0.189949393272399902343750000000 0.032491929829120642925222028907 -0.003559138858690857887268066406 -0.003171475138515233993530273438 0 0 0 0 
2409500000.0000000000 0.188850060105323791503906250000 0.031235013157129291189173514454 -0.003601013915613294081446982275 -0.003161412430927156968357705225 0 0 0 0 
2409666666.6666665077 0.187831565737724304199218750000 0.029864033684134479867955391796 -0.003631566651165484948399209131 -0.002920480910688639120814658057 0 0 0 0 
2409833333.3333334923 0.186894550919532803634481865629 0.028185982257127758371373360546 -0.003718168009072542190551757812 -0.002893712837249041037318564307 0 0 0 0 
2410000000.0000000000 0.185862585902214105804119981258 0.026606250554323199880579764454 -0.003696486819535493850708007812 -0.002767487894743680953979492188 0 0 0 0 
2410166666.6666665077 0.184883370995521600921307481258 0.024739291518926620483398437500 -0.003704928560182452201843261719 -0.002671109978109598159790039062 0 0 0 0 
2410333333.3333334923 0.183848932385444613357705634371 0.022840615361928939819335937500 -0.003568984335288404984715127100 -0.002576366765424609184265136719 0 0 0 0 
2410500000.0000000000 0.182783722877502413650674384371 0.021184513345360759389857108204 -0.003746774513274430794956826318 -0.002398254116997123198268271338 0 0 0 0 
2410666666.6666665077 0.181972280144691495040731865629 0.018750043585896488534947579296 -0.003779680933803319931030273438 -0.002207987708970903916599892725 0 0 0 0 
2410833333.3333334923 0.181171253323554992675781250000 0.016659835353493690490722656250 -0.003674312494695187048671103369 -0.002304753521457314924952841650 0 0 0 0 
2411000000.0000000000 0.180431395769119290450888115629 0.014201204292476180685023123829 -0.003737193299457430839538574219 -0.002140710130333900885341025244 0 0 0 0 
2411166666.6666665077 0.179855108261108398437500000000 0.012154874391853809356689453125 -0.003813389688730239868164062500 -0.002016702201217412948608398438 0 0 0 0 
2411333333.3333334923 0.179318770766258211990518134371 0.009588778950273990631103515625 -0.003822234459221363067626953125 -0.002115288749337195916416787256 0 0 0 0 
2411500000.0000000000 0.178675308823585510253906250000 0.007210091222077608108520507812 -0.003830418689176439805271767725 -0.001933720894157886938807822119 0 0 0 0 
2411666666.6666665077 0.178487271070480402190838731258 0.004973322618752717971801757812 -0.003681123955175281004664755713 -0.002052853116765617890598916162 0 0 0 0 
2411833333.3333334923 0.178266242146492004394531250000 0.002564987167716025872471474756 -0.003794600255787373022792197119 -0.001882046810351311943651508862 0 0 0 0 
2412000000.0000000000 0.178510427474975613693075615629 -0.000277262675808742588192540302 -0.003873436711728572845458984375 -0.001974951010197401046752929688 0 0 0 0 
2412166666.6666665077 0.178565636277198791503906250000 -0.002542376052588223977329873193 -0.003936161752790212631225585938 -0.001977635081857442855834960938 0 0 0 0 
2412333333.3333334923 0.178579151630401611328125000000 -0.005052483640611171722412109375 -0.003968894015997648239135742188 -0.002019647508859633965733193506 0 0 0 0 
2412500000.0000000000 0.179028034210205105880575615629 -0.007266904227435588836669921875 -0.004166357684880495071411132812 -0.002016899175941944122314453125 0 0 0 0 
2412666666.6666665077 0.179688915610313387771768134371 -0.009941697120666503906250000000 -0.004177014343440532684326171875 -0.001893516862764955000636435400 0 0 0 0 
2412833333.3333334923 0.180404484272003201583700615629 -0.012372808530926699202567853320 -0.004372775088995695114135742188 -0.001825221581384540037867880713 0 0 0 0 
2413000000.0000000000 0.181124165654182406326455634371 -0.014645343646407130849818045704 -0.004521929658949375152587890625 -0.001724780537188052914263081128 0 0 0 0 
2413166666.6666665077 0.181874111294746398925781250000 -0.017053885385394099843958670704 -0.004604469984769821166992187500 -0.001707405899651349024531699072 0 0 0 0 
2413333333.3333334923 0.182932138442993191818075615629 -0.019322011619806289672851562500 -0.004811587743461132049560546875 -0.001633588806726039106484438257 0 0 0 0 
2413500000.0000000000 0.183838397264480590820312500000 -0.021652037277817729604700858204 -0.005021838936954736709594726562 -0.001457980135455728010890341650 0 0 0 0 
2413666666.6666665077 0.185102224349975613693075615629 -0.023809643462300300598144531250 -0.005162705667316913604736328125 -0.001196917495690285942674946362 0 0 0 0 
2413833333.3333334923 0.185909748077392605880575615629 -0.025788087397813800466517264454 -0.005234469193965196609497070312 -0.001064376556314527988433837891 0 0 0 0 
2414000000.0000000000 0.187255233526229886154013115629 -0.027885375544428828847864920704 -0.005416844971477985382080078125 -0.000780543196015059947967529297 0 0 0 0 
2414166666.6666665077 0.188571155071258489410723768742 -0.029611358419060710561732108204 -0.005395466927438974380493164062 -0.000534219143446534872055053711 0 0 0 0 
2414333333.3333334923 0.189677745103836087325888115629 -0.031572829931974411010742187500 -0.005533115006983280181884765625 -0.000283735804259777123301905499 0 0 0 0 
2414500000.0000000000 0.190788611769676208496093750000 -0.032992441207170493389089216407 -0.005490549840033054351806640625 -0.000108402135083451894208630972 0 0 0 0 
2414666666.6666665077 0.192065358161926297286825615629 -0.034550245851278311992604841407 -0.005470360163599252700805664062 0.000211883481824770596906384879 0 0 0 0 
2414833333.3333334923 0.193347230553626986404580634371 -0.035887908190488822246511091407 -0.005494692362844944000244140625 0.000169221922988072010591784067 0 0 0 0 
2415000000.0000000000 0.194190695881843594650106865629 -0.037300825119018561626393903907 -0.005330589599907398223876953125 0.000465975899714976603358668195 0 0 0 0 
2415166666.6666665077 0.195649176836013793945312500000 -0.038367427885532379150390625000 -0.005382017232477664947509765625 0.000577550847083330154418945312 0 0 0 0 
2415333333.3333334923 0.196703195571899386306924384371 -0.039438024163246161724050153907 -0.005432646721601486206054687500 0.000944488681852817535400390625 0 0 0 0 
2415500000.0000000000 0.197692722082138089279013115629 -0.039884530007839202880859375000 -0.005463011562824249267578125000 0.001021073316223918957951211084 0 0 0 0 
2415666666.6666665077 0.198805585503578213790731865629 -0.040918447077274322509765625000 -0.005280325654894114408011152051 0.001190601382404566027997661060 0 0 0 0 
2415833333.3333334923 0.199632897973060607910156250000 -0.041410837322473532939870466407 -0.005159602500498294830322265625 0.001385236042551696083666157300 0 0 0 0 
2416000000.0000000000 0.200422242283821105957031250000 -0.042024310678243637084960937500 -0.005261065438389778137207031250 0.001553296693600713989855122144 0 0 0 0 
2416166666.6666665077 0.201168835163116510589276231258 -0.042608831077814102172851562500 -0.005101612769067286577706621387 0.001751987729221581979038857568 0 0 0 0 
2416333333.3333334923 0.201655164361000088790731865629 -0.042799137532711029052734375000 -0.005174132529646158218383789062 0.001882420037873089096666645581 0 0 0 0 
2416500000.0000000000 0.202298611402511596679687500000 -0.043116133660078048706054687500 -0.005032667890191078186035156250 0.002089174231514335112330771338 0 0 0 0 
2416666666.6666665077 0.202528581023216303069744981258 -0.043366752564907067035715471093 -0.004882057197391986846923828125 0.002221978968009353117701865088 0 0 0 0 
2416833333.3333334923 0.202572196722030611892861884371 -0.043434623628854751586914062500 -0.004806939046829938888549804688 0.002310181036591529846191406250 0 0 0 0 
2417000000.0000000000 0.202728658914566012283486884371 -0.043483097106218338012695312500 -0.004769473336637020111083984375 0.002591041149571537971496582031 0 0 0 0 
2417166666.6666665077 0.202415838837623596191406250000 -0.043341316282749182964284528907 -0.004779019393026828765869140625 0.002641623374074697928187704932 0 0 0 0 
2417333333.3333334923 0.202191159129142788986044365629 -0.043122086673974990844726562500 -0.004538743756711483001708984375 0.002824011025950313048121786963 0 0 0 0 
2417500000.0000000000 0.202011153101921109298544365629 -0.043168280273675918579101562500 -0.004516921471804380416870117188 0.003010064130648971037623740088 0 0 0 0 
2417666666.6666665077 0.201394602656364413162393134371 -0.042813792824745178222656250000 -0.004248498473316431045532226562 0.003157986328005791144130087744 0 0 0 0 
2417833333.3333334923 0.201006874442100497146768134371 -0.042569477111101150512695312500 -0.004033594392240048322195722363 0.003232291666790843009948730469 0 0 0 0 
2418000000.0000000000 0.200385034084320096114950615629 -0.042295642197132110595703125000 -0.003968883305788040161132812500 0.003340681083500384850742959131 0 0 0 0 
2418166666.6666665077 0.199526071548461886306924384371 -0.042256012558937072753906250000 -0.003809736110270022912266396631 0.003587034530937672095057822119 0 0 0 0 
2418333333.3333334923 0.198642656207084711272869981258 -0.042080037295818328857421875000 -0.003552780020982027053833007812 0.003496741177514195008518838037 0 0 0 0 
2418500000.0000000000 0.197558924555778503417968750000 -0.042119666934013366699218750000 -0.003424132009968162016627646338 0.003696335013955831961390829932 0 0 0 0 
2418666666.6666665077 0.196552351117134094238281250000 -0.041953969746828079223632812500 -0.003200789913535118103027343750 0.003763218410313128991367959131 0 0 0 0 
2418833333.3333334923 0.195316538214683504959268134371 -0.042179167270660400390625000000 -0.003045600373297930197474814307 0.003724862821400165991542197119 0 0 0 0 
2419000000.0000000000 0.193954870104789706131143134371 -0.042383950203657150268554687500 -0.002875294070690869851353310693 0.003588428255170584158656454932 0 0 0 0 
2419166666.6666665077 0.192688569426536587814169365629 -0.042648781090974807739257812500 -0.002727712504565715789794921875 0.003501955186948180198669433594 0 0 0 0 
2419333333.3333334923 0.191242232918739291092080634371 -0.043160017579793930053710937500 -0.002516512991860508918762207031 0.003559616161510347886326455225 0 0 0 0 
2419500000.0000000000 0.189853861927986200530682481258 -0.043577987700700759887695312500 -0.002530911471694707870483398438 0.003352917032316327095031738281 0 0 0 0 
2419666666.6666665077 0.188170939683914212325888115629 -0.044341795146465301513671875000 -0.002510449150577187971827841650 0.003346791490912437005283974756 0 0 0 0 
2419833333.3333334923 0.186441466212272588531817518742 -0.044979590922594070434570312500 -0.002541733672842382951023720850 0.003261166624724864959716796875 0 0 0 0 
