# Hz S RI R 
2400000000.0000000000 0.155109688639640808105468750000 0.106404922902584103683309990629 0.001889262348413466973545693506 -0.003451891243457794189453125000 0 0 0 0 
2400166666.6666665077 0.154672905802726801116619981258 0.103969261050224304199218750000 0.001858281204476952986476279150 -0.003186667570844293074366904150 0 0 0 0 
2400333333.3333334923 0.154780358076095608810263115629 0.101531647145748096794370951557 0.001871911808848381042480468750 -0.002946366090327500863316201318 0 0 0 0 
2400500000.0000000000 0.154662281274795504470986884371 0.098933190107345581054687500000 0.001928383368067442937138222803 -0.002791779581457376913783408057 0 0 0 0 
2400666666.6666665077 0.154789268970489501953125000000 0.096496641635894775390625000000 0.001917297951877116940141987378 -0.002732520224526524977443076025 0 0 0 0 
2400833333.3333334923 0.154587134718894986251669365629 0.093578033149242401123046875000 0.001994106220081448988673544775 -0.002649197587743401961085654150 0 0 0 0 
2401000000.0000000000 0.154786363244056701660156250000 0.090606443583965301513671875000 0.002215533982962369918823242188 -0.002691359026357531981227255713 0 0 0 0 
2401166666.6666665077 0.154684513807296808440838731258 0.087822303175926208496093750000 0.002244902309030293984654091943 -0.002525913761928677992579794775 0 0 0 0 
2401333333.3333334923 0.155108779668808011154013115629 0.085118807852268218994140625000 0.002348926616832613945007324219 -0.002725999103859066963195800781 0 0 0 0 
2401500000.0000000000 0.155402705073356600662393134371 0.082242280244827270507812500000 0.002606278518214821815490722656 -0.002795833628624678091761923682 0 0 0 0 
2401666666.6666665077 0.155819922685623196700888115629 0.079340584576129913330078125000 0.002636445686221123175380087744 -0.002833077916875482039210654150 0 0 0 0 
2401833333.3333334923 0.156150475144386291503906250000 0.076783217489719390869140625000 0.002730209846049547195434570312 -0.003083806019276380972621298682 0 0 0 0 
2402000000.0000000000 0.156998977065086392501669365629 0.074006304144859313964843750000 0.002717014402151107788085937500 -0.003434472484514116807224892725 0 0 0 0 
2402166666.6666665077 0.157861426472663907150106865629 0.071320898830890655517578125000 0.002574396319687366919276572119 -0.003697204869240521950962685693 0 0 0 0 
2402333333.3333334923 0.158799514174461392501669365629 0.068786360323429107666015625000 0.002793977968394755883457802881 -0.003856396302580833001377724756 0 0 0 0 
2402500000.0000000000 0.159919872879981994628906250000 0.066152848303318023681640625000 0.002698328578844666914698935400 -0.003989979624748229980468750000 0 0 0 0 
2402666666.6666665077 0.161053106188774108886718750000 0.063839547336101531982421875000 0.002464530058205128149745322119 -0.004253843799233436584472656250 0 0 0 0 
2402833333.3333334923 0.162458598613739013671875000000 0.061406549066305160522460937500 0.002255647210404276847839355469 -0.004514249972999095916748046875 0 0 0 0 
2403000000.0000000000 0.163925841450691195388955634371 0.059209160506725311279296875000 0.002129936125129460854771279443 -0.004694397095590829849243164062 0 0 0 0 
2403166666.6666665077 0.165518209338188199142294365629 0.056891664862632751464843750000 0.001926075085066258907318115234 -0.004882936831563711166381835938 0 0 0 0 
2403333333.3333334923 0.167052015662193298339843750000 0.054786574095487601543386091407 0.001607856014743447086931538159 -0.004853340331465005874633789062 0 0 0 0 
2403500000.0000000000 0.168710380792617797851562500000 0.052770681679248809814453125000 0.001499665435403585000279091943 -0.004942668601870536804199218750 0 0 0 0 
2403666666.6666665077 0.170536994934082003494424384371 0.050869662314653396606445312500 0.001334610162302851893781352466 -0.004994462709873914718627929688 0 0 0 0 
2403833333.3333334923 0.172214716672897311111611884371 0.049004234373569488525390625000 0.001012784545309842066523886572 -0.005083376076072455319876386426 0 0 0 0 
2404000000.0000000000 0.173720389604568509200888115629 0.047275580465793609619140625000 0.000968039152212440967559814453 -0.004833340179175139340872480176 0 0 0 0 
2404166666.6666665077 0.175558969378471402267294365629 0.045816414058208472515065778907 0.000532315811142325401306152344 -0.005076023284345865249633789062 0 0 0 0 
2404333333.3333334923 0.177202686667442294021768134371 0.044313468039035797119140625000 0.000655689276754856109619140625 -0.005140364635735750198364257812 0 0 0 0 
2404500000.0000000000 0.178868353366851806640625000000 0.043007176369428641582448591407 0.000343708205036818981170654297 -0.005073170177638530731201171875 0 0 0 0 
2404666666.6666665077 0.180500805377960205078125000000 0.041871141642332077026367187500 0.000257055566180497407913208008 -0.005113679450005292892456054688 0 0 0 0 
2404833333.3333334923 0.182263791561126708984375000000 0.040675338357687003398854841407 0.000287631526589393615722656250 -0.005290245171636343002319335938 0 0 0 0 
2405000000.0000000000 0.183510735630989102462606865629 0.040225889533758163452148437500 -0.000048217825678875669836997986 -0.005298915319144725799560546875 0 0 0 0 
2405166666.6666665077 0.185017183423042297363281250000 0.039377804845571517944335937500 -0.000244863244006410186916905536 -0.005342582706362009048461914062 0 0 0 0 
2405333333.3333334923 0.186518058180808993240518134371 0.039001259952783591533620466407 -0.000557094172108918428421020508 -0.005420866422355175018310546875 0 0 0 0 
2405500000.0000000000 0.187958553433418301681356865629 0.038500405848026282573659528907 -0.000764573167543858289718627930 -0.005306928884238004684448242188 0 0 0 0 
2405666666.6666665077 0.189179137349128695388955634371 0.038061346858739852905273437500 -0.000847631366923451423645019531 -0.005295997951179742813110351562 0 0 0 0 
2405833333.3333334923 0.190512329339981106857138115629 0.037970814853906631469726562500 -0.001087868702597915909410786206 -0.005326390266418457031250000000 0 0 0 0 
2406000000.0000000000 0.191500693559646606445312500000 0.037764452397823326801340471093 -0.001333645777776836915257119287 -0.005323227029293776425833417676 0 0 0 0 
2406166666.6666665077 0.192439317703247098068075615629 0.037591230124235153198242187500 -0.001472155563533305904985737378 -0.005382251925766468048095703125 0 0 0 0 
2406333333.3333334923 0.193326577544212313553018134371 0.037665676325559623027761091407 -0.001805023639462888023973774487 -0.005095539614558219909667968750 0 0 0 0 
2406500000.0000000000 0.194100558757782010177450615629 0.037772770971059799194335937500 -0.001997017068788408799412392725 -0.004888863768428564071655273438 0 0 0 0 
2406666666.6666665077 0.194816783070564297775106865629 0.037807606160640716552734375000 -0.002013740362599492073059082031 -0.004924349952489137649536132812 0 0 0 0 
2406833333.3333334923 0.195305824279785211761151231258 0.037894219160079962993581403907 -0.002377103548496962027308798682 -0.004873136989772319793701171875 0 0 0 0 
2407000000.0000000000 0.195587277412414606292401231258 0.038011286407709121704101562500 -0.002471765968948603110072470557 -0.004596071317791938781738281250 0 0 0 0 
2407166666.6666665077 0.196074560284614590743856865629 0.037889160215854651714284528907 -0.002543192589655518965480185400 -0.004563773982226848602294921875 0 0 0 0 
2407333333.3333334923 0.196094378829002408126669365629 0.038082726299762732768972028907 -0.002699234988540410995483398438 -0.004410855937749147415161132812 0 0 0 0 
2407500000.0000000000 0.195962876081466702560263115629 0.038284029811620712280273437500 -0.002806738251820207075831747900 -0.004249995108693838119506835938 0 0 0 0 
2407666666.6666665077 0.195975303649902288238848768742 0.038181167095899581909179687500 -0.002948996610939503149745322119 -0.004179996903985738754272460938 0 0 0 0 
2407833333.3333334923 0.195610210299491910079794365629 0.038069244474172592163085937500 -0.002987770363688468933105468750 -0.004032131750136613845825195312 0 0 0 0 
2408000000.0000000000 0.195416867733001708984375000000 0.037915598601102828979492187500 -0.003029368119314312934875488281 -0.003760810941457747979405068506 0 0 0 0 
2408166666.6666665077 0.194925129413604708572549384371 0.037587594240903847431223283593 -0.003211165545508265928981161963 -0.003839958691969513893127441406 0 0 0 0 
2408333333.3333334923 0.194546103477477999588174384371 0.037285666912794113159179687500 -0.003261987352743744850158691406 -0.003772861789911984963657998193 0 0 0 0 
2408500000.0000000000 0.193789601325988797286825615629 0.037022188305854797363281250000 -0.003203254658728837966918945312 -0.003644092939794064001796103369 0 0 0 0 
2408666666.6666665077 0.193275973200798006912393134371 0.036338962614536292339284528907 -0.003288277657702565193176269531 -0.003386910771951078934910439600 0 0 0 0 
2408833333.3333334923 0.192483186721801813323651231258 0.035595364868640899658203125000 -0.003253184724599123001098632812 -0.003356059314683080153224326025 0 0 0 0 
2409000000.0000000000 0.191668376326561001876669365629 0.034697066992521292949636091407 -0.003389825113117694854736328125 -0.003216717625036836104152060400 0 0 0 0 
2409166666.6666665077 0.190742388367652893066406250000 0.033770795911550521850585937500 -0.003315893234685062928440713037 -0.003179817227646708922145224463 0 0 0 0 
2409333333.3333334923 0.189784646034240694900674384371 0.032902523875236511230468750000 -0.003472475335001945929286337744 -0.003080699592828751044032431494 0 0 0 0 
2409500000.0000000000 0.188690379261970492263955634371 0.031449146568775177001953125000 -0.003666392527520657019374228369 -0.002863645087927579879760742188 0 0 0 0 
2409666666.6666665077 0.187782049179077203948651231258 0.029995938763022419321080391796 -0.003648894140496850013732910156 -0.002865558722987771034240722656 0 0 0 0 
2409833333.3333334923 0.186726510524749811370526231258 0.028586603701114661479909528907 -0.003622900461778045134303427588 -0.002649862784892321066615439307 0 0 0 0 
2410000000.0000000000 0.185850426554679898361044365629 0.026974841952323910104771798046 -0.003633377375081181959864951025 -0.002491526072844862937927246094 0 0 0 0 
2410166666.6666665077 0.184579506516456604003906250000 0.024940161034464839590052420704 -0.003716022707521915002110146631 -0.002451454522088170051574707031 0 0 0 0 
2410333333.3333334923 0.183688834309577886383380018742 0.023233847692608829843541329296 -0.003774909069761633872985839844 -0.002381980419158935980555868994 0 0 0 0 
2410500000.0000000000 0.182656258344650296310263115629 0.021395143121480938303013985546 -0.003815390868112444877624511719 -0.002297997474670410156250000000 0 0 0 0 
2410666666.6666665077 0.181773200631141690353231865629 0.019092418253421779977818673046 -0.003776953555643558935878134619 -0.002205479890108108954188681494 0 0 0 0 
2410833333.3333334923 0.181076109409332303146200615629 0.016833592206239700317382812500 -0.003746111644431949095485068213 -0.002009492367506026787998818506 0 0 0 0 
2411000000.0000000000 0.180221229791641207595986884371 0.014450707472860809671422188671 -0.003687504213303327994105673682 -0.002050968585535883903503417969 0 0 0 0 
2411166666.6666665077 0.179690003395080594161825615629 0.012431668117642399179478829296 -0.003751260461285709901096963037 -0.001893600798211992003797221606 0 0 0 0 
2411333333.3333334923 0.179210826754570007324218750000 0.009925236925482749938964843750 -0.003605286125093698935267783057 -0.001940694870427251078962016528 0 0 0 0 
2411500000.0000000000 0.178892433643341092208700615629 0.007392208557575941085815429688 -0.003620192175731062889099121094 -0.001967856660485268072841025244 0 0 0 0 
2411666666.6666665077 0.178399637341499300857705634371 0.005020683165639638900756835938 -0.003656979184597731070277548682 -0.001861100434325634999516152490 0 0 0 0 
2411833333.3333334923 0.178120493888855008224325615629 0.002791735809296369986293173682 -0.003603760153055191040039062500 -0.001914374530315398953081440503 0 0 0 0 
2412000000.0000000000 0.178405821323394803146200615629 0.000122624216601252610057276593 -0.003739779116585851149318076025 -0.001938265282660722949384379810 0 0 0 0 
2412166666.6666665077 0.178564682602882413009481865629 -0.002232561353594065146205283057 -0.003804755397140980200526572119 -0.002031337236985563798191689600 0 0 0 0 
2412333333.3333334923 0.178563520312309292892294365629 -0.004847967531532049179077148438 -0.003933571279048919677734375000 -0.001906977850012480995775532300 0 0 0 0 
2412500000.0000000000 0.179196223616600008865518134371 -0.007320748176425695419311523438 -0.003912616986781358718872070312 -0.001934513915330172018763876807 0 0 0 0 
2412666666.6666665077 0.179679930210113497635049384371 -0.009786570444703102111816406250 -0.004052643664181233319754316113 -0.001823006197810173034667968750 0 0 0 0 
2412833333.3333334923 0.180469602346420288085937500000 -0.012231843546032910782783709180 -0.004134551156312227249145507812 -0.001852238783612846894505166162 0 0 0 0 
2413000000.0000000000 0.181167796254157992263955634371 -0.014567566104233270127266131055 -0.004456143360584974288940429688 -0.001784621388651431040522910010 0 0 0 0 
2413166666.6666665077 0.181839317083358792404013115629 -0.016814203932881358755091483204 -0.004660950042307376861572265625 -0.001716019003652035973192524487 0 0 0 0 
2413333333.3333334923 0.182796835899352999588174384371 -0.019122501835227009164830391796 -0.004892027005553246411795331738 -0.001594483968801796002628945459 0 0 0 0 
2413500000.0000000000 0.183809697628021212478799384371 -0.021479219198226928710937500000 -0.005010100547224283218383789062 -0.001464583678171039061305380713 0 0 0 0 
2413666666.6666665077 0.185020416975021390060263115629 -0.023638783022761348379114920704 -0.005007688887417315569405840137 -0.001224812236614525101305317456 0 0 0 0 
2413833333.3333334923 0.186074092984199496170205634371 -0.025509307160973548889160156250 -0.005159933585673570632934570312 -0.001072708051651716015459370190 0 0 0 0 
2414000000.0000000000 0.187233880162239102462606865629 -0.027770044282078739511510079296 -0.005386687349528074264526367188 -0.000840099994093179702758789062 0 0 0 0 
2414166666.6666665077 0.188464671373367309570312500000 -0.029626080766320228576660156250 -0.005415314342826604843139648438 -0.000631002534646540880203247070 0 0 0 0 
2414333333.3333334923 0.189527601003646906097088731258 -0.031525984406471252441406250000 -0.005409023724496364593505859375 -0.000296253885608166510432642804 0 0 0 0 
2414500000.0000000000 0.190858379006385803222656250000 -0.032883215695619583129882812500 -0.005334776826202869415283203125 -0.000134270798298530307695111685 0 0 0 0 
2414666666.6666665077 0.191956132650375393966513115629 -0.034496318548917770385742187500 -0.005245889071375131607055664062 0.000107498563011176897726874080 0 0 0 0 
2414833333.3333334923 0.193208679556846590896768134371 -0.035715196281671517108957658593 -0.005271221976727247238159179688 0.000347711698850616812705993652 0 0 0 0 
2415000000.0000000000 0.194315716624260004241619981258 -0.037081435322761542583425153907 -0.005169715266674757003784179688 0.000462782365502789616584777832 0 0 0 0 
2415166666.6666665077 0.195611000061035211761151231258 -0.038209486752748489379882812500 -0.005241327453404664993286132812 0.000603142660111188888549804688 0 0 0 0 
2415333333.3333334923 0.196733742952346801757812500000 -0.039222303777933120727539062500 -0.005297674331814050674438476562 0.000852926692459732294082641602 0 0 0 0 
2415500000.0000000000 0.197848573327064486404580634371 -0.039916507899761199951171875000 -0.005426596850156784057617187500 0.000975415576249361038208007812 0 0 0 0 
2415666666.6666665077 0.198929861187934903243856865629 -0.040816027671098709106445312500 -0.005230684764683246612548828125 0.001205307198688388087629008716 0 0 0 0 
2415833333.3333334923 0.199733734130859402755575615629 -0.041433095932006842876393903907 -0.005110258236527442932128906250 0.001362005015835165977478027344 0 0 0 0 
2416000000.0000000000 0.200430676341056795974893134371 -0.042038697749376296997070312500 -0.004973772913217545423025800488 0.001480812439695001082179404150 0 0 0 0 
2416166666.6666665077 0.201204508543014498611611884371 -0.042590182274580001831054687500 -0.005011466797441244125366210938 0.001731863711029290936113667065 0 0 0 0 
2416333333.3333334923 0.201785087585449190994424384371 -0.042827922850847237323801408593 -0.004943481180816888809204101562 0.001887476188130676963208842700 0 0 0 0 
2416500000.0000000000 0.202358812093734713455361884371 -0.042997673153877258300781250000 -0.004883745685219764709472656250 0.002064787549898027940037392725 0 0 0 0 
2416666666.6666665077 0.202570453286170987228231865629 -0.043286524713039398193359375000 -0.004835124593228101730346679688 0.002145289210602641105651855469 0 0 0 0 
2416833333.3333334923 0.202629357576370211502236884371 -0.043345332145690917968750000000 -0.004772424697875977429861737988 0.002395607763901352882385253906 0 0 0 0 
2417000000.0000000000 0.202880308032035799881143134371 -0.043463438749313347553293596093 -0.004609154071658849716186523438 0.002513451268896460966822958838 0 0 0 0 
2417166666.6666665077 0.202438041567802401443643134371 -0.043293476104736328125000000000 -0.004493956454098224639892578125 0.002657901961356401009800576318 0 0 0 0 
2417333333.3333334923 0.202288582921028109451455634371 -0.043035164475440979003906250000 -0.004405490588396787643432617188 0.002863211091607809066772460938 0 0 0 0 
2417500000.0000000000 0.202004715800285311599893134371 -0.043113674968481056903879533593 -0.004197562113404273986816406250 0.003112935693934559822082519531 0 0 0 0 
2417666666.6666665077 0.201426595449447604080361884371 -0.042914438992738716815988908593 -0.004035959951579570770263671875 0.003162975190207362174987792969 0 0 0 0 
2417833333.3333334923 0.200993210077285794357138115629 -0.042628034949302673339843750000 -0.003931147046387195587158203125 0.003145498922094703154322958838 0 0 0 0 
2418000000.0000000000 0.200310394167900113204794365629 -0.042357515543699271465261091407 -0.003950799349695444107055664062 0.003256219672039151191711425781 0 0 0 0 
2418166666.6666665077 0.199635311961174011230468750000 -0.042245667427778237079660783593 -0.003583783050999044938328408350 0.003595446702092885971069335938 0 0 0 0 
2418333333.3333334923 0.198543742299079895019531250000 -0.042132560163736343383789062500 -0.003399201901629567146301269531 0.003697829786688088937046670068 0 0 0 0 
2418500000.0000000000 0.197449669241905212402343750000 -0.042069304734468460083007812500 -0.003216512501239777045008993994 0.003612700151279569105861044775 0 0 0 0 
2418666666.6666665077 0.196620717644691495040731865629 -0.042014025151729576801340471093 -0.003057720605283976034877158057 0.003600943367928266958949423682 0 0 0 0 
2418833333.3333334923 0.195278778672218294998330634371 -0.042151473462581641460378278907 -0.002951268572360277175903320312 0.003555363044142723083496093750 0 0 0 0 
2419000000.0000000000 0.193955242633819607833700615629 -0.042390819638967507099192033593 -0.002771465107798575921299599756 0.003507218090817331834080361475 0 0 0 0 
2419166666.6666665077 0.192590802907943697830361884371 -0.042615711688995361328125000000 -0.002551200101152061982395791162 0.003510279348120092911961220850 0 0 0 0 
2419333333.3333334923 0.191171392798423794845419365629 -0.043121814727783203125000000000 -0.002649608068168162865879677881 0.003427441464737058119532919775 0 0 0 0 
2419500000.0000000000 0.189834967255592401702557481258 -0.043575741350650787353515625000 -0.002514443593099712891819619287 0.003463694592937827110290527344 0 0 0 0 
2419666666.6666665077 0.188069045543670709808026231258 -0.044307764619588851928710937500 -0.002443779492750763893127441406 0.003185644512996077971217490088 0 0 0 0 
2419833333.3333334923 0.186520785093307495117187500000 -0.044890854507684707641601562500 -0.002395842690020800070521689307 0.003301781835034490065333701025 0 0 0 0 
