# Hz S RI R 50
2400000000.0000000000 0.168778494000434903243856865629 0.047267135232687003398854841407 0.003621516283601522011997841943 -0.001469494192861020998713827979 0 0 0 0 
2400166666.6666665077 0.169760286808013888260049384371 0.046155307441949837421457658593 0.003336313180625439123866415869 -0.001573736895807086987736367334 0 0 0 0 
2400333333.3333334923 0.170712754130363492111044365629 0.045036878436803817749023437500 0.003178889863193035125732421875 -0.001712629804387689070460654150 0 0 0 0 
2400500000.0000000000 0.171780556440353393554687500000 0.044014327228069312358815778907 0.002941759070381522178649902344 -0.001758344355039298968074179541 0 0 0 0 
2400666666.6666665077 0.172406136989593505859375000000 0.042921710759401321411132812500 0.002782162511721252961399697412 -0.001744461478665471076965332031 0 0 0 0 
2400833333.3333334923 0.173366621136665288727130018742 0.042296092957258217548410783593 0.002690045163035393194911337744 -0.001961664529517292976379394531 0 0 0 0 
2401000000.0000000000 0.174167439341545104980468750000 0.041295573115348822856862653907 0.002375057898461819128749228369 -0.001886858139187097983119345557 0 0 0 0 
2401166666.6666665077 0.174914419651031494140625000000 0.040568236261606223369557966407 0.002252680016681551933288574219 -0.002024972345679997964146279443 0 0 0 0 
2401333333.3333334923 0.175473913550376892089843750000 0.039805080741643912578542341407 0.002058521145954728126525878906 -0.002031224546954036192653036963 0 0 0 0 
2401500000.0000000000 0.176182135939598111251669365629 0.039254598319530487060546875000 0.001865372061729430935503315503 -0.001827399944886564991594624097 0 0 0 0 
2401666666.6666665077 0.176677539944648687164630018742 0.038678530603647232055664062500 0.001820695353671907944920205225 -0.001917532412335277037379599463 0 0 0 0 
2401833333.3333334923 0.177219748497009305099325615629 0.037752576172351837158203125000 0.001623857882805169062373495947 -0.001946946140378714041468954932 0 0 0 0 
2402000000.0000000000 0.177569448947906494140625000000 0.037223704159259803081472028907 0.001388837816193700053571391528 -0.001810058485716580910923623193 0 0 0 0 
2402166666.6666665077 0.178017437458038302322549384371 0.036561280488967902446706403907 0.001196684548631310896632529150 -0.001907353405840694904327392578 0 0 0 0 
2402333333.3333334923 0.178370505571365411956463731258 0.036083821207284927368164062500 0.001270319335162640051600790869 -0.001780728576704859950421977466 0 0 0 0 
2402500000.0000000000 0.178899392485618591308593750000 0.035316497087478637695312500000 0.000867550959810614585876464844 -0.001728000584989785931230854565 0 0 0 0 
2402666666.6666665077 0.178943514823913601974325615629 0.034681268036365509033203125000 0.000706715742126107215881347656 -0.001614683074876666069030761719 0 0 0 0 
2402833333.3333334923 0.179109200835227994064169365629 0.034088786691427230834960937500 0.000734033586923032999038696289 -0.001522366888821125030517578125 0 0 0 0 
2403000000.0000000000 0.179147571325302096267861884371 0.033201619982719421386718750000 0.000430839398177340626716613770 -0.001438032602891325950622558594 0 0 0 0 
2403166666.6666665077 0.179252281785011291503906250000 0.032320048660039901733398437500 0.000328519439790397882461547852 -0.001126665039919316985486674731 0 0 0 0 
2403333333.3333334923 0.179056450724601801116619981258 0.031546432524919509887695312500 0.000353101175278425216674804688 -0.000929046305827796459197998047 0 0 0 0 
2403500000.0000000000 0.178889453411102294921875000000 0.030636087059974670410156250000 0.000355073221726342981487828387 -0.000728172890376299619674682617 0 0 0 0 
2403666666.6666665077 0.178603529930114801604901231258 0.029334157705307010305384451954 0.000428886676672846078872680664 -0.000624345091637223958969116211 0 0 0 0 
2403833333.3333334923 0.178387969732284601409588731258 0.028446115553379058837890625000 0.000275000726105645298957824707 -0.000443507015006616711616516113 0 0 0 0 
2404000000.0000000000 0.178174450993537902832031250000 0.027234936133027080190638358204 0.000295772304525598883628845215 -0.000189855229109525707647046500 0 0 0 0 
2404166666.6666665077 0.177797526121139498611611884371 0.025901051238179210317591483204 0.000400400196667760610580444336 0.000034465731005184352397918701 0 0 0 0 
2404333333.3333334923 0.177250578999519403655682481258 0.024802584201097488403320312500 0.000586738460697233676910400391 0.000214709623833186897352495737 0 0 0 0 
2404500000.0000000000 0.176772817969322204589843750000 0.023331714794039729726771170704 0.000819031381979584693908691406 0.000149010142195038497447967529 0 0 0 0 
2404666666.6666665077 0.176601424813270596603231865629 0.021945085376501079904576485546 0.000939228048082441091537475586 0.000331895338604226708412170410 0 0 0 0 
2404833333.3333334923 0.176100194454193087478799384371 0.020396433770656589162806326954 0.001245012506842613003374409253 0.000395542068872600793838500977 0 0 0 0 
2405000000.0000000000 0.175745189189910888671875000000 0.018867401406168941152552420704 0.001300347386859356923344277490 0.000633248768281191587448120117 0 0 0 0 
2405166666.6666665077 0.175118342041969299316406250000 0.017313174903392788278599923046 0.001403635833412409045575786060 0.000675799092277884483337402344 0 0 0 0 
2405333333.3333334923 0.174865126609802301604901231258 0.015481432899832730729072771680 0.001723449560813606002210307544 0.000643469975329935550689697266 0 0 0 0 
2405500000.0000000000 0.174517691135406494140625000000 0.013852764852344989776611328125 0.001737088663503528074977255713 0.000596917525399476289749145508 0 0 0 0 
2405666666.6666665077 0.174145951867103604415731865629 0.012245444580912590026855468750 0.002126372652128338813781738281 0.000388932210626080577999669208 0 0 0 0 
2405833333.3333334923 0.173614263534545898437500000000 0.010476309806108479935615740430 0.002346742665395141081569052588 0.000397857598727568984031677246 0 0 0 0 
2406000000.0000000000 0.173448935151100186446981865629 0.008344440720975399017333984375 0.002548571676015853881835937500 0.000362744001904502511024475098 0 0 0 0 
2406166666.6666665077 0.173097640275955200195312500000 0.006689221598207950592041015625 0.002613360760733484788181923975 0.000061624523368664085865020752 0 0 0 0 
2406333333.3333334923 0.173110276460647610763388115629 0.004624443128705024719238281250 0.002701956778764725165126181494 0.000114121474325656904421667781 0 0 0 0 
2406500000.0000000000 0.172877535223960904220419365629 0.002558782231062651114222861182 0.002788853365927935080287314307 -0.000181256473297253305285853253 0 0 0 0 
2406666666.6666665077 0.172573402523994501311932481258 0.000618679565377533435821533203 0.003003840334713459014892578125 -0.000252511003054678385883885516 0 0 0 0 
2406833333.3333334923 0.172807484865188598632812500000 -0.001577821909449994997737265479 0.002988729393109678788426064600 -0.000413091416703537106513977051 0 0 0 0 
2407000000.0000000000 0.172827571630477905273437500000 -0.003644803306087851958033896338 0.002927341498434544043300009619 -0.000344540836522355675697326660 0 0 0 0 
2407166666.6666665077 0.173063442111015292068643134371 -0.005534411408007144927978515625 0.003201407613232731819152832031 -0.000668779364787042140960693359 0 0 0 0 
2407333333.3333334923 0.173011347651481600662393134371 -0.007730043958872556686401367188 0.003266079351305962042567587744 -0.000931646965909749269485473633 0 0 0 0 
2407500000.0000000000 0.173405840992927606780682481258 -0.009608396328985691070556640625 0.003294525435194373130798339844 -0.000880624691490083932876586914 0 0 0 0 
2407666666.6666665077 0.173657804727554293533486884371 -0.011482990346848969895332537305 0.003601802513003348870518349756 -0.001058520749211310906651162256 0 0 0 0 
2407833333.3333334923 0.173835694789886502364950615629 -0.013861745595932010305384451954 0.003446221817284822897670126807 -0.001395051833242177963256835938 0 0 0 0 
2408000000.0000000000 0.174337595701217706878338731258 -0.015828995034098628652552420704 0.003328630235046147866490029443 -0.001527830143459141037584614331 0 0 0 0 
2408166666.6666665077 0.174634084105491610428018134371 -0.017595632001757618295689766796 0.003541812999173998832702636719 -0.001681048888713120980503701318 0 0 0 0 
2408333333.3333334923 0.175211757421493502517861884371 -0.019434597343206409109095389454 0.003455135505646467208862304688 -0.001934648607857524914982461084 0 0 0 0 
2408500000.0000000000 0.175637751817703302581463731258 -0.021388025954365730285644531250 0.003474392928183079199550009619 -0.002160500967875123023986816406 0 0 0 0 
2408666666.6666665077 0.176033467054367093185263115629 -0.023215176537632938730260079296 0.003449917770922183990478515625 -0.002320599276572465896606445312 0 0 0 0 
2408833333.3333334923 0.176374271512031610686932481258 -0.024717520922422409057617187500 0.003410458797588944001438759912 -0.002687297761440277099609375000 0 0 0 0 
2409000000.0000000000 0.176811113953590393066406250000 -0.026241894811391830444335937500 0.003438581945374608039855957031 -0.002760635456070303916931152344 0 0 0 0 
2409166666.6666665077 0.177370399236679104904013115629 -0.027939399704337120056152343750 0.003155230777338147163391113281 -0.002932974137365818023681640625 0 0 0 0 
2409333333.3333334923 0.177917391061782809158486884371 -0.029291367158293720590611641796 0.003015248570591210885288857568 -0.002991336397826672034022665869 0 0 0 0 
2409500000.0000000000 0.178314462304115295410156250000 -0.030844196677207950246790701954 0.003043865086510777907130576025 -0.003328545717522501945495605469 0 0 0 0 
2409666666.6666665077 0.178793877363205011565838731258 -0.031818766146898269653320312500 0.002744176192209124998805380713 -0.003528446191921830177307128906 0 0 0 0 
2409833333.3333334923 0.179235458374023409744424384371 -0.032697688788175582885742187500 0.002700388198718429045436240088 -0.003573642577975987954380654443 0 0 0 0 
2410000000.0000000000 0.179613947868347195724325615629 -0.033641058951616287231445312500 0.002662508049979805946350097656 -0.003728037932887672944309853662 0 0 0 0 
2410166666.6666665077 0.180069699883460998535156250000 -0.034646362066268920898437500000 0.002603126922622323036193847656 -0.003939945250749588012695312500 0 0 0 0 
2410333333.3333334923 0.180545464158058194259481865629 -0.035502113401889801025390625000 0.002442078199237585067749023438 -0.004156785085797309875488281250 0 0 0 0 
2410500000.0000000000 0.181025624275207491775674384371 -0.036232065409421920776367187500 0.002099116099998354911804199219 -0.004194896202534437179565429688 0 0 0 0 
2410666666.6666665077 0.181118845939636202713174384371 -0.037082400172948837280273437500 0.002072209957987070083618164062 -0.004258345346897841367239667676 0 0 0 0 
2410833333.3333334923 0.181552127003669711013955634371 -0.037495326250791549682617187500 0.001950840582139790058135986328 -0.004566040821373462677001953125 0 0 0 0 
2411000000.0000000000 0.181884542107582092285156250000 -0.038217008113861077045481096093 0.001672417856752872900721884619 -0.004454032052308320999145507812 0 0 0 0 
2411166666.6666665077 0.182064697146415710449218750000 -0.038648426532745361328125000000 0.001470268121920526027679443359 -0.004784864373505116376394941113 0 0 0 0 
2411333333.3333334923 0.182164147496223505218182481258 -0.039069116115570068359375000000 0.001192811410874127907993935693 -0.004692065529525279998779296875 0 0 0 0 
2411500000.0000000000 0.182165414094924899002236884371 -0.039698567241430282592773437500 0.001082298695109785036799765479 -0.004880804102867841720581054688 0 0 0 0 
2411666666.6666665077 0.182388693094253512283486884371 -0.040018633008003241802175153907 0.000821525987703353166580200195 -0.004973984323441982269287109375 0 0 0 0 
2411833333.3333334923 0.182104736566543606857138115629 -0.040411468595266342163085937500 0.000707866449374705553054809570 -0.004917139187455177307128906250 0 0 0 0 
2412000000.0000000000 0.181777849793434087555255018742 -0.040881879627704620361328125000 0.000473574094939976876408177509 -0.005039528012275695800781250000 0 0 0 0 
2412166666.6666665077 0.181654855608940096756143134371 -0.041273258626461029052734375000 0.000231181504204869297429761343 -0.005082110408693552017211914062 0 0 0 0 
2412333333.3333334923 0.181304961442947387695312500000 -0.041546646505594246601145158593 0.000076485994213726371526718140 -0.005205119028687477111816406250 0 0 0 0 
2412500000.0000000000 0.180618822574615506271200615629 -0.041820097714662551879882812500 -0.000134582413011230501249590463 -0.005007666070014238357543945312 0 0 0 0 
2412666666.6666665077 0.180104702711105402190838731258 -0.042593721300363540649414062500 -0.000487726065330207402079981671 -0.005050301551818847656250000000 0 0 0 0 
2412833333.3333334923 0.179349571466445895095986884371 -0.042817745357751853252370466407 -0.000494857551530003547668457031 -0.005147880408912897109985351562 0 0 0 0 
2413000000.0000000000 0.178568184375762911697549384371 -0.043152313679456710815429687500 -0.000682417419739067554473876953 -0.005079654976725578308105468750 0 0 0 0 
2413166666.6666665077 0.177626907825469998458700615629 -0.043810151517391211772878278907 -0.000831873330753296613693237305 -0.004973911214619874954223632812 0 0 0 0 
2413333333.3333334923 0.176724642515182495117187500000 -0.044069416821002960205078125000 -0.001079670269973576068878173828 -0.004857702646404504776000976562 0 0 0 0 
2413500000.0000000000 0.175761699676513699630575615629 -0.044746387749910361553151716407 -0.001325651537626981952069926685 -0.004996388219296932220458984375 0 0 0 0 
2413666666.6666665077 0.174867108464241000076455634371 -0.045372940599918372417409528907 -0.001359575311653316020965576172 -0.004798052832484245300292968750 0 0 0 0 
2413833333.3333334923 0.173653423786163302322549384371 -0.045832987874746322631835937500 -0.001605459605343640067456889575 -0.004875773098319768905639648438 0 0 0 0 
2414000000.0000000000 0.172370791435241699218750000000 -0.046513400971889502788503278907 -0.001911128172650933048845600659 -0.004803190939128398895263671875 0 0 0 0 
2414166666.6666665077 0.171364754438400296310263115629 -0.047428272664546966552734375000 -0.001932106679305434010149311597 -0.004625866655260325345511152051 0 0 0 0 
2414333333.3333334923 0.169884026050567599197549384371 -0.048273343592882163310964216407 -0.002211504848673940138575888525 -0.004751197993755340576171875000 0 0 0 0 
2414500000.0000000000 0.168959170579910306075888115629 -0.049056153744459152221679687500 -0.002361433347687125205993652344 -0.004623070824891328811645507812 0 0 0 0 
2414666666.6666665077 0.167549133300781305511151231258 -0.050159327685832977294921875000 -0.002518947701901196999790810693 -0.004304410424083471298217773438 0 0 0 0 
2414833333.3333334923 0.166345968842506408691406250000 -0.051196742802858352661132812500 -0.002353182993829249902012490381 -0.004313949495553970336914062500 0 0 0 0 
2415000000.0000000000 0.165073707699775695800781250000 -0.052426867187023162841796875000 -0.002715158974751830101013183594 -0.004298153799027205380911542676 0 0 0 0 
2415166666.6666665077 0.163852944970130892654580634371 -0.053612574934959411621093750000 -0.002683324273675680160522460938 -0.004033531527966260910034179688 0 0 0 0 
2415333333.3333334923 0.162826731801032992263955634371 -0.054931636899709701538085937500 -0.002716142917051910920384072412 -0.003998029977083206176757812500 0 0 0 0 
2415500000.0000000000 0.161605715751648004729901231258 -0.056331481784582138061523437500 -0.003134243190288544134852743994 -0.004101908300071954727172851562 0 0 0 0 
2415666666.6666665077 0.160508453845977810958700615629 -0.057784304022789001464843750000 -0.002999712014570831818821572412 -0.003830458503216505050659179688 0 0 0 0 
2415833333.3333334923 0.159503251314163208007812500000 -0.059435486793518073345143903907 -0.003247792832553387121913290869 -0.003786132670938969092128134619 0 0 0 0 
2416000000.0000000000 0.158283084630966186523437500000 -0.061048846691846847534179687500 -0.003267070278525352911708212744 -0.003711308119818567795994423975 0 0 0 0 
2416166666.6666665077 0.157493174076080294510049384371 -0.062823213636875152587890625000 -0.003282545134425162835362099756 -0.003535200143232942061183310400 0 0 0 0 
2416333333.3333334923 0.156480208039283807952557481258 -0.064576014876365661621093750000 -0.003526827087625861167907714844 -0.003677490865811706022975302588 0 0 0 0 
2416500000.0000000000 0.155601814389228793045205634371 -0.066489063203334808349609375000 -0.003636725246906280951258993994 -0.003325596218928695158717490088 0 0 0 0 
2416666666.6666665077 0.154621630907058688064736884371 -0.068221844732761383056640625000 -0.003563245991244912147521972656 -0.003360454691573977904078818213 0 0 0 0 
2416833333.3333334923 0.154032543301582308670205634371 -0.070351757109165191650390625000 -0.003666684031486510796787881006 -0.003130547003820538954493857275 0 0 0 0 
2417000000.0000000000 0.153104782104492187500000000000 -0.072129830718040466308593750000 -0.003764091059565544128417968750 -0.003058114321902393861057900537 0 0 0 0 
2417166666.6666665077 0.152536243200302096267861884371 -0.074025504291057586669921875000 -0.003866010345518589019775390625 -0.002949958667159080939051962744 0 0 0 0 
2417333333.3333334923 0.151949062943458612640057481258 -0.075951017439365386962890625000 -0.003833228489384055137634277344 -0.003018321003764868216273642432 0 0 0 0 
2417500000.0000000000 0.151451960206031799316406250000 -0.078013904392719268798828125000 -0.003897469723597168922424316406 -0.002842282177880405946018838037 0 0 0 0 
2417666666.6666665077 0.151041463017463711837606865629 -0.079690687358379364013671875000 -0.003985245712101460370535566113 -0.002865214832127093835117959131 0 0 0 0 
2417833333.3333334923 0.150577321648597689529580634371 -0.081608630716800689697265625000 -0.004122067708522081375122070312 -0.002890135161578654809239052881 0 0 0 0 
2418000000.0000000000 0.150305479764938410003338731258 -0.083488471806049346923828125000 -0.004203844815492630004882812500 -0.002886389847844839096069335938 0 0 0 0 
2418166666.6666665077 0.150002822279930086990518134371 -0.085115738213062286376953125000 -0.004283003043383359909057617188 -0.002819805638864635987522744287 0 0 0 0 
2418333333.3333334923 0.150063291192054804046307481258 -0.086870037019252777099609375000 -0.004299603868275880813598632812 -0.002803454641252756118774414062 0 0 0 0 
2418500000.0000000000 0.149870723485946710784588731258 -0.088388346135616302490234375000 -0.004598534200340509414672851562 -0.002771697239950298829319619287 0 0 0 0 
2418666666.6666665077 0.149850547313690213302450615629 -0.089974313974380493164062500000 -0.004686857573688030242919921875 -0.002771800383925437927246093750 0 0 0 0 
2418833333.3333334923 0.149658277630805996993856865629 -0.091455079615116119384765625000 -0.004929888527840375900268554688 -0.002571095246821641921997070312 0 0 0 0 
2419000000.0000000000 0.149689301848411587814169365629 -0.092643491923809051513671875000 -0.004974686075001955032348632812 -0.002642385894432663917541503906 0 0 0 0 
2419166666.6666665077 0.149873092770576504806356865629 -0.093969091773033142089843750000 -0.005366568453609943389892578125 -0.002515324158594011826756142725 0 0 0 0 
2419333333.3333334923 0.149914056062698392013388115629 -0.094906538724899291992187500000 -0.005533838644623756408691406250 -0.002427776111289858818054199219 0 0 0 0 
2419500000.0000000000 0.149979189038276700118856865629 -0.096170753240585327148437500000 -0.005763776600360870361328125000 -0.002228181809186934991123818506 0 0 0 0 
2419666666.6666665077 0.150370016694068908691406250000 -0.096946530044078826904296875000 -0.006084444932639598846435546875 -0.002075157593935728073120117188 0 0 0 0 
2419833333.3333334923 0.150475472211837796310263115629 -0.097522571682929992675781250000 -0.006293704733252525329589843750 -0.001925471588037908077239990234 0 0 0 0 
