# Hz S RI R 
2400000000.0000000000 0.155793175101280212402343750000 0.109390936791896806190571567186 0.004056726582348346710205078125 -0.001853760797530413107631064307 0 0 0 0 
2400166666.6666665077 0.155533269047737093826455634371 0.107145346701145199874716240629 0.004100056830793619155883789062 -0.001945211435668171102639223413 0 0 0 0 
2400333333.3333334923 0.155348718166351290603799384371 0.104557454586029094367738423443 0.004000627435743808746337890625 -0.001806472544558346054674458081 0 0 0 0 
2400500000.0000000000 0.155206322669982910156250000000 0.101917736232280703445596259371 0.004057945217937231063842773438 -0.002026342554017900986912392725 0 0 0 0 
2400666666.6666665077 0.155361026525497408767861884371 0.099517479538917541503906250000 0.004063735250383616361136152051 -0.002238289918750524954554892432 0 0 0 0 
2400833333.3333334923 0.155044794082641601562500000000 0.096633441746234893798828125000 0.004202661570161581039428710938 -0.002212865976616739793064736475 0 0 0 0 
2401000000.0000000000 0.155158087611198397537393134371 0.093812875449657440185546875000 0.004181612748652696609497070312 -0.002370045054703950881958007812 0 0 0 0 
2401166666.6666665077 0.155010834336280794998330634371 0.091137923300266265869140625000 0.004222937393933534622192382812 -0.002458533504977821870091103662 0 0 0 0 
2401333333.3333334923 0.155242130160331698318643134371 0.088180214166641235351562500000 0.004171065520495176315307617188 -0.002346582710742950005772256006 0 0 0 0 
2401500000.0000000000 0.155643582344055203536825615629 0.085313946008682250976562500000 0.004276694729924201965332031250 -0.002600443083792924880981445312 0 0 0 0 
2401666666.6666665077 0.156024768948554992675781250000 0.082169674336910247802734375000 0.004505658987909554567818926074 -0.002871047006919980049133300781 0 0 0 0 
2401833333.3333334923 0.156404137611389187911825615629 0.079373821616172790527343750000 0.004400889854878187179565429688 -0.003029306419193745093104697119 0 0 0 0 
2402000000.0000000000 0.157154127955436706542968750000 0.076576404273509979248046875000 0.004389212466776371002197265625 -0.003288799431174993948695517432 0 0 0 0 
2402166666.6666665077 0.157926201820373507400674384371 0.073893509805202484130859375000 0.004398826509714126586914062500 -0.003427872201427816910984658350 0 0 0 0 
2402333333.3333334923 0.158832326531410189529580634371 0.071296274662017822265625000000 0.004364639520645141601562500000 -0.003805415239185094833374023438 0 0 0 0 
2402500000.0000000000 0.159986197948455810546875000000 0.068587943911552429199218750000 0.004359658341854810714721679688 -0.004154291935265064239501953125 0 0 0 0 
2402666666.6666665077 0.161031812429428100585937500000 0.066202893853187561035156250000 0.004252770915627480420584394238 -0.004328187089413405332083417676 0 0 0 0 
2402833333.3333334923 0.162444084882736206054687500000 0.063567645847797393798828125000 0.004144929349422454833984375000 -0.004699629731476306915283203125 0 0 0 0 
2403000000.0000000000 0.163797914981842013260049384371 0.061104271560907356952707658593 0.004127490799874067306518554688 -0.004948412068188191327566816113 0 0 0 0 
2403166666.6666665077 0.165559470653533907791299384371 0.058892402797937393188476562500 0.003861024044454098181483603369 -0.005355418659746646881103515625 0 0 0 0 
2403333333.3333334923 0.166991293430328396896200615629 0.056388072669506072998046875000 0.003420042572543025016784667969 -0.005690591409802436828613281250 0 0 0 0 
2403500000.0000000000 0.168758273124694796463174384371 0.054243035614490509033203125000 0.003352385945618153052089072119 -0.005947854835540056228637695312 0 0 0 0 
2403666666.6666665077 0.170367196202278109451455634371 0.052251055836677551269531250000 0.003080480964854360060450888525 -0.006040646694600582122802734375 0 0 0 0 
2403833333.3333334923 0.172165200114250210861044365629 0.050216287374496459960937500000 0.002667494816705584959742880713 -0.006323941517621278762817382812 0 0 0 0 
2404000000.0000000000 0.173746988177299499511718750000 0.048192553222179412841796875000 0.002338290680199861960170126807 -0.006568161305040121078491210938 0 0 0 0 
2404166666.6666665077 0.175538644194602994064169365629 0.046649228781461722637136091407 0.001820521662011743025538779150 -0.006624601781368255615234375000 0 0 0 0 
2404333333.3333334923 0.177172601222991887848223768742 0.045025415718555450439453125000 0.001441196305677294947980571216 -0.006724627688527107238769531250 0 0 0 0 
2404500000.0000000000 0.178969621658325195312500000000 0.043396539986133582378347028907 0.001037637121044098897221230615 -0.006631140597164630889892578125 0 0 0 0 
2404666666.6666665077 0.180614858865737887283486884371 0.042332790791988372802734375000 0.000679826189298182725906372070 -0.006775612477213144302368164062 0 0 0 0 
2404833333.3333334923 0.182344883680343600174111884371 0.041101608425378799438476562500 0.000230503093916922807693481445 -0.006659812293946743011474609375 0 0 0 0 
2405000000.0000000000 0.183753341436386108398437500000 0.040319461375474929809570312500 0.000003920950348401675000786781 -0.006804615724831820401663495801 0 0 0 0 
2405166666.6666665077 0.185422509908676202972088731258 0.039566513150930411601979841407 -0.000336559052811935489803868427 -0.006468260660767555236816406250 0 0 0 0 
2405333333.3333334923 0.186795890331268310546875000000 0.038926135748624801635742187500 -0.000560569169465452432632446289 -0.006436197087168694409842206738 0 0 0 0 
2405500000.0000000000 0.188254490494728088378906250000 0.038338068872690200805664062500 -0.000912536343093961477279663086 -0.006297638174146413803100585938 0 0 0 0 
2405666666.6666665077 0.189616218209266690353231865629 0.038164041936397552490234375000 -0.000987504376098513603210449219 -0.006278594024479389190673828125 0 0 0 0 
2405833333.3333334923 0.191067337989807101150674384371 0.037808865308761596679687500000 -0.001374079729430377917048788916 -0.006008080206811428070068359375 0 0 0 0 
2406000000.0000000000 0.191990673542022705078125000000 0.037632439285516738891601562500 -0.001522513921372592015507363428 -0.006017720792442560195922851562 0 0 0 0 
2406166666.6666665077 0.193202361464500399490518134371 0.037648335099220282817800153907 -0.001784009276889265017268515479 -0.005856671370565891265869140625 0 0 0 0 
2406333333.3333334923 0.194265648722648592849893134371 0.037575297057628631591796875000 -0.002002117922529578208923339844 -0.005795059259980916976928710938 0 0 0 0 
2406500000.0000000000 0.195019856095313998123330634371 0.037489581853151321411132812500 -0.002153676934540272192714072119 -0.005629137158393859863281250000 0 0 0 0 
2406666666.6666665077 0.195668131113052395919638115629 0.037750151008367538452148437500 -0.002382206497713923887965536963 -0.005657671019434928894042968750 0 0 0 0 
2406833333.3333334923 0.196442618966102600097656250000 0.037782404571771621704101562500 -0.002612494863569736914393759619 -0.005313563626259565353393554688 0 0 0 0 
2407000000.0000000000 0.196623638272285489181356865629 0.038082294166088097309152971093 -0.002725180704146624045131064307 -0.005199114326387643814086914062 0 0 0 0 
2407166666.6666665077 0.197231516242027310470419365629 0.037958960980176932598073591407 -0.003032331587746738953831338037 -0.005149731878191232681274414062 0 0 0 0 
2407333333.3333334923 0.197184205055236788650674384371 0.038229834288358688354492187500 -0.003021807642653584913966513525 -0.004776405170559883117675781250 0 0 0 0 
2407500000.0000000000 0.197290942072868402679119981258 0.038448873907327651977539062500 -0.003321302821859716935398720850 -0.004611621610820293426513671875 0 0 0 0 
2407666666.6666665077 0.197412595152854891678018134371 0.038590885698795318603515625000 -0.003441259497776627974269247900 -0.004505447577685117721557617188 0 0 0 0 
2407833333.3333334923 0.196881130337715204436932481258 0.038494512438774108886718750000 -0.003466635942459106011631631006 -0.004374921321868897351736737988 0 0 0 0 
2408000000.0000000000 0.197048068046569796463174384371 0.038618244230747222900390625000 -0.003715789876878261999842978369 -0.004060836508870124816894531250 0 0 0 0 
2408166666.6666665077 0.196432724595069913009481865629 0.038392707705497741699218750000 -0.003925813362002372741699218750 -0.004047195892781019210815429688 0 0 0 0 
2408333333.3333334923 0.195859104394912691970986884371 0.038053635507822036743164062500 -0.003813067916780709786656045068 -0.003731751814484595818760537256 0 0 0 0 
2408500000.0000000000 0.195428043603897094726562500000 0.038039408624172210693359375000 -0.003749468130990862846374511719 -0.003513679141178727149963378906 0 0 0 0 
2408666666.6666665077 0.194749265909195001800213731258 0.037613283842802047729492187500 -0.003935143817216157913208007812 -0.003474432509392499923706054688 0 0 0 0 
2408833333.3333334923 0.194033503532409695724325615629 0.036992914974689476703684221093 -0.003932994790375232696533203125 -0.003191248513758182959315634619 0 0 0 0 
2409000000.0000000000 0.193030625581741305252236884371 0.036266867071390151977539062500 -0.003813031362369656996486044775 -0.003156611695885657830479287256 0 0 0 0 
2409166666.6666665077 0.192120268940925598144531250000 0.035373084247112267231027971093 -0.003794620977714657783508300781 -0.002853027544915676116943359375 0 0 0 0 
2409333333.3333334923 0.191240146756172207931356865629 0.034513268619775772094726562500 -0.003903278615325688882115029443 -0.002707463223487139181849814307 0 0 0 0 
2409500000.0000000000 0.190000385046005304534588731258 0.033501964062452323223073591407 -0.003980489913374186429495527051 -0.002654467010870575904846191406 0 0 0 0 
2409666666.6666665077 0.188966140151023892501669365629 0.032219219952821731567382812500 -0.003927355166524648666381835938 -0.002515698550269008116481161963 0 0 0 0 
2409833333.3333334923 0.187769919633865411956463731258 0.030897215008735660207728201954 -0.003868224564939736886265420068 -0.002685738960281014008762978662 0 0 0 0 
2410000000.0000000000 0.186874613165855407714843750000 0.029439788311719890939732735546 -0.003840805729851127104518271338 -0.002366952132433652877807617188 0 0 0 0 
2410166666.6666665077 0.185646027326583890060263115629 0.027611915022134780883789062500 -0.004029418807476758956909179688 -0.002232474507763981819152832031 0 0 0 0 
2410333333.3333334923 0.184681639075279208084268134371 0.025926696136593818664550781250 -0.003943838644772768020629882812 -0.002327360212802886962890625000 0 0 0 0 
2410500000.0000000000 0.183586806058883694747763115629 0.023997565731406208383580391796 -0.003992483485490083694458007812 -0.002206327626481651826145791162 0 0 0 0 
2410666666.6666665077 0.182646676898002596756143134371 0.021939355880022048950195312500 -0.004028930328786373138427734375 -0.002028313698247075080871582031 0 0 0 0 
2410833333.3333334923 0.181867331266403198242187500000 0.019857136532664299011230468750 -0.004226419143378734588623046875 -0.001973710954189300970790243994 0 0 0 0 
2411000000.0000000000 0.180959835648536709884481865629 0.017777130007743838918665701954 -0.004223113413900136947631835938 -0.001711703953333199024200439453 0 0 0 0 
2411166666.6666665077 0.180236548185348510742187500000 0.015652827918529510498046875000 -0.004250873811542987823486328125 -0.001737231272272766070124960791 0 0 0 0 
2411333333.3333334923 0.179697602987289400955361884371 0.013222852721810339146624180273 -0.004204747732728719711303710938 -0.001458963844925164959551167065 0 0 0 0 
2411500000.0000000000 0.179178595542907687088174384371 0.010779567994177339726458164648 -0.004224677570164203643798828125 -0.001228547072969377040863037109 0 0 0 0 
2411666666.6666665077 0.178907230496406610686932481258 0.008514407090842723846435546875 -0.004217722453176975250244140625 -0.001345864264294504902483295972 0 0 0 0 
2411833333.3333334923 0.178484097123146112640057481258 0.006069701164960861206054687500 -0.004376906435936689376831054688 -0.001131044235080481009242392432 0 0 0 0 
2412000000.0000000000 0.178563416004180908203125000000 0.003485656343400477929356240381 -0.004363147541880607604980468750 -0.001080815913155674934387207031 0 0 0 0 
2412166666.6666665077 0.178591206669807406326455634371 0.001138713327236473994014120947 -0.004191514570266008377075195312 -0.000786597258411347866058349609 0 0 0 0 
2412333333.3333334923 0.178578078746795709808026231258 -0.001437020837329328060150146484 -0.004022813402116298675537109375 -0.000758192094508558511734008789 0 0 0 0 
2412500000.0000000000 0.179191857576370211502236884371 -0.004064774606376886367797851562 -0.004065024666488170623779296875 -0.000695284805260598659515380859 0 0 0 0 
2412666666.6666665077 0.179501682519912691970986884371 -0.006513016764074563980102539062 -0.004027024842798709869384765625 -0.000662605336401611566543579102 0 0 0 0 
2412833333.3333334923 0.180210843682289095779580634371 -0.008866224437952041625976562500 -0.004004542250186204910278320312 -0.000592128490097820758819580078 0 0 0 0 
2413000000.0000000000 0.180841878056526211837606865629 -0.011361976154148580378522304102 -0.003966192249208688735961914062 -0.000515401305165141820907592773 0 0 0 0 
2413166666.6666665077 0.181692928075790405273437500000 -0.013657545670866969717005545704 -0.003842745907604693932774209131 -0.000469073595013469511836451398 0 0 0 0 
2413333333.3333334923 0.182675629854202298263388115629 -0.016177482903003689157506173046 -0.004071869421750307083129882812 -0.000510500103700906038284301758 0 0 0 0 
2413500000.0000000000 0.183562561869621304611044365629 -0.018526572734117511404017264454 -0.004086064174771308898925781250 -0.000336682394845411181449890137 0 0 0 0 
2413666666.6666665077 0.184743404388427706619424384371 -0.020846752449870109558105468750 -0.003922528121620416641235351562 -0.000363563012797385508387965070 0 0 0 0 
2413833333.3333334923 0.185621738433837890625000000000 -0.022888695821166038513183593750 -0.004157755058258771896362304688 -0.000323876825859770178794860840 0 0 0 0 
2414000000.0000000000 0.186983674764633206466513115629 -0.025044320151209831237792968750 -0.004238323774188756942749023438 -0.000179372000275179689556676044 0 0 0 0 
2414166666.6666665077 0.188216388225555392166299384371 -0.026849182322621348989466483204 -0.004471934400498867034912109375 -0.000123836027341894805431365967 0 0 0 0 
2414333333.3333334923 0.189378172159195001800213731258 -0.028963636606931689870814139454 -0.004375012125819922360892011426 0.000026925843485514629969393083 0 0 0 0 
2414500000.0000000000 0.190743222832679804046307481258 -0.030410740524530410766601562500 -0.004393050912767648696899414062 0.000312517629936337525218409406 0 0 0 0 
2414666666.6666665077 0.191851451992988586425781250000 -0.032052632421255111694335937500 -0.004436275456100702285766601562 0.000469815538963303024142664777 0 0 0 0 
2414833333.3333334923 0.193076029419898986816406250000 -0.033642183989286422729492187500 -0.004345484543591737747192382812 0.000779189926106482744216918945 0 0 0 0 
2415000000.0000000000 0.194337606430053710937500000000 -0.034893445670604712749440778907 -0.004292541183531284332275390625 0.000763161224313080310821533203 0 0 0 0 
2415166666.6666665077 0.195776268839836092849893134371 -0.036093398928642272949218750000 -0.004242136143147945404052734375 0.001056181383319199085235595703 0 0 0 0 
2415333333.3333334923 0.196862161159515408614950615629 -0.037218362092971801757812500000 -0.004222320392727851867675781250 0.001164196757599710984470986475 0 0 0 0 
2415500000.0000000000 0.198185697197914095779580634371 -0.037939589470624916767160783593 -0.004053701180964708328247070312 0.001404380076564847989323281396 0 0 0 0 
2415666666.6666665077 0.199316769838333102127236884371 -0.038864016532897949218750000000 -0.004020807333290576934814453125 0.001455123536288738033891987378 0 0 0 0 
2415833333.3333334923 0.200226321816444396972656250000 -0.039583150297403342510182966407 -0.004075426608324050903320312500 0.001572662265971302986145019531 0 0 0 0 
2416000000.0000000000 0.201106533408165005782919365629 -0.040117163211107247089426408593 -0.003949386999011039733886718750 0.001575766131281852939008403247 0 0 0 0 
2416166666.6666665077 0.201954677700996398925781250000 -0.040740545839071266864817033593 -0.003923699259757995605468750000 0.001751846750266849994659423828 0 0 0 0 
2416333333.3333334923 0.202812805771827697753906250000 -0.040955539792776107788085937500 -0.003733835648745297951939248193 0.001584131736308336041094135815 0 0 0 0 
2416500000.0000000000 0.203406125307083102127236884371 -0.041327480226755142211914062500 -0.003818093100562692122218466650 0.001835488248616456985473632812 0 0 0 0 
2416666666.6666665077 0.203788414597511291503906250000 -0.041615691035985946655273437500 -0.003833527443930507139918661963 0.001741132349707186005235981519 0 0 0 0 
2416833333.3333334923 0.204170241951942388336505018742 -0.041663784533739089965820312500 -0.003681067610159515900852822412 0.002027198905125259919407509912 0 0 0 0 
2417000000.0000000000 0.204377576708793612381143134371 -0.041805986315011978149414062500 -0.003716129576787352995631552588 0.002144058467820287184474326025 0 0 0 0 
2417166666.6666665077 0.204105630517005892654580634371 -0.041729141026735312725026716407 -0.003809004556387662887573242188 0.002018060302361845970153808594 0 0 0 0 
2417333333.3333334923 0.204111099243164090255575615629 -0.041542954742908477783203125000 -0.003744376357644795937779091943 0.002147124381735920906066894531 0 0 0 0 
2417500000.0000000000 0.203886881470680209060830634371 -0.041436467319726937030832658593 -0.003727459814399480819702148438 0.002419770462438464164733886719 0 0 0 0 
2417666666.6666665077 0.203543320298194913009481865629 -0.041160594671964652324636091407 -0.003642832627519965171813964844 0.002339771017432212829589843750 0 0 0 0 
2417833333.3333334923 0.203237757086753900725994981258 -0.040948566049337387084960937500 -0.003554280148819088935852050781 0.002429171698167920112609863281 0 0 0 0 
2418000000.0000000000 0.202553048729896600921307481258 -0.040676906704902648925781250000 -0.003578878473490477041957236182 0.002746958285570145087001181494 0 0 0 0 
2418166666.6666665077 0.201871559023857088943643134371 -0.040452543646097183227539062500 -0.003557955380529164834263466943 0.002730438951402903036830283057 0 0 0 0 
2418333333.3333334923 0.201034545898437500000000000000 -0.040202606469392783428151716407 -0.003491389565169810815098427881 0.002900870749726891951320029150 0 0 0 0 
2418500000.0000000000 0.200112178921699496170205634371 -0.040312085300683982158620466407 -0.003477460704743862152099609375 0.003017479553818703131434775244 0 0 0 0 
2418666666.6666665077 0.199272245168685913085937500000 -0.040054753422737121582031250000 -0.003528217785060406164882040869 0.003200849052518606185913085938 0 0 0 0 
2418833333.3333334923 0.197931647300720187088174384371 -0.040108487010002143169362653907 -0.003334960434585810141322470557 0.003396736923605204062220908057 0 0 0 0 
2419000000.0000000000 0.196750491857528686523437500000 -0.040217891335487372661550153907 -0.003410402219742536978480673682 0.003558719530701636834385537256 0 0 0 0 
2419166666.6666665077 0.195422261953353909591513115629 -0.040448527783155441284179687500 -0.003146821167320013046264648438 0.003782412502914667129516601562 0 0 0 0 
2419333333.3333334923 0.194154798984527587890625000000 -0.040879730135202407836914062500 -0.003004224039614201025721884619 0.003987608943134546279907226562 0 0 0 0 
2419500000.0000000000 0.192559838294982910156250000000 -0.041189000010490417480468750000 -0.002842397429049015045166015625 0.004049110226333141326904296875 0 0 0 0 
2419666666.6666665077 0.191009446978569003006143134371 -0.042109247297048568725585937500 -0.002737383823841809792759560693 0.004213762935250998410696698926 0 0 0 0 
2419833333.3333334923 0.189277142286300686935263115629 -0.042583115398883819580078125000 -0.002544679446145892143249511719 0.004232381936162710189819335938 0 0 0 0 
