# Version 1.00
#
freq[Hz];re:Trc1_S11;im:Trc1_S11;re:Trc2_S21;im:Trc2_S21;
2.400000000000000E+009;1.583990156650543E-001;6.281049549579620E-002;-5.198007565923035E-004;2.335089026018977E-003;
2.400166666666667E+009;1.584275662899017E-001;6.131365522742271E-002;-4.130979650653899E-004;2.175701549276710E-003;
2.400333333333334E+009;1.582437604665756E-001;5.940147116780281E-002;-3.052319807466120E-004;2.574479905888438E-003;
2.400500000000000E+009;1.581658273935318E-001;5.739048495888710E-002;-2.793421444948763E-004;2.441923134028912E-003;
2.400666666666667E+009;1.579343676567078E-001;5.541076138615608E-002;-2.363648527534679E-004;2.502760849893093E-003;
2.400833333333334E+009;1.580576896667481E-001;5.355627462267876E-002;-1.466796093154699E-004;2.521798945963383E-003;
2.401000000000000E+009;1.581578403711319E-001;5.157469958066940E-002;-9.135945583693683E-005;2.725708298385143E-003;
2.401166666666667E+009;1.581545621156693E-001;4.938256368041039E-002;-3.765579458558932E-005;2.829907462000847E-003;
2.401333333333334E+009;1.582267135381699E-001;4.732009023427963E-002;6.012255471432582E-005;2.726010512560606E-003;
2.401500000000000E+009;1.586585044860840E-001;4.524657130241394E-002;2.295782614964992E-004;2.716079354286194E-003;
2.401666666666667E+009;1.587897837162018E-001;4.321700334548950E-002;3.274409973528236E-004;2.790539059787989E-003;
2.401833333333334E+009;1.591724455356598E-001;4.115575924515724E-002;4.498970811255276E-004;2.729344647377729E-003;
2.402000000000000E+009;1.593089103698731E-001;3.916583210229874E-002;4.390472313389182E-004;2.832900965586305E-003;
2.402166666666667E+009;1.597222238779068E-001;3.705843538045883E-002;6.050608353689313E-004;2.936827484518290E-003;
2.402333333333334E+009;1.604220420122147E-001;3.517063334584236E-002;6.592505960725248E-004;3.067934187129140E-003;
2.402500000000000E+009;1.611398011445999E-001;3.345390036702156E-002;9.147273376584053E-004;3.086290555074811E-003;
2.402666666666667E+009;1.617951989173889E-001;3.160021826624870E-002;8.686680230312049E-004;2.986263250932097E-003;
2.402833333333334E+009;1.623533219099045E-001;2.999598160386086E-002;9.960663737729192E-004;3.058752045035362E-003;
2.403000000000000E+009;1.631816178560257E-001;2.816512994468212E-002;1.261838129721582E-003;3.057732246816158E-003;
2.403166666666667E+009;1.640652865171433E-001;2.651780471205711E-002;1.369670149870217E-003;3.200990380719304E-003;
2.403333333333334E+009;1.648310571908951E-001;2.511679939925671E-002;1.576811424456537E-003;2.991094253957272E-003;
2.403500000000000E+009;1.658263355493546E-001;2.367902733385563E-002;1.717804581858218E-003;3.210126189514995E-003;
2.403666666666667E+009;1.665072292089462E-001;2.220393344759941E-002;1.755230128765106E-003;3.076418070122600E-003;
2.403833333333334E+009;1.677321195602417E-001;2.103130705654621E-002;1.904986216686666E-003;2.999725518748164E-003;
2.404000000000000E+009;1.687520295381546E-001;1.985938660800457E-002;2.034051576629281E-003;3.149197902530432E-003;
2.404166666666667E+009;1.696826964616776E-001;1.848601177334786E-002;2.199710579589009E-003;2.972455229610205E-003;
2.404333333333334E+009;1.706087291240692E-001;1.751442067325115E-002;2.360100857913494E-003;2.836636267602444E-003;
2.404500000000000E+009;1.714502722024918E-001;1.645115390419960E-002;2.649805508553982E-003;2.762882504612207E-003;
2.404666666666667E+009;1.725249588489533E-001;1.553736347705126E-002;2.728852909058332E-003;2.732513472437859E-003;
2.404833333333334E+009;1.732421815395355E-001;1.473014429211617E-002;2.867623930796981E-003;2.482472220435739E-003;
2.405000000000000E+009;1.744154393672943E-001;1.408526301383972E-002;3.019402036443353E-003;2.631073817610741E-003;
2.405166666666667E+009;1.752413958311081E-001;1.341416779905558E-002;3.148540854454041E-003;2.401162171736360E-003;
2.405333333333334E+009;1.762739121913910E-001;1.263455022126436E-002;3.391481004655361E-003;2.430911408737302E-003;
2.405500000000000E+009;1.769925206899643E-001;1.219080854207277E-002;3.489161143079400E-003;2.241014968603849E-003;
2.405666666666667E+009;1.777800619602203E-001;1.174205821007490E-002;3.549625398591161E-003;2.161486307159066E-003;
2.405833333333334E+009;1.781762391328812E-001;1.151965931057930E-002;3.672793740406632E-003;1.947733922861517E-003;
2.406000000000000E+009;1.789497882127762E-001;1.102163828909397E-002;3.678963752463460E-003;1.815010909922421E-003;
2.406166666666667E+009;1.792970299720764E-001;1.065606344491243E-002;4.002301022410393E-003;1.680347835645080E-003;
2.406333333333334E+009;1.798749119043350E-001;1.034782920032740E-002;4.030595533549786E-003;1.677847350947559E-003;
2.406500000000000E+009;1.802709996700287E-001;9.929923340678215E-003;3.996471408754587E-003;1.424377202056348E-003;
2.406666666666667E+009;1.803326457738876E-001;9.709976613521576E-003;4.111542366445065E-003;1.178412348963320E-003;
2.406833333333334E+009;1.807716041803360E-001;9.248755872249603E-003;4.317739512771368E-003;1.154794357717037E-003;
2.407000000000000E+009;1.809864789247513E-001;8.955291472375393E-003;4.343922715634108E-003;9.499634616076946E-004;
2.407166666666667E+009;1.811492443084717E-001;8.761343546211720E-003;4.483665805310011E-003;8.344408124685288E-004;
2.407333333333334E+009;1.809250563383102E-001;8.203578181564808E-003;4.390747752040625E-003;6.651115254499018E-004;
2.407500000000000E+009;1.808813661336899E-001;7.908605970442295E-003;4.385926295071840E-003;4.590292810462415E-004;
2.407666666666667E+009;1.807413101196289E-001;7.645257748663425E-003;4.402182064950466E-003;4.053047450724989E-004;
2.407833333333334E+009;1.803628504276276E-001;6.912716664373875E-003;4.601073451340199E-003;1.736328122206032E-004;
2.408000000000000E+009;1.800577044487000E-001;6.428154651075602E-003;4.605275578796864E-003;4.639615872292779E-005;
2.408166666666667E+009;1.795802712440491E-001;5.934999790042639E-003;4.650961607694626E-003;-2.377671189606190E-004;
2.408333333333334E+009;1.792744249105454E-001;5.185785703361034E-003;4.637316800653935E-003;-3.984609211329371E-004;
2.408500000000000E+009;1.785710752010346E-001;4.453495610505343E-003;4.641517996788025E-003;-5.061115371063352E-004;
2.408666666666667E+009;1.782547086477280E-001;3.574088914319873E-003;4.662076942622662E-003;-8.313495782203972E-004;
2.408833333333334E+009;1.773937344551086E-001;2.536597894504666E-003;4.774449858814478E-003;-1.000548480078578E-003;
2.409000000000000E+009;1.768580079078674E-001;1.636275555938482E-003;4.722209647297859E-003;-9.214232559315860E-004;
2.409166666666667E+009;1.760947257280350E-001;5.711464909836650E-004;4.731120076030493E-003;-1.191622461192310E-003;
2.409333333333334E+009;1.755724996328354E-001;-7.072023581713438E-004;4.699758253991604E-003;-1.509908703155816E-003;
2.409500000000000E+009;1.749504059553146E-001;-2.065402921289206E-003;4.785295110195875E-003;-1.696374034509063E-003;
2.409666666666667E+009;1.740670204162598E-001;-3.147729439660907E-003;4.724721424281597E-003;-1.834426657296717E-003;
2.409833333333334E+009;1.733757555484772E-001;-4.559363704174757E-003;4.581877496093512E-003;-2.051317133009434E-003;
2.410000000000000E+009;1.729399114847183E-001;-5.998522508889437E-003;4.621463827788830E-003;-2.175528323277831E-003;
2.410166666666667E+009;1.721393018960953E-001;-7.501510437577963E-003;4.699856974184513E-003;-2.479334827512503E-003;
2.410333333333334E+009;1.715213656425476E-001;-9.235820733010769E-003;4.510146100074053E-003;-2.638689009472728E-003;
2.410500000000000E+009;1.709451824426651E-001;-1.079820375889540E-002;4.413341172039509E-003;-2.796741435304284E-003;
2.410666666666667E+009;1.703474670648575E-001;-1.290021277964115E-002;4.361711442470551E-003;-3.136969637125731E-003;
2.410833333333334E+009;1.697746217250824E-001;-1.437848806381226E-002;4.202740266919136E-003;-3.212771611288190E-003;
2.411000000000000E+009;1.694646328687668E-001;-1.629591919481754E-002;4.374886862933636E-003;-3.462771652266383E-003;
2.411166666666667E+009;1.691024899482727E-001;-1.812697388231754E-002;4.061268176883459E-003;-3.692386206239462E-003;
2.411333333333334E+009;1.689099669456482E-001;-2.013172768056393E-002;3.852882189676166E-003;-3.946935757994652E-003;
2.411500000000000E+009;1.685550361871719E-001;-2.224571630358696E-002;3.675424261018634E-003;-4.078524652868509E-003;
2.411666666666667E+009;1.684413850307465E-001;-2.398307248950005E-002;3.579520154744387E-003;-4.357955884188414E-003;
2.411833333333334E+009;1.683226823806763E-001;-2.591761946678162E-002;3.399749984964728E-003;-4.376300144940615E-003;
2.412000000000000E+009;1.683848649263382E-001;-2.800265699625015E-002;3.168595954775810E-003;-4.684736486524344E-003;
2.412166666666667E+009;1.683081537485123E-001;-3.009168058633804E-002;3.039102535694838E-003;-4.890891723334789E-003;
2.412333333333334E+009;1.685393005609512E-001;-3.183295205235481E-002;2.925190143287182E-003;-4.914511460810900E-003;
2.412500000000000E+009;1.686043292284012E-001;-3.365732729434967E-002;2.601577900350094E-003;-5.100555252283812E-003;
2.412666666666667E+009;1.690473854541779E-001;-3.579325228929520E-002;2.414077287539840E-003;-5.228805821388960E-003;
2.412833333333334E+009;1.694180667400360E-001;-3.763870149850845E-002;1.983698690310121E-003;-5.404110532253981E-003;
2.413000000000000E+009;1.696024239063263E-001;-3.943995013833046E-002;1.838461612351239E-003;-5.609991028904915E-003;
2.413166666666667E+009;1.700472980737686E-001;-4.117076843976975E-002;1.507184235379100E-003;-5.329443607479334E-003;
2.413333333333334E+009;1.702961176633835E-001;-4.303171113133431E-002;1.257435185834765E-003;-5.747119896113873E-003;
2.413500000000000E+009;1.708635985851288E-001;-4.465537145733833E-002;1.074605272151530E-003;-5.594554357230663E-003;
2.413666666666667E+009;1.714183241128922E-001;-4.627010598778725E-002;7.921516662463546E-004;-5.695291794836521E-003;
2.413833333333334E+009;1.718604713678360E-001;-4.778280481696129E-002;6.399615667760372E-004;-5.622221156954765E-003;
2.414000000000000E+009;1.723106056451798E-001;-4.922457411885262E-002;1.584399142302573E-004;-5.558683071285486E-003;
2.414166666666667E+009;1.730870604515076E-001;-5.060020089149475E-002;8.916292426874861E-005;-5.581260658800602E-003;
2.414333333333334E+009;1.733737736940384E-001;-5.188913270831108E-002;-2.861063112504780E-004;-5.576221272349358E-003;
2.414500000000000E+009;1.742222011089325E-001;-5.309983715415001E-002;-5.193057004362345E-004;-5.415831226855516E-003;
2.414666666666667E+009;1.746344268321991E-001;-5.408309027552605E-002;-8.721140329726040E-004;-5.591270979493856E-003;
2.414833333333334E+009;1.749626100063324E-001;-5.524501577019692E-002;-9.964030468836427E-004;-5.484572611749172E-003;
2.415000000000000E+009;1.754782199859619E-001;-5.603272467851639E-002;-1.338848262093961E-003;-5.430570337921381E-003;
2.415166666666667E+009;1.758663654327393E-001;-5.683734640479088E-002;-1.398875727318227E-003;-5.427089985460043E-003;
2.415333333333334E+009;1.762762367725372E-001;-5.769338831305504E-002;-1.631956547498703E-003;-5.217645317316055E-003;
2.415500000000000E+009;1.767389625310898E-001;-5.832879617810249E-002;-1.797294011339545E-003;-4.991452675312758E-003;
2.415666666666667E+009;1.769637614488602E-001;-5.886419862508774E-002;-1.981507288292050E-003;-4.894431680440903E-003;
2.415833333333334E+009;1.772201359272003E-001;-5.944771319627762E-002;-2.153029199689627E-003;-4.811414517462254E-003;
2.416000000000000E+009;1.772834062576294E-001;-5.980578809976578E-002;-2.381856786087155E-003;-4.615742713212967E-003;
2.416166666666667E+009;1.775079965591431E-001;-6.026883423328400E-002;-2.506942022591829E-003;-4.680148325860500E-003;
2.416333333333334E+009;1.774646788835526E-001;-6.052737683057785E-002;-2.661817939952016E-003;-4.400601144880056E-003;
2.416500000000000E+009;1.773548275232315E-001;-6.093557178974152E-002;-2.740711439400911E-003;-4.239527042955160E-003;
2.416666666666667E+009;1.772136688232422E-001;-6.115195527672768E-002;-2.901405794546008E-003;-4.167529288679361E-003;
2.416833333333334E+009;1.771730184555054E-001;-6.140208989381790E-002;-3.005233826115727E-003;-3.985697403550148E-003;
2.417000000000000E+009;1.765692085027695E-001;-6.158553808927536E-002;-3.122220281511545E-003;-3.706946503371000E-003;
2.417166666666667E+009;1.762104630470276E-001;-6.179819628596306E-002;-3.093883395195007E-003;-3.613873850554228E-003;
2.417333333333334E+009;1.757122576236725E-001;-6.195432320237160E-002;-3.409316763281822E-003;-3.377504646778107E-003;
2.417500000000000E+009;1.749752908945084E-001;-6.232371181249619E-002;-3.353450680151582E-003;-3.455164842307568E-003;
2.417666666666667E+009;1.743614524602890E-001;-6.243275478482246E-002;-3.419539891183376E-003;-3.200274659320712E-003;
2.417833333333334E+009;1.736371070146561E-001;-6.263094395399094E-002;-3.442682558670640E-003;-3.180632600560784E-003;
2.418000000000000E+009;1.727759689092636E-001;-6.308075040578842E-002;-3.524823347106576E-003;-2.898997394368053E-003;
2.418166666666667E+009;1.718838065862656E-001;-6.312511861324310E-002;-3.517485223710537E-003;-2.845991868525744E-003;
2.418333333333334E+009;1.711628437042236E-001;-6.365641206502914E-002;-3.683551447466016E-003;-2.704632468521595E-003;
2.418500000000000E+009;1.700120568275452E-001;-6.397698074579239E-002;-3.752592485398054E-003;-2.433123998343945E-003;
2.418666666666667E+009;1.690408885478973E-001;-6.445366889238358E-002;-3.814924973994494E-003;-2.519326750189066E-003;
2.418833333333334E+009;1.678031831979752E-001;-6.486599892377853E-002;-3.744778456166387E-003;-2.411074936389923E-003;
2.419000000000000E+009;1.666235923767090E-001;-6.551968306303024E-002;-3.676900174468756E-003;-2.279760548844934E-003;
2.419166666666667E+009;1.654869914054871E-001;-6.624623388051987E-002;-3.722950117662549E-003;-2.163864439353347E-003;
2.419333333333334E+009;1.641784757375717E-001;-6.666898727416992E-002;-3.909772727638483E-003;-2.067114692181349E-003;
2.419500000000000E+009;1.630776077508926E-001;-6.745997816324234E-002;-3.958476241678000E-003;-2.041530795395374E-003;
2.419666666666667E+009;1.618632227182388E-001;-6.856493651866913E-002;-3.978522028774023E-003;-1.921697985380888E-003;
2.419833333333334E+009;1.606494784355164E-001;-6.921841949224472E-002;-3.921228460967541E-003;-1.708620460703969E-003;
2.420000000000000E+009;1.595810204744339E-001;-7.022703438997269E-002;-4.031427204608917E-003;-1.757142832502723E-003;
2.420166666666667E+009;1.583679318428040E-001;-7.139678299427033E-002;-4.138436168432236E-003;-1.628892961889505E-003;
2.420333333333334E+009;1.573777645826340E-001;-7.252892106771469E-002;-4.051950760185719E-003;-1.534861745312810E-003;
2.420500000000000E+009;1.563894003629684E-001;-7.371181994676590E-002;-4.242124501615763E-003;-1.538010081276298E-003;
2.420666666666667E+009;1.553775370121002E-001;-7.491344213485718E-002;-4.364833701401949E-003;-1.262104138731957E-003;
2.420833333333334E+009;1.544990241527557E-001;-7.620105892419815E-002;-4.337836988270283E-003;-1.183283631689847E-003;
2.421000000000000E+009;1.535120457410812E-001;-7.783555239439011E-002;-4.402230028063059E-003;-1.084405463188887E-003;
2.421166666666667E+009;1.527523696422577E-001;-7.931112498044968E-002;-4.383734427392483E-003;-8.894053753465414E-004;
2.421333333333334E+009;1.521923243999481E-001;-8.084587752819061E-002;-4.616612568497658E-003;-8.821203955449164E-004;
2.421500000000000E+009;1.513236016035080E-001;-8.227804303169251E-002;-4.688185174018145E-003;-7.681267452426255E-004;
2.421666666666667E+009;1.509173959493637E-001;-8.374825865030289E-002;-4.639070946723223E-003;-5.448054871521890E-004;
2.421833333333334E+009;1.503470391035080E-001;-8.551608771085739E-002;-4.765045829117298E-003;-1.892629225039855E-004;
2.422000000000000E+009;1.499652564525604E-001;-8.734340220689774E-002;-4.763874225318432E-003;-6.154170841909945E-005;
2.422166666666667E+009;1.496707201004028E-001;-8.915857225656509E-002;-4.909662064164877E-003;2.775223765638657E-005;
2.422333333333334E+009;1.496051996946335E-001;-9.060615301132202E-002;-4.977855831384659E-003;1.795315765775740E-004;
2.422500000000000E+009;1.492938399314880E-001;-9.231213480234146E-002;-4.905550740659237E-003;3.496248973533511E-004;
2.422666666666667E+009;1.490546166896820E-001;-9.401361644268036E-002;-5.121947731822729E-003;5.548709887079895E-004;
2.422833333333334E+009;1.492790132761002E-001;-9.581831097602844E-002;-4.856912419199944E-003;7.425408111885190E-004;
2.423000000000000E+009;1.493702679872513E-001;-9.748747944831848E-002;-5.057181697338820E-003;1.151797943748534E-003;
2.423166666666667E+009;1.495276838541031E-001;-9.912546724081039E-002;-4.853122867643833E-003;1.179425162263215E-003;
2.423333333333334E+009;1.497638672590256E-001;-1.005304008722305E-001;-4.957355093210936E-003;1.523117767646909E-003;
2.423500000000000E+009;1.500808596611023E-001;-1.022216528654099E-001;-4.934780765324831E-003;1.827881555072963E-003;
2.423666666666667E+009;1.502943933010101E-001;-1.037763655185700E-001;-4.735090304166079E-003;2.076092176139355E-003;
2.423833333333334E+009;1.507635563611984E-001;-1.052609607577324E-001;-4.650395363569260E-003;2.226033713668585E-003;
2.424000000000000E+009;1.511340290307999E-001;-1.065610200166702E-001;-4.385306034237146E-003;2.489822683855891E-003;
2.424166666666667E+009;1.517133414745331E-001;-1.078978404402733E-001;-4.522133152931929E-003;2.892942400649190E-003;
2.424333333333334E+009;1.521353423595429E-001;-1.090159192681313E-001;-4.191103857010603E-003;2.909881761297584E-003;
2.424500000000000E+009;1.527090817689896E-001;-1.104009076952934E-001;-4.083088133484125E-003;3.047954058274627E-003;
2.424666666666667E+009;1.532764434814453E-001;-1.112540662288666E-001;-3.834940260276198E-003;3.463186556473374E-003;
2.424833333333334E+009;1.535566300153732E-001;-1.123871654272080E-001;-3.645353484898806E-003;3.449338022619486E-003;
2.425000000000000E+009;1.540959328413010E-001;-1.133338436484337E-001;-3.378195688128471E-003;3.540588542819023E-003;
2.425166666666667E+009;1.543685346841812E-001;-1.143029928207398E-001;-3.143978072330356E-003;3.816299606114626E-003;
2.425333333333334E+009;1.548893004655838E-001;-1.148807778954506E-001;-3.012021072208881E-003;3.803457366302609E-003;
2.425500000000000E+009;1.554111242294312E-001;-1.157717406749725E-001;-2.669677603989840E-003;4.044656641781330E-003;
2.425666666666667E+009;1.555683016777039E-001;-1.164036095142365E-001;-2.464085817337036E-003;4.119682125747204E-003;
2.425833333333334E+009;1.559530943632126E-001;-1.168583631515503E-001;-2.303210087120533E-003;4.006468690931797E-003;
2.426000000000000E+009;1.560152620077133E-001;-1.174282208085060E-001;-1.984000438824296E-003;4.161025863140822E-003;
2.426166666666667E+009;1.564016789197922E-001;-1.179679334163666E-001;-1.796451047994196E-003;4.170114640146494E-003;
2.426333333333334E+009;1.564216166734695E-001;-1.183138415217400E-001;-1.627055928111076E-003;4.123740829527378E-003;
2.426500000000000E+009;1.564327180385590E-001;-1.185161694884300E-001;-1.322315772995353E-003;4.113622475415468E-003;
2.426666666666667E+009;1.564544588327408E-001;-1.186104640364647E-001;-1.206205924972892E-003;4.067709669470787E-003;
2.426833333333334E+009;1.562306731939316E-001;-1.189358234405518E-001;-9.056714479811490E-004;3.942791838198900E-003;
2.427000000000000E+009;1.559681743383408E-001;-1.191563680768013E-001;-7.294538663700223E-004;3.842944744974375E-003;
2.427166666666667E+009;1.556882560253143E-001;-1.191570460796356E-001;-5.339796771295369E-004;3.992777783423662E-003;
2.427333333333334E+009;1.551647633314133E-001;-1.193028613924980E-001;-4.465216479729861E-004;3.895825240761042E-003;
2.427500000000000E+009;1.547253131866455E-001;-1.193775609135628E-001;-3.057546855416149E-004;3.699511056765914E-003;
2.427666666666667E+009;1.540267467498779E-001;-1.195731461048126E-001;-1.196593584609218E-004;3.684663912281394E-003;
