# Hz S RI R 50
2400000000.0000000000 0.158984750509262112716513115629 0.062862843275070190429687500000 -0.001008024788461626009700156104 0.004816567059606313705444335938 0 0 0 0 
2400166666.6666665077 0.158666431903839111328125000000 0.061331745237112052226979841407 -0.000831893470603972673416137695 0.004898309241980314254760742188 0 0 0 0 
2400333333.3333334923 0.158481180667877197265625000000 0.059509526938199996948242187500 -0.000658184348139911890029907227 0.005007585976272821426391601562 0 0 0 0 
2400500000.0000000000 0.158398225903511102874432481258 0.057532582432031631469726562500 -0.000352174800354987382888793945 0.005058163311332464218139648438 0 0 0 0 
2400666666.6666665077 0.158364742994308499435263115629 0.055797275155782699584960937500 -0.000209490724955685409620562143 0.004975899588316679000854492188 0 0 0 0 
2400833333.3333334923 0.158435598015785189529580634371 0.053848799318075180053710937500 -0.000128819970996119109079083853 0.005075570661574602127075195312 0 0 0 0 
2401000000.0000000000 0.158224374055862399002236884371 0.051811631768941879272460937500 0.000038926897104829549789428711 0.005061728879809379577636718750 0 0 0 0 
2401166666.6666665077 0.158512905240058898925781250000 0.049695670604705810546875000000 0.000308499642414972186088562012 0.005068681202828884124755859375 0 0 0 0 
2401333333.3333334923 0.158486872911453302581463731258 0.047499440610408782958984375000 0.000531745143234729766845703125 0.005160290747880935668945312500 0 0 0 0 
2401500000.0000000000 0.158908084034919711013955634371 0.045491199940443038940429687500 0.000755377346649765968322753906 0.004949350841343402862548828125 0 0 0 0 
2401666666.6666665077 0.159118101000785799881143134371 0.043728839606046676635742187500 0.000969583983533084392547607422 0.004788635764271020889282226562 0 0 0 0 
2401833333.3333334923 0.159583851695060702224893134371 0.041434150189161300659179687500 0.001119666034355760054347372900 0.004823444876819849014282226562 0 0 0 0 
2402000000.0000000000 0.159790307283401489257812500000 0.039619315415620796894113908593 0.001356393098831176974652934497 0.004813727922737598419189453125 0 0 0 0 
2402166666.6666665077 0.160370871424674987792968750000 0.037489078938961029052734375000 0.001429059077054261944414448315 0.004915129859000444412231445312 0 0 0 0 
2402333333.3333334923 0.160592243075370788574218750000 0.035583339631557471538503278907 0.001655941014178097031236958081 0.004732361994683743390555097363 0 0 0 0 
2402500000.0000000000 0.161483064293861389160156250000 0.033891811966896057128906250000 0.001726519782096147970912314307 0.004688549321144819259643554688 0 0 0 0 
2402666666.6666665077 0.161998867988586398025674384371 0.031943924725055701518972028907 0.002180626615881919860839843750 0.004624144639819861325735761426 0 0 0 0 
2402833333.3333334923 0.162799313664436312576455634371 0.030152043327689170837402343750 0.002232925267890096144435263525 0.004681429825723171234130859375 0 0 0 0 
2403000000.0000000000 0.163441464304924011230468750000 0.028571754693984988821009451954 0.002434614812955259843113564600 0.004363590851426124572753906250 0 0 0 0 
2403166666.6666665077 0.164367601275444003006143134371 0.026830326765775680541992187500 0.002811993006616830825805664062 0.004354394041001796722412109375 0 0 0 0 
2403333333.3333334923 0.165181517601013211349325615629 0.025265080854296680795689766796 0.002871740842238069014308310400 0.004237886518239974975585937500 0 0 0 0 
2403500000.0000000000 0.165946364402770996093750000000 0.024027090519666668283482735546 0.002939043100923299789428710938 0.004090568516403436660766601562 0 0 0 0 
2403666666.6666665077 0.167035236954688998123330634371 0.022371776401996609079381173046 0.003192017553374170823338173975 0.003974929917603731155395507812 0 0 0 0 
2403833333.3333334923 0.167904928326606805999432481258 0.021040314808487888681431954296 0.003377348417416214942932128906 0.003884052624925971031188964844 0 0 0 0 
2404000000.0000000000 0.168936744332313509842080634371 0.019985187798738479614257812500 0.003362077986821531815769814600 0.003615894587710500197169638525 0 0 0 0 
2404166666.6666665077 0.169882759451866205413494981258 0.018738469108939170837402343750 0.003726566210389136834385537256 0.003460049396380782127380371094 0 0 0 0 
2404333333.3333334923 0.170697912573814392089843750000 0.017575431615114208566685860546 0.003872220870107411904575966943 0.003291045548394321961643838037 0 0 0 0 
2404500000.0000000000 0.171450257301330594161825615629 0.016542853787541389465332031250 0.004035963676869869232177734375 0.003065268043428659005406045068 0 0 0 0 
2404666666.6666665077 0.172732338309287997146768134371 0.015598235651850700378417968750 0.004134581889957190427298261426 0.002869767602533102035522460938 0 0 0 0 
2404833333.3333334923 0.173604965209960909744424384371 0.014798598363995550328264805273 0.004268914926797152432913495801 0.002673082752153276963474892725 0 0 0 0 
2405000000.0000000000 0.174352735280990600585937500000 0.013959556818008419382115548046 0.004268536344170570373535156250 0.002591541502624750137329101562 0 0 0 0 
2405166666.6666665077 0.175332024693489102462606865629 0.013286999426782129460344883398 0.004444116726517677307128906250 0.002352522220462561087367392432 0 0 0 0 
2405333333.3333334923 0.176113098859786987304687500000 0.012556522153317930048932460352 0.004486192017793655395507812500 0.002133431611582636833190917969 0 0 0 0 
2405500000.0000000000 0.177060097455978393554687500000 0.012107603251934049778948399023 0.004506837110966444015502929688 0.001920582028105854988098144531 0 0 0 0 
2405666666.6666665077 0.177635431289672907073651231258 0.011656370945274829864501953125 0.004641338251531124114990234375 0.001733294106088578917859721606 0 0 0 0 
2405833333.3333334923 0.178053677082061795333700615629 0.011347763240337370091448399023 0.004705159924924373626708984375 0.001549481297843158028246235425 0 0 0 0 
2406000000.0000000000 0.178782492876052911956463731258 0.010729632340371610468854335352 0.004768648184835910797119140625 0.001241210848093033053754496997 0 0 0 0 
2406166666.6666665077 0.179219335317611694335937500000 0.010550307109951969491978829296 0.004717618692666292190551757812 0.001234801253303885893580771338 0 0 0 0 
2406333333.3333334923 0.179849654436111505706463731258 0.010175342671573160344133945898 0.004840225446969270706176757812 0.000986669212579727172851562500 0 0 0 0 
2406500000.0000000000 0.180148154497146606445312500000 0.009720974601805210113525390625 0.004880130756646394729614257812 0.000668959051836282014846801758 0 0 0 0 
2406666666.6666665077 0.180383369326591491699218750000 0.009522729553282260894775390625 0.004887518007308244705200195312 0.000533450685907155275344848633 0 0 0 0 
2406833333.3333334923 0.180725172162055996993856865629 0.009038339368999004364013671875 0.004778683185577392578125000000 0.000417849514633417075306492938 0 0 0 0 
2407000000.0000000000 0.180881202220916803558026231258 0.008805860765278339385986328125 0.004995453637093305587768554688 0.000194444102817214998319902963 0 0 0 0 
2407166666.6666665077 0.181004926562309292892294365629 0.008474132977426052093505859375 0.004755817819386720657348632812 0.000048068679461721330881118774 0 0 0 0 
2407333333.3333334923 0.180903211236000088790731865629 0.008006677031517028808593750000 0.004873012658208608627319335938 -0.000218971428694203495979309082 0 0 0 0 
2407500000.0000000000 0.180731385946273803710937500000 0.007642190903425216674804687500 0.004870079923421145352835370801 -0.000471954030217602903216761456 0 0 0 0 
2407666666.6666665077 0.180595651268959100921307481258 0.007194913923740386962890625000 0.004869143012911081314086914062 -0.000636950309854000806808471680 0 0 0 0 
2407833333.3333334923 0.180220082402229309082031250000 0.006638675928115844726562500000 0.004787223413586617383475019238 -0.000913643685635179281234741211 0 0 0 0 
2408000000.0000000000 0.179993167519569396972656250000 0.006085510831326246261596679688 0.004737310111522675427908612988 -0.001050291000865400054334330981 0 0 0 0 
2408166666.6666665077 0.179540559649467496017294365629 0.005596294999122619628906250000 0.004521677736192941665649414062 -0.001296412316150963089586567456 0 0 0 0 
2408333333.3333334923 0.179342642426490811446981865629 0.004932945594191551208496093750 0.004512707237154245376586914062 -0.001547995954751967950108193506 0 0 0 0 
2408500000.0000000000 0.178720995783805902679119981258 0.003987215459346771240234375000 0.004506213124841451644897460938 -0.001620192546397448019740439307 0 0 0 0 
2408666666.6666665077 0.178229406476020812988281250000 0.003176799509674311117884970557 0.004498427733778954419607831738 -0.001893499167636037089704204028 0 0 0 0 
2408833333.3333334923 0.177607372403144808670205634371 0.002325105015188456015345908057 0.004108995664864779386038495801 -0.002159310970455408096313476562 0 0 0 0 
2409000000.0000000000 0.176908448338508605957031250000 0.001246904255822300910949707031 0.004050570074468851089477539062 -0.002249274402856827215907431494 0 0 0 0 
2409166666.6666665077 0.176421895623207092285156250000 0.000198859852389432489871978760 0.003944776952266693115234375000 -0.002351495437324047088623046875 0 0 0 0 
2409333333.3333334923 0.175820022821426391601562500000 -0.000958011834882199764251708984 0.003906333819031715393066406250 -0.002671000547707080841064453125 0 0 0 0 
2409500000.0000000000 0.174956277012825012207031250000 -0.002377055585384368896484375000 0.003655989654362202124354697119 -0.002690484281629323959350585938 0 0 0 0 
2409666666.6666665077 0.174118191003799410720986884371 -0.003641871735453606085536337744 0.003562987316399813132045126807 -0.002937393495813012123107910156 0 0 0 0 
2409833333.3333334923 0.173336341977119501311932481258 -0.005008101463317871093750000000 0.003300780197605491118190146338 -0.003045785240828990936279296875 0 0 0 0 
2410000000.0000000000 0.172892689704894991775674384371 -0.006348426919430494308471679688 0.003227866953238844871520996094 -0.003150525037199258804321289062 0 0 0 0 
2410166666.6666665077 0.172323405742645291427450615629 -0.007945625111460685729980468750 0.002995141083374619917628622900 -0.003181132022291421890258789062 0 0 0 0 
2410333333.3333334923 0.171516075730323791503906250000 -0.009494290687143802642822265625 0.002785180462524294853210449219 -0.003385127754881978034973144531 0 0 0 0 
2410500000.0000000000 0.171018928289413507659588731258 -0.011112899519503120077112967579 0.002710522385314106941223144531 -0.003525885753333569006678915869 0 0 0 0 
2410666666.6666665077 0.170316517353057889083700615629 -0.013010805472731590270996093750 0.002450895728543401198146201025 -0.003521087346598505973815917969 0 0 0 0 
2410833333.3333334923 0.170001327991485595703125000000 -0.014687015675008300435999686329 0.002386890351772307915928506006 -0.003641107119619845910313271631 0 0 0 0 
2411000000.0000000000 0.169414192438125610351562500000 -0.016502521932125091552734375000 0.002107197185978292985203408350 -0.003659275826066731972935341943 0 0 0 0 
2411166666.6666665077 0.169043496251106289962606865629 -0.018451387062668800354003906250 0.001901525654830038981196738135 -0.003714110469445586204528808594 0 0 0 0 
2411333333.3333334923 0.168721109628677395919638115629 -0.020231073722243309020996093750 0.001724660978652537085889506763 -0.003825557418167591094970703125 0 0 0 0 
2411500000.0000000000 0.168574690818786593338174384371 -0.022256206721067428588867187500 0.001430241274647414901136088794 -0.003756289370357989831211709131 0 0 0 0 
2411666666.6666665077 0.168402850627899197677450615629 -0.024168085306882858276367187500 0.001352833583950995965244912256 -0.003895523259416223006007529150 0 0 0 0 
2411833333.3333334923 0.168229997158050509353799384371 -0.026037851348519328725794608204 0.001272801775485276959062885815 -0.003822623519226909117457724463 0 0 0 0 
2412000000.0000000000 0.168219119310379000564736884371 -0.027942277491092678415318673046 0.000959472090471535921096801758 -0.003841385245323181152343750000 0 0 0 0 
2412166666.6666665077 0.168302044272422790527343750000 -0.029974156990647319448450858204 0.000743820914067327976226806641 -0.003930569160729646682739257812 0 0 0 0 
2412333333.3333334923 0.168584287166595486739950615629 -0.031729321926832199096679687500 0.000437330891145393306582850323 -0.003812029724940658049342490088 0 0 0 0 
2412500000.0000000000 0.168540909886360196212606865629 -0.033666804432868957519531250000 0.000148217615787871209069928580 -0.003885577898472547964808798682 0 0 0 0 
2412666666.6666665077 0.168747097253799410720986884371 -0.035612862557172782207448591407 0.000049389014748157933354377747 -0.003902563359588385061976767432 0 0 0 0 
2412833333.3333334923 0.169092550873756408691406250000 -0.037578154355287551879882812500 -0.000053853073040954768657684326 -0.003749520750716329054591513525 0 0 0 0 
2413000000.0000000000 0.169555380940437289138955634371 -0.039266031235456466674804687500 -0.000228781864279881092623034067 -0.003676243824884295897242880713 0 0 0 0 
2413166666.6666665077 0.169888302683830288986044365629 -0.041202217340469360351562500000 -0.000286945287371054291725158691 -0.003653995227068663077113486182 0 0 0 0 
2413333333.3333334923 0.170159369707107488434161268742 -0.042782787233591079711914062500 -0.000675161718390882015228271484 -0.003653806634247303009033203125 0 0 0 0 
2413500000.0000000000 0.170617759227752713302450615629 -0.044426005333662033081054687500 -0.000733104592654854059219360352 -0.003645634977146983146667480469 0 0 0 0 
2413666666.6666665077 0.171160385012626703460369981258 -0.046004757285118103027343750000 -0.000780374393798410892486572266 -0.003539054188877344131469726562 0 0 0 0 
2413833333.3333334923 0.171484738588333102127236884371 -0.047504298388957977294921875000 -0.001104910159483551979064941406 -0.003346321173012257055995322119 0 0 0 0 
2414000000.0000000000 0.172058686614036587814169365629 -0.049006320536136627197265625000 -0.001217820332385600046870566260 -0.003310654079541563987731933594 0 0 0 0 
2414166666.6666665077 0.172744423151016207595986884371 -0.050239469856023788452148437500 -0.001621339237317442893981933594 -0.003147297538816928863525390625 0 0 0 0 
2414333333.3333334923 0.173119932413101196289062500000 -0.051479566842317581176757812500 -0.001568509498611093001124716650 -0.003068656660616397857666015625 0 0 0 0 
2414500000.0000000000 0.173867493867874201018963731258 -0.052545767277479171752929687500 -0.001740007312037050940869975513 -0.002811665879562497138977050781 0 0 0 0 
2414666666.6666665077 0.174277290701866205413494981258 -0.053659386932849877094309221093 -0.001799408113583921952488564600 -0.002819217042997479005100869287 0 0 0 0 
2414833333.3333334923 0.174663543701171902755575615629 -0.054809652268886573101003278907 -0.001885350095108151002171181787 -0.002573931589722632928135537256 0 0 0 0 
2415000000.0000000000 0.175212919712066705901776231258 -0.055453766137361533428151716407 -0.001944636343978344960453652490 -0.002640913939103484153747558594 0 0 0 0 
2415166666.6666665077 0.175651073455810602386151231258 -0.056507300585508346557617187500 -0.001981873530894517898559570312 -0.002433131216093897819519042969 0 0 0 0 
2415333333.3333334923 0.176288172602653503417968750000 -0.057248633354902267456054687500 -0.002279567299410700798034667969 -0.002128715394064784049987792969 0 0 0 0 
2415500000.0000000000 0.176572725176811190506143134371 -0.057870037853717797016184221093 -0.002260945504531263871433877100 -0.002074318937957286834716796875 0 0 0 0 
2415666666.6666665077 0.176747635006904602050781250000 -0.058553479611873626708984375000 -0.002508874749764800071716308594 -0.002078822115436195893528603662 0 0 0 0 
2415833333.3333334923 0.177045330405235290527343750000 -0.059101287275552749633789062500 -0.002305966103449463844299316406 -0.001721064327284693934796977466 0 0 0 0 
2416000000.0000000000 0.177166923880577087402343750000 -0.059382010251283652568776716407 -0.002509450307115912003758095850 -0.001605309313163161060930561597 0 0 0 0 
2416166666.6666665077 0.177434623241424588302450615629 -0.059848077595233917236328125000 -0.002464987570419908003566122900 -0.001392779056914150931714702075 0 0 0 0 
2416333333.3333334923 0.177551105618476895431356865629 -0.060104768723249442363698591407 -0.002597541315481067137477255713 -0.001250715926289557976963662256 0 0 0 0 
2416500000.0000000000 0.177449390292167691329794365629 -0.060593590140342712402343750000 -0.002562541048973799185511923682 -0.001081115333363414027570414966 0 0 0 0 
2416666666.6666665077 0.177219033241272000411825615629 -0.060799036175012588500976562500 -0.002500998321920632882359170068 -0.000873094424605369567871093750 0 0 0 0 
2416833333.3333334923 0.177122876048088101486044365629 -0.061105679720640182495117187500 -0.002284827874973415894749306787 -0.000854512385558336973190307617 0 0 0 0 
2417000000.0000000000 0.176574692130088806152343750000 -0.061428178101778030395507812500 -0.002514834515750408172607421875 -0.000660628837067633867263793945 0 0 0 0 
2417166666.6666665077 0.176222711801528902908486884371 -0.061595324426889419555664062500 -0.002427228027954698042628622900 -0.000554797530639916658401489258 0 0 0 0 
2417333333.3333334923 0.175893023610115106780682481258 -0.061776354908943183208425153907 -0.002378690289333463148829794775 -0.000616954930592328310012817383 0 0 0 0 
2417500000.0000000000 0.175250485539436312576455634371 -0.062177713960409157489817033593 -0.002425577258691192106959677588 -0.000206749333301559090614318848 0 0 0 0 
2417666666.6666665077 0.174686476588249206542968750000 -0.062248315662145621562917341407 -0.002329202368855475945713662256 -0.000187853685929439989015302115 0 0 0 0 
2417833333.3333334923 0.173918068408966092208700615629 -0.062514007091522216796875000000 -0.002228630706667900085449218750 -0.000120225362479686696402965407 0 0 0 0 
2418000000.0000000000 0.173048153519630404373330634371 -0.062958613038063049316406250000 -0.002313415985554457144496298682 0.000138602554216049611568450928 0 0 0 0 
2418166666.6666665077 0.172198250889778109451455634371 -0.063077621161937713623046875000 -0.002177835674956440925598144531 0.000098870579677168279886245728 0 0 0 0 
2418333333.3333334923 0.171419546008110101897869981258 -0.063640899956226348876953125000 -0.002134784823283553123474121094 0.000291042495518922805786132812 0 0 0 0 
2418500000.0000000000 0.170361846685409601409588731258 -0.063944339752197265625000000000 -0.002135472139343618912937783350 0.000314902106765657717555445538 0 0 0 0 
2418666666.6666665077 0.169346228241920498946981865629 -0.064448185265064239501953125000 -0.002169476822018622918369912256 0.000413800851674750501483363019 0 0 0 0 
2418833333.3333334923 0.168092593550682095626669365629 -0.064913555979728698730468750000 -0.002001678338274360136744833838 0.000710822117980569601058959961 0 0 0 0 
2419000000.0000000000 0.167001023888588007171307481258 -0.065454706549644470214843750000 -0.001835666713304817893384623950 0.000656472577247768640518188477 0 0 0 0 
2419166666.6666665077 0.165976092219352694412393134371 -0.066197745501995086669921875000 -0.001808333094231783910038613428 0.000833705707918852567672729492 0 0 0 0 
2419333333.3333334923 0.164613664150238009353799384371 -0.066737249493598937988281250000 -0.001847150037065147919895791162 0.000855723745189607143402099609 0 0 0 0 
2419500000.0000000000 0.163518920540809603592080634371 -0.067551523447036743164062500000 -0.001786519540473818995832133716 0.000882846536114811897277832031 0 0 0 0 
2419666666.6666665077 0.162405982613563509842080634371 -0.068482212722301483154296875000 -0.001736450591124593994737934644 0.000983764184638857841491699219 0 0 0 0 
2419833333.3333334923 0.161118954420089693924111884371 -0.069244258105754852294921875000 -0.001493591931648551984074257959 0.001126971212215722040889120947 0 0 0 0 
