# Hz S RI R 50
2400000000.0000000000 0.155113145709037808517294365629 0.106501378118991893440004048443 0.002148568863049149946925497900 -0.005951633211225271224975585938 0 0 0 0 
2400166666.6666665077 0.154672339558601407150106865629 0.104079350829124506194744981258 0.001942699309438467025756835938 -0.005968770012259483337402343750 0 0 0 0 
2400333333.3333334923 0.154850885272026089767294365629 0.101819969713687896728515625000 0.002033896278589963912963867188 -0.005938965361565352353567792676 0 0 0 0 
2400500000.0000000000 0.154810711741447504241619981258 0.099047102034091949462890625000 0.001767794135957956097246479565 -0.006011454854160547256469726562 0 0 0 0 
2400666666.6666665077 0.155138731002807589431924384371 0.096585668623447418212890625000 0.001616638735868036963819194263 -0.006248707883059979352469159863 0 0 0 0 
2400833333.3333334923 0.154980421066284207443075615629 0.093599915504455566406250000000 0.001560816657729447104810405200 -0.006072126328945159912109375000 0 0 0 0 
2401000000.0000000000 0.155435726046562194824218750000 0.090708442032337188720703125000 0.001217950019054115035413432544 -0.006295780185610055923461914062 0 0 0 0 
2401166666.6666665077 0.155432358384132413009481865629 0.087940953671932220458984375000 0.001019908348098397038103413159 -0.006370217539370059967041015625 0 0 0 0 
2401333333.3333334923 0.155863314867019708831463731258 0.085203401744365692138671875000 0.000761340197641402482986450195 -0.006478753872215747833251953125 0 0 0 0 
2401500000.0000000000 0.156388640403747586349325615629 0.082228668034076690673828125000 0.000593178556300699710845947266 -0.006363956257700920104980468750 0 0 0 0 
2401666666.6666665077 0.156736746430397005935830634371 0.079581364989280700683593750000 0.000425858597736805677413940430 -0.007038405630737543106079101562 0 0 0 0 
2401833333.3333334923 0.157288402318954495529013115629 0.076873391866683959960937500000 -0.000356784235918894410133361816 -0.006655778270214796066284179688 0 0 0 0 
2402000000.0000000000 0.158616870641708401779013115629 0.074008770287036895751953125000 -0.000924724037759006023406982422 -0.006006471812725067138671875000 0 0 0 0 
2402166666.6666665077 0.159021198749542208572549384371 0.071520850062370300292968750000 -0.000831208832096308469772338867 -0.006545401178300380706787109375 0 0 0 0 
2402333333.3333334923 0.159925237298011807540731865629 0.068805605173110961914062500000 -0.000886415713466703891754150391 -0.006456884555518627166748046875 0 0 0 0 
2402500000.0000000000 0.161030694842338589767294365629 0.066078618168830871582031250000 -0.000593993288930505514144897461 -0.006341139320284128189086914062 0 0 0 0 
2402666666.6666665077 0.161951184272766113281250000000 0.064079448580741882324218750000 -0.001678100670687854073168110425 -0.006898162886500358581542968750 0 0 0 0 
2402833333.3333334923 0.163387984037399291992187500000 0.061619650572538382793386091407 -0.001947855344042181968688964844 -0.006423841696232557296752929688 0 0 0 0 
2403000000.0000000000 0.165054455399513189117755018742 0.059183016419410712505300153907 -0.002692091744393109841587685693 -0.005524462088942527770996093750 0 0 0 0 
2403166666.6666665077 0.166717588901519803146200615629 0.057024765759706497192382812500 -0.002479398157447576956508017432 -0.005487690214067698392386152051 0 0 0 0 
2403333333.3333334923 0.168064028024673489669638115629 0.054971221834421157836914062500 -0.003190011950209736824035644531 -0.005513662006705999374389648438 0 0 0 0 
2403500000.0000000000 0.169826492667198208907919365629 0.053016882389783859252929687500 -0.003450583899393678145167685400 -0.005205029156059026718139648438 0 0 0 0 
2403666666.6666665077 0.171543136239051791092080634371 0.051188241690397262573242187500 -0.003576241200789808793308877100 -0.005084514617919921875000000000 0 0 0 0 
2403833333.3333334923 0.173038929700851412674111884371 0.049411546438932418823242187500 -0.003605906851589680151698447119 -0.004662662278860807418823242188 0 0 0 0 
2404000000.0000000000 0.174540221691131591796875000000 0.047506690025329589843750000000 -0.003721656044945120811462402344 -0.004161993041634559631347656250 0 0 0 0 
2404166666.6666665077 0.176474139094352694412393134371 0.046018742024898529052734375000 -0.003749085823073983192443847656 -0.003734239144250750975367880713 0 0 0 0 
2404333333.3333334923 0.177911460399627713302450615629 0.044840063899755477905273437500 -0.003668429097160696983337402344 -0.003480312181636691093444824219 0 0 0 0 
2404500000.0000000000 0.179654464125633211990518134371 0.043487552553415298461914062500 -0.003545413026586174964904785156 -0.003219467820599675178527832031 0 0 0 0 
2404666666.6666665077 0.181226968765258789062500000000 0.042270436882972717285156250000 -0.003434619400650262832641601562 -0.003048404119908810095546103369 0 0 0 0 
2404833333.3333334923 0.182991981506347711761151231258 0.041322689503431320190429687500 -0.003458132268860936164855957031 -0.002905547153204679922816611182 0 0 0 0 
2405000000.0000000000 0.184150189161300686935263115629 0.040538031607866287231445312500 -0.003380105597898364067077636719 -0.002584415022283792929408408057 0 0 0 0 
2405166666.6666665077 0.185628265142440795898437500000 0.039908695966005332256276716407 -0.003167128888890147209167480469 -0.002477606991305946870091103662 0 0 0 0 
2405333333.3333334923 0.186976164579391507247763115629 0.039429519325494773174245466407 -0.003189796349033712907078408350 -0.002291844924911857084987021338 0 0 0 0 
2405500000.0000000000 0.188470736145973205566406250000 0.039059884846210479736328125000 -0.003045699559152125878574990381 -0.002338068326935172080993652344 0 0 0 0 
2405666666.6666665077 0.189522325992584200760049384371 0.038630425930023193359375000000 -0.002970851259306073188781738281 -0.002251929137855768203735351562 0 0 0 0 
2405833333.3333334923 0.190804466605186490157919365629 0.038423173129558563232421875000 -0.002967392560094594955444335938 -0.002291046082973479790928506006 0 0 0 0 
2406000000.0000000000 0.191808745265006991287393134371 0.038293618708848953247070312500 -0.002953535178676248030421591650 -0.002024878980591893196105957031 0 0 0 0 
2406166666.6666665077 0.192705303430557306487713731258 0.038022004067897796630859375000 -0.002698363969102501869201660156 -0.001881388598121703104731894385 0 0 0 0 
2406333333.3333334923 0.193587616086006192306356865629 0.038050923496484763408620466407 -0.002838664921000599861145019531 -0.001799342921003699085832905347 0 0 0 0 
2406500000.0000000000 0.194219917058944702148437500000 0.038049329072237021709401716407 -0.002749613486230372948887490381 -0.001755915000103414058685302734 0 0 0 0 
2406666666.6666665077 0.194872692227363586425781250000 0.038283284753561019897460937500 -0.002802614122629166083094931494 -0.001631434075534343936322856372 0 0 0 0 
2406833333.3333334923 0.195469900965690612792968750000 0.038069114089012152934987653907 -0.002603631233796476884129189600 -0.001534644048660994009730673682 0 0 0 0 
2407000000.0000000000 0.195641487836837796310263115629 0.038390722125768661499023437500 -0.002404635539278388023376464844 -0.001525474013760685920715332031 0 0 0 0 
2407166666.6666665077 0.196090385317802401443643134371 0.038041461259126663208007812500 -0.002448678947985171838047646631 -0.001574188005179167010663676685 0 0 0 0 
2407333333.3333334923 0.195958927273750305175781250000 0.038147743791341781616210937500 -0.002209390746429563002345419775 -0.001584180747158824963810586084 0 0 0 0 
2407500000.0000000000 0.195836886763572692871093750000 0.038219027221202850341796875000 -0.002124962396919726891758584131 -0.001589600346051156954524374854 0 0 0 0 
2407666666.6666665077 0.195878416299820001800213731258 0.038168516010046012187917341407 -0.002140019554644823074340820312 -0.001629118341952561898472451318 0 0 0 0 
2407833333.3333334923 0.195435345172882107833700615629 0.037942245602607727050781250000 -0.001857648603618144989013671875 -0.001492980401962995962855673682 0 0 0 0 
2408000000.0000000000 0.195325270295143099685830634371 0.037668101489543921733815778907 -0.001794452546164392991306923975 -0.001737007754854857921600341797 0 0 0 0 
2408166666.6666665077 0.194749534130096407791299384371 0.037382688373327262187917341407 -0.001856007613241672949550009619 -0.001831382978707551956176757812 0 0 0 0 
2408333333.3333334923 0.194235071539878900725994981258 0.036765530705451972270925153907 -0.001884342753328382968902587891 -0.001903719385154545090318989331 0 0 0 0 
2408500000.0000000000 0.193463250994682312011718750000 0.036572039127349846576731096093 -0.001678847940638660950901650537 -0.001838175463490187904955219800 0 0 0 0 
2408666666.6666665077 0.192835316061973599532919365629 0.035934593528509140014648437500 -0.001695746788755059025408100659 -0.002099268138408660888671875000 0 0 0 0 
2408833333.3333334923 0.192158773541450500488281250000 0.035080011934041976928710937500 -0.001759248669259249947191547925 -0.002209689468145370917079306494 0 0 0 0 
2409000000.0000000000 0.191273763775825500488281250000 0.034150853753089911724050153907 -0.001885127392597496943232870947 -0.002375968266278504891636513818 0 0 0 0 
2409166666.6666665077 0.190322324633598299881143134371 0.033044058829545981670339216407 -0.001906862249597907066345214844 -0.002636217512190341949462890625 0 0 0 0 
2409333333.3333334923 0.189371228218078613281250000000 0.031973071396350860595703125000 -0.001937463879585265896440815503 -0.002599783940240741209742880713 0 0 0 0 
2409500000.0000000000 0.188396647572517395019531250000 0.030647693201899528503417968750 -0.002278087893500924110412597656 -0.002739089075475931167602539062 0 0 0 0 
2409666666.6666665077 0.187474310398101806640625000000 0.029212085530161861074427420704 -0.002284368500113486809971474756 -0.002852719044312835173365927588 0 0 0 0 
2409833333.3333334923 0.186294496059417696853799384371 0.027787873521447181701660156250 -0.002448125742375851111171103369 -0.002920071361586451964137411963 0 0 0 0 
2410000000.0000000000 0.185315728187561007400674384371 0.026110386475920680654505545704 -0.002631715731695293946507119287 -0.002888504648581147193908691406 0 0 0 0 
2410166666.6666665077 0.184281334280967712402343750000 0.024146430194377899169921875000 -0.002656157827004789872410439600 -0.002766971942037343978881835938 0 0 0 0 
2410333333.3333334923 0.183358281850814791580361884371 0.022387627512216571462611014454 -0.003099849447607994079589843750 -0.002964633284136652946472167969 0 0 0 0 
2410500000.0000000000 0.182505667209625188629473768742 0.020522307604551318777064139454 -0.002995136193931103186366415869 -0.003056487301364541053771972656 0 0 0 0 
2410666666.6666665077 0.181572198867797907073651231258 0.018236769363284111022949218750 -0.003248534398153423829319619287 -0.002901672152802348136901855469 0 0 0 0 
2410833333.3333334923 0.180967316031455993652343750000 0.015866082161664959299107735546 -0.003662438830360769791844033350 -0.002934906398877501921412802588 0 0 0 0 
2411000000.0000000000 0.180181458592414911468182481258 0.013707048259675499307652657421 -0.003702619113028049902675009619 -0.003014360088855028152465820312 0 0 0 0 
2411166666.6666665077 0.179676800966262789627236884371 0.011604069732129570352574532421 -0.003765268949791789054870605469 -0.002837405307218431992771767725 0 0 0 0 
2411333333.3333334923 0.179105877876281710525674384371 0.009037234820425510406494140625 -0.004034996032714843750000000000 -0.002823862247169017791748046875 0 0 0 0 
2411500000.0000000000 0.178725287318229703048544365629 0.006724695209413766860961914062 -0.004209248349070549011230468750 -0.002803907962515950202941894531 0 0 0 0 
2411666666.6666665077 0.178517624735832186599893134371 0.004425319842994213104248046875 -0.004529732745140790939331054688 -0.002808202989399433135986328125 0 0 0 0 
2411833333.3333334923 0.178157791495323208907919365629 0.002054564421996473832371377100 -0.004855569452047348022460937500 -0.002746144076809287071228027344 0 0 0 0 
2412000000.0000000000 0.178256273269653292556924384371 -0.000473341671749949509471339093 -0.004928751848638057708740234375 -0.002613100223243236975428915869 0 0 0 0 
2412166666.6666665077 0.178464934229850796798544365629 -0.002895470941439270973205566406 -0.005342015530914068222045898438 -0.002434285357594490051269531250 0 0 0 0 
2412333333.3333334923 0.178737640380859402755575615629 -0.005286091007292270660400390625 -0.005596721544861794385428144238 -0.002331558382138609886169433594 0 0 0 0 
2412500000.0000000000 0.179080709815025301834268134371 -0.007630885113030672073364257812 -0.005867414642125368118286132812 -0.002018524101004004912135458838 0 0 0 0 
2412666666.6666665077 0.179565221071243286132812500000 -0.010147788561880590266217616602 -0.005980422720313072204589843750 -0.001811352442018687941907573169 0 0 0 0 
2412833333.3333334923 0.180441215634346008300781250000 -0.012316846288740640122383318555 -0.006263504736125469207763671875 -0.001697768340818583965301513672 0 0 0 0 
2413000000.0000000000 0.181109637022018404861611884371 -0.014864727854728700465192225977 -0.006511518731713294982910156250 -0.001391830155625938935520791162 0 0 0 0 
2413166666.6666665077 0.181911736726760892013388115629 -0.017162384465336799621582031250 -0.006768076680600643157958984375 -0.001107386895455420017242431641 0 0 0 0 
2413333333.3333334923 0.182814612984657287597656250000 -0.019259471446275711059570312500 -0.007024741731584072113037109375 -0.000603721127845346927642822266 0 0 0 0 
2413500000.0000000000 0.183738812804222106933593750000 -0.021556014195084568368931954296 -0.007103398907929658889770507812 -0.000486803066451102495193481445 0 0 0 0 
2413666666.6666665077 0.184961155056953402420205634371 -0.023586682975292209279993826954 -0.007232344709336757659912109375 0.000278606428764760494232177734 0 0 0 0 
2413833333.3333334923 0.186087518930435208419638115629 -0.025531381368637088430384451954 -0.007341066841036081314086914062 0.000570925069041550159454345703 0 0 0 0 
2414000000.0000000000 0.187185153365135192871093750000 -0.027390444651246070861816406250 -0.007351227104663848876953125000 0.001262622303329407951952290112 0 0 0 0 
2414166666.6666665077 0.188377246260643005371093750000 -0.029087238013744350778599923046 -0.007165660616010428342337323926 0.001541909994557500102399516528 0 0 0 0 
2414333333.3333334923 0.189496189355850191970986884371 -0.030967008322477340698242187500 -0.007274470757693052291870117188 0.002086120191961526870727539062 0 0 0 0 
2414500000.0000000000 0.190803393721580505371093750000 -0.032346941530704498291015625000 -0.006955873221158981323242187500 0.002465822035446763038635253906 0 0 0 0 
2414666666.6666665077 0.192016273736953707595986884371 -0.033926844596862792968750000000 -0.006919059436768293380737304688 0.002921783830970526175258017432 0 0 0 0 
2414833333.3333334923 0.193095207214355496505575615629 -0.035115975886583328247070312500 -0.006674456410109996795654296875 0.003225689753890037970301962744 0 0 0 0 
2415000000.0000000000 0.194163396954536410232705634371 -0.036486111581325531005859375000 -0.006310786586254835128784179688 0.003516086377203464941737509619 0 0 0 0 
2415166666.6666665077 0.195535331964492797851562500000 -0.037460125982761383056640625000 -0.006216188427060843381399823926 0.003774393117055296897888183594 0 0 0 0 
2415333333.3333334923 0.196391254663467407226562500000 -0.038399815559387207031250000000 -0.005953700747340917587280273438 0.004030822310596705350393964551 0 0 0 0 
2415500000.0000000000 0.197625383734703091720419365629 -0.038966786116361618041992187500 -0.005556380376219750318045331738 0.004246116150170564651489257812 0 0 0 0 
2415666666.6666665077 0.198692172765731811523437500000 -0.039986822754144668579101562500 -0.005222882609814404573922441699 0.004552073311060667037963867188 0 0 0 0 
2415833333.3333334923 0.199398040771484402755575615629 -0.040454503148794167255442033593 -0.005047041457146406173706054688 0.004737604875117540359497070312 0 0 0 0 
2416000000.0000000000 0.200227066874504089355468750000 -0.041104704141616821289062500000 -0.004746248479932546615600585938 0.004998960997909308347220136426 0 0 0 0 
2416166666.6666665077 0.200947314500808688064736884371 -0.041572872549295432353932966407 -0.004628005437552928924560546875 0.005113782826811075210571289062 0 0 0 0 
2416333333.3333334923 0.201555550098419189453125000000 -0.041940849274396903301198591407 -0.004299140535295009613037109375 0.005305566359311342239379882812 0 0 0 0 
2416500000.0000000000 0.202041909098625210861044365629 -0.042192764580249793315847028907 -0.003903736360371112823486328125 0.005471741780638694763183593750 0 0 0 0 
2416666666.6666665077 0.202315926551818903167401231258 -0.042503174394369132305104841407 -0.003621826646849513053894042969 0.005585739389061927795410156250 0 0 0 0 
2416833333.3333334923 0.202418923377990694900674384371 -0.042623225599527359008789062500 -0.003346977988258004188537597656 0.005581132136285305023193359375 0 0 0 0 
2417000000.0000000000 0.202482387423515292068643134371 -0.042647864669561393047292341407 -0.002910665702074766159057617188 0.005845252424478530883789062500 0 0 0 0 
2417166666.6666665077 0.202324211597442599197549384371 -0.042696576565504067157785783593 -0.002629106165841221809387207031 0.005818543490022420883178710938 0 0 0 0 
2417333333.3333334923 0.201958283782005310058593750000 -0.042524490505456917499582658593 -0.002295117592439055009129189600 0.005862898658961057662963867188 0 0 0 0 
2417500000.0000000000 0.201527863740920992752236884371 -0.042593572288751602172851562500 -0.001825129846110939979553222656 0.005878968629986047744750976562 0 0 0 0 
2417666666.6666665077 0.201088428497314508636151231258 -0.042433422058820717548410783593 -0.001619872287847101905225444263 0.005849862471222878369803144238 0 0 0 0 
2417833333.3333334923 0.200617566704750088790731865629 -0.042297229170799262309987653907 -0.001296491129323839924455952222 0.005622039549052715301513671875 0 0 0 0 
2418000000.0000000000 0.199972465634346008300781250000 -0.042051896452903747558593750000 -0.001017527887597680091857910156 0.005530030932277441024780273438 0 0 0 0 
2418166666.6666665077 0.199020624160766601562500000000 -0.042008571326732642436940778907 -0.000680803903378546237945556641 0.005490818526595830917358398438 0 0 0 0 
2418333333.3333334923 0.198058217763900812347088731258 -0.041924204677343368530273437500 -0.000503834686242043972015380859 0.005407430697232484817504882812 0 0 0 0 
2418500000.0000000000 0.197104349732398986816406250000 -0.042117718607187271118164062500 -0.000306082569295540506213587628 0.005124477203935384750366210938 0 0 0 0 
2418666666.6666665077 0.196096315979957608321981865629 -0.041917461901903152465820312500 -0.000225535812205635011196136475 0.004967299290001392364501953125 0 0 0 0 
2418833333.3333334923 0.194801375269889803787393134371 -0.042131546884775161743164062500 -0.000100298297184053794898171696 0.004791636951267719268798828125 0 0 0 0 
2419000000.0000000000 0.193493440747261102874432481258 -0.042431835085153579711914062500 0.000145807905937545001506805420 0.004448036197572947415823652051 0 0 0 0 
2419166666.6666665077 0.192200705409049987792968750000 -0.042733997106552117084543596093 0.000315387616865336894989013672 0.004467409104108810424804687500 0 0 0 0 
2419333333.3333334923 0.190714180469512911697549384371 -0.043281193822622299194335937500 0.000488246267195791006088256836 0.004259766079485416412353515625 0 0 0 0 
2419500000.0000000000 0.189256280660629300216513115629 -0.043744571506977081298828125000 0.000507266609929502010345458984 0.004011900164186955365652753613 0 0 0 0 
2419666666.6666665077 0.187606990337371798416299384371 -0.044464357197284698486328125000 0.000583860673941671848297119141 0.003875357331708074049708701025 0 0 0 0 
2419833333.3333334923 0.185969546437263488769531250000 -0.045203983783721916889231096093 0.000581236614380031824111938477 0.003903351724147797064540243994 0 0 0 0 
