# Version 1.00
#
freq[Hz];re:Trc1_S11;im:Trc1_S11;re:Trc2_S21;im:Trc2_S21;
2.400000000000000E+009;1.559646278619766E-001;1.111325025558472E-001;-4.076019395142794E-003;2.170656109228730E-003;
2.400166666666667E+009;1.554732918739319E-001;1.088434830307961E-001;-3.954508341848850E-003;2.419951371848583E-003;
2.400333333333334E+009;1.550351530313492E-001;1.065516993403435E-001;-3.861244069412351E-003;2.535186009481549E-003;
2.400500000000000E+009;1.547100245952606E-001;1.039336025714874E-001;-3.901953808963299E-003;2.664008410647512E-003;
2.400666666666667E+009;1.546179354190826E-001;1.014807298779488E-001;-3.853353438898921E-003;2.699445001780987E-003;
2.400833333333334E+009;1.542699038982391E-001;9.856372326612473E-002;-3.617074806243181E-003;2.906866837292910E-003;
2.401000000000000E+009;1.543484479188919E-001;9.575892239809036E-002;-3.562148660421372E-003;3.011361695826054E-003;
2.401166666666667E+009;1.540257781744003E-001;9.292060881853104E-002;-3.357382956892252E-003;3.138149389997125E-003;
2.401333333333334E+009;1.542066484689713E-001;8.995639532804489E-002;-3.164755180478096E-003;3.158829407766461E-003;
2.401500000000000E+009;1.544169038534164E-001;8.680155873298645E-002;-3.214020747691393E-003;3.370002144947648E-003;
2.401666666666667E+009;1.545326113700867E-001;8.396142721176148E-002;-3.005241043865681E-003;3.435693681240082E-003;
2.401833333333334E+009;1.547697931528091E-001;8.107659965753555E-002;-2.864963840693235E-003;3.534309333190322E-003;
2.402000000000000E+009;1.553177088499069E-001;7.803756743669510E-002;-2.567532937973738E-003;3.565703285858035E-003;
2.402166666666667E+009;1.559561192989349E-001;7.522422075271606E-002;-2.545296913012862E-003;3.601384349167347E-003;
2.402333333333334E+009;1.568532884120941E-001;7.227266579866409E-002;-2.336516743525863E-003;3.682666225358844E-003;
2.402500000000000E+009;1.577139794826508E-001;6.971965730190277E-002;-2.253869548439980E-003;3.844306338578463E-003;
2.402666666666667E+009;1.587389707565308E-001;6.700536608695984E-002;-2.113467082381249E-003;3.899538423866034E-003;
2.402833333333334E+009;1.600639671087265E-001;6.419684737920761E-002;-1.710907206870616E-003;3.785424400120974E-003;
2.403000000000000E+009;1.613881438970566E-001;6.162460893392563E-002;-1.510878792032599E-003;3.806875552982092E-003;
2.403166666666667E+009;1.629848480224609E-001;5.909775942564011E-002;-1.373037346638739E-003;3.745510941371322E-003;
2.403333333333334E+009;1.642213612794876E-001;5.687023699283600E-002;-1.182536943815649E-003;3.779606427997351E-003;
2.403500000000000E+009;1.660946756601334E-001;5.448901280760765E-002;-1.040248898789287E-003;3.601741278544068E-003;
2.403666666666667E+009;1.678836941719055E-001;5.241940915584564E-002;-7.161266403272748E-004;3.416139166802168E-003;
2.403833333333334E+009;1.697209775447846E-001;5.016963183879852E-002;-8.066067821346223E-004;3.233408555388451E-003;
2.404000000000000E+009;1.712703257799149E-001;4.809483513236046E-002;-6.898650317452848E-004;3.080118447542191E-003;
2.404166666666667E+009;1.732305437326431E-001;4.655912891030312E-002;-7.735377876088023E-004;3.117083106189966E-003;
2.404333333333334E+009;1.748899668455124E-001;4.480402916669846E-002;-7.383187767118216E-004;3.005873644724488E-003;
2.404500000000000E+009;1.767023205757141E-001;4.317876696586609E-002;-6.827467004768550E-004;3.054414177313447E-003;
2.404666666666667E+009;1.787169575691223E-001;4.196526855230331E-002;-7.716720574535430E-004;2.844597212970257E-003;
2.404833333333334E+009;1.803399622440338E-001;4.076685383915901E-002;-7.873423746787012E-004;3.062258241698146E-003;
2.405000000000000E+009;1.820428073406220E-001;3.998767212033272E-002;-7.316943956539035E-004;3.069898113608360E-003;
2.405166666666667E+009;1.836039870977402E-001;3.920831531286240E-002;-7.380443857982755E-004;3.037116024643183E-003;
2.405333333333334E+009;1.853632777929306E-001;3.868206217885017E-002;-6.521741161122918E-004;3.065180964767933E-003;
2.405500000000000E+009;1.871484369039536E-001;3.816874325275421E-002;-6.455287802964449E-004;3.080947091802955E-003;
2.405666666666667E+009;1.885379403829575E-001;3.765721619129181E-002;-5.467040464282036E-004;3.203588537871838E-003;
2.405833333333334E+009;1.901140958070755E-001;3.750419244170189E-002;-3.896212438121438E-004;3.107517957687378E-003;
2.406000000000000E+009;1.913706064224243E-001;3.745263069868088E-002;-3.949546953663230E-004;3.231801092624664E-003;
2.406166666666667E+009;1.926972270011902E-001;3.727370500564575E-002;-2.741359930951148E-004;3.173722419887781E-003;
2.406333333333334E+009;1.937553882598877E-001;3.739660605788231E-002;-1.096344931283966E-004;3.198601771146059E-003;
2.406500000000000E+009;1.949277520179749E-001;3.756407648324966E-002;-1.631820050533861E-004;3.045805031433702E-003;
2.406666666666667E+009;1.957607716321945E-001;3.785147890448570E-002;-1.573033950990066E-004;3.082525916397572E-003;
2.406833333333334E+009;1.965577751398087E-001;3.805011883378029E-002;-6.129239045549184E-005;2.809358295053244E-003;
2.407000000000000E+009;1.970664262771606E-001;3.846424072980881E-002;6.909503281349316E-005;2.994605805724859E-003;
2.407166666666667E+009;1.976031064987183E-001;3.854138776659966E-002;8.211351814679802E-005;2.881596563383937E-003;
2.407333333333334E+009;1.977675408124924E-001;3.893369808793068E-002;-3.773943035412231E-006;2.769575454294682E-003;
2.407500000000000E+009;1.979834884405136E-001;3.924485668540001E-002;-7.019987970124930E-005;2.859794301912189E-003;
2.407666666666667E+009;1.983031779527664E-001;3.942517936229706E-002;-2.174909168388695E-004;2.829987788572907E-003;
2.407833333333334E+009;1.978807598352432E-001;3.977039456367493E-002;-1.346958015346900E-004;3.021355951204896E-003;
2.408000000000000E+009;1.979391127824783E-001;3.992311283946037E-002;-9.544778004055843E-005;3.105558454990387E-003;
2.408166666666667E+009;1.969636231660843E-001;3.977432847023010E-002;3.541401820257306E-004;3.097122069448233E-003;
2.408333333333334E+009;1.971495300531387E-001;3.933396562933922E-002;-1.284172612940893E-004;3.666127566248179E-003;
2.408500000000000E+009;1.965767741203308E-001;3.956768289208412E-002;-1.337362919002771E-004;3.587199375033379E-003;
2.408666666666667E+009;1.958414763212204E-001;3.972293063998222E-002;-8.593028906034306E-005;3.113553626462817E-003;
2.408833333333334E+009;1.950661689043045E-001;3.929778560996056E-002;9.077638969756663E-005;3.287318861111999E-003;
2.409000000000000E+009;1.937746703624725E-001;3.837329149246216E-002;2.874346391763538E-004;3.831100184470415E-003;
2.409166666666667E+009;1.931681931018829E-001;3.798202425241470E-002;1.027256348606898E-005;3.487532492727041E-003;
2.409333333333334E+009;1.921649575233460E-001;3.733194246888161E-002;8.797303053142969E-006;3.593771019950509E-003;
2.409500000000000E+009;1.908189505338669E-001;3.633680194616318E-002;4.587709263432771E-004;3.566267900168896E-003;
2.409666666666667E+009;1.899324953556061E-001;3.502702340483666E-002;4.721418081317097E-004;3.884508740156889E-003;
2.409833333333334E+009;1.885419785976410E-001;3.369573876261711E-002;7.483595400117338E-004;3.847663057968020E-003;
2.410000000000000E+009;1.873992979526520E-001;3.227861598134041E-002;8.150338544510305E-004;3.999928012490273E-003;
2.410166666666667E+009;1.861599087715149E-001;3.076940588653088E-002;1.026882557198405E-003;3.995351027697325E-003;
2.410333333333334E+009;1.849721968173981E-001;2.912814915180206E-002;1.063721487298608E-003;4.052849952131510E-003;
2.410500000000000E+009;1.836399286985397E-001;2.731324173510075E-002;1.372292404994369E-003;4.095031414180994E-003;
2.410666666666667E+009;1.824118643999100E-001;2.518945187330246E-002;1.485550659708679E-003;4.013623110949993E-003;
2.410833333333334E+009;1.816553473472595E-001;2.309913188219070E-002;1.775130862370133E-003;4.040547646582127E-003;
2.411000000000000E+009;1.806655973196030E-001;2.082303911447525E-002;1.783901592716575E-003;3.899533534422517E-003;
2.411166666666667E+009;1.797901540994644E-001;1.869848929345608E-002;2.311139134690166E-003;4.015425685793161E-003;
2.411333333333334E+009;1.790954619646072E-001;1.620321534574032E-002;2.284641610458493E-003;3.815252333879471E-003;
2.411500000000000E+009;1.782988011837006E-001;1.371863391250372E-002;2.454989822581410E-003;3.844239283353090E-003;
2.411666666666667E+009;1.780131012201309E-001;1.141031272709370E-002;2.519318368285894E-003;3.761078231036663E-003;
2.411833333333334E+009;1.773159056901932E-001;8.811403065919876E-003;2.722759731113911E-003;3.618901828303933E-003;
2.412000000000000E+009;1.775142997503281E-001;6.094532553106546E-003;2.866093767806888E-003;3.609320148825645E-003;
2.412166666666667E+009;1.771252155303955E-001;3.893809393048286E-003;2.831369638442993E-003;3.521144855767489E-003;
2.412333333333334E+009;1.772600561380386E-001;1.056787674315274E-003;3.265327075496316E-003;3.458963241428137E-003;
2.412500000000000E+009;1.777895390987396E-001;-1.491021714173257E-003;3.203414613381028E-003;3.266565734520555E-003;
2.412666666666667E+009;1.778339445590973E-001;-4.229082725942135E-003;3.486705245450139E-003;3.338843351230025E-003;
2.412833333333334E+009;1.785120964050293E-001;-6.768251303583384E-003;3.687186399474740E-003;3.125461284071207E-003;
2.413000000000000E+009;1.790720075368881E-001;-9.296798147261143E-003;3.861115314066410E-003;2.944883191958070E-003;
2.413166666666667E+009;1.799434125423431E-001;-1.160155609250069E-002;4.238441586494446E-003;2.845211653038859E-003;
2.413333333333334E+009;1.809011697769165E-001;-1.435054279863834E-002;4.241065587848425E-003;2.448659855872393E-003;
2.413500000000000E+009;1.817063391208649E-001;-1.672949641942978E-002;4.433204885572195E-003;2.258590189740062E-003;
2.413666666666667E+009;1.829893738031387E-001;-1.930015534162521E-002;4.491738043725491E-003;1.948165707290173E-003;
2.413833333333334E+009;1.841541826725006E-001;-2.166702039539814E-002;4.518588539212942E-003;1.592194545082748E-003;
2.414000000000000E+009;1.853227019309998E-001;-2.369436994194984E-002;4.647858440876007E-003;1.563993282616139E-003;
2.414166666666667E+009;1.866863667964935E-001;-2.586622349917889E-002;4.488836973905563E-003;1.112208585254848E-003;
2.414333333333334E+009;1.877231597900391E-001;-2.805999666452408E-002;4.579466767609119E-003;7.899897173047066E-004;
2.414500000000000E+009;1.892770379781723E-001;-2.975281700491905E-002;4.571130499243736E-003;6.287608994171023E-004;
2.414666666666667E+009;1.906976103782654E-001;-3.138824179768562E-002;4.351597744971514E-003;4.616460355464369E-004;
2.414833333333334E+009;1.920002847909927E-001;-3.297710418701172E-002;4.367463756352663E-003;3.647286503110081E-004;
2.415000000000000E+009;1.934155076742172E-001;-3.438497334718704E-002;4.075541161000729E-003;1.902234907902312E-005;
2.415166666666667E+009;1.949115693569183E-001;-3.587059304118156E-002;4.123835358768702E-003;-7.235966040752828E-005;
2.415333333333334E+009;1.962919086217880E-001;-3.692639246582985E-002;3.945865202695131E-003;-2.166405902244151E-004;
2.415500000000000E+009;1.976454704999924E-001;-3.777223452925682E-002;3.833101829513907E-003;-3.211439179722220E-004;
2.415666666666667E+009;1.990632116794586E-001;-3.869228437542915E-002;3.726088907569647E-003;-3.998764150310308E-004;
2.415833333333334E+009;2.001186013221741E-001;-3.937584161758423E-002;3.717476269230247E-003;-5.407467251643539E-004;
2.416000000000000E+009;2.011493742465973E-001;-4.012233391404152E-002;3.534469287842512E-003;-7.837031735107303E-004;
2.416166666666667E+009;2.021736800670624E-001;-4.076657816767693E-002;3.346988232806325E-003;-8.711011032573879E-004;
2.416333333333334E+009;2.030686438083649E-001;-4.105905070900917E-002;3.268075874075294E-003;-1.013215864077210E-003;
2.416500000000000E+009;2.038517445325851E-001;-4.134900495409966E-002;3.111892146989703E-003;-1.126781455241144E-003;
2.416666666666667E+009;2.044619917869568E-001;-4.162859171628952E-002;2.913511823862791E-003;-9.233584278263152E-004;
2.416833333333334E+009;2.049186229705811E-001;-4.155327752232552E-002;2.732520224526525E-003;-9.380956762470305E-004;
2.417000000000000E+009;2.053587138652802E-001;-4.175082966685295E-002;2.658785087987781E-003;-1.044810982421041E-003;
2.417166666666667E+009;2.053950875997543E-001;-4.149755090475082E-002;2.471276791766286E-003;-9.305847343057394E-004;
2.417333333333334E+009;2.054170817136765E-001;-4.119839519262314E-002;2.446985570713878E-003;-8.746297098696232E-004;
2.417500000000000E+009;2.054005861282349E-001;-4.110772535204887E-002;2.372973598539829E-003;-8.307431126013398E-004;
2.417666666666667E+009;2.051330059766769E-001;-4.076192528009415E-002;2.204184420406818E-003;-7.881405763328075E-004;
2.417833333333334E+009;2.049746662378311E-001;-4.043326154351234E-002;2.244731644168496E-003;-6.833430379629135E-004;
2.418000000000000E+009;2.044484019279480E-001;-3.998991847038269E-002;2.157210605219007E-003;-7.111876620911062E-004;
2.418166666666667E+009;2.038089036941528E-001;-3.972232341766357E-002;2.236657775938511E-003;-5.697943852283061E-004;
2.418333333333334E+009;2.030731886625290E-001;-3.931405022740364E-002;2.411779016256332E-003;-4.545888223219663E-004;
2.418500000000000E+009;2.023421674966812E-001;-3.919618949294090E-002;2.337617799639702E-003;-3.702416724991053E-004;
2.418666666666667E+009;2.015228420495987E-001;-3.882735222578049E-002;2.493341686204076E-003;-4.932002630084753E-004;
2.418833333333334E+009;2.003427147865295E-001;-3.879517689347267E-002;2.447483828291297E-003;-4.509561113081873E-004;
2.419000000000000E+009;1.991286575794220E-001;-3.880812227725983E-002;2.359804930165410E-003;-4.130161250941455E-004;
2.419166666666667E+009;1.978649646043778E-001;-3.891501948237419E-002;2.453481312841177E-003;-4.914751625619829E-004;
2.419333333333334E+009;1.964305341243744E-001;-3.921262174844742E-002;2.602043095976114E-003;-4.527308919932693E-004;
2.419500000000000E+009;1.950449496507645E-001;-3.938678279519081E-002;2.631790237501264E-003;-4.471286083571613E-004;
2.419666666666667E+009;1.932958811521530E-001;-3.994058817625046E-002;2.702954458072782E-003;-5.014306516386569E-004;
2.419833333333334E+009;1.916058510541916E-001;-4.050185531377792E-002;2.706707455217838E-003;-4.373916017357260E-004;
2.420000000000000E+009;1.899894624948502E-001;-4.137873277068138E-002;2.833592705428600E-003;-5.335832247510552E-004;
2.420166666666667E+009;1.881926059722900E-001;-4.198451712727547E-002;2.804776420816779E-003;-5.499969120137394E-004;
2.420333333333334E+009;1.864079684019089E-001;-4.307987913489342E-002;2.992143854498863E-003;-5.307403625920415E-004;
2.420500000000000E+009;1.846113502979279E-001;-4.416700452566147E-002;3.030078951269388E-003;-5.804507527500391E-004;
2.420666666666667E+009;1.829446107149124E-001;-4.520541429519653E-002;3.032940439879894E-003;-7.248756592161953E-004;
2.420833333333334E+009;1.810573786497116E-001;-4.653839766979218E-002;3.342818235978484E-003;-7.594882627017796E-004;
2.421000000000000E+009;1.793298572301865E-001;-4.826265573501587E-002;3.312075743451715E-003;-8.765346719883382E-004;
2.421166666666667E+009;1.777992695569992E-001;-4.984507337212563E-002;3.245823550969362E-003;-9.850400965660811E-004;
2.421333333333334E+009;1.759358197450638E-001;-5.161515250802040E-002;3.477360820397735E-003;-1.098715234547854E-003;
2.421500000000000E+009;1.743485927581787E-001;-5.347852408885956E-002;3.502764739096165E-003;-1.227968023158610E-003;
2.421666666666667E+009;1.729084551334381E-001;-5.541282519698143E-002;3.597885835915804E-003;-1.247297623194754E-003;
2.421833333333334E+009;1.715649515390396E-001;-5.724978446960449E-002;3.516583470627666E-003;-1.403992762789130E-003;
2.422000000000000E+009;1.699830144643784E-001;-5.936111882328987E-002;3.680548863485456E-003;-1.608356018550694E-003;
2.422166666666667E+009;1.690391004085541E-001;-6.153969839215279E-002;3.469739342108369E-003;-1.742914319038391E-003;
2.422333333333334E+009;1.678988039493561E-001;-6.371578574180603E-002;3.714703256264329E-003;-1.975625520572066E-003;
2.422500000000000E+009;1.670075207948685E-001;-6.584198772907257E-002;3.752976655960083E-003;-2.050661016255617E-003;
2.422666666666667E+009;1.661280393600464E-001;-6.801982969045639E-002;3.670749487355351E-003;-2.119064563885331E-003;
2.422833333333334E+009;1.655195951461792E-001;-7.029348611831665E-002;3.605032805353403E-003;-2.411310095340014E-003;
2.423000000000000E+009;1.647826135158539E-001;-7.257124781608582E-002;3.662755712866783E-003;-2.388787688687444E-003;
2.423166666666667E+009;1.644495427608490E-001;-7.480006664991379E-002;3.521446837112308E-003;-2.740771044045687E-003;
2.423333333333334E+009;1.639952212572098E-001;-7.696475833654404E-002;3.460073610767722E-003;-2.903028391301632E-003;
2.423500000000000E+009;1.638762354850769E-001;-7.897467166185379E-002;3.547778353095055E-003;-2.977391937747598E-003;
2.423666666666667E+009;1.639238148927689E-001;-8.128359913825989E-002;3.573736408725381E-003;-3.132855519652367E-003;
2.423833333333334E+009;1.637363880872726E-001;-8.349580317735672E-002;3.325659548863769E-003;-3.272217232733965E-003;
2.424000000000000E+009;1.639297455549240E-001;-8.521535247564316E-002;3.506700973957777E-003;-3.435202874243259E-003;
2.424166666666667E+009;1.640408337116242E-001;-8.727031201124191E-002;3.326580859720707E-003;-3.838133299723268E-003;
2.424333333333334E+009;1.642245501279831E-001;-8.916739374399185E-002;3.459256608039141E-003;-4.050787538290024E-003;
2.424500000000000E+009;1.646153926849365E-001;-9.112566709518433E-002;3.111235797405243E-003;-4.086240660399199E-003;
2.424666666666667E+009;1.649771034717560E-001;-9.285083413124085E-002;2.836537081748247E-003;-4.533157218247652E-003;
2.424833333333334E+009;1.655627638101578E-001;-9.435407072305679E-002;2.662662416696549E-003;-4.803383257240057E-003;
2.425000000000000E+009;1.660594642162323E-001;-9.575670957565308E-002;2.483778167515993E-003;-4.883926361799240E-003;
2.425166666666667E+009;1.665057837963104E-001;-9.704620391130447E-002;2.156520495191217E-003;-5.123474169522524E-003;
2.425333333333334E+009;1.669961214065552E-001;-9.827519208192825E-002;2.056533703580499E-003;-5.252567119896412E-003;
2.425500000000000E+009;1.676991283893585E-001;-9.948752820491791E-002;1.483040046878159E-003;-5.251262802630663E-003;
2.425666666666667E+009;1.682265400886536E-001;-1.003330424427986E-001;1.325434539467096E-003;-5.236545577645302E-003;
2.425833333333334E+009;1.687229126691818E-001;-1.012180447578430E-001;1.064421143382788E-003;-5.317160859704018E-003;
2.426000000000000E+009;1.693939715623856E-001;-1.018895506858826E-001;9.719994850456715E-004;-5.454354453831911E-003;
2.426166666666667E+009;1.700157672166824E-001;-1.025238409638405E-001;6.343800923787057E-004;-5.432256963104010E-003;
2.426333333333334E+009;1.702549606561661E-001;-1.032010391354561E-001;5.564445164054632E-004;-5.298835225403309E-003;
2.426500000000000E+009;1.710056811571121E-001;-1.034466996788979E-001;2.500579284969717E-004;-5.369191989302635E-003;
2.426666666666667E+009;1.713445931673050E-001;-1.038708239793778E-001;8.455798524664715E-005;-5.368262995034456E-003;
2.426833333333334E+009;1.718186140060425E-001;-1.041566506028175E-001;-1.219905461766757E-004;-5.290409084409475E-003;
2.427000000000000E+009;1.720134466886520E-001;-1.043087244033814E-001;-4.059627244714648E-004;-5.201748572289944E-003;
2.427166666666667E+009;1.723868846893311E-001;-1.044011190533638E-001;-5.657019210048020E-004;-5.195373669266701E-003;
2.427333333333334E+009;1.724529713392258E-001;-1.046415716409683E-001;-8.241820032708347E-004;-5.105204414576292E-003;
2.427500000000000E+009;1.724119335412979E-001;-1.047001853585243E-001;-9.886731859296560E-004;-5.023248493671417E-003;
2.427666666666667E+009;1.723210513591766E-001;-1.047641709446907E-001;-1.208627829328179E-003;-5.076388362795115E-003;
2.427833333333334E+009;1.721425354480743E-001;-1.046079099178314E-001;-1.354385865852237E-003;-5.005350802093744E-003;
