# Version 1.00
#
freq[Hz];re:Trc1_S11;im:Trc1_S11;re:Trc2_S21;im:Trc2_S21;
2.400000000000000E+009;1.567929685115814E-001;1.114585846662521E-001;-3.995571751147509E-003;2.224034862592816E-003;
2.400166666666667E+009;1.559973955154419E-001;1.091600134968758E-001;-3.929482307285070E-003;2.306280657649040E-003;
2.400333333333334E+009;1.559010744094849E-001;1.067819595336914E-001;-3.831818001344800E-003;2.612193115055561E-003;
2.400500000000000E+009;1.555797755718231E-001;1.042229980230331E-001;-3.768130671232939E-003;2.714114030823112E-003;
2.400666666666667E+009;1.552349627017975E-001;1.018169149756432E-001;-3.710570279508829E-003;2.785677323117852E-003;
2.400833333333334E+009;1.549859493970871E-001;9.884227812290192E-002;-3.498635953292251E-003;2.981491154059768E-003;
2.401000000000000E+009;1.550740748643875E-001;9.601181745529175E-002;-3.374268300831318E-003;2.920968458056450E-003;
2.401166666666667E+009;1.548653542995453E-001;9.314633905887604E-002;-3.353260457515717E-003;2.979752607643604E-003;
2.401333333333334E+009;1.548435539007187E-001;9.014052897691727E-002;-3.210202092304826E-003;3.167503280565143E-003;
2.401500000000000E+009;1.550610512495041E-001;8.727966994047165E-002;-3.028868231922388E-003;3.274841466918588E-003;
2.401666666666667E+009;1.553669124841690E-001;8.407495170831680E-002;-2.954768482595682E-003;3.443300258368254E-003;
2.401833333333334E+009;1.555920094251633E-001;8.107468485832214E-002;-2.802656032145023E-003;3.312951186671853E-003;
2.402000000000000E+009;1.563658118247986E-001;7.824463397264481E-002;-2.660966245457530E-003;3.490649163722992E-003;
2.402166666666667E+009;1.568738520145416E-001;7.526978850364685E-002;-2.444061450660229E-003;3.621790325269103E-003;
2.402333333333334E+009;1.576196253299713E-001;7.236447185277939E-002;-2.373250201344490E-003;3.589650150388479E-003;
2.402500000000000E+009;1.586845964193344E-001;6.953048706054688E-002;-2.059985650703311E-003;3.840636694803834E-003;
2.402666666666667E+009;1.596640944480896E-001;6.698365509510040E-002;-1.990933902561665E-003;3.676109947264195E-003;
2.402833333333334E+009;1.609663814306259E-001;6.421720981597900E-002;-1.745807356201112E-003;3.792597213760018E-003;
2.403000000000000E+009;1.623505353927612E-001;6.168827787041664E-002;-1.533506321720779E-003;3.882975317537785E-003;
2.403166666666667E+009;1.640516519546509E-001;5.914670974016190E-002;-1.267174142412841E-003;3.767428686842322E-003;
2.403333333333334E+009;1.654302030801773E-001;5.667410045862198E-002;-1.150664524175227E-003;3.742547472938895E-003;
2.403500000000000E+009;1.671179383993149E-001;5.440084636211395E-002;-1.029431121423841E-003;3.545104293152690E-003;
2.403666666666667E+009;1.689783632755280E-001;5.208992213010788E-002;-1.007849350571632E-003;3.416570834815502E-003;
2.403833333333334E+009;1.706864088773727E-001;4.987349733710289E-002;-7.417425513267517E-004;3.388735465705395E-003;
2.404000000000000E+009;1.722741276025772E-001;4.807821661233902E-002;-6.763609708286822E-004;3.307007951661944E-003;
2.404166666666667E+009;1.742057055234909E-001;4.625535011291504E-002;-6.544131319969893E-004;3.109811572358012E-003;
2.404333333333334E+009;1.758608669042587E-001;4.440186917781830E-002;-7.336878334172070E-004;3.147348063066602E-003;
2.404500000000000E+009;1.777420043945313E-001;4.286525025963783E-002;-7.269228226505220E-004;2.810035366564989E-003;
2.404666666666667E+009;1.795735955238342E-001;4.152058064937592E-002;-8.514396031387150E-004;3.037826623767614E-003;
2.404833333333334E+009;1.813644617795944E-001;4.028243944048882E-002;-6.779674440622330E-004;2.932174364104867E-003;
2.405000000000000E+009;1.829442083835602E-001;3.958965092897415E-002;-7.971194572746754E-004;3.047634847462177E-003;
2.405166666666667E+009;1.847685724496841E-001;3.870131820440292E-002;-7.056224858388305E-004;3.065123688429594E-003;
2.405333333333334E+009;1.864790171384811E-001;3.817929327487946E-002;-6.185235688462853E-004;2.924364758655429E-003;
2.405500000000000E+009;1.881237328052521E-001;3.755734115839005E-002;-7.026935345493257E-004;3.035858506336808E-003;
2.405666666666667E+009;1.895422041416168E-001;3.721444681286812E-002;-5.951256025582552E-004;3.211630042642355E-003;
2.405833333333334E+009;1.910715550184250E-001;3.690199553966522E-002;-3.516670258250088E-004;3.189614973962307E-003;
2.406000000000000E+009;1.923910826444626E-001;3.690938279032707E-002;-2.045137662207708E-004;3.134939586743712E-003;
2.406166666666667E+009;1.937035620212555E-001;3.668316453695297E-002;-2.468561870045960E-004;3.104324685409665E-003;
2.406333333333334E+009;1.947363764047623E-001;3.687883540987968E-002;-2.171572559745982E-004;3.112373873591423E-003;
2.406500000000000E+009;1.959176808595657E-001;3.687317296862602E-002;-2.253412822028622E-004;2.864285605028272E-003;
2.406666666666667E+009;1.967200338840485E-001;3.713320940732956E-002;-3.432531957514584E-005;2.954703057184815E-003;
2.406833333333334E+009;1.974425315856934E-001;3.727184608578682E-002;3.990812911069952E-005;2.940853126347065E-003;
2.407000000000000E+009;1.979908943176270E-001;3.778180480003357E-002;2.365396539971698E-005;2.884858753532171E-003;
2.407166666666667E+009;1.985173225402832E-001;3.774738684296608E-002;1.599350798642263E-004;2.700877608731389E-003;
2.407333333333334E+009;1.986379623413086E-001;3.812213242053986E-002;-3.874034155160189E-005;2.792471554130316E-003;
2.407500000000000E+009;1.987363100051880E-001;3.838512301445007E-002;-1.005971425911412E-004;2.851558150723577E-003;
2.407666666666667E+009;1.989891827106476E-001;3.862563893198967E-002;-1.263089361600578E-004;2.817247528582811E-003;
2.407833333333334E+009;1.986537128686905E-001;3.883964940905571E-002;-1.711537042865530E-004;2.944332081824541E-003;
2.408000000000000E+009;1.986540406942368E-001;3.901640325784683E-002;-2.185745106544346E-004;3.084108931943774E-003;
2.408166666666667E+009;1.980383396148682E-001;3.898242115974426E-002;-1.902278017951176E-004;3.028102684766054E-003;
2.408333333333334E+009;1.976237446069717E-001;3.882957249879837E-002;-1.215854063048028E-004;3.185633802786470E-003;
2.408500000000000E+009;1.970253288745880E-001;3.869227692484856E-002;-1.161043983302079E-004;3.088098717853427E-003;
2.408666666666667E+009;1.963607817888260E-001;3.851472213864327E-002;-3.125109287793748E-005;3.361308481544256E-003;
2.408833333333334E+009;1.955823749303818E-001;3.802278265357018E-002;4.380349491839297E-005;3.270886372774839E-003;
2.409000000000000E+009;1.946398615837097E-001;3.761810809373856E-002;4.522798190009780E-005;3.587696235626936E-003;
2.409166666666667E+009;1.937035918235779E-001;3.679867088794708E-002;1.465843233745545E-004;3.627342637628317E-003;
2.409333333333334E+009;1.926026493310928E-001;3.615571931004524E-002;2.235457504866645E-004;3.846198786050081E-003;
2.409500000000000E+009;1.912446320056915E-001;3.504649177193642E-002;2.793940366245806E-004;3.719253931194544E-003;
2.409666666666667E+009;1.901119947433472E-001;3.387532383203507E-002;5.482742562890053E-004;3.837755648419261E-003;
2.409833333333334E+009;1.888595074415207E-001;3.264596313238144E-002;7.248868932947516E-004;3.992510028183460E-003;
2.410000000000000E+009;1.877153217792511E-001;3.120923601090908E-002;8.853640756569803E-004;4.021248780190945E-003;
2.410166666666667E+009;1.863770335912705E-001;2.963623963296413E-002;1.059561967849731E-003;4.045627079904079E-003;
2.410333333333334E+009;1.852270960807800E-001;2.807620912790299E-002;1.237981603480876E-003;4.068077541887760E-003;
2.410500000000000E+009;1.840408444404602E-001;2.618946321308613E-002;1.334791537374258E-003;4.065566696226597E-003;
2.410666666666667E+009;1.828076094388962E-001;2.400188334286213E-002;1.590999541804195E-003;4.055369179695845E-003;
2.410833333333334E+009;1.816191822290421E-001;2.192796953022480E-002;1.567985746078193E-003;4.077421966940165E-003;
2.411000000000000E+009;1.809727251529694E-001;1.968814060091972E-002;1.785633969120681E-003;3.999114036560059E-003;
2.411166666666667E+009;1.797727495431900E-001;1.755722798407078E-002;2.120321383699775E-003;3.883076366037130E-003;
2.411333333333334E+009;1.788841784000397E-001;1.506647560745478E-002;2.312904689460993E-003;3.926084376871586E-003;
2.411500000000000E+009;1.783470958471298E-001;1.269228942692280E-002;2.446109894663096E-003;3.952900413423777E-003;
2.411666666666667E+009;1.779587864875794E-001;1.016136258840561E-002;2.466623438522220E-003;3.841923549771309E-003;
2.411833333333334E+009;1.772769838571549E-001;7.848465815186501E-003;2.750213956460357E-003;3.699203487485647E-003;
2.412000000000000E+009;1.771027594804764E-001;5.194544792175293E-003;2.832569414749742E-003;3.608108265325427E-003;
2.412166666666667E+009;1.771483570337296E-001;2.681272104382515E-003;2.969699446111918E-003;3.504402237012982E-003;
2.412333333333334E+009;1.769414544105530E-001;7.634602297912352E-006;3.235979005694389E-003;3.496431512758136E-003;
2.412500000000000E+009;1.772018373012543E-001;-2.586181974038482E-003;3.397708293050528E-003;3.506737761199474E-003;
2.412666666666667E+009;1.773042976856232E-001;-5.334659479558468E-003;3.484860993921757E-003;3.355143591761589E-003;
2.412833333333334E+009;1.780870258808136E-001;-7.867351174354553E-003;3.660374321043491E-003;3.158780978992581E-003;
2.413000000000000E+009;1.787296980619431E-001;-1.023280527442694E-002;4.044947680085897E-003;3.031409345567226E-003;
2.413166666666667E+009;1.793546080589294E-001;-1.276442036032677E-002;4.083181265741587E-003;2.698144875466824E-003;
2.413333333333334E+009;1.803167611360550E-001;-1.536808535456657E-002;4.180731251835823E-003;2.474132925271988E-003;
2.413500000000000E+009;1.811337769031525E-001;-1.776124164462090E-002;4.471308086067438E-003;2.295733196660876E-003;
2.413666666666667E+009;1.824355125427246E-001;-2.019780129194260E-002;4.528173245489597E-003;2.062978921458125E-003;
2.413833333333334E+009;1.835272014141083E-001;-2.247938141226769E-002;4.654797259718180E-003;1.612812746316195E-003;
2.414000000000000E+009;1.846517771482468E-001;-2.455044724047184E-002;4.684993997216225E-003;1.428475952707231E-003;
2.414166666666667E+009;1.860601902008057E-001;-2.656943723559380E-002;4.506377968937159E-003;1.019774936139584E-003;
2.414333333333334E+009;1.872077435255051E-001;-2.877462282776833E-002;4.634730983525515E-003;8.885265560820699E-004;
2.414500000000000E+009;1.886743307113648E-001;-3.043937683105469E-002;4.502006806433201E-003;5.699868779629469E-004;
2.414666666666667E+009;1.900597512722015E-001;-3.214817866683006E-002;4.450834356248379E-003;4.468725819606334E-004;
2.414833333333334E+009;1.913753449916840E-001;-3.375842422246933E-002;4.226919263601303E-003;2.272591227665544E-004;
2.415000000000000E+009;1.925972402095795E-001;-3.525248914957047E-002;4.104052670300007E-003;1.067350021912716E-004;
2.415166666666667E+009;1.942088454961777E-001;-3.648845851421356E-002;4.002589732408524E-003;-9.533252159599215E-005;
2.415333333333334E+009;1.955709457397461E-001;-3.753879293799400E-002;3.857951145619154E-003;-2.639262820594013E-004;
2.415500000000000E+009;1.969427615404129E-001;-3.839774429798126E-002;3.807994304224849E-003;-4.085844266228378E-004;
2.415666666666667E+009;1.982026249170303E-001;-3.939109668135643E-002;3.817282849922776E-003;-5.663069314323366E-004;
2.415833333333334E+009;1.993366777896881E-001;-4.005832597613335E-002;3.515082178637385E-003;-5.739057669416070E-004;
2.416000000000000E+009;2.004599422216415E-001;-4.068646207451820E-002;3.460266860201955E-003;-7.822530460543931E-004;
2.416166666666667E+009;2.015597969293594E-001;-4.135612398386002E-002;3.235007403418422E-003;-7.636999362148345E-004;
2.416333333333334E+009;2.024097591638565E-001;-4.154289886355400E-002;3.069493221119046E-003;-9.588627144694328E-004;
2.416500000000000E+009;2.031319290399551E-001;-4.182795807719231E-002;3.068710910156369E-003;-1.025412930175662E-003;
2.416666666666667E+009;2.036183029413223E-001;-4.216058924794197E-002;2.995085436850786E-003;-9.271812159568071E-004;
2.416833333333334E+009;2.041444778442383E-001;-4.210926592350006E-002;2.747005783021450E-003;-1.074834261089563E-003;
2.417000000000000E+009;2.046138048171997E-001;-4.218000173568726E-002;2.607876900583506E-003;-1.098871813155711E-003;
2.417166666666667E+009;2.046595364809036E-001;-4.186576604843140E-002;2.466388978064060E-003;-1.031804131343961E-003;
2.417333333333334E+009;2.046354115009308E-001;-4.167228937149048E-002;2.417446812614799E-003;-1.011600485071540E-003;
2.417500000000000E+009;2.045296430587769E-001;-4.156123846769333E-002;2.299991669133306E-003;-8.448071312159300E-004;
2.417666666666667E+009;2.042047083377838E-001;-4.118129983544350E-002;2.270811935886741E-003;-7.510488503612578E-004;
2.417833333333334E+009;2.040459066629410E-001;-4.069684445858002E-002;2.098037628456950E-003;-5.271400441415608E-004;
2.418000000000000E+009;2.036988437175751E-001;-4.027174040675163E-002;2.186583587899804E-003;-6.293138721957803E-004;
2.418166666666667E+009;2.029979526996613E-001;-4.002299159765244E-002;2.299654064700007E-003;-3.689859295263887E-004;
2.418333333333334E+009;2.022927850484848E-001;-3.955953195691109E-002;2.172559034079313E-003;-4.498607886489481E-004;
2.418500000000000E+009;2.013804763555527E-001;-3.948089107871056E-002;2.258416498079896E-003;-4.996323259547353E-004;
2.418666666666667E+009;2.005393207073212E-001;-3.905133530497551E-002;2.456495305523276E-003;-4.279129498172551E-004;
2.418833333333334E+009;1.994464099407196E-001;-3.907424211502075E-002;2.405457198619843E-003;-2.979816636070609E-004;
2.419000000000000E+009;1.981774419546127E-001;-3.891127929091454E-002;2.340366598218679E-003;-4.529124998953193E-004;
2.419166666666667E+009;1.969936192035675E-001;-3.898295387625694E-002;2.556195482611656E-003;-4.259037668816745E-004;
2.419333333333334E+009;1.956417709589005E-001;-3.931523114442825E-002;2.618726342916489E-003;-2.851939061656594E-004;
2.419500000000000E+009;1.941237151622772E-001;-3.938338533043861E-002;2.726148581132293E-003;-3.504027845337987E-004;
2.419666666666667E+009;1.925687193870544E-001;-4.007777571678162E-002;2.527566161006689E-003;-3.419322310946882E-004;
2.419833333333334E+009;1.908174455165863E-001;-4.039609432220459E-002;2.731978427618742E-003;-3.959249297622591E-004;
2.420000000000000E+009;1.892451196908951E-001;-4.111421480774880E-002;2.690930385142565E-003;-2.828563156072050E-004;
2.420166666666667E+009;1.874588578939438E-001;-4.198191687464714E-002;2.878854982554913E-003;-4.169635067228228E-004;
2.420333333333334E+009;1.856599599123001E-001;-4.291626438498497E-002;2.891942393034697E-003;-4.781308234669268E-004;
2.420500000000000E+009;1.838057339191437E-001;-4.402095451951027E-002;3.145815338939428E-003;-5.806134431622922E-004;
2.420666666666667E+009;1.819777637720108E-001;-4.504003748297691E-002;3.082196693867445E-003;-5.383140523917973E-004;
2.420833333333334E+009;1.804124265909195E-001;-4.667969420552254E-002;3.169129835441709E-003;-6.798289250582457E-004;
2.421000000000000E+009;1.785796135663986E-001;-4.827000200748444E-002;3.254727693274617E-003;-7.024118094705045E-004;
2.421166666666667E+009;1.772140115499497E-001;-4.980337992310524E-002;3.451303346082568E-003;-7.626625592820346E-004;
2.421333333333334E+009;1.752121448516846E-001;-5.132210999727249E-002;3.464436391368508E-003;-1.001888187602162E-003;
2.421500000000000E+009;1.735609620809555E-001;-5.322870984673500E-002;3.550268942490220E-003;-1.026190351694822E-003;
2.421666666666667E+009;1.722457259893417E-001;-5.497369542717934E-002;3.569428576156497E-003;-1.303771976381540E-003;
2.421833333333334E+009;1.706850677728653E-001;-5.701975896954536E-002;3.757564583793283E-003;-1.475804136134684E-003;
2.422000000000000E+009;1.695730835199356E-001;-5.901047587394714E-002;3.755209036171436E-003;-1.472105737775564E-003;
2.422166666666667E+009;1.684644967317581E-001;-6.131385639309883E-002;3.691083984449506E-003;-1.732446369715035E-003;
2.422333333333334E+009;1.671870052814484E-001;-6.346654146909714E-002;3.529946319758892E-003;-1.729452982544899E-003;
2.422500000000000E+009;1.663136333227158E-001;-6.540610641241074E-002;3.785560140386224E-003;-1.966321142390370E-003;
2.422666666666667E+009;1.655068099498749E-001;-6.772300601005554E-002;3.658828092738986E-003;-2.209315076470375E-003;
2.422833333333334E+009;1.649749577045441E-001;-7.003694772720337E-002;3.646815195679665E-003;-2.283100504428148E-003;
2.423000000000000E+009;1.642049252986908E-001;-7.234945893287659E-002;3.484245389699936E-003;-2.474102657288313E-003;
2.423166666666667E+009;1.636816859245300E-001;-7.435727864503861E-002;3.488393034785986E-003;-2.567170187830925E-003;
2.423333333333334E+009;1.633186042308807E-001;-7.663593441247940E-002;3.599682124331594E-003;-2.836061408743262E-003;
2.423500000000000E+009;1.632196158170700E-001;-7.868578284978867E-002;3.626595484092832E-003;-3.014455782249570E-003;
2.423666666666667E+009;1.632977128028870E-001;-8.088245987892151E-002;3.355984808877111E-003;-3.206833265721798E-003;
2.423833333333334E+009;1.631519794464111E-001;-8.294384181499481E-002;3.419787390157580E-003;-3.251146292313933E-003;
2.424000000000000E+009;1.634022444486618E-001;-8.505664765834808E-002;3.361036768183112E-003;-3.699001623317599E-003;
2.424166666666667E+009;1.633810698986054E-001;-8.705446869134903E-002;3.379931906238198E-003;-3.802247345447540E-003;
2.424333333333334E+009;1.637002974748612E-001;-8.867827057838440E-002;3.238351549953222E-003;-3.976907581090927E-003;
2.424500000000000E+009;1.642878055572510E-001;-9.065923094749451E-002;3.100762842223048E-003;-4.472408443689346E-003;
2.424666666666667E+009;1.644993275403976E-001;-9.229597449302673E-002;2.956685144454241E-003;-4.542805254459381E-003;
2.424833333333334E+009;1.650836020708084E-001;-9.379817545413971E-002;2.823068760335445E-003;-4.788939375430346E-003;
2.425000000000000E+009;1.656945049762726E-001;-9.531424939632416E-002;2.370382659137249E-003;-4.980616737157106E-003;
2.425166666666667E+009;1.660967916250229E-001;-9.661792963743210E-002;2.243234543129802E-003;-4.975507501512766E-003;
2.425333333333334E+009;1.666567474603653E-001;-9.784549474716187E-002;1.812231028452516E-003;-5.040500313043594E-003;
2.425500000000000E+009;1.672672778367996E-001;-9.897854179143906E-002;1.705602975562215E-003;-5.233553238213062E-003;
2.425666666666667E+009;1.677929759025574E-001;-9.976898133754730E-002;1.456666737794876E-003;-5.330736748874188E-003;
2.425833333333334E+009;1.682619601488113E-001;-1.008277237415314E-001;1.240083714947105E-003;-5.375906359404326E-003;
2.426000000000000E+009;1.690211743116379E-001;-1.013672798871994E-001;8.288879180327058E-004;-5.431552883237600E-003;
2.426166666666667E+009;1.696434319019318E-001;-1.019432470202446E-001;7.279703277163208E-004;-5.509512033313513E-003;
2.426333333333334E+009;1.700039952993393E-001;-1.025834977626801E-001;5.157810519449413E-004;-5.575105082243681E-003;
2.426500000000000E+009;1.704974770545960E-001;-1.029296144843102E-001;1.831411645980552E-005;-5.345595534890890E-003;
2.426666666666667E+009;1.711109578609467E-001;-1.033596247434616E-001;-3.239071884308942E-005;-5.399359390139580E-003;
2.426833333333334E+009;1.716316193342209E-001;-1.036192476749420E-001;-1.699448912404478E-004;-5.274346098303795E-003;
2.427000000000000E+009;1.718267798423767E-001;-1.037894338369370E-001;-3.765666333492845E-004;-5.257510114461184E-003;
2.427166666666667E+009;1.720369011163712E-001;-1.038953438401222E-001;-6.703015533275902E-004;-5.131291691213846E-003;
2.427333333333334E+009;1.721606552600861E-001;-1.041493564844132E-001;-8.541643037460744E-004;-5.123591050505638E-003;
2.427500000000000E+009;1.720331907272339E-001;-1.041807606816292E-001;-8.582383161410689E-004;-5.143356975167990E-003;
2.427666666666667E+009;1.720862835645676E-001;-1.041199341416359E-001;-1.146843074820936E-003;-5.018650088459253E-003;
2.427833333333334E+009;1.719187051057816E-001;-1.041769608855248E-001;-1.286167884245515E-003;-5.016935989260674E-003;
