# Hz S RI R 
2400000000.0000000000 0.161443993449211092849893134371 0.058324787765741348266601562500 0.004216208588331937789916992188 0.004555996973067522048950195312 0 0 0 0 
2400166666.6666665077 0.161396741867065401931924384371 0.056853335350751876831054687500 0.004230986814945936203002929688 0.004313914105296134948730468750 0 0 0 0 
2400333333.3333334923 0.161259844899177606780682481258 0.055185411125421517108957658593 0.004526850301772356033325195312 0.004088548477739095687866210938 0 0 0 0 
2400500000.0000000000 0.161443591117858886718750000000 0.053379435092210769653320312500 0.004483819007873535156250000000 0.004066183231770992279052734375 0 0 0 0 
2400666666.6666665077 0.161403432488441495040731865629 0.051388334482908248901367187500 0.004555580671876668930053710938 0.003955380991101264953613281250 0 0 0 0 
2400833333.3333334923 0.161667197942733792404013115629 0.049552947282791137695312500000 0.004709686152637004852294921875 0.003905767807736992835998535156 0 0 0 0 
2401000000.0000000000 0.161648690700531005859375000000 0.047746445983648300170898437500 0.004883513320237398147583007812 0.003678192151710391044616699219 0 0 0 0 
2401166666.6666665077 0.161850124597549410720986884371 0.045684732496738426898996721093 0.004992991685867309570312500000 0.003548412583768368201014853369 0 0 0 0 
2401333333.3333334923 0.161996692419052096267861884371 0.043703448027372360229492187500 0.005162961781024932861328125000 0.003300659125670791105983115088 0 0 0 0 
2401500000.0000000000 0.162321075797080993652343750000 0.041856914758682250976562500000 0.005375799722969532012939453125 0.003059445880353451208827353369 0 0 0 0 
2401666666.6666665077 0.162444189190864590743856865629 0.040194109082221991802175153907 0.005397200584411621093750000000 0.002862374298274517059326171875 0 0 0 0 
2401833333.3333334923 0.162861466407775906661825615629 0.038080699741840362548828125000 0.005546821281313896179199218750 0.002807503333315252824070595850 0 0 0 0 
2402000000.0000000000 0.163050979375839205642861884371 0.036314472556114196777343750000 0.005552534479647874832153320312 0.002610672032460569901707314600 0 0 0 0 
2402166666.6666665077 0.163498237729072598556356865629 0.034279212355613708496093750000 0.005634294822812080383300781250 0.002257330575957893891575478662 0 0 0 0 
2402333333.3333334923 0.163728132843971307952557481258 0.032610468566417687152902971093 0.005660881288349627581124590137 0.002224224386736751036403036963 0 0 0 0 
2402500000.0000000000 0.164585337042808504959268134371 0.030919952318072319030761718750 0.005624328274279832839965820312 0.001895911642350256009342812646 0 0 0 0 
2402666666.6666665077 0.165207445621490506271200615629 0.029387373477220538747767264454 0.005517947021871805191040039062 0.001703666872344911098480224609 0 0 0 0 
2402833333.3333334923 0.165362328290939303299111884371 0.027529040351510051382044608204 0.005772111006081104278564453125 0.001716952072456479072570800781 0 0 0 0 
2403000000.0000000000 0.166164413094520596603231865629 0.026100739836692810058593750000 0.005737742409110069274902343750 0.001456275698728858990910195459 0 0 0 0 
2403166666.6666665077 0.166855305433273287674111884371 0.024429921060800548898717110546 0.005604984704405069351196289062 0.001134862075559794902801513672 0 0 0 0 
2403333333.3333334923 0.167689070105552701095419365629 0.022942166775465011596679687500 0.005792909767478705319876386426 0.001105752773582934899571084131 0 0 0 0 
2403500000.0000000000 0.168218016624450711349325615629 0.021655941382050510751744454296 0.005512235686182975769042968750 0.000710066524334251880645751953 0 0 0 0 
2403666666.6666665077 0.168988257646560696700888115629 0.020257504656910899770716483204 0.005638008005917072296142578125 0.000550491095054894685745239258 0 0 0 0 
2403833333.3333334923 0.169825822114944513518963731258 0.019001994282007220876673514454 0.005581065546721220016479492188 0.000630627211648970842361450195 0 0 0 0 
2404000000.0000000000 0.170477837324142511565838731258 0.017898481339216228830357735546 0.005452527664601802825927734375 0.000466404599137604182392674579 0 0 0 0 
2404166666.6666665077 0.171144545078277587890625000000 0.016823723912239081645925153907 0.005494464188814163208007812500 0.000257978739682585000991821289 0 0 0 0 
2404333333.3333334923 0.171813324093818692306356865629 0.015796700492501258850097656250 0.005604226142168045043945312500 -0.000052389103075256571173667908 0 0 0 0 
2404500000.0000000000 0.172607198357582092285156250000 0.014688069932162759953508945898 0.005349708721041679382324218750 -0.000145981874084100100115099496 0 0 0 0 
2404666666.6666665077 0.173350155353546087066973768742 0.013880923390388490504254725977 0.005478247534483671188354492188 -0.000284109701169654726982116699 0 0 0 0 
2404833333.3333334923 0.174005925655364990234375000000 0.013194439001381400716761405079 0.005283958278596401214599609375 -0.000542627065442502498626708984 0 0 0 0 
2405000000.0000000000 0.174658611416816711425781250000 0.012223834171891210728655430273 0.005333427339792251586914062500 -0.000409588363254442811012268066 0 0 0 0 
2405166666.6666665077 0.175313889980316189864950615629 0.011627357453107830392857735546 0.005152626428753137588500976562 -0.000665124156512320041656494141 0 0 0 0 
2405333333.3333334923 0.176071643829345703125000000000 0.011018339544534679758092110546 0.005298540927469730377197265625 -0.000771934690419584512710571289 0 0 0 0 
2405500000.0000000000 0.176552250981330899337606865629 0.010444651357829570770263671875 0.005230200011283159255981445312 -0.000713623943738639354705810547 0 0 0 0 
2405666666.6666665077 0.177008658647537203689736884371 0.010062328539788719522496407421 0.005110786296427249908447265625 -0.001026530866511166095733642578 0 0 0 0 
2405833333.3333334923 0.177276968955993707854901231258 0.009558650664985179901123046875 0.005059658084064722061157226562 -0.001031874446198344013811420972 0 0 0 0 
2406000000.0000000000 0.177797958254814203460369981258 0.008942804299294948577880859375 0.005041331984102725982666015625 -0.001310971798375248908996582031 0 0 0 0 
2406166666.6666665077 0.178116276860237093826455634371 0.008806719444692134857177734375 0.004883195739239454269409179688 -0.001522387843579054095624614185 0 0 0 0 
2406333333.3333334923 0.178505405783653287032919365629 0.008345623500645160675048828125 0.005037595052272081375122070312 -0.001371684833429753997205424731 0 0 0 0 
2406500000.0000000000 0.178656786680221613128338731258 0.007977785542607307434082031250 0.004771246574819087982177734375 -0.001584199955686927058576274341 0 0 0 0 
2406666666.6666665077 0.178708747029304504394531250000 0.007567105814814568433279706738 0.004797489382326602935791015625 -0.001650292892009020068525004810 0 0 0 0 
2406833333.3333334923 0.178893730044364901443643134371 0.007156677544116973876953125000 0.005033373832702636718750000000 -0.001837209681980312087415385669 0 0 0 0 
2407000000.0000000000 0.178984880447387695312500000000 0.006771205924451351165771484375 0.004775049164891242980957031250 -0.001778473495505749962450336987 0 0 0 0 
2407166666.6666665077 0.178952425718307495117187500000 0.006435171235352754592895507812 0.004633350763469935330862714551 -0.002111779060214757919311523438 0 0 0 0 
2407333333.3333334923 0.178766682744026211837606865629 0.005786032415926457318777753613 0.004647109191864728927612304688 -0.002212730236351490020751953125 0 0 0 0 
2407500000.0000000000 0.178635582327842712402343750000 0.005381583701819180574899004199 0.004613783676177263259887695312 -0.002260835375636816024780273438 0 0 0 0 
2407666666.6666665077 0.178432077169418307205361884371 0.004986784886568784713745117188 0.004610428120940923690795898438 -0.002382790902629495100734091650 0 0 0 0 
2407833333.3333334923 0.178005695343017605880575615629 0.004311003722250461578369140625 0.004466639366000890731811523438 -0.002538357861340045928955078125 0 0 0 0 
2408000000.0000000000 0.177773356437683105468750000000 0.003621212439611554145812988281 0.004366190638393163681030273438 -0.002654884010553359985351562500 0 0 0 0 
2408166666.6666665077 0.177267715334892300704794365629 0.003159882500767707824707031250 0.004367982037365437421316816113 -0.002786534372717142105102539062 0 0 0 0 
2408333333.3333334923 0.176996216177940396407919365629 0.002281805034726858139038085938 0.004194335546344518661499023438 -0.002696203300729393959045410156 0 0 0 0 
2408500000.0000000000 0.176482930779457092285156250000 0.001340933609753846905351948315 0.004140248522162436571603105762 -0.003002480370923877196071005713 0 0 0 0 
2408666666.6666665077 0.175851851701736505706463731258 0.000450120685854926705360412598 0.004083192441612482070922851562 -0.003072924213483930067775107275 0 0 0 0 
2408833333.3333334923 0.175328984856605502029580634371 -0.000430230866186320781707763672 0.003909214399755001068115234375 -0.003109491895884275002720498193 0 0 0 0 
2409000000.0000000000 0.174631580710411099532919365629 -0.001530262292362750010249472510 0.003870964748784900145289755713 -0.003173612058162689208984375000 0 0 0 0 
2409166666.6666665077 0.174246206879615811446981865629 -0.002637164434418081803562783350 0.003762348555028439001796103369 -0.003233978990465403036830283057 0 0 0 0 
2409333333.3333334923 0.173626989126205388824786268742 -0.003751571988686919212341308594 0.003682822687551379203796386719 -0.003492887364700437025782919775 0 0 0 0 
2409500000.0000000000 0.173051282763481112381143134371 -0.005209791939705610275268554688 0.003588289720937610106227255713 -0.003500007092952727837803506006 0 0 0 0 
2409666666.6666665077 0.172286599874496487716513115629 -0.006426685955375432968139648438 0.003400340210646390914916992188 -0.003566361265257000923156738281 0 0 0 0 
2409833333.3333334923 0.171577975153923006912393134371 -0.007739727851003408432006835938 0.003261287696659564971923828125 -0.003607168793678284125087118994 0 0 0 0 
2410000000.0000000000 0.171200022101402310470419365629 -0.009243940003216266632080078125 0.003277938580140471892115927588 -0.003680255031213163895847939600 0 0 0 0 
2410166666.6666665077 0.170571744441986111739950615629 -0.010723105631768699991246407421 0.003165958449244499206542968750 -0.003721948247402905984165810693 0 0 0 0 
2410333333.3333334923 0.170076072216033907791299384371 -0.012472786940634250640869140625 0.003052411600947380065917968750 -0.003614219604060053825378417969 0 0 0 0 
2410500000.0000000000 0.169643849134445190429687500000 -0.014086987823247909545898437500 0.002826349111273885206935263525 -0.003804393345490097999572753906 0 0 0 0 
2410666666.6666665077 0.169267237186431912521200615629 -0.015919174998998638498326485546 0.002988201798871159987208701025 -0.003830821951851249174830771338 0 0 0 0 
2410833333.3333334923 0.168827340006828308105468750000 -0.017529249191284179687500000000 0.002755477325990796089172363281 -0.003745653666555881933925009619 0 0 0 0 
2411000000.0000000000 0.168326422572135897537393134371 -0.019439078867435458791712576954 0.002742048120126128196716308594 -0.003879352239891887144801474463 0 0 0 0 
2411166666.6666665077 0.168254792690277099609375000000 -0.021178042516112331045130545704 0.002593932906165719032287597656 -0.003931492567062377929687500000 0 0 0 0 
2411333333.3333334923 0.168099895119667108733807481258 -0.023030055686831470834752266796 0.002374873030930757956263876807 -0.003948729950934649381155683301 0 0 0 0 
2411500000.0000000000 0.167923852801322909256143134371 -0.025082426145672801626185233204 0.002443093573674560026881552588 -0.004115659277886152267456054688 0 0 0 0 
2411666666.6666665077 0.167738020420074490646200615629 -0.026915367692708969116210937500 0.002292601857334374947788857568 -0.004180682357400655746459960938 0 0 0 0 
2411833333.3333334923 0.167912825942039489746093750000 -0.028688551858067509042760079296 0.002331349765881896018981933594 -0.004175673238933086395263671875 0 0 0 0 
2412000000.0000000000 0.167898744344711303710937500000 -0.030779687687754631042480468750 0.002205929020419716835021972656 -0.004241147544234991073608398438 0 0 0 0 
2412166666.6666665077 0.167913958430290194412393134371 -0.032646976411342620849609375000 0.002012801589444280104396201025 -0.004317061044275760650634765625 0 0 0 0 
2412333333.3333334923 0.168257534503936795333700615629 -0.034446235746145248413085937500 0.001957544125616550011875771631 -0.004231465980410575866699218750 0 0 0 0 
2412500000.0000000000 0.168342709541320800781250000000 -0.036243725568056106567382812500 0.001804445637390017943141318213 -0.004309086594730615615844726562 0 0 0 0 
2412666666.6666665077 0.168648228049278287032919365629 -0.038192246109247207641601562500 0.001823397353291511969325400244 -0.004498432390391826629638671875 0 0 0 0 
2412833333.3333334923 0.168884813785553006271200615629 -0.040056422352790832519531250000 0.001691798330284655094146728516 -0.004528636578470469388479902051 0 0 0 0 
2413000000.0000000000 0.169113159179687500000000000000 -0.041806276887655258178710937500 0.001537258853204547925236367334 -0.004665968939661979675292968750 0 0 0 0 
2413166666.6666665077 0.169588893651962308029013115629 -0.043540786951780319213867187500 0.001460720086470246098162006909 -0.004620170220732688903808593750 0 0 0 0 
2413333333.3333334923 0.170028403401374789138955634371 -0.045052945613861077045481096093 0.001489923335611820004106831128 -0.004783643875271081924438476562 0 0 0 0 
2413500000.0000000000 0.170521944761276300628338731258 -0.046700205653905868530273437500 0.001225133542902768091914511572 -0.004766458645462989807128906250 0 0 0 0 
2413666666.6666665077 0.171023711562156705001669365629 -0.048323497176170349121093750000 0.001065400661900639967677451025 -0.004992380738258361816406250000 0 0 0 0 
2413833333.3333334923 0.171341523528099087814169365629 -0.049687717109918587421457658593 0.000988990184850990772247314453 -0.004814077634364367398733808301 0 0 0 0 
2414000000.0000000000 0.171780526638031005859375000000 -0.050995502620935440063476562500 0.000695640221238136291503906250 -0.004966975655406714353079511426 0 0 0 0 
2414166666.6666665077 0.172480404376983587066973768742 -0.052286356687545783306081403907 0.000475918699521571397781372070 -0.004936395678669214248657226562 0 0 0 0 
2414333333.3333334923 0.172855183482170104980468750000 -0.053529880940914147113840471093 0.000500158697832375764846801758 -0.004974205512553452578072832324 0 0 0 0 
2414500000.0000000000 0.173622697591781588455361884371 -0.054582893848419189453125000000 0.000425613747211173176765441895 -0.005019576288759708404541015625 0 0 0 0 
2414666666.6666665077 0.174034908413886996170205634371 -0.055593192577362060546875000000 0.000045267857785802341323306425 -0.004938161931931973371023847363 0 0 0 0 
2414833333.3333334923 0.174326986074447604080361884371 -0.056517586112022399902343750000 0.000050997423386434093117713928 -0.005031345412135124206542968750 0 0 0 0 
2415000000.0000000000 0.174815386533737210372763115629 -0.057376287877559661865234375000 -0.000107757710793521295912326952 -0.004925916437059640884399414062 0 0 0 0 
2415166666.6666665077 0.175198718905448913574218750000 -0.058210980147123336791992187500 -0.000278237595921382308006286621 -0.004791419021785259246826171875 0 0 0 0 
2415333333.3333334923 0.175648003816604586502236884371 -0.058892000466585159301757812500 -0.000520806119311600923538208008 -0.004779519978910684585571289062 0 0 0 0 
2415500000.0000000000 0.175976946949958801269531250000 -0.059476234018802642822265625000 -0.000578333740122616291046142578 -0.004740862175822257995605468750 0 0 0 0 
2415666666.6666665077 0.176256477832794189453125000000 -0.059983186423778526996652971093 -0.000661381869576871395111083984 -0.004859716165810822573190019824 0 0 0 0 
2415833333.3333334923 0.176468327641487093826455634371 -0.060587011277675628662109375000 -0.000785359414294362068176269531 -0.004672541283071041107177734375 0 0 0 0 
2416000000.0000000000 0.176496595144271906097088731258 -0.061024501919746398925781250000 -0.000953269191086292266845703125 -0.004833958577364683151245117188 0 0 0 0 
2416166666.6666665077 0.176679223775863702972088731258 -0.061446320265531539916992187500 -0.001031020539812744097468710791 -0.004759550094604492187500000000 0 0 0 0 
2416333333.3333334923 0.176618307828903198242187500000 -0.061712186783552169799804687500 -0.001129903248511255004285502856 -0.004671593196690083417410566113 0 0 0 0 
2416500000.0000000000 0.176609858870506286621093750000 -0.061880059540271759033203125000 -0.001294836984016001007677387769 -0.004776091314852237701416015625 0 0 0 0 
2416666666.6666665077 0.176295042037963894943075615629 -0.062137443572282791137695312500 -0.001416893443092704036115336841 -0.004603227600455284118652343750 0 0 0 0 
2416833333.3333334923 0.176182091236114501953125000000 -0.062528938055038452148437500000 -0.001557531650178134007694863428 -0.004520427901297807693481445312 0 0 0 0 
2417000000.0000000000 0.175622299313545199295205634371 -0.062711857259273529052734375000 -0.001620728638954461054560995947 -0.004545063711702823638916015625 0 0 0 0 
2417166666.6666665077 0.175287216901779202560263115629 -0.062967672944068908691406250000 -0.001722693326883018016815185547 -0.004575454164296388626098632812 0 0 0 0 
2417333333.3333334923 0.174852311611175509353799384371 -0.063005790114402770996093750000 -0.001806699321605264923693012769 -0.004521236289292573928833007812 0 0 0 0 
2417500000.0000000000 0.174087613821029690841513115629 -0.063271589577198028564453125000 -0.001991876633837819099426269531 -0.004372657742351294431204511426 0 0 0 0 
2417666666.6666665077 0.173561334609985407073651231258 -0.063305556774139404296875000000 -0.002021729480475186867954873193 -0.004425165709108114242553710938 0 0 0 0 
2417833333.3333334923 0.172779873013496398925781250000 -0.063630394637584686279296875000 -0.002346446737647057013270712744 -0.004335707519203425321097089551 0 0 0 0 
2418000000.0000000000 0.171975940465927096267861884371 -0.064025871455669403076171875000 -0.002176701091229916052577353369 -0.004320984706282615661621093750 0 0 0 0 
2418166666.6666665077 0.171006232500076293945312500000 -0.064092010259628295898437500000 -0.002462989417836070060729980469 -0.004157021641731262207031250000 0 0 0 0 
2418333333.3333334923 0.170313581824302701095419365629 -0.064579077064990997314453125000 -0.002558052306994795799255371094 -0.004224387463182210922241210938 0 0 0 0 
2418500000.0000000000 0.169102624058723505218182481258 -0.064890228211879730224609375000 -0.002617087215185164971592568506 -0.004156172741204500198364257812 0 0 0 0 
2418666666.6666665077 0.168097943067550686935263115629 -0.065356530249118804931640625000 -0.002698125550523399873020791162 -0.004036188591271638870239257812 0 0 0 0 
2418833333.3333334923 0.166765049099922207931356865629 -0.065824814140796661376953125000 -0.002790547907352447943446493994 -0.004035403486341238021850585938 0 0 0 0 
2419000000.0000000000 0.165564432740211486816406250000 -0.066290616989135742187500000000 -0.002959610195830463929417275537 -0.004018670413643121719360351562 0 0 0 0 
2419166666.6666665077 0.164505317807197598556356865629 -0.067024163901805877685546875000 -0.002922465326264501051661826025 -0.003808438312262297110316611182 0 0 0 0 
2419333333.3333334923 0.163095891475677490234375000000 -0.067431658506393432617187500000 -0.003130073193460702896118164062 -0.003781050676479936079737997900 0 0 0 0 
2419500000.0000000000 0.161938220262527493575888115629 -0.068301014602184295654296875000 -0.003226811997592449188232421875 -0.003585391677916049957275390625 0 0 0 0 
2419666666.6666665077 0.160743251442909212967080634371 -0.069238044321537017822265625000 -0.003405564697459340095520019531 -0.003574925707653164863586425781 0 0 0 0 
2419833333.3333334923 0.159531190991401700118856865629 -0.069939970970153808593750000000 -0.003531190566718577904942177881 -0.003561497898772358894348144531 0 0 0 0 
