# Hz S RI R 
2400000000.0000000000 0.161997258663177490234375000000 0.056836217641830437397043596093 0.001741671934723854064941406250 0.004946785047650337219238281250 0 0 0 0 
2400166666.6666665077 0.162106409668922396560830634371 0.055504761636257171630859375000 0.001886936719529330947278666919 0.004994007293134927749633789062 0 0 0 0 
2400333333.3333334923 0.162105485796928405761718750000 0.053884372115135192871093750000 0.002120007993653417067286826025 0.005173966288566589355468750000 0 0 0 0 
2400500000.0000000000 0.162475153803825406173544365629 0.052082058042287826538085937500 0.002235146006569265885594033350 0.005010179243981838226318359375 0 0 0 0 
2400666666.6666665077 0.162476584315299987792968750000 0.050198584794998168945312500000 0.002231295919045805931091308594 0.005007871426641941070556640625 0 0 0 0 
2400833333.3333334923 0.162767276167869595626669365629 0.048504292964935302734375000000 0.002442058175802230834960937500 0.005001173354685307416434003613 0 0 0 0 
2401000000.0000000000 0.162796676158905001541299384371 0.046657070517539978027343750000 0.002664154395461082892176962744 0.005111134145408868789672851562 0 0 0 0 
2401166666.6666665077 0.163219124078750610351562500000 0.044715214520692832256276716407 0.002788269659504293961765908350 0.005267474334686995419974042676 0 0 0 0 
2401333333.3333334923 0.163110762834549005706463731258 0.043195724487304687500000000000 0.003027285682037473158595419775 0.005258622113615274429321289062 0 0 0 0 
2401500000.0000000000 0.163673132658004788497763115629 0.041296504437923431396484375000 0.003281703451648354964015341650 0.005210816394537687301635742188 0 0 0 0 
2401666666.6666665077 0.163823261857032803634481865629 0.039527133107185356830637346093 0.003437402192503213882446289062 0.005253420211374759674072265625 0 0 0 0 
2401833333.3333334923 0.164422377943992586990518134371 0.037753790616989142681081403907 0.003731808392331004142761230469 0.004966158885508775711059570312 0 0 0 0 
2402000000.0000000000 0.164468944072723388671875000000 0.036086972802877433086354841407 0.004120881669223309430594159863 0.005163830239325761795043945312 0 0 0 0 
2402166666.6666665077 0.164917483925819396972656250000 0.034280512481927871704101562500 0.004428756423294544219970703125 0.005056997295469045639038085938 0 0 0 0 
2402333333.3333334923 0.165186047554016113281250000000 0.032617546617984771728515625000 0.004613138735294342041015625000 0.005009737797081471356863691113 0 0 0 0 
2402500000.0000000000 0.165933459997177096267861884371 0.030918873846530910837193673046 0.004720672033727169036865234375 0.004936632700264453887939453125 0 0 0 0 
2402666666.6666665077 0.166147232055664090255575615629 0.029514277353882789611816406250 0.005180039908736944198608398438 0.004553994629532098770141601562 0 0 0 0 
2402833333.3333334923 0.166617423295974703689736884371 0.027987632900476459157923514454 0.005280779674649238586425781250 0.004533152095973491668701171875 0 0 0 0 
2403000000.0000000000 0.167186424136161804199218750000 0.026472045108675960195521170704 0.005615842528641223907470703125 0.004368697293102741241455078125 0 0 0 0 
2403166666.6666665077 0.167872309684753390213174384371 0.024946060031652450561523437500 0.005924606695771217346191406250 0.003999682608991861343383789062 0 0 0 0 
2403333333.3333334923 0.168654635548591613769531250000 0.023662690073251720773717110546 0.006320964545011520385742187500 0.003699232591316103935241699219 0 0 0 0 
2403500000.0000000000 0.169144093990325899978799384371 0.022551795467734340322474295704 0.006473256275057792663574218750 0.003519196994602680206298828125 0 0 0 0 
2403666666.6666665077 0.169544294476509094238281250000 0.021002706140279769897460937500 0.006630216259509325027465820312 0.003228553570806980133056640625 0 0 0 0 
2403833333.3333334923 0.170376166701316805740518134371 0.019935499876737601543386091407 0.007022760808467864990234375000 0.002971137408167123794555664062 0 0 0 0 
2404000000.0000000000 0.170965448021888705154580634371 0.018679985776543620717982108204 0.007128105964511632919311523438 0.002636797027662395997288369287 0 0 0 0 
2404166666.6666665077 0.171372622251510592361611884371 0.017644679173827171325683593750 0.007189439609646797180175781250 0.002118146745488048033473349463 0 0 0 0 
2404333333.3333334923 0.172106236219406100174111884371 0.016700226813554760324498360546 0.007396849803626537322998046875 0.001880756346508861021754599463 0 0 0 0 
2404500000.0000000000 0.172767519950866699218750000000 0.015549152158200740814208984375 0.007668016944080591201782226562 0.001622489187866448922398232568 0 0 0 0 
2404666666.6666665077 0.173384785652160589020098768742 0.014909325167536740738838396680 0.007706595119088888168334960938 0.001096236752346158027648925781 0 0 0 0 
2404833333.3333334923 0.173864364624023409744424384371 0.013894672505557540548304373829 0.007686170283704996109008789062 0.000610500690527260303497314453 0 0 0 0 
2405000000.0000000000 0.174425065517425509353799384371 0.013316071592271329707135585352 0.007664238568395376205444335938 0.000376358424546197110980433331 0 0 0 0 
2405166666.6666665077 0.175005987286567687988281250000 0.012457697652280330657958984375 0.007576506119221448898315429688 -0.000139995361678302288055419922 0 0 0 0 
2405333333.3333334923 0.175576776266097994705361884371 0.011701283976435659581194492773 0.007634775713086128234863281250 -0.000428495521191507577896118164 0 0 0 0 
2405500000.0000000000 0.176049083471298190017861884371 0.011127461679279800760289376171 0.007584990467876195907592773438 -0.000776053697336465120315551758 0 0 0 0 
2405666666.6666665077 0.176283225417137201507244981258 0.010652963072061540431012538477 0.007570994552224875363821698926 -0.001131078461185097911237407153 0 0 0 0 
2405833333.3333334923 0.176649034023284912109375000000 0.010169124230742459732979021680 0.007489105686545372009277343750 -0.001535971183329821066615439307 0 0 0 0 
2406000000.0000000000 0.176957428455352810958700615629 0.009398016147315502166748046875 0.007443414535373449325561523438 -0.001773957163095474026323628003 0 0 0 0 
2406166666.6666665077 0.177149489521980313400106865629 0.009177303873002529144287109375 0.007213407661765813827514648438 -0.002215445740148425102233886719 0 0 0 0 
2406333333.3333334923 0.177567362785339410979901231258 0.008561844006180763244628906250 0.007058504968881607055664062500 -0.002593609038740396933314658057 0 0 0 0 
2406500000.0000000000 0.177651688456535311599893134371 0.008042993955314159393310546875 0.006814711261540651321411132812 -0.002710954984650015830993652344 0 0 0 0 
2406666666.6666665077 0.177629485726356506347656250000 0.007571895141154527664184570312 0.006703008431941270828247070312 -0.003058346221223473982570029150 0 0 0 0 
2406833333.3333334923 0.177738323807716397384481865629 0.007062208373099566373343183301 0.006589137017726898193359375000 -0.003403159556910396055934286963 0 0 0 0 
2407000000.0000000000 0.177892163395881708343182481258 0.006433513015508651733398437500 0.006283784285187721252441406250 -0.003484061686322093009948730469 0 0 0 0 
2407166666.6666665077 0.177877053618431091308593750000 0.006071730982512235641479492188 0.005890498403459787368774414062 -0.003820390440523623986485146631 0 0 0 0 
2407333333.3333334923 0.177710771560669000823651231258 0.005369706545025110244750976562 0.005790887400507926940917968750 -0.003919648472219705581665039062 0 0 0 0 
2407500000.0000000000 0.177616506814956692794638115629 0.004818089306354522705078125000 0.005533027462661266326904296875 -0.004341366235166788101196289062 0 0 0 0 
2407666666.6666665077 0.177308782935142489334268134371 0.004256977234035730361938476562 0.005437978543341159820556640625 -0.004290306940674781799316406250 0 0 0 0 
2407833333.3333334923 0.177077531814575195312500000000 0.003440815722569822831394814600 0.005046861246228218078613281250 -0.004658700898289681348318769238 0 0 0 0 
2408000000.0000000000 0.176907822489738492111044365629 0.002769728656858205795288085938 0.004874815233051776885986328125 -0.004888523835688829421997070312 0 0 0 0 
2408166666.6666665077 0.176586106419563293457031250000 0.002036250894889235930201865088 0.004561070818454027175903320312 -0.005044105928391218185424804688 0 0 0 0 
2408333333.3333334923 0.176382482051849392989950615629 0.001151737989857793071149516528 0.004339725244790315628051757812 -0.005082830321043729782104492188 0 0 0 0 
2408500000.0000000000 0.175856173038482693771200615629 0.000104419385024812099620541983 0.004102266393601894378662109375 -0.005264807492494583129882812500 0 0 0 0 
2408666666.6666665077 0.175625950098037691970986884371 -0.000845037633553147315979003906 0.003647599602118134932277060400 -0.005240393336862325668334960938 0 0 0 0 
2408833333.3333334923 0.174815356731414794921875000000 -0.001947279670275747992871928638 0.003394613973796368078944540869 -0.005508251022547482576852129199 0 0 0 0 
2409000000.0000000000 0.174440547823905889313067518742 -0.002922758227214217185974121094 0.003123068483546375794651650537 -0.005326296668499708175659179688 0 0 0 0 
2409166666.6666665077 0.173939600586891202071981865629 -0.004224280826747416582589433887 0.002908963244408369064331054688 -0.005476210732012987136840820312 0 0 0 0 
2409333333.3333334923 0.173475086688995389083700615629 -0.005392768420279026031494140625 0.002666870597749948935267783057 -0.005586097016930580139160156250 0 0 0 0 
2409500000.0000000000 0.172861441969871493240518134371 -0.006860936526209115982055664062 0.002446978585794568061828613281 -0.005603012163192033767700195312 0 0 0 0 
2409666666.6666665077 0.172480642795562688629473768742 -0.008092277683317661285400390625 0.002260456327348947958705283057 -0.005635858513414859771728515625 0 0 0 0 
2409833333.3333334923 0.171786516904830904861611884371 -0.009401495568454265594482421875 0.002069516573101282119750976562 -0.005380047485232353210449218750 0 0 0 0 
2410000000.0000000000 0.171437233686447088043536268742 -0.010855792090296750504463396680 0.001697620842605829022051167065 -0.005536383017897605895996093750 0 0 0 0 
2410166666.6666665077 0.171029925346374511718750000000 -0.012365860864520069467564766796 0.001439809217117727019666362231 -0.005353601649403572082519531250 0 0 0 0 
2410333333.3333334923 0.170608684420585604568643134371 -0.013992100954055789602259451954 0.001318597816862165927886962891 -0.005462980363517999649047851562 0 0 0 0 
2410500000.0000000000 0.170230016112327603439169365629 -0.015634560957550999032994454296 0.001115904306061566092847514575 -0.005252568516880273818969726562 0 0 0 0 
2410666666.6666665077 0.169938236474990789215411268742 -0.017336666584014889108678048046 0.000933234987314790487289428711 -0.005249823443591594696044921875 0 0 0 0 
2410833333.3333334923 0.169633165001869201660156250000 -0.018932459875941280019739920704 0.000799414352513849735260009766 -0.005126462783664464950561523438 0 0 0 0 
2411000000.0000000000 0.169472083449363708496093750000 -0.020559512078762050973912423046 0.000475191016448661684989929199 -0.005216659978032112121582031250 0 0 0 0 
2411166666.6666665077 0.169221788644790704925213731258 -0.022470932453870769845982735546 0.000452096399385482127040308820 -0.005227213259786367416381835938 0 0 0 0 
2411333333.3333334923 0.169119149446487399002236884371 -0.024270366877317428588867187500 0.000245412375079467892646789551 -0.005063908640295267105102539062 0 0 0 0 
2411500000.0000000000 0.168747887015342712402343750000 -0.025984199717640880239466483204 0.000107641717477235902421413283 -0.004959676414728164672851562500 0 0 0 0 
2411666666.6666665077 0.168847605586051913162393134371 -0.027871662750840190542200858204 0.000156106994836591211244306021 -0.004982289858162403106689453125 0 0 0 0 
2411833333.3333334923 0.168905496597290011306924384371 -0.029539998620748519897460937500 -0.000049397538532502949237823486 -0.004891132470220327377319335938 0 0 0 0 
2412000000.0000000000 0.169058069586753900725994981258 -0.031515896320343017578125000000 -0.000245931587414816021919250488 -0.004957557655870915326590253613 0 0 0 0 
2412166666.6666665077 0.168914198875427301604901231258 -0.033205930143594741821289062500 -0.000368954817531630396842956543 -0.004802174400538206100463867188 0 0 0 0 
2412333333.3333334923 0.169293642044067410568075615629 -0.034928057342767722392995466407 -0.000480811984743923003047388898 -0.004872324410825967788696289062 0 0 0 0 
2412500000.0000000000 0.169261038303375188629473768742 -0.036650270223617546772043596093 -0.000530463701579719781875610352 -0.004726729821413755416870117188 0 0 0 0 
2412666666.6666665077 0.169695720076561001876669365629 -0.038531627506017691875417341407 -0.000671564775984734296798706055 -0.004649448674172163009643554688 0 0 0 0 
2412833333.3333334923 0.170009136199951199630575615629 -0.040328606963157646869699846093 -0.000890238268766552209854125977 -0.004626773763447999954223632812 0 0 0 0 
2413000000.0000000000 0.170380577445030212402343750000 -0.041950538754463202739675153907 -0.001125322771258651993395161206 -0.004428287502378225326538085938 0 0 0 0 
2413166666.6666665077 0.170263797044754000564736884371 -0.043421491980552673339843750000 -0.001255431212484837012050009619 -0.004486761987209320068359375000 0 0 0 0 
2413333333.3333334923 0.170831412076950100997763115629 -0.045080125331878662109375000000 -0.001386663177981972911237407153 -0.004495453089475631713867187500 0 0 0 0 
2413500000.0000000000 0.171203061938285799881143134371 -0.046634238213300711894948591407 -0.001427515409886837005615234375 -0.004550159443169832229614257812 0 0 0 0 
2413666666.6666665077 0.171487793326377896407919365629 -0.048086725175380706787109375000 -0.001503627980127931074855185400 -0.004432925954461097717285156250 0 0 0 0 
2413833333.3333334923 0.171959206461906405349893134371 -0.049288064241409301757812500000 -0.001739321975037455992457724463 -0.004306097049266099929809570312 0 0 0 0 
2414000000.0000000000 0.172193333506584195236044365629 -0.050627600401639938354492187500 -0.001972721656784414811375283350 -0.004111791495233774185180664062 0 0 0 0 
2414166666.6666665077 0.172830983996391296386718750000 -0.051929373294115073467214216407 -0.002082329476252197785618447412 -0.004081297665834426879882812500 0 0 0 0 
2414333333.3333334923 0.173080652952194213867187500000 -0.053010448813438422466237653907 -0.002099222736433147950413369287 -0.003979810979217290878295898438 0 0 0 0 
2414500000.0000000000 0.173687115311622591873330634371 -0.054008025676012039184570312500 -0.002212760271504520936253213037 -0.003779637860134243965148925781 0 0 0 0 
2414666666.6666665077 0.174038171768188504318075615629 -0.054990403354167938232421875000 -0.002325205365195869965794228662 -0.003620009636506437821629189600 0 0 0 0 
2414833333.3333334923 0.174222677946090698242187500000 -0.056045025587081909179687500000 -0.002391218906268477006199502100 -0.003567336127161980108973837744 0 0 0 0 
2415000000.0000000000 0.174645945429801913162393134371 -0.056832563132047653198242187500 -0.002681658370420337157008505713 -0.003461291780695319175720214844 0 0 0 0 
2415166666.6666665077 0.174721479415893610198651231258 -0.057537283748388290405273437500 -0.002718026051297783851623535156 -0.003407926997169851823094033350 0 0 0 0 
2415333333.3333334923 0.175174504518508911132812500000 -0.058369450271129608154296875000 -0.002773717045783997015712118994 -0.003235602518543601036071777344 0 0 0 0 
2415500000.0000000000 0.175459265708923312088174384371 -0.058937627822160720825195312500 -0.002834128914400935173034667969 -0.003162524197250605063197470557 0 0 0 0 
2415666666.6666665077 0.175535812973976107498330634371 -0.059533551335334777832031250000 -0.002936106873676180839538574219 -0.003017683280631899833679199219 0 0 0 0 
2415833333.3333334923 0.175615608692169189453125000000 -0.060123167932033538818359375000 -0.003059503156691790060756064307 -0.002848622854799032211303710938 0 0 0 0 
2416000000.0000000000 0.175624787807464599609375000000 -0.060520064085721969604492187500 -0.003144405782222747802734375000 -0.002689974848181008858921670068 0 0 0 0 
2416166666.6666665077 0.175753235816955594161825615629 -0.060894962400197982788085937500 -0.003141568042337894006016396631 -0.002531994599848986105677939307 0 0 0 0 
2416333333.3333334923 0.175513759255409212967080634371 -0.061265300959348678588867187500 -0.003204486332833766937255859375 -0.002286631148308515982386923682 0 0 0 0 
2416500000.0000000000 0.175424382090568486969317518742 -0.061583876609802253032643903907 -0.003230339149013162092921591650 -0.002397419186308979988098144531 0 0 0 0 
2416666666.6666665077 0.175139784812927301604901231258 -0.061942368745803833007812500000 -0.003357015550136566162109375000 -0.002055615186691284179687500000 0 0 0 0 
2416833333.3333334923 0.175006017088890103439169365629 -0.062409777194261550903320312500 -0.003429826814681292013881064307 -0.002011478645727037949803017725 0 0 0 0 
2417000000.0000000000 0.174411922693252591232138115629 -0.062653005123138427734375000000 -0.003214758820831776098964072119 -0.001951234415173531012294150244 0 0 0 0 
2417166666.6666665077 0.173974126577377291580361884371 -0.062809705734252929687500000000 -0.003404451068490744070765829932 -0.001762931118719279982923198169 0 0 0 0 
2417333333.3333334923 0.173511728644371004959268134371 -0.063165679574012756347656250000 -0.003375385655090212821960449219 -0.001614082721062004999873495947 0 0 0 0 
2417500000.0000000000 0.172853335738182095626669365629 -0.063602097332477569580078125000 -0.003376632696017622947692871094 -0.001393116544932126998901367188 0 0 0 0 
2417666666.6666665077 0.172220975160598810393963731258 -0.063665457069873809814453125000 -0.003571643494069575829746865381 -0.001354207517579198100446391528 0 0 0 0 
2417833333.3333334923 0.171474322676658602615518134371 -0.063962109386920928955078125000 -0.003443166147917509078979492188 -0.001111372956074774048448872144 0 0 0 0 
2418000000.0000000000 0.170530706644058199783486884371 -0.064522422850131988525390625000 -0.003299295669421554045436240088 -0.000950752873905003070831298828 0 0 0 0 
2418166666.6666665077 0.169676378369331387618856865629 -0.064774289727210998535156250000 -0.003439529333263636069056845557 -0.000850239710416644811630249023 0 0 0 0 
2418333333.3333334923 0.169072791934013394454794365629 -0.065167985856533050537109375000 -0.003320286516100167794468545068 -0.000793823914136737585067749023 0 0 0 0 
2418500000.0000000000 0.167944282293319702148437500000 -0.065647475421428680419921875000 -0.003403281327337027029750204932 -0.000679199525620788335800170898 0 0 0 0 
2418666666.6666665077 0.167067453265190096756143134371 -0.066164359450340270996093750000 -0.003263068618252872987034463037 -0.000499540474265813827514648438 0 0 0 0 
2418833333.3333334923 0.165741458535194396972656250000 -0.066686801612377166748046875000 -0.003293154528364539146423339844 -0.000629412359558045864105224609 0 0 0 0 
2419000000.0000000000 0.164671987295150812347088731258 -0.067311644554138183593750000000 -0.003326854901388287977931357275 -0.000370859139366075396537780762 0 0 0 0 
2419166666.6666665077 0.163545846939086886306924384371 -0.067931942641735076904296875000 -0.003247046610340476036071777344 -0.000137623850605450597688397818 0 0 0 0 
2419333333.3333334923 0.162426427006721496582031250000 -0.068549886345863342285156250000 -0.003114989958703517913818359375 -0.000201220129383727908134460449 0 0 0 0 
2419500000.0000000000 0.161211952567100497146768134371 -0.069494903087615966796875000000 -0.003202326828613876862766884912 0.000001081073605746497104057135 0 0 0 0 
2419666666.6666665077 0.160249114036560086349325615629 -0.070383727550506591796875000000 -0.003059960668906569914576865088 0.000166830839589238193914136343 0 0 0 0 
2419833333.3333334923 0.159190788865089388748330634371 -0.071230888366699218750000000000 -0.003152764169499278068542480469 0.000262301473412662690311986102 0 0 0 0 
