# Version 1.00
#
freq[Hz];re:Trc1_S11;im:Trc1_S11;re:Trc2_S21;im:Trc2_S21;
2.400000000000000E+009;1.712291240692139E-001;4.018748924136162E-002;2.896305406466126E-003;-1.383722643367946E-003;
2.400166666666667E+009;1.719115078449249E-001;3.958762809634209E-002;2.991847228258848E-003;-1.680506975390017E-003;
2.400333333333334E+009;1.722320318222046E-001;3.906651586294174E-002;2.888377755880356E-003;-1.640301779843867E-003;
2.400500000000000E+009;1.726409047842026E-001;3.845315426588059E-002;2.796730492264032E-003;-1.831932691857219E-003;
2.400666666666667E+009;1.731323003768921E-001;3.782298043370247E-002;2.728598657995462E-003;-2.029928844422102E-003;
2.400833333333334E+009;1.734025627374649E-001;3.729945793747902E-002;2.605317858979106E-003;-2.203089185059071E-003;
2.401000000000000E+009;1.733578592538834E-001;3.663677349686623E-002;2.597987651824951E-003;-2.375281415879726E-003;
2.401166666666667E+009;1.736636310815811E-001;3.595523536205292E-002;2.543413545936346E-003;-2.415198367089033E-003;
2.401333333333334E+009;1.736964732408524E-001;3.525155037641525E-002;2.228177385404706E-003;-2.440411597490311E-003;
2.401500000000000E+009;1.736469417810440E-001;3.463479503989220E-002;2.180808456614614E-003;-2.480697585269809E-003;
2.401666666666667E+009;1.735285669565201E-001;3.403374180197716E-002;1.894421759061515E-003;-2.804739866405726E-003;
2.401833333333334E+009;1.734014600515366E-001;3.329936042428017E-002;2.120320918038487E-003;-2.765361219644547E-003;
2.402000000000000E+009;1.730573177337647E-001;3.267564252018929E-002;1.816615695133805E-003;-2.748159691691399E-003;
2.402166666666667E+009;1.727064102888107E-001;3.184114024043083E-002;1.751312403939664E-003;-2.778453752398491E-003;
2.402333333333334E+009;1.725028604269028E-001;3.081412799656391E-002;1.671711681410670E-003;-2.814419334754348E-003;
2.402500000000000E+009;1.724628210067749E-001;3.002803958952427E-002;1.491523580625653E-003;-2.784575568512082E-003;
2.402666666666667E+009;1.722595095634460E-001;2.923078276216984E-002;1.551600638777018E-003;-2.773445798084140E-003;
2.402833333333334E+009;1.717711240053177E-001;2.820308692753315E-002;1.361570553854108E-003;-2.682177582755685E-003;
2.403000000000000E+009;1.713923215866089E-001;2.700729668140411E-002;1.481665531173348E-003;-2.832755912095308E-003;
2.403166666666667E+009;1.710172444581986E-001;2.599041722714901E-002;1.470608287490904E-003;-2.933718264102936E-003;
2.403333333333334E+009;1.707348078489304E-001;2.468491345643997E-002;1.486878958530724E-003;-2.798567060381174E-003;
2.403500000000000E+009;1.703055948019028E-001;2.349423430860043E-002;1.356570050120354E-003;-3.154565114527941E-003;
2.403666666666667E+009;1.700016260147095E-001;2.198220975697041E-002;1.325584598816931E-003;-3.198182908818126E-003;
2.403833333333334E+009;1.696285307407379E-001;2.057072706520557E-002;1.196142984554172E-003;-3.254018025472760E-003;
2.404000000000000E+009;1.692897677421570E-001;1.928853429853916E-002;1.047327299602330E-003;-3.418566891923547E-003;
2.404166666666667E+009;1.688652336597443E-001;1.778010278940201E-002;9.156290907412767E-004;-3.571461187675595E-003;
2.404333333333334E+009;1.687167137861252E-001;1.617336459457874E-002;7.351067033596337E-004;-3.559497650712729E-003;
2.404500000000000E+009;1.683755517005920E-001;1.449641864746809E-002;4.650751361623406E-004;-3.737436607480049E-003;
2.404666666666667E+009;1.682663559913635E-001;1.297241635620594E-002;2.564363821875304E-004;-3.696410218253732E-003;
2.404833333333334E+009;1.680237501859665E-001;1.126009784638882E-002;6.637749174842611E-005;-3.614769084379077E-003;
2.405000000000000E+009;1.680030077695847E-001;9.469103068113327E-003;-2.640210550453048E-005;-3.547385102137923E-003;
2.405166666666667E+009;1.677764654159546E-001;7.855537347495556E-003;-3.181288775522262E-004;-3.498143050819635E-003;
2.405333333333334E+009;1.678602844476700E-001;5.706218071281910E-003;-4.495969624258578E-004;-3.464745124801993E-003;
2.405500000000000E+009;1.678186506032944E-001;4.058574326336384E-003;-5.681069451384246E-004;-3.304909681901336E-003;
2.405666666666667E+009;1.677500903606415E-001;2.217148896306753E-003;-5.889929598197341E-004;-3.284152131527662E-003;
2.405833333333334E+009;1.677061915397644E-001;3.845299943350256E-004;-7.472256547771394E-004;-3.226116532459855E-003;
2.406000000000000E+009;1.677142232656479E-001;-1.527899759821594E-003;-1.017282367683947E-003;-3.040796378627420E-003;
2.406166666666667E+009;1.677306145429611E-001;-3.406371921300888E-003;-9.625187376514077E-004;-3.118983935564756E-003;
2.406333333333334E+009;1.677715182304382E-001;-5.219774320721626E-003;-9.932960383594036E-004;-3.101499984040856E-003;
2.406500000000000E+009;1.678389757871628E-001;-7.013501599431038E-003;-1.024754834361374E-003;-2.936789533123374E-003;
2.406666666666667E+009;1.677672713994980E-001;-8.665619418025017E-003;-1.283944700844586E-003;-2.894988283514977E-003;
2.406833333333334E+009;1.678691804409027E-001;-1.051818206906319E-002;-1.252932357601821E-003;-2.617790596559644E-003;
2.407000000000000E+009;1.679867655038834E-001;-1.211748924106360E-002;-1.144573208875954E-003;-2.754379529505968E-003;
2.407166666666667E+009;1.681282222270966E-001;-1.361765991896391E-002;-1.369678648188710E-003;-2.576859900727868E-003;
2.407333333333334E+009;1.680982261896133E-001;-1.522263325750828E-002;-1.438570441678166E-003;-2.615087898448110E-003;
2.407500000000000E+009;1.681364923715591E-001;-1.646036840975285E-002;-1.335131353698671E-003;-2.670099958777428E-003;
2.407666666666667E+009;1.682105511426926E-001;-1.776599138975143E-002;-1.549042877741158E-003;-2.533310558646917E-003;
2.407833333333334E+009;1.683468967676163E-001;-1.908970810472965E-002;-1.494028838351369E-003;-2.419866155833006E-003;
2.408000000000000E+009;1.684203892946243E-001;-2.022180147469044E-002;-1.567136030644178E-003;-2.383842365816236E-003;
2.408166666666667E+009;1.686759144067764E-001;-2.116031199693680E-002;-1.631576218642294E-003;-2.414803951978684E-003;
2.408333333333334E+009;1.690283119678497E-001;-2.196964062750340E-002;-1.687657088041306E-003;-2.030593343079090E-003;
2.408500000000000E+009;1.693068593740463E-001;-2.304511331021786E-002;-1.824444741941989E-003;-2.029152587056160E-003;
2.408666666666667E+009;1.695403605699539E-001;-2.377301082015038E-002;-1.729358104057610E-003;-1.801552367396653E-003;
2.408833333333334E+009;1.697719842195511E-001;-2.469658292829990E-002;-1.755382167175412E-003;-1.735751284286380E-003;
2.409000000000000E+009;1.701848059892654E-001;-2.520694211125374E-002;-1.719396677799523E-003;-1.535019953735173E-003;
2.409166666666667E+009;1.705311089754105E-001;-2.590575627982616E-002;-1.787138753570616E-003;-1.527974149212241E-003;
2.409333333333334E+009;1.709333807229996E-001;-2.664354071021080E-002;-1.709377625957131E-003;-1.427798182703555E-003;
2.409500000000000E+009;1.711408793926239E-001;-2.739493921399117E-002;-1.704052556306124E-003;-1.474951626732945E-003;
2.409666666666667E+009;1.715181171894074E-001;-2.815142460167408E-002;-1.591526786796749E-003;-1.375582069158554E-003;
2.409833333333334E+009;1.716574430465698E-001;-2.869937568902969E-002;-1.427171169780195E-003;-1.247304142452776E-003;
2.410000000000000E+009;1.719843000173569E-001;-2.952796220779419E-002;-1.421774970367551E-003;-1.269210479222238E-003;
2.410166666666667E+009;1.720272153615952E-001;-3.024411946535111E-002;-1.331262756139040E-003;-1.286783372052014E-003;
2.410333333333334E+009;1.720993667840958E-001;-3.070325031876564E-002;-1.359496032819152E-003;-1.493086339905858E-003;
2.410500000000000E+009;1.720837950706482E-001;-3.154703974723816E-002;-1.212190836668015E-003;-1.476840348914266E-003;
2.410666666666667E+009;1.720014661550522E-001;-3.225593268871307E-002;-1.310358406044543E-003;-1.510335481725633E-003;
2.410833333333334E+009;1.720086783170700E-001;-3.288396820425987E-002;-1.251273090019822E-003;-1.451344694942236E-003;
2.411000000000000E+009;1.717919260263443E-001;-3.348960727453232E-002;-1.179718994535506E-003;-1.789267640560865E-003;
2.411166666666667E+009;1.713219732046127E-001;-3.407943248748779E-002;-1.197731820866466E-003;-1.625783741474152E-003;
2.411333333333334E+009;1.710450351238251E-001;-3.469546511769295E-002;-1.193179865367711E-003;-1.829584827646613E-003;
2.411500000000000E+009;1.707129478454590E-001;-3.550407290458679E-002;-1.309073762968183E-003;-1.941510825417936E-003;
2.411666666666667E+009;1.705409884452820E-001;-3.600853309035301E-002;-1.204807660542429E-003;-2.189510967582464E-003;
2.411833333333334E+009;1.700887531042099E-001;-3.668662533164024E-002;-1.459749066270888E-003;-2.179742325097323E-003;
2.412000000000000E+009;1.696320027112961E-001;-3.747995942831039E-002;-1.471532392315567E-003;-2.211978891864419E-003;
2.412166666666667E+009;1.691182851791382E-001;-3.813066333532333E-002;-1.456249388866127E-003;-2.266183262690902E-003;
2.412333333333334E+009;1.686926186084747E-001;-3.893975540995598E-002;-1.816840143874288E-003;-2.310148440301418E-003;
2.412500000000000E+009;1.680241078138351E-001;-3.974190354347229E-002;-1.917944755405188E-003;-2.270094351843000E-003;
2.412666666666667E+009;1.676967740058899E-001;-4.076555371284485E-002;-2.180190291255713E-003;-2.373509341850877E-003;
2.412833333333334E+009;1.668115258216858E-001;-4.176872968673706E-002;-2.365441061556339E-003;-2.274372614920139E-003;
2.413000000000000E+009;1.661202162504196E-001;-4.250472411513329E-002;-2.419561613351107E-003;-2.369906986132264E-003;
2.413166666666667E+009;1.654527187347412E-001;-4.350119084119797E-002;-2.649472327902913E-003;-2.277192659676075E-003;
2.413333333333334E+009;1.647030860185623E-001;-4.461041092872620E-002;-2.824612660333514E-003;-2.255286555737257E-003;
2.413500000000000E+009;1.639383584260941E-001;-4.572331905364990E-002;-2.972511341795325E-003;-2.178535098209977E-003;
2.413666666666667E+009;1.633890569210053E-001;-4.659909009933472E-002;-3.082146169617772E-003;-2.014523139223456E-003;
2.413833333333334E+009;1.625009179115295E-001;-4.768770560622215E-002;-3.353619016706944E-003;-1.987461699172854E-003;
2.414000000000000E+009;1.618030369281769E-001;-4.898563772439957E-002;-3.459968138486147E-003;-1.785966451279819E-003;
2.414166666666667E+009;1.612810194492340E-001;-4.989414662122726E-002;-3.550101537257433E-003;-1.793414005078375E-003;
2.414333333333334E+009;1.606348752975464E-001;-5.104206502437592E-002;-3.648861078545451E-003;-1.672752085141838E-003;
2.414500000000000E+009;1.601909846067429E-001;-5.213178321719170E-002;-3.945799078792334E-003;-1.397118903696537E-003;
2.414666666666667E+009;1.597106605768204E-001;-5.329985544085503E-002;-4.005932714790106E-003;-1.200270606204867E-003;
2.414833333333334E+009;1.592619866132736E-001;-5.459750816226006E-002;-3.873545443639159E-003;-1.048985286615789E-003;
2.415000000000000E+009;1.586605161428452E-001;-5.575649067759514E-002;-4.240262322127819E-003;-8.372439770027995E-004;
2.415166666666667E+009;1.586015820503235E-001;-5.705109983682632E-002;-4.383651539683342E-003;-5.771975847892463E-004;
2.415333333333334E+009;1.583048105239868E-001;-5.843077227473259E-002;-4.438290838152170E-003;-4.814711282961071E-004;
2.415500000000000E+009;1.580952256917954E-001;-5.982820317149162E-002;-4.538753535598517E-003;-1.645672164158896E-004;
2.415666666666667E+009;1.578030586242676E-001;-6.115407124161720E-002;-4.459567833691835E-003;1.997062063310295E-004;
2.415833333333334E+009;1.577641665935516E-001;-6.270220130681992E-002;-4.537936765700579E-003;3.601096977945417E-004;
2.416000000000000E+009;1.573442816734314E-001;-6.404394656419754E-002;-4.420313518494368E-003;6.128074019216001E-004;
2.416166666666667E+009;1.574023067951202E-001;-6.558255851268768E-002;-4.408001434057951E-003;9.758846717886627E-004;
2.416333333333334E+009;1.572616845369339E-001;-6.703808903694153E-002;-4.371332935988903E-003;1.105861156247556E-003;
2.416500000000000E+009;1.571493148803711E-001;-6.861654669046402E-002;-4.295838531106710E-003;1.336200162768364E-003;
2.416666666666667E+009;1.568896621465683E-001;-6.984527409076691E-002;-4.082933068275452E-003;1.447639428079128E-003;
2.416833333333334E+009;1.567111611366272E-001;-7.138990610837936E-002;-3.986505791544914E-003;1.834881608374417E-003;
2.417000000000000E+009;1.563721150159836E-001;-7.268875837326050E-002;-3.828737419098616E-003;1.782977604307234E-003;
2.417166666666667E+009;1.562674045562744E-001;-7.381092756986618E-002;-3.744066925719380E-003;1.957318978384137E-003;
2.417333333333334E+009;1.560869067907333E-001;-7.501506060361862E-002;-3.614828689023852E-003;2.214107895269990E-003;
2.417500000000000E+009;1.558882296085358E-001;-7.639108598232269E-002;-3.371446160599589E-003;2.119558630511165E-003;
2.417666666666667E+009;1.558701992034912E-001;-7.722710818052292E-002;-3.361481474712491E-003;2.474878681823611E-003;
2.417833333333334E+009;1.557880192995071E-001;-7.816088944673538E-002;-3.154052887111902E-003;2.460221061483026E-003;
2.418000000000000E+009;1.555453836917877E-001;-7.920210808515549E-002;-2.957930555567145E-003;2.688754349946976E-003;
2.418166666666667E+009;1.554699987173080E-001;-7.996888458728790E-002;-2.906011417508125E-003;2.639082726091147E-003;
2.418333333333334E+009;1.557767987251282E-001;-8.074764162302017E-002;-2.754667075350881E-003;2.912601921707392E-003;
2.418500000000000E+009;1.555645316839218E-001;-8.165015280246735E-002;-2.424907637760043E-003;3.037568880245090E-003;
2.418666666666667E+009;1.556115001440048E-001;-8.246036618947983E-002;-2.241095062345266E-003;2.860358916223049E-003;
2.418833333333334E+009;1.553645730018616E-001;-8.317694067955017E-002;-2.254303311929107E-003;2.877584425732493E-003;
2.419000000000000E+009;1.551046073436737E-001;-8.376613259315491E-002;-1.853010384365916E-003;2.854326041415334E-003;
2.419166666666667E+009;1.551913022994995E-001;-8.421390503644943E-002;-1.725414418615401E-003;2.821757690981031E-003;
2.419333333333334E+009;1.549034565687180E-001;-8.468189090490341E-002;-1.650993363000453E-003;2.903759712353349E-003;
2.419500000000000E+009;1.548030227422714E-001;-8.535183966159821E-002;-1.401098794303834E-003;2.954949392005801E-003;
2.419666666666667E+009;1.546691060066223E-001;-8.581241965293884E-002;-1.361709553748369E-003;2.866588300094008E-003;
2.419833333333334E+009;1.543505787849426E-001;-8.619348704814911E-002;-1.113729784265161E-003;2.859085565432906E-003;
2.420000000000000E+009;1.542178541421890E-001;-8.650856465101242E-002;-9.777548257261515E-004;2.612773096188903E-003;
2.420166666666667E+009;1.540290862321854E-001;-8.679215610027313E-002;-9.683863609097898E-004;2.516747917979956E-003;
2.420333333333334E+009;1.537468433380127E-001;-8.722964674234390E-002;-9.695139597170055E-004;2.532163169234991E-003;
2.420500000000000E+009;1.535192281007767E-001;-8.738151192665100E-002;-8.013409678824246E-004;2.423758152872324E-003;
2.420666666666667E+009;1.531749367713928E-001;-8.789200335741043E-002;-8.858338696882129E-004;2.285475376993418E-003;
2.420833333333334E+009;1.528696566820145E-001;-8.808795362710953E-002;-8.428998989984393E-004;2.233065431937575E-003;
2.421000000000000E+009;1.523303240537643E-001;-8.864288777112961E-002;-7.666693418286741E-004;2.083577914163470E-003;
2.421166666666667E+009;1.520143747329712E-001;-8.897656947374344E-002;-9.339649113826454E-004;2.104622311890125E-003;
2.421333333333334E+009;1.516561508178711E-001;-8.956588804721832E-002;-8.322220528498292E-004;1.900182571262121E-003;
2.421500000000000E+009;1.508970260620117E-001;-8.974127471446991E-002;-9.725946001708508E-004;2.103773178532720E-003;
2.421666666666667E+009;1.504737585783005E-001;-9.017745405435562E-002;-9.887291816994548E-004;1.949147903360426E-003;
2.421833333333334E+009;1.497748792171478E-001;-9.071175754070282E-002;-1.121346023865044E-003;2.062634797766805E-003;
2.422000000000000E+009;1.488790363073349E-001;-9.126037359237671E-002;-1.050661085173488E-003;2.144226338714361E-003;
2.422166666666667E+009;1.483163982629776E-001;-9.189435094594955E-002;-1.235719420947135E-003;2.111257053911686E-003;
2.422333333333334E+009;1.474579125642777E-001;-9.242955595254898E-002;-1.055124797858298E-003;2.209592377766967E-003;
2.422500000000000E+009;1.467539668083191E-001;-9.308277815580368E-002;-1.264014979824424E-003;2.363304607570171E-003;
2.422666666666667E+009;1.458322256803513E-001;-9.377334266901016E-002;-1.227596309036017E-003;2.487400081008673E-003;
2.422833333333334E+009;1.450050324201584E-001;-9.460660070180893E-002;-1.313445973210037E-003;2.524483250454068E-003;
2.423000000000000E+009;1.442793458700180E-001;-9.525289386510849E-002;-1.321856863796711E-003;2.564328256994486E-003;
2.423166666666667E+009;1.434069126844406E-001;-9.628763049840927E-002;-1.332740765064955E-003;2.792431274428964E-003;
2.423333333333334E+009;1.425516903400421E-001;-9.673959761857987E-002;-1.329360296949744E-003;2.909467322751880E-003;
2.423500000000000E+009;1.416999548673630E-001;-9.782145917415619E-002;-1.157695776782930E-003;3.072089049965143E-003;
2.423666666666667E+009;1.404917091131210E-001;-9.882303327322006E-002;-1.287637744098902E-003;3.245815401896834E-003;
2.423833333333334E+009;1.398264765739441E-001;-9.980330616235733E-002;-1.009620376862586E-003;3.473725635558367E-003;
2.424000000000000E+009;1.387521475553513E-001;-1.005500555038452E-001;-7.847640081308782E-004;3.719294210895896E-003;
2.424166666666667E+009;1.379562318325043E-001;-1.016608700156212E-001;-6.062988541088998E-004;3.906975034624338E-003;
2.424333333333334E+009;1.371647268533707E-001;-1.026144400238991E-001;-3.321917902212590E-004;3.854967188090086E-003;
2.424500000000000E+009;1.362995803356171E-001;-1.037555187940598E-001;-1.038149566738866E-004;3.937274683266878E-003;
2.424666666666667E+009;1.357552707195282E-001;-1.047540381550789E-001;9.198038605973125E-005;3.984006587415934E-003;
2.424833333333334E+009;1.347275823354721E-001;-1.059331223368645E-001;2.592153905425221E-004;4.074456635862589E-003;
2.425000000000000E+009;1.340801715850830E-001;-1.070489287376404E-001;6.730171735398471E-004;3.877734998241067E-003;
2.425166666666667E+009;1.332156062126160E-001;-1.082425490021706E-001;8.393526077270508E-004;3.858349286019802E-003;
2.425333333333334E+009;1.327788978815079E-001;-1.094530522823334E-001;1.032571424730122E-003;3.801342332735658E-003;
2.425500000000000E+009;1.322898119688034E-001;-1.106940358877182E-001;1.401427201926708E-003;3.810743568465114E-003;
2.425666666666667E+009;1.316097527742386E-001;-1.119282916188240E-001;1.469408627599478E-003;3.717347048223019E-003;
2.425833333333334E+009;1.311439275741577E-001;-1.131029576063156E-001;1.743470551446080E-003;3.436308586969972E-003;
2.426000000000000E+009;1.307089328765869E-001;-1.143772006034851E-001;1.881832024082542E-003;3.318030154332519E-003;
2.426166666666667E+009;1.303462088108063E-001;-1.156516745686531E-001;2.085023093968630E-003;3.187389345839620E-003;
2.426333333333334E+009;1.298054009675980E-001;-1.168605014681816E-001;2.133259549736977E-003;2.851326018571854E-003;
2.426500000000000E+009;1.294618993997574E-001;-1.179673671722412E-001;2.335610566660762E-003;2.586343791335821E-003;
2.426666666666667E+009;1.292515695095062E-001;-1.188655197620392E-001;2.252504695206881E-003;2.542438451200724E-003;
2.426833333333334E+009;1.289135217666626E-001;-1.199891120195389E-001;2.500656293705106E-003;2.203380689024925E-003;
2.427000000000000E+009;1.285555809736252E-001;-1.210632920265198E-001;2.462851349264383E-003;2.005126094445586E-003;
2.427166666666667E+009;1.282974779605866E-001;-1.219351589679718E-001;2.456676680594683E-003;1.883488497696817E-003;
2.427333333333334E+009;1.282658129930496E-001;-1.230037510395050E-001;2.362176775932312E-003;1.598004368133843E-003;
2.427500000000000E+009;1.281266957521439E-001;-1.237271949648857E-001;2.206722972914577E-003;1.324137905612588E-003;
2.427666666666667E+009;1.278768181800842E-001;-1.246458292007446E-001;2.257860964164138E-003;1.116749597713351E-003;
