# Hz S RI R 50
2400000000.0000000000 0.160890743136405889313067518742 0.057119414210319519042968750000 0.001780304824933409907697368091 0.002572692697867751121520996094 0 0 0 0 
2400166666.6666665077 0.160955011844635009765625000000 0.055564612150192260742187500000 0.002144483849406241936924599756 0.002548447810113430023193359375 0 0 0 0 
2400333333.3333334923 0.160917103290557889083700615629 0.053597349673509597778320312500 0.002009621821343899206874228369 0.002527761738747357888462685693 0 0 0 0 
2400500000.0000000000 0.161061301827430697342080634371 0.051859907805919647216796875000 0.002126806415617465972900390625 0.002639515791088343100306845557 0 0 0 0 
2400666666.6666665077 0.161070168018341092208700615629 0.049975175410509109497070312500 0.002354901516810059981105185400 0.002685940125957130952122353662 0 0 0 0 
2400833333.3333334923 0.161389991641044588943643134371 0.048142526298761367797851562500 0.002494283951818943023681640625 0.002777975983917713165283203125 0 0 0 0 
2401000000.0000000000 0.161411404609680203536825615629 0.046238243579864501953125000000 0.002584842499345541000366210938 0.002582165179774165153503417969 0 0 0 0 
2401166666.6666665077 0.161931008100509588043536268742 0.044252332299947738647460937500 0.002699094126000999970677041162 0.002647475339472293853759765625 0 0 0 0 
2401333333.3333334923 0.162156477570533807952557481258 0.042328350245952613140065778907 0.002983025508001447157618857275 0.002526007127016783194300986182 0 0 0 0 
2401500000.0000000000 0.162594676017761202713174384371 0.040539272129535681987722028907 0.002983730984851717948913574219 0.002388710156083106994628906250 0 0 0 0 
2401666666.6666665077 0.162824630737304687500000000000 0.038730569183826446533203125000 0.003172512399032711982727050781 0.002326784189790486855747841943 0 0 0 0 
2401833333.3333334923 0.163040563464164706131143134371 0.036772176623344421386718750000 0.003131553065031766891479492188 0.002278805011883378028869628906 0 0 0 0 
2402000000.0000000000 0.163483545184135409256143134371 0.034983895719051361083984375000 0.003338087815791368918177939307 0.002085463376715778870823525537 0 0 0 0 
2402166666.6666665077 0.164119601249694796463174384371 0.033153783529996871948242187500 0.003424814436584711074829101562 0.002204549266025424003601074219 0 0 0 0 
2402333333.3333334923 0.164491832256317110916299384371 0.031531732529401779174804687500 0.003623097203671931786778115381 0.001895591733045876026153564453 0 0 0 0 
2402500000.0000000000 0.165296643972396906097088731258 0.030036455020308501506764997657 0.003674696432426571846008300781 0.001856865244917571978328085791 0 0 0 0 
2402666666.6666665077 0.165895506739616394042968750000 0.028227280825376510620117187500 0.003862728597596288161036826025 0.001808692351914942047716450269 0 0 0 0 
2402833333.3333334923 0.166348367929458590408486884371 0.026871098205447200429896170704 0.003998433705419301986694335938 0.001500022364780307032941508716 0 0 0 0 
2403000000.0000000000 0.167180851101875305175781250000 0.025379134342074390756627266796 0.003971580881625413894653320312 0.001316821668297051949741982568 0 0 0 0 
2403166666.6666665077 0.167834654450416592696981865629 0.023938920348882678640345389454 0.003949696663767099380493164062 0.001269442378543317101122211987 0 0 0 0 
2403333333.3333334923 0.168517217040062006194744981258 0.022686339914798740041712576954 0.004117500502616167068481445312 0.000998599221929907798767089844 0 0 0 0 
2403500000.0000000000 0.169313922524452209472656250000 0.021299157291650768625279610546 0.004016079939901828765869140625 0.000743262411560863256454467773 0 0 0 0 
2403666666.6666665077 0.169924184679985101897869981258 0.020082052797079089773157889454 0.003947860095649957656860351562 0.000685466919094324111938476562 0 0 0 0 
2403833333.3333334923 0.170831114053726196289062500000 0.018987828865647319448450858204 0.004096868447959423065185546875 0.000503541727084666490554809570 0 0 0 0 
2404000000.0000000000 0.171512201428413391113281250000 0.017903376370668411254882812500 0.004090620670467615127563476562 0.000391698849853128194808959961 0 0 0 0 
2404166666.6666665077 0.172172203660011291503906250000 0.016834221780300140380859375000 0.003937440924346446990966796875 0.000090623187134042382240295410 0 0 0 0 
2404333333.3333334923 0.172867298126220703125000000000 0.015967192128300670278528983204 0.003996121697127819061279296875 0.000076449177868198603391647339 0 0 0 0 
2404500000.0000000000 0.173329547047615106780682481258 0.014987716451287269592285156250 0.004030921496450901031494140625 -0.000178018904989585307523450308 0 0 0 0 
2404666666.6666665077 0.174134239554405212402343750000 0.014268541708588600158691406250 0.003908094018697738647460937500 -0.000094672417617402970790863037 0 0 0 0 
2404833333.3333334923 0.174751579761505099197549384371 0.013574566692113879812220389454 0.003903730073943734169006347656 -0.000301072053844109177589416504 0 0 0 0 
2405000000.0000000000 0.175459012389182988922442518742 0.012948296964168550318707850977 0.003821509191766380830052041162 -0.000409113883506506681442260742 0 0 0 0 
2405166666.6666665077 0.175885111093521090408486884371 0.012230702675878999882708164648 0.003764485707506537003758095850 -0.000491518760100007057189941406 0 0 0 0 
2405333333.3333334923 0.176504775881767300704794365629 0.011505609378218650817871093750 0.003594915149733424186706542969 -0.000590086914598941802978515625 0 0 0 0 
2405500000.0000000000 0.176896616816520690917968750000 0.011158462613821029663085937500 0.003612374188378452821018838037 -0.000582033651880919933319091797 0 0 0 0 
2405666666.6666665077 0.177350550889968899825888115629 0.010728903114795690018623552930 0.003562685800716280937194824219 -0.000665684405248612165451049805 0 0 0 0 
2405833333.3333334923 0.177603274583816500564736884371 0.010408683679997919255266758398 0.003524095285683869881870888818 -0.000751517422031611204147338867 0 0 0 0 
2406000000.0000000000 0.177946701645851107498330634371 0.009704554453492164611816406250 0.003685921896249055862426757812 -0.000691616034600883722305297852 0 0 0 0 
2406166666.6666665077 0.178037256002426202972088731258 0.009599785320460796356201171875 0.003434828715398908095118857275 -0.000768351950682699680328369141 0 0 0 0 
2406333333.3333334923 0.178323060274124201018963731258 0.009072734974324703216552734375 0.003549043787643312974217080225 -0.000815461506135761737823486328 0 0 0 0 
2406500000.0000000000 0.178480580449104309082031250000 0.008709594607353210449218750000 0.003601629752665758132934570312 -0.000908236659597605466842651367 0 0 0 0 
2406666666.6666665077 0.178373202681541387359942518742 0.008379051461815834045410156250 0.003403942566365004019496298682 -0.001063953270204365036608051831 0 0 0 0 
2406833333.3333334923 0.178481504321098299881143134371 0.007865988649427890777587890625 0.003447342431172728972194052588 -0.001023111632093786976457905347 0 0 0 0 
2407000000.0000000000 0.178399950265884399414062500000 0.007472435012459754943847656250 0.003309804014861584143397665869 -0.000976502604316920042037963867 0 0 0 0 
2407166666.6666665077 0.178508386015892001053018134371 0.007104555610567331314086914062 0.003446469781920313835144042969 -0.001106396201066673018811870044 0 0 0 0 
2407333333.3333334923 0.178041130304336603362713731258 0.006576371844857931137084960938 0.003439550055190920829772949219 -0.001161985914222896099090576172 0 0 0 0 
2407500000.0000000000 0.177808046340942410568075615629 0.006032661534845829010009765625 0.003540182951837778091430664062 -0.001302302000112832026240683447 0 0 0 0 
2407666666.6666665077 0.177600517868995694259481865629 0.005465959198772907257080078125 0.003459304571151732964756631006 -0.001390382298268377997754741138 0 0 0 0 
2407833333.3333334923 0.177071228623390197753906250000 0.004666546825319528579711914062 0.003298836294561624960658408057 -0.001579994102939962907078408350 0 0 0 0 
2408000000.0000000000 0.176856100559234591385049384371 0.003918851725757122039794921875 0.003357727080583571954014443506 -0.001544677186757325909258198315 0 0 0 0 
2408166666.6666665077 0.176295548677444513518963731258 0.003228512359783052964451455225 0.003364691976457833810093545068 -0.001694165752269328074214316260 0 0 0 0 
2408333333.3333334923 0.175933063030242892166299384371 0.002336948644369841055629111182 0.003209093585610390143153525244 -0.001661180402152240059496235425 0 0 0 0 
2408500000.0000000000 0.175470128655433710296307481258 0.001346722827292978980420756763 0.003326300065964459939243935693 -0.001736293430440128066419291919 0 0 0 0 
2408666666.6666665077 0.174813389778137207031250000000 0.000380194716854021007388514386 0.003331996733322740034816122900 -0.001958393724635242982151650537 0 0 0 0 
2408833333.3333334923 0.174102559685707092285156250000 -0.000715230824425816535949707031 0.003153451485559343858006142725 -0.001959146466106175942661904443 0 0 0 0 
2409000000.0000000000 0.173520132899284390548544365629 -0.001726099639199673912645649487 0.003160189138725399971008300781 -0.002053902484476565881016396631 0 0 0 0 
2409166666.6666665077 0.173119783401489313323651231258 -0.002906374400481582121608115088 0.003153219819068909125087118994 -0.002144886180758475823643349756 0 0 0 0 
2409333333.3333334923 0.172523409128189086914062500000 -0.004367576446384192380423261426 0.003127689007669686837437295068 -0.002126593142747879028320312500 0 0 0 0 
2409500000.0000000000 0.172007381916046087066973768742 -0.005989462137222290039062500000 0.003160041291266680197474814307 -0.002162465127184987068176269531 0 0 0 0 
2409666666.6666665077 0.171314895153045709808026231258 -0.007149564567953348159790039062 0.003203400876373053030726767432 -0.002272507874295115904567099463 0 0 0 0 
2409833333.3333334923 0.170764401555061312576455634371 -0.008580918423831462860107421875 0.003117003245279192924499511719 -0.002380262129008769989013671875 0 0 0 0 
2410000000.0000000000 0.170210361480712890625000000000 -0.010244137607514859980573085352 0.002922849496826529936549521338 -0.002305262954905629158020019531 0 0 0 0 
2410166666.6666665077 0.169875025749206487457598768742 -0.011873440816998480015764805273 0.002964511280879377885105752100 -0.002408108906820416884181357275 0 0 0 0 
2410333333.3333334923 0.169323593378066988845986884371 -0.013346038758754730224609375000 0.003135205712169408798217773438 -0.002582534216344356970546103369 0 0 0 0 
2410500000.0000000000 0.168972343206405611892861884371 -0.015176247805356979370117187500 0.003021547105163335800170898438 -0.002515382133424282073974609375 0 0 0 0 
2410666666.6666665077 0.168614745140075711349325615629 -0.017127837985754009592076485546 0.002970698522403835816624306787 -0.002603500615805387930629111182 0 0 0 0 
2410833333.3333334923 0.168414250016212491134481865629 -0.018590873107314109802246093750 0.002928708447143435911891318213 -0.002746366895735263824462890625 0 0 0 0 
2411000000.0000000000 0.168047338724136408050213731258 -0.020635569468140598642369454296 0.002948380075395106835606240381 -0.002867478411644697189331054688 0 0 0 0 
2411166666.6666665077 0.167979583144187899490518134371 -0.022489205002784729003906250000 0.002918886486440896987915039062 -0.002998561831191182136535644531 0 0 0 0 
2411333333.3333334923 0.167770817875862093826455634371 -0.024287670850753780710240548046 0.002887416630983353094813681494 -0.002995474031195044951197958838 0 0 0 0 
2411500000.0000000000 0.167584925889968899825888115629 -0.026397956535220149648646170704 0.003028677077963947816136025537 -0.003374344203621149063110351562 0 0 0 0 
2411666666.6666665077 0.167886748909950311858807481258 -0.028117975220084190368652343750 0.002888653427362442016601562500 -0.003460328327491879896876669775 0 0 0 0 
2411833333.3333334923 0.167893230915069607833700615629 -0.029928192496299740182896798046 0.002814218867570161819458007812 -0.003445073030889033837559365381 0 0 0 0 
2412000000.0000000000 0.168025717139244107345419365629 -0.032003171741962432861328125000 0.002875237725675106048583984375 -0.003778308862820268110987997900 0 0 0 0 
2412166666.6666665077 0.168175429105758694747763115629 -0.033944096416234970092773437500 0.002621922176331282095668173682 -0.003838567528873682022094726562 0 0 0 0 
2412333333.3333334923 0.168547138571739196777343750000 -0.035693045705556869506835937500 0.002606884110718965964076376807 -0.004088684916496276855468750000 0 0 0 0 
2412500000.0000000000 0.168605700135230990310830634371 -0.037333175539970397949218750000 0.002497259993106126785278320312 -0.004185152705758810043334960938 0 0 0 0 
2412666666.6666665077 0.169227093458175686935263115629 -0.039279360324144363403320312500 0.002402341924607754187342978369 -0.004340701270848512649536132812 0 0 0 0 
2412833333.3333334923 0.169590339064598111251669365629 -0.040981285274028778076171875000 0.002300120890140533013584756006 -0.004546569194644690427298261426 0 0 0 0 
2413000000.0000000000 0.169900923967361505706463731258 -0.042636603116989142681081403907 0.002071566181257367134094238281 -0.004624130669981241226196289062 0 0 0 0 
2413166666.6666665077 0.170455947518348693847656250000 -0.044203013181686401367187500000 0.001776630873791874105568910913 -0.004907821305096148577218340137 0 0 0 0 
2413333333.3333334923 0.170858293771743802169638115629 -0.045897547155618667602539062500 0.001513443537987769083735800635 -0.004995696246623992919921875000 0 0 0 0 
2413500000.0000000000 0.171251118183135986328125000000 -0.047337371855974197387695312500 0.001364010153338313102722167969 -0.005127293057739734649658203125 0 0 0 0 
2413666666.6666665077 0.171924993395805386642294365629 -0.048739183694124221801757812500 0.001224808278493582985521626050 -0.005202839151024818420410156250 0 0 0 0 
2413833333.3333334923 0.172282099723815890213174384371 -0.050179012119770050048828125000 0.000961478217504918575286865234 -0.005164048634469509124755859375 0 0 0 0 
2414000000.0000000000 0.172706842422485407073651231258 -0.051472764462232589721679687500 0.000834599079098552465438842773 -0.005239923484623432159423828125 0 0 0 0 
2414166666.6666665077 0.173370420932769803146200615629 -0.052649777382612228393554687500 0.000438252638559788519709986554 -0.005272252019494771957397460938 0 0 0 0 
2414333333.3333334923 0.173731401562690707107705634371 -0.053699228912591927265207658593 0.000309794995700940489768981934 -0.005332745146006345748901367188 0 0 0 0 
2414500000.0000000000 0.174423918128013610839843750000 -0.054676122963428497314453125000 0.000046330209443112842064311369 -0.005338706541806459426879882812 0 0 0 0 
2414666666.6666665077 0.174717217683792086502236884371 -0.055520489811897277832031250000 -0.000239969478570856208175104962 -0.005337723065167666348929120801 0 0 0 0 
2414833333.3333334923 0.175217881798744201660156250000 -0.056486368179321289062500000000 -0.000457458256278186982304173602 -0.005290830507874488830566406250 0 0 0 0 
2415000000.0000000000 0.175466060638427706619424384371 -0.057313688099384307861328125000 -0.000704583129845559597015380859 -0.005299308802932500839233398438 0 0 0 0 
2415166666.6666665077 0.175855785608291598220986884371 -0.058044169098138809204101562500 -0.000968335487414151430130004883 -0.005339438561350107192993164062 0 0 0 0 
2415333333.3333334923 0.176338478922843905349893134371 -0.058730185031890869140625000000 -0.001032748725265264944789267432 -0.005105049349367619428152753613 0 0 0 0 
2415500000.0000000000 0.176587209105491610428018134371 -0.059222873300313949584960937500 -0.001355734537355602004407573169 -0.004927005618810653686523437500 0 0 0 0 
2415666666.6666665077 0.176734045147895812988281250000 -0.059756003320217132568359375000 -0.001409267308190464973449707031 -0.004869259893894196424002362988 0 0 0 0 
2415833333.3333334923 0.176860183477401705642861884371 -0.060176223516464233398437500000 -0.001586019294336437962175678784 -0.004950251430273056030273437500 0 0 0 0 
2416000000.0000000000 0.176683083176612909515057481258 -0.060486510396003723144531250000 -0.001804675441235304095624614185 -0.004616018850356340408325195312 0 0 0 0 
2416166666.6666665077 0.176849007606506403167401231258 -0.060722086578607559204101562500 -0.002080053091049193902256631006 -0.004744436591863632202148437500 0 0 0 0 
2416333333.3333334923 0.176739707589149502853231865629 -0.061137877404689788818359375000 -0.002053704811260104179382324219 -0.004718185868114233016967773438 0 0 0 0 
2416500000.0000000000 0.176541790366172790527343750000 -0.061430793255567550659179687500 -0.002275134669616817994358681787 -0.004550031851977109909057617188 0 0 0 0 
2416666666.6666665077 0.176117405295372009277343750000 -0.061628773808479309082031250000 -0.002306338632479310035705566406 -0.004237348679453135404104902051 0 0 0 0 
2416833333.3333334923 0.175929456949234008789062500000 -0.061884287744760513305664062500 -0.002522908849641681151149130713 -0.004175366368144750595092773438 0 0 0 0 
2417000000.0000000000 0.175283432006835909744424384371 -0.062060747295618057250976562500 -0.002616686746478081183192587744 -0.004128774162381886568551347949 0 0 0 0 
2417166666.6666665077 0.174779281020164489746093750000 -0.062259878963232040405273437500 -0.002791611710563302040100097656 -0.004001000430434942245483398438 0 0 0 0 
2417333333.3333334923 0.174265682697296087066973768742 -0.062409918755292892456054687500 -0.002827745163813232941868447412 -0.003813440911471844153163290869 0 0 0 0 
2417500000.0000000000 0.173525452613830594161825615629 -0.062920287251472473144531250000 -0.003021572716534138159510947119 -0.003726159222424029870274209131 0 0 0 0 
2417666666.6666665077 0.172705337405204800704794365629 -0.063008941709995269775390625000 -0.002963303122669457955601357568 -0.003511754330247641043422079932 0 0 0 0 
2417833333.3333334923 0.171902760863304110428018134371 -0.063237808644771575927734375000 -0.003120495006442070007324218750 -0.003542437218129634857177734375 0 0 0 0 
2418000000.0000000000 0.170918047428131103515625000000 -0.063682936131954193115234375000 -0.003066350705921649932861328125 -0.003415524261072278022766113281 0 0 0 0 
2418166666.6666665077 0.170022338628768893142861884371 -0.063857339322566986083984375000 -0.003212948562577366828918457031 -0.003093547420576214790344238281 0 0 0 0 
2418333333.3333334923 0.169164270162582397460937500000 -0.064315289258956909179687500000 -0.003340317634865642027613974463 -0.003190554445609449906590127100 0 0 0 0 
2418500000.0000000000 0.167885184288024902343750000000 -0.064741067588329315185546875000 -0.003277664538472890853881835938 -0.003066980745643376870396279443 0 0 0 0 
2418666666.6666665077 0.166862457990646390060263115629 -0.065271362662315368652343750000 -0.003369062673300505118129111182 -0.003057878930121659798863076318 0 0 0 0 
2418833333.3333334923 0.165683448314666803558026231258 -0.065832830965518951416015625000 -0.003464704379439353942871093750 -0.002780984854325652122497558594 0 0 0 0 
2419000000.0000000000 0.164292812347412109375000000000 -0.066400870680809020996093750000 -0.003478230908513069152832031250 -0.002685790183022617860081338037 0 0 0 0 
2419166666.6666665077 0.163269788026809692382812500000 -0.067228227853775024414062500000 -0.003514751326292752785923623193 -0.002739720279350876808166503906 0 0 0 0 
2419333333.3333334923 0.161859631538391113281250000000 -0.067630186676979064941406250000 -0.003753117518499494032618857275 -0.002583718625828624205348349463 0 0 0 0 
2419500000.0000000000 0.160768851637840298751669365629 -0.068658702075481414794921875000 -0.003584127174690365791320800781 -0.002545647323131560845616006006 0 0 0 0 
2419666666.6666665077 0.159749731421470586578692518742 -0.069685056805610656738281250000 -0.003780955681577324867248535156 -0.002326114103198051886317587744 0 0 0 0 
2419833333.3333334923 0.158162713050842312911825615629 -0.070505447685718536376953125000 -0.003861240111291408972499228369 -0.002192727290093899206874228369 0 0 0 0 
