# Hz S RI R 50
2400000000.0000000000 0.160734117031097412109375000000 0.056990314275026321411132812500 0.001909345155581831932067871094 0.002470581093803048133850097656 0 0 0 0 
2400166666.6666665077 0.160790368914604187011718750000 0.055349931120872497558593750000 0.002052868250757455825805664062 0.002470185747370123863220214844 0 0 0 0 
2400333333.3333334923 0.160762399435043307205361884371 0.053630582988262183452565778907 0.002272196579724549813511513818 0.002608477370813488960266113281 0 0 0 0 
2400500000.0000000000 0.161112576723098810393963731258 0.051765900105237960815429687500 0.002292737830430268807652138818 0.002606251509860157966613769531 0 0 0 0 
2400666666.6666665077 0.161131516098976107498330634371 0.049985326826572418212890625000 0.002406285842880607084987021338 0.002641605911776423887965536963 0 0 0 0 
2400833333.3333334923 0.161372601985931396484375000000 0.048127587884664542461354841407 0.002487055025994778113124228369 0.002627281239256263212916708838 0 0 0 0 
2401000000.0000000000 0.161527886986732510665731865629 0.046160832047462463378906250000 0.002599574159830809073207236182 0.002676796633750199837925576318 0 0 0 0 
2401166666.6666665077 0.161862686276435907561932481258 0.044183760881423950195312500000 0.002931064460426568984985351562 0.002595989964902400970458984375 0 0 0 0 
2401333333.3333334923 0.162072062492370605468750000000 0.042298693209886550903320312500 0.002943796804174780845642089844 0.002571815857663751082179404150 0 0 0 0 
2401500000.0000000000 0.162504807114601107498330634371 0.040510546416044242168386091407 0.003125202842056750817539834131 0.002405046951025723977329873193 0 0 0 0 
2401666666.6666665077 0.162751272320747403243856865629 0.038850769400596618652343750000 0.003278734395280479951145791162 0.002223776653409004211425781250 0 0 0 0 
2401833333.3333334923 0.163318559527397211272869981258 0.036804571747779853130300153907 0.003246885025873779816868447412 0.002361833350732922987696982275 0 0 0 0 
2402000000.0000000000 0.163438647985458401779013115629 0.035140547901391983032226562500 0.003551818896085023880004882812 0.002183863427489995956420898438 0 0 0 0 
2402166666.6666665077 0.163824230432510403732138115629 0.033177964389324188232421875000 0.003630618099123239950892783057 0.002046127803623675866367959131 0 0 0 0 
2402333333.3333334923 0.164510592818260192871093750000 0.031644683331251137470285783593 0.003688103519380093054530478369 0.002036915393546224074122763525 0 0 0 0 
2402500000.0000000000 0.165314212441444396972656250000 0.030022216960787769662877266796 0.003732272656634449958801269531 0.001748244976624846892115927588 0 0 0 0 
2402666666.6666665077 0.165892899036407498458700615629 0.028394171968102458608607108204 0.004074804950505495071411132812 0.001553502283059061007258749854 0 0 0 0 
2402833333.3333334923 0.166587904095649691482705634371 0.026837367564439770090123360546 0.003981101792305707931518554688 0.001426384900696576075312949072 0 0 0 0 
2403000000.0000000000 0.167054906487464904785156250000 0.025189269334077838552454764454 0.004096451681107282638549804688 0.001289547071792185089708637769 0 0 0 0 
2403166666.6666665077 0.167831644415855407714843750000 0.024015622213482860219935233204 0.004064141772687435150146484375 0.001069191377609967968584370190 0 0 0 0 
2403333333.3333334923 0.168690204620361300369424384371 0.022855367511510848999023437500 0.004409108776599168777465820312 0.000991701264865696430206298828 0 0 0 0 
2403500000.0000000000 0.169129028916359003265057481258 0.021453598514199260366419608204 0.004196948371827602386474609375 0.000805851188488304615020751953 0 0 0 0 
2403666666.6666665077 0.169855788350105313400106865629 0.020059920847415920602818673046 0.004177535418421030044555664062 0.000744565506465733051300048828 0 0 0 0 
2403833333.3333334923 0.170741885900497408767861884371 0.018900614231824878347376639454 0.004256240092217922210693359375 0.000258745247265323996543884277 0 0 0 0 
2404000000.0000000000 0.171482577919959994217080634371 0.018114373087882999074915701954 0.004169707186520099639892578125 0.000402867823140695691108703613 0 0 0 0 
2404166666.6666665077 0.172340214252471896072549384371 0.016848722472786899911900704296 0.004180585499852895736694335938 0.000241854970226995701163691388 0 0 0 0 
2404333333.3333334923 0.172815144062042208572549384371 0.016046410426497459411621093750 0.004207352176308631896972656250 -0.000120841978059615899197994093 0 0 0 0 
2404500000.0000000000 0.173571214079856900314169365629 0.015019838698208330327044102148 0.004144556820392608642578125000 -0.000098518357845023274421691895 0 0 0 0 
2404666666.6666665077 0.174260050058364895919638115629 0.014291558414697650564173514454 0.003982035908848047256469726562 -0.000482418487081304192543029785 0 0 0 0 
2404833333.3333334923 0.174644798040389986892861884371 0.013571122661232950037946132227 0.003838011994957923889160156250 -0.000430630112532526308864039288 0 0 0 0 
2405000000.0000000000 0.175315812230110196212606865629 0.012852174229919910430908203125 0.003966829739511013031005859375 -0.000457605143310502225726527081 0 0 0 0 
2405166666.6666665077 0.175829723477363586425781250000 0.012298727408051490783691406250 0.003739858046174048943760537256 -0.000453467626357451081275939941 0 0 0 0 
2405333333.3333334923 0.176568865776062011718750000000 0.011684878729283809661865234375 0.003703760681673883958103798975 -0.000783281400799751281738281250 0 0 0 0 
2405500000.0000000000 0.177041649818420410156250000000 0.011272300034761430567731288477 0.003637069836258887810948037256 -0.000839297310449182987213134766 0 0 0 0 
2405666666.6666665077 0.177393153309822110275106865629 0.010741987265646459406842616602 0.003650871571153401894810341943 -0.000895750825293362140655517578 0 0 0 0 
2405833333.3333334923 0.177558004856109591385049384371 0.010397288016974929464319998829 0.003576878458261489868164062500 -0.000840706110466271638870239258 0 0 0 0 
2406000000.0000000000 0.177964776754379300216513115629 0.009816829115152359008789062500 0.003400634974241257147548056494 -0.000854918092954903841018676758 0 0 0 0 
2406166666.6666665077 0.178061887621879605392294365629 0.009632712230086326599121093750 0.003431301563978195190429687500 -0.001024152734316885905024863135 0 0 0 0 
2406333333.3333334923 0.178475603461265591720419365629 0.009184543043375015258789062500 0.003432352561503649191615439307 -0.000953726819716393947601318359 0 0 0 0 
2406500000.0000000000 0.178519085049629211425781250000 0.008686393499374389648437500000 0.003421149449422955946681357275 -0.001022555981762707016588520581 0 0 0 0 
2406666666.6666665077 0.178360745310783386230468750000 0.008403382264077663421630859375 0.003495132084935903982875204932 -0.001014843583106995062587118994 0 0 0 0 
2406833333.3333334923 0.178507760167121887207031250000 0.007966830395162105560302734375 0.003337995614856481985804892432 -0.001121062552556395964381552588 0 0 0 0 
2407000000.0000000000 0.178331777453422601897869981258 0.007474928628653287887573242188 0.003272428410127758979797363281 -0.001127389725297689004185341943 0 0 0 0 
2407166666.6666665077 0.178394034504890386383380018742 0.007185314316302537918090820312 0.003255238989368081092834472656 -0.001219436642713844992993998950 0 0 0 0 
2407333333.3333334923 0.178041130304336603362713731258 0.006485028192400932312011718750 0.003465920919552444978001259912 -0.001451397780328989028930664062 0 0 0 0 
2407500000.0000000000 0.177841767668724087814169365629 0.006062817294150590896606445312 0.003315451787784696058986044775 -0.001526504638604819991468120044 0 0 0 0 
2407666666.6666665077 0.177526265382766695877236884371 0.005447490140795707702636718750 0.003270795103162527084350585938 -0.001571020926348865032196044922 0 0 0 0 
2407833333.3333334923 0.177144199609756497482138115629 0.004642317071557044982910156250 0.003406574483960866928100585938 -0.001651983708143234036089253003 0 0 0 0 
2408000000.0000000000 0.176816657185554504394531250000 0.003904270706698298887965536963 0.003362829564139246940612792969 -0.001556164701469243006465292822 0 0 0 0 
2408166666.6666665077 0.176363810896873501876669365629 0.003234291682019830183741904150 0.003237168304622172875645302881 -0.001610764767974615097045898438 0 0 0 0 
2408333333.3333334923 0.175915643572807312011718750000 0.002418857999145985083339072119 0.003200453007593750953674316406 -0.001810730667784810066223144531 0 0 0 0 
2408500000.0000000000 0.175351828336715698242187500000 0.001398424617946147918701171875 0.003116891020908952193019247900 -0.001766006113030015988590859521 0 0 0 0 
2408666666.6666665077 0.174845948815345791915731865629 0.000275363127002492601245325909 0.003177631180733441872837685693 -0.001772283809259534098981547778 0 0 0 0 
2408833333.3333334923 0.174295991659164400955361884371 -0.000584515975788235664367675781 0.003120348323136568069458007812 -0.002102815080434083938598632812 0 0 0 0 
2409000000.0000000000 0.173550456762313787262286268742 -0.001819686032831669070600200122 0.003045562654733657836914062500 -0.002104676561430097059962607275 0 0 0 0 
2409166666.6666665077 0.173040375113487188141192518742 -0.003157301340252161026000976562 0.003027741797268391089198447119 -0.002158140297979116006138466943 0 0 0 0 
2409333333.3333334923 0.172556474804878207107705634371 -0.004484290722757577896118164062 0.003048112383112310929539345850 -0.002166457707062364058253622900 0 0 0 0 
2409500000.0000000000 0.171799704432487487792968750000 -0.005824750754982233047485351562 0.002958109369501471953151083838 -0.002198737580329180197474814307 0 0 0 0 
2409666666.6666665077 0.171410232782363891601562500000 -0.007273905444890260696411132812 0.002952788956463336944580078125 -0.002363326027989387945887900244 0 0 0 0 
2409833333.3333334923 0.170717075467109707931356865629 -0.008669982664287090301513671875 0.002941466635093092918395996094 -0.002437929389998317198512411963 0 0 0 0 
2410000000.0000000000 0.170333921909332303146200615629 -0.010256722569465640676478201954 0.002889849944040178818943642725 -0.002581123029813169999363564600 0 0 0 0 
2410166666.6666665077 0.169853791594505310058593750000 -0.011872132308781150472620780079 0.002835271181538701057434082031 -0.002515599131584167914149618994 0 0 0 0 
2410333333.3333334923 0.169385716319084195236044365629 -0.013590724207460880279541015625 0.002854321617633103890659951318 -0.002717209747061132951023720850 0 0 0 0 
2410500000.0000000000 0.169007599353790310958700615629 -0.015196596272289749490758126171 0.002873395569622517065760947119 -0.002707039238885045051574707031 0 0 0 0 
2410666666.6666665077 0.168527692556381197830361884371 -0.016970481723546978342076485546 0.002985763130709528923034667969 -0.002650346374139190153834677588 0 0 0 0 
2410833333.3333334923 0.168404459953308105468750000000 -0.018689084798097610473632812500 0.002929202513769268989562988281 -0.002993123140186070962193154443 0 0 0 0 
2411000000.0000000000 0.168057516217231805999432481258 -0.020730558782815929758092110546 0.002852607285603880882263183594 -0.002878919709473847909214638818 0 0 0 0 
2411166666.6666665077 0.167930826544761713225994981258 -0.022395264357328418386439139454 0.002954228548333048820495605469 -0.003140489803627132935764931787 0 0 0 0 
2411333333.3333334923 0.167834430932998712737713731258 -0.024269638583064079284667968750 0.002928655128926039175746298682 -0.003263432532548903985264443506 0 0 0 0 
2411500000.0000000000 0.167786791920661898513955634371 -0.026378942653536800039271170704 0.002740838564932345910313271631 -0.003168516326695681051967001807 0 0 0 0 
2411666666.6666665077 0.167758479714393587967080634371 -0.028253519907593730581263358204 0.002651195507496594949009560693 -0.003510928014293313026428222656 0 0 0 0 
2411833333.3333334923 0.167763471603393610198651231258 -0.029871720820665359497070312500 0.002631028648465871810913085938 -0.003739203326404095129725790869 0 0 0 0 
2412000000.0000000000 0.167945474386215209960937500000 -0.031862393021583557128906250000 0.002695097820833324952366494287 -0.003649004735052586035487509619 0 0 0 0 
2412166666.6666665077 0.168085902929306002517861884371 -0.033794578164815902709960937500 0.002585043432191013856175088037 -0.003975244238972663879394531250 0 0 0 0 
2412333333.3333334923 0.168696597218513488769531250000 -0.035577967762947082519531250000 0.002288211137056351141688681494 -0.004215517546981573104858398438 0 0 0 0 
2412500000.0000000000 0.168758705258369501311932481258 -0.037207439541816711425781250000 0.002138599054887890815734863281 -0.004367609973996877670288085938 0 0 0 0 
2412666666.6666665077 0.169173359870910589020098768742 -0.039182472974061972881276716407 0.002194009721279143853428506006 -0.004476416856050491333007812500 0 0 0 0 
2412833333.3333334923 0.169545263051986694335937500000 -0.040988296270370483398437500000 0.002008186653256415887119912256 -0.004505559336394071578979492188 0 0 0 0 
2413000000.0000000000 0.170021265745162991622763115629 -0.042528368532657623291015625000 0.001890805084258317947387695312 -0.004794947337359189987182617188 0 0 0 0 
2413166666.6666665077 0.170259773731231689453125000000 -0.044271260499954216693918596093 0.001570876105688511891605996240 -0.004938744939863681793212890625 0 0 0 0 
2413333333.3333334923 0.170724347233772305587606865629 -0.045722320675849921489675153907 0.001583068282343446991564106519 -0.004953963216394186019897460938 0 0 0 0 
2413500000.0000000000 0.171373680233955411056356865629 -0.047350861132144927978515625000 0.001268088701181113936780620044 -0.005035053938627243041992187500 0 0 0 0 
2413666666.6666665077 0.172011643648147610763388115629 -0.048847999423742287372629533593 0.000984113197773694992065429688 -0.005135328508913516998291015625 0 0 0 0 
2413833333.3333334923 0.172413706779480008224325615629 -0.050201952457427978515625000000 0.000719046394806355237960815430 -0.005093398969620466232299804688 0 0 0 0 
2414000000.0000000000 0.172780349850654602050781250000 -0.051545768976211547851562500000 0.000464435288449749404757899152 -0.005231962539255619049072265625 0 0 0 0 
2414166666.6666665077 0.173363164067268399337606865629 -0.052497666329145431518554687500 0.000393296912079676985740661621 -0.005296751391142606735229492188 0 0 0 0 
2414333333.3333334923 0.173809304833412198165731865629 -0.053720567375421517108957658593 0.000071809547080192714929580688 -0.005147153045982122421264648438 0 0 0 0 
2414500000.0000000000 0.174413621425628689864950615629 -0.054720249027013778686523437500 -0.000144202072988264289781293326 -0.005379755981266499433035566113 0 0 0 0 
2414666666.6666665077 0.174752593040466308593750000000 -0.055654957890510559082031250000 -0.000476925109978765303462427960 -0.005159444175660610198974609375 0 0 0 0 
2414833333.3333334923 0.175095885992050198654013115629 -0.056732319295406341552734375000 -0.000593555800151079893112182617 -0.005366285797208547592163085938 0 0 0 0 
2415000000.0000000000 0.175522625446319607833700615629 -0.057386569678783416748046875000 -0.000809323275461792945861816406 -0.005143701564520598325247480176 0 0 0 0 
2415166666.6666665077 0.175887271761894198318643134371 -0.057989068329334259033203125000 -0.001111062942072748921037983472 -0.005037941038608551025390625000 0 0 0 0 
2415333333.3333334923 0.176338195800781305511151231258 -0.058700785040855407714843750000 -0.001074559637345374064204550635 -0.004989896435290575027465820312 0 0 0 0 
2415500000.0000000000 0.176432341337204007247763115629 -0.059302605688571929931640625000 -0.001379530644044280052185058594 -0.004801105242222548398489667676 0 0 0 0 
2415666666.6666665077 0.176679313182830810546875000000 -0.059576816856861121440847028907 -0.001555811148136853954912495190 -0.004878226201981306076049804688 0 0 0 0 
2415833333.3333334923 0.176832199096679687500000000000 -0.060083009302616119384765625000 -0.001646840595640242099761962891 -0.004741895478218793869018554688 0 0 0 0 
2416000000.0000000000 0.176724940538406399825888115629 -0.060592077672481536865234375000 -0.001819013152271508953691792065 -0.004664392210543155670166015625 0 0 0 0 
2416166666.6666665077 0.176940396428108187576455634371 -0.060963708907365798950195312500 -0.001940642483532428958295512622 -0.004601359367370606336111737988 0 0 0 0 
2416333333.3333334923 0.176683560013771112640057481258 -0.061159476637840270996093750000 -0.002301837317645550207850790869 -0.004376745317131280899047851562 0 0 0 0 
2416500000.0000000000 0.176444694399833706954794365629 -0.061468187719583511352539062500 -0.002403408521786332130432128906 -0.004369003232568502426147460938 0 0 0 0 
2416666666.6666665077 0.176096647977829007247763115629 -0.061638016253709793090820312500 -0.002427849685773253007176064600 -0.004195485264062882337088300488 0 0 0 0 
2416833333.3333334923 0.175916060805320711990518134371 -0.061989776790142059326171875000 -0.002616587793454527854919433594 -0.004121328238397836685180664062 0 0 0 0 
2417000000.0000000000 0.175288051366806002517861884371 -0.062237989157438278198242187500 -0.002641849685460329055786132812 -0.003878481220453978018519736182 0 0 0 0 
2417166666.6666665077 0.174768835306167602539062500000 -0.062339745461940772319753278907 -0.002857139566913247108459472656 -0.003944153897464275360107421875 0 0 0 0 
2417333333.3333334923 0.174237415194511413574218750000 -0.062546111643314361572265625000 -0.002904539462178945975062704932 -0.003773313015699387030360556494 0 0 0 0 
2417500000.0000000000 0.173551008105277987381143134371 -0.062988199293613433837890625000 -0.002942962804809213118312216650 -0.003517034230753778977635048975 0 0 0 0 
2417666666.6666665077 0.172704473137855502029580634371 -0.063004001975059509277343750000 -0.003032634966075419945957802881 -0.003425604896619915962219238281 0 0 0 0 
2417833333.3333334923 0.171784654259681701660156250000 -0.063249349594116210937500000000 -0.002951120492070912881138466943 -0.003440268803387879891636513818 0 0 0 0 
2418000000.0000000000 0.170870795845985412597656250000 -0.063649922609329223632812500000 -0.003162175649777054786682128906 -0.003176219528540968894958496094 0 0 0 0 
2418166666.6666665077 0.169726818799972506424111884371 -0.063761919736862182617187500000 -0.003189325565472245216369628906 -0.003199543338268994851353310693 0 0 0 0 
2418333333.3333334923 0.169136911630630493164062500000 -0.064377009868621826171875000000 -0.003314269008114933967590332031 -0.003035991918295621871948242188 0 0 0 0 
2418500000.0000000000 0.167916759848594693282919365629 -0.064794749021530151367187500000 -0.003270765300840138955357216943 -0.003022416960448027090785361182 0 0 0 0 
2418666666.6666665077 0.166891068220138605315838731258 -0.065298125147819519042968750000 -0.003379704663529992103576660156 -0.002878854284062982039210654150 0 0 0 0 
2418833333.3333334923 0.165479302406311007400674384371 -0.065836913883686065673828125000 -0.003436034778133035139796591650 -0.002748793689534068107604980469 0 0 0 0 
2419000000.0000000000 0.164334699511527987381143134371 -0.066379219293594360351562500000 -0.003502853913232684135437011719 -0.002505526645109056992771767725 0 0 0 0 
2419166666.6666665077 0.163080051541328402420205634371 -0.067047938704490661621093750000 -0.003599009709432721138000488281 -0.002611471572890878157374716650 0 0 0 0 
2419333333.3333334923 0.161781460046768188476562500000 -0.067721188068389892578125000000 -0.003513451665639876885655068506 -0.002531484002247453169581747900 0 0 0 0 
2419500000.0000000000 0.160704374313354492187500000000 -0.068594962358474731445312500000 -0.003651363076642156080958701025 -0.002301573287695645852329873193 0 0 0 0 
2419666666.6666665077 0.159576416015625000000000000000 -0.069691851735115051269531250000 -0.003604947589337826208827353369 -0.002219871152192354202270507812 0 0 0 0 
2419833333.3333334923 0.158209651708602905273437500000 -0.070395976305007934570312500000 -0.003719747764989734129664755713 -0.002127889078110456900355673682 0 0 0 0 
