# Version 1.00
#
freq[Hz];re:Trc1_S11;im:Trc1_S11;re:Trc2_S21;im:Trc2_S21;
2.400000000000000E+009;1.589097380638123E-001;6.300458312034607E-002;-6.937123253010213E-004;2.871845848858357E-003;
2.400166666666667E+009;1.586869806051254E-001;6.154116988182068E-002;-6.216574111022055E-004;2.789600286632776E-003;
2.400333333333334E+009;1.585421115159988E-001;5.947412550449371E-002;-4.861348716076464E-004;2.835510764271021E-003;
2.400500000000000E+009;1.583701223134995E-001;5.754203349351883E-002;-3.886283084284514E-004;2.761846408247948E-003;
2.400666666666667E+009;1.582911759614945E-001;5.578009039163590E-002;-3.963827039115131E-004;2.896409016102552E-003;
2.400833333333334E+009;1.584176123142242E-001;5.386978015303612E-002;-3.389142511878163E-004;2.835243009030819E-003;
2.401000000000000E+009;1.583767235279083E-001;5.156238749623299E-002;-2.424291051283944E-005;2.777270507067442E-003;
2.401166666666667E+009;1.584511995315552E-001;4.974785819649696E-002;6.724672857671976E-006;2.859900938346982E-003;
2.401333333333334E+009;1.585142165422440E-001;4.767844080924988E-002;6.829268386354670E-006;2.673069713637233E-003;
2.401500000000000E+009;1.588476449251175E-001;4.559317976236343E-002;2.108219632646069E-004;2.721545752137899E-003;
2.401666666666667E+009;1.591965556144714E-001;4.370821639895439E-002;2.192880347138271E-004;2.726135309785605E-003;
2.401833333333334E+009;1.594680696725845E-001;4.159478098154068E-002;1.601316616870463E-004;2.736861119046807E-003;
2.402000000000000E+009;1.597043126821518E-001;3.969476372003555E-002;4.172802437096834E-004;2.592694945633411E-003;
2.402166666666667E+009;1.601615846157074E-001;3.752676397562027E-002;2.684555947780609E-004;2.629438880831003E-003;
2.402333333333334E+009;1.607174873352051E-001;3.558152914047241E-002;4.119784280192107E-004;2.561704954132438E-003;
2.402500000000000E+009;1.615074276924133E-001;3.376952558755875E-002;3.171391726937145E-004;2.525481628254056E-003;
2.402666666666667E+009;1.619922816753388E-001;3.207744285464287E-002;3.462991153355688E-004;2.605709014460445E-003;
2.402833333333334E+009;1.628610640764237E-001;3.033464960753918E-002;3.683497197926045E-004;2.530249767005444E-003;
2.403000000000000E+009;1.635758876800537E-001;2.861069142818451E-002;5.259796744212508E-004;2.575567224994302E-003;
2.403166666666667E+009;1.644439399242401E-001;2.689604647457600E-002;6.412098300643265E-004;2.674173796549439E-003;
2.403333333333334E+009;1.654899567365646E-001;2.549348957836628E-002;6.481159362010658E-004;2.660380676388741E-003;
2.403500000000000E+009;1.661387979984283E-001;2.388122491538525E-002;6.240267539396882E-004;2.619969891384244E-003;
2.403666666666667E+009;1.669320464134216E-001;2.253190241754055E-002;6.817918037995696E-004;2.502695657312870E-003;
2.403833333333334E+009;1.681289523839951E-001;2.115326374769211E-002;9.444821043871343E-004;2.724126679822803E-003;
2.404000000000000E+009;1.689825803041458E-001;1.998103410005570E-002;8.063571876846254E-004;2.619194565340877E-003;
2.404166666666667E+009;1.699510812759399E-001;1.872998662292957E-002;9.846825851127505E-004;2.602430526167154E-003;
2.404333333333334E+009;1.709922403097153E-001;1.768032833933830E-002;9.728225413709879E-004;2.582610584795475E-003;
2.404500000000000E+009;1.716839969158173E-001;1.655459031462669E-002;9.947669459506869E-004;2.718627918511629E-003;
2.404666666666667E+009;1.728069484233856E-001;1.571691036224365E-002;1.045776531100273E-003;2.715641865506768E-003;
2.404833333333334E+009;1.736533194780350E-001;1.495889946818352E-002;1.326765399426222E-003;2.551085315644741E-003;
2.405000000000000E+009;1.745539605617523E-001;1.396856084465981E-002;1.303457887843251E-003;2.688328269869089E-003;
2.405166666666667E+009;1.754071861505508E-001;1.333754882216454E-002;1.432169228792191E-003;2.666987245902419E-003;
2.405333333333334E+009;1.762830018997192E-001;1.269522495567799E-002;1.468113507144153E-003;2.560912864282727E-003;
2.405500000000000E+009;1.770856380462647E-001;1.213227212429047E-002;1.649808255024254E-003;2.549766562879086E-003;
2.405666666666667E+009;1.777242720127106E-001;1.169627811759710E-002;1.723273773677647E-003;2.544971648603678E-003;
2.405833333333334E+009;1.783164441585541E-001;1.116165611892939E-002;1.748099108226597E-003;2.358304802328348E-003;
2.406000000000000E+009;1.790221929550171E-001;1.075611170381308E-002;1.858083647675812E-003;2.591249532997608E-003;
2.406166666666667E+009;1.793215870857239E-001;1.048926822841167E-002;2.010646043345332E-003;2.611394040286541E-003;
2.406333333333334E+009;1.800135821104050E-001;1.005695946514607E-002;1.969780772924423E-003;2.505066571757197E-003;
2.406500000000000E+009;1.802428364753723E-001;9.790911339223385E-003;2.202379051595926E-003;2.308979397639632E-003;
2.406666666666667E+009;1.804326027631760E-001;9.406763128936291E-003;2.399100223556161E-003;2.395065501332283E-003;
2.406833333333334E+009;1.808005124330521E-001;9.027170017361641E-003;2.443834673613310E-003;2.257003681734204E-003;
2.407000000000000E+009;1.809290349483490E-001;8.715256117284298E-003;2.485678764060140E-003;2.244773320853710E-003;
2.407166666666667E+009;1.810615211725235E-001;8.400415070354939E-003;2.549496246501803E-003;2.279953565448523E-003;
2.407333333333334E+009;1.809772104024887E-001;7.903136312961578E-003;2.766545163467526E-003;2.178097842261195E-003;
2.407500000000000E+009;1.807781755924225E-001;7.592789828777313E-003;2.829333068802953E-003;2.016061916947365E-003;
2.407666666666667E+009;1.807056218385696E-001;7.101783994585276E-003;2.904860302805901E-003;1.807024935260415E-003;
2.407833333333334E+009;1.803443133831024E-001;6.551677826792002E-003;2.991643268615007E-003;1.858335803262889E-003;
2.408000000000000E+009;1.800914257764816E-001;5.946740973740816E-003;2.951574511826038E-003;1.785621512681246E-003;
2.408166666666667E+009;1.796975135803223E-001;5.464055109769106E-003;3.113821614533663E-003;1.648032572120428E-003;
2.408333333333334E+009;1.793444156646729E-001;4.741473123431206E-003;3.284579608589411E-003;1.523837563581765E-003;
2.408500000000000E+009;1.788519918918610E-001;3.856644965708256E-003;3.243008162826300E-003;1.306923106312752E-003;
2.408666666666667E+009;1.782592236995697E-001;2.977240364998579E-003;3.444314701482654E-003;1.374281710013747E-003;
2.408833333333334E+009;1.775578558444977E-001;2.109517576172948E-003;3.427613526582718E-003;1.223298371769488E-003;
2.409000000000000E+009;1.768230199813843E-001;1.184967812150717E-003;3.509171074256301E-003;1.015984802506864E-003;
2.409166666666667E+009;1.764213293790817E-001;1.807697990443558E-004;3.509640460833907E-003;8.829068974591792E-004;
2.409333333333334E+009;1.756037324666977E-001;-1.122081303037703E-003;3.414198989048600E-003;7.957076886668801E-004;
2.409500000000000E+009;1.748321354389191E-001;-2.395220799371600E-003;3.700458677485585E-003;7.152254111133516E-004;
2.409666666666667E+009;1.741856336593628E-001;-3.659766400232911E-003;3.590067150071263E-003;6.662488449364901E-004;
2.409833333333334E+009;1.733771264553070E-001;-4.962133243680000E-003;3.543725237250328E-003;4.239804984536022E-004;
2.410000000000000E+009;1.728100925683975E-001;-6.576058920472860E-003;3.690511221066117E-003;3.956547589041293E-004;
2.410166666666667E+009;1.720434576272965E-001;-8.009364828467369E-003;3.607981838285923E-003;1.792810508050025E-004;
2.410333333333334E+009;1.714462935924530E-001;-9.531447663903236E-003;3.582233563065529E-003;1.391412952216342E-004;
2.410500000000000E+009;1.708633154630661E-001;-1.121386699378490E-002;3.740875516086817E-003;2.809536636050325E-005;
2.410666666666667E+009;1.702865362167358E-001;-1.296007819473743E-002;3.576131537556648E-003;-1.110417870222591E-004;
2.410833333333334E+009;1.699180006980896E-001;-1.466314028948546E-002;3.583641024306417E-003;-3.650954749900848E-004;
2.411000000000000E+009;1.693885028362274E-001;-1.672636717557907E-002;3.546450519934297E-003;-4.232831997796893E-004;
2.411166666666667E+009;1.690090000629425E-001;-1.837867312133312E-002;3.601893084123731E-003;-5.707499221898615E-004;
2.411333333333334E+009;1.685819476842880E-001;-2.004544250667095E-002;3.495060605928302E-003;-7.067080005072057E-004;
2.411500000000000E+009;1.684809029102325E-001;-2.210445702075958E-002;3.537172684445977E-003;-9.233193122781813E-004;
2.411666666666667E+009;1.682851463556290E-001;-2.410195209085941E-002;3.579555079340935E-003;-9.917168645188212E-004;
2.411833333333334E+009;1.682323664426804E-001;-2.597628720104694E-002;3.299459349364042E-003;-1.137359067797661E-003;
2.412000000000000E+009;1.682847738265991E-001;-2.793066762387753E-002;3.285429207608104E-003;-1.366469892673194E-003;
2.412166666666667E+009;1.681906580924988E-001;-2.989092469215393E-002;3.211004659533501E-003;-1.387939206324518E-003;
2.412333333333334E+009;1.685547828674316E-001;-3.173453733325005E-002;3.258956130594015E-003;-1.431949320249260E-003;
2.412500000000000E+009;1.685181707143784E-001;-3.363212198019028E-002;3.176295896992087E-003;-1.388386939652264E-003;
2.412666666666667E+009;1.688614487648010E-001;-3.555693104863167E-002;2.934194169938564E-003;-1.614388427697122E-003;
2.412833333333334E+009;1.691532731056213E-001;-3.735406696796417E-002;2.948169130831957E-003;-1.629224512726069E-003;
2.413000000000000E+009;1.695072948932648E-001;-3.927040100097656E-002;2.828370546922088E-003;-1.817314885556698E-003;
2.413166666666667E+009;1.699102669954300E-001;-4.097994044423103E-002;2.778706839308143E-003;-1.870184205472469E-003;
2.413333333333334E+009;1.701948046684265E-001;-4.266269877552986E-002;2.730723703280091E-003;-1.811304478906095E-003;
2.413500000000000E+009;1.707789897918701E-001;-4.443346709012985E-002;2.653645351529121E-003;-1.948831020854414E-003;
2.413666666666667E+009;1.714334040880203E-001;-4.600260406732559E-002;2.552459714934230E-003;-2.093071816489101E-003;
2.413833333333334E+009;1.717769354581833E-001;-4.739843308925629E-002;2.471229061484337E-003;-2.016080077737570E-003;
2.414000000000000E+009;1.721835583448410E-001;-4.891490191221237E-002;2.315794583410025E-003;-2.192141022533178E-003;
2.414166666666667E+009;1.727148443460465E-001;-5.027784779667854E-002;2.284694230183959E-003;-2.188851591199637E-003;
2.414333333333334E+009;1.731407940387726E-001;-5.154817178845406E-002;2.236436586827040E-003;-2.329083159565926E-003;
2.414500000000000E+009;1.740472167730331E-001;-5.271977931261063E-002;2.290216740220785E-003;-2.350341994315386E-003;
2.414666666666667E+009;1.743330359458923E-001;-5.363793671131134E-002;2.070515416562557E-003;-2.349965041503310E-003;
2.414833333333334E+009;1.749775260686874E-001;-5.480233952403069E-002;1.899010385386646E-003;-2.098735189065337E-003;
2.415000000000000E+009;1.753531247377396E-001;-5.563188716769218E-002;2.154059708118439E-003;-2.615225035697222E-003;
2.415166666666667E+009;1.756954640150070E-001;-5.648990720510483E-002;1.997406128793955E-003;-2.395147690549493E-003;
2.415333333333334E+009;1.762719154357910E-001;-5.722878500819206E-002;1.910783583298326E-003;-2.373382216319442E-003;
2.415500000000000E+009;1.765255630016327E-001;-5.791375786066055E-002;1.799250952899456E-003;-2.479400252923369E-003;
2.415666666666667E+009;1.768453568220139E-001;-5.852957069873810E-002;1.560686738230288E-003;-2.580291824415326E-003;
2.415833333333334E+009;1.771899908781052E-001;-5.899954959750176E-002;1.702970359474421E-003;-2.472848864272237E-003;
2.416000000000000E+009;1.770799010992050E-001;-5.962558463215828E-002;1.557262381538749E-003;-2.525315154343844E-003;
2.416166666666667E+009;1.775205880403519E-001;-5.992146953940392E-002;1.428357907570899E-003;-2.422911114990711E-003;
2.416333333333334E+009;1.773502528667450E-001;-6.019023433327675E-002;1.542380894534290E-003;-2.647867891937494E-003;
2.416500000000000E+009;1.774105429649353E-001;-6.067179515957832E-002;1.418380415998399E-003;-2.570598619058728E-003;
2.416666666666667E+009;1.772241294384003E-001;-6.085133925080299E-002;1.324972487054765E-003;-2.535765059292316E-003;
2.416833333333334E+009;1.770074069499970E-001;-6.124223768711090E-002;1.327270758338273E-003;-2.646474400535226E-003;
2.417000000000000E+009;1.766459196805954E-001;-6.151363253593445E-002;1.272877678275108E-003;-2.614970318973064E-003;
2.417166666666667E+009;1.762353628873825E-001;-6.164148822426796E-002;1.198563142679632E-003;-2.719404175877571E-003;
2.417333333333334E+009;1.758348643779755E-001;-6.182787567377091E-002;1.147988718003035E-003;-2.854634774848819E-003;
2.417500000000000E+009;1.751661747694016E-001;-6.211351230740547E-002;1.080194488167763E-003;-2.754436340183020E-003;
2.417666666666667E+009;1.747131794691086E-001;-6.236183270812035E-002;1.030312501825392E-003;-2.848775824531913E-003;
2.417833333333334E+009;1.738546639680862E-001;-6.263688206672669E-002;1.068837940692902E-003;-2.699438948184252E-003;
2.418000000000000E+009;1.730278283357620E-001;-6.299597769975662E-002;9.792322525754571E-004;-2.732157241553068E-003;
2.418166666666667E+009;1.720703095197678E-001;-6.310950964689255E-002;9.430943173356354E-004;-2.862687921151519E-003;
2.418333333333334E+009;1.713734567165375E-001;-6.360129266977310E-002;9.038178832270205E-004;-2.998393960297108E-003;
2.418500000000000E+009;1.704165637493134E-001;-6.391672790050507E-002;7.942098309285939E-004;-2.922793850302696E-003;
2.418666666666667E+009;1.693392544984818E-001;-6.448141485452652E-002;7.293800008483231E-004;-2.988355234265328E-003;
2.418833333333334E+009;1.681409329175949E-001;-6.499598175287247E-002;7.111440063454211E-004;-3.061288967728615E-003;
2.419000000000000E+009;1.669859290122986E-001;-6.556473672389984E-002;7.415173458866775E-004;-3.078926121816039E-003;
2.419166666666667E+009;1.657425612211227E-001;-6.617562472820282E-002;7.132542086765170E-004;-2.926287241280079E-003;
2.419333333333334E+009;1.644551753997803E-001;-6.669703871011734E-002;4.870383418165147E-004;-3.166526788845658E-003;
2.419500000000000E+009;1.634578108787537E-001;-6.771074980497360E-002;4.734147805720568E-004;-3.020501229912043E-003;
2.419666666666667E+009;1.623669266700745E-001;-6.854953616857529E-002;3.922804025933147E-004;-3.038024995476008E-003;
2.419833333333334E+009;1.610533148050308E-001;-6.923288851976395E-002;3.183366206940264E-004;-3.336670808494091E-003;
2.420000000000000E+009;1.599633097648621E-001;-7.043299078941345E-002;2.035473153227940E-004;-3.315600100904703E-003;
2.420166666666667E+009;1.588193327188492E-001;-7.144618034362793E-002;2.618837170302868E-004;-3.405667142942548E-003;
2.420333333333334E+009;1.577408760786057E-001;-7.271322607994080E-002;2.299902407685295E-004;-3.505534026771784E-003;
2.420500000000000E+009;1.567253172397614E-001;-7.379074394702911E-002;1.062604133039713E-004;-3.548134816810489E-003;
2.420666666666667E+009;1.557124257087708E-001;-7.490710914134979E-002;-6.380520790116862E-005;-3.467432223260403E-003;
2.420833333333334E+009;1.549293547868729E-001;-7.655388116836548E-002;-1.449412375222892E-004;-3.562225960195065E-003;
2.421000000000000E+009;1.538754850625992E-001;-7.799053192138672E-002;-3.948103767470457E-005;-3.511957591399550E-003;
2.421166666666667E+009;1.531563252210617E-001;-7.932221889495850E-002;-2.519745612516999E-004;-3.635923843830824E-003;
2.421333333333334E+009;1.526230573654175E-001;-8.110780268907547E-002;-5.405707051977515E-004;-3.836149116978049E-003;
2.421500000000000E+009;1.516519188880920E-001;-8.241168409585953E-002;-6.165369995869696E-004;-3.692386904731393E-003;
2.421666666666667E+009;1.512009799480438E-001;-8.410901576280594E-002;-7.546553388237953E-004;-3.748011542484164E-003;
2.421833333333334E+009;1.507845818996429E-001;-8.578914403915405E-002;-9.347622981294990E-004;-3.851935733109713E-003;
2.422000000000000E+009;1.503557264804840E-001;-8.742074668407440E-002;-1.111779361963272E-003;-3.756063757464290E-003;
2.422166666666667E+009;1.498664468526840E-001;-8.914017677307129E-002;-1.289548934437335E-003;-3.826992353424430E-003;
2.422333333333334E+009;1.496475785970688E-001;-9.064868837594986E-002;-1.495070173405111E-003;-3.647303441539407E-003;
2.422500000000000E+009;1.496244370937347E-001;-9.231709688901901E-002;-1.569040119647980E-003;-3.746775677427650E-003;
2.422666666666667E+009;1.494556665420532E-001;-9.421519190073013E-002;-1.422623987309635E-003;-3.724957583472133E-003;
2.422833333333334E+009;1.493725329637528E-001;-9.602399170398712E-002;-1.921071554534137E-003;-3.637050511315465E-003;
2.423000000000000E+009;1.494744271039963E-001;-9.768155217170715E-002;-1.921472488902509E-003;-3.627908648923039E-003;
2.423166666666667E+009;1.497966498136520E-001;-9.926420450210571E-002;-2.252818085253239E-003;-3.650927916169167E-003;
2.423333333333334E+009;1.500637531280518E-001;-1.005662903189659E-001;-2.224987605586648E-003;-3.516257740557194E-003;
2.423500000000000E+009;1.501961201429367E-001;-1.022633090615273E-001;-2.549400553107262E-003;-3.326464211568236E-003;
2.423666666666667E+009;1.504202038049698E-001;-1.038947105407715E-001;-2.651453483849764E-003;-3.303415374830365E-003;
2.423833333333334E+009;1.510846465826035E-001;-1.055918559432030E-001;-2.809195313602686E-003;-3.221457358449698E-003;
2.424000000000000E+009;1.513132452964783E-001;-1.066867709159851E-001;-3.073365194723010E-003;-3.050090512260795E-003;
2.424166666666667E+009;1.516406536102295E-001;-1.080994531512260E-001;-3.111843019723892E-003;-2.950532129034400E-003;
2.424333333333334E+009;1.522092372179031E-001;-1.093391403555870E-001;-3.123893169686198E-003;-2.759609138593078E-003;
2.424500000000000E+009;1.526335179805756E-001;-1.105566024780273E-001;-3.310074331238866E-003;-2.484141848981381E-003;
2.424666666666667E+009;1.532322168350220E-001;-1.114697530865669E-001;-3.204933600500226E-003;-2.455375390127301E-003;
2.424833333333334E+009;1.536408215761185E-001;-1.126762107014656E-001;-3.487268928438425E-003;-2.453760243952274E-003;
2.425000000000000E+009;1.541394293308258E-001;-1.136052161455154E-001;-3.683932125568390E-003;-1.988774398341775E-003;
2.425166666666667E+009;1.542290896177292E-001;-1.144826784729958E-001;-3.698113607242703E-003;-1.952069462276995E-003;
2.425333333333334E+009;1.548638790845871E-001;-1.153358593583107E-001;-3.655865555629134E-003;-1.779058948159218E-003;
2.425500000000000E+009;1.551901847124100E-001;-1.159868314862251E-001;-3.685131901875138E-003;-1.728424686007202E-003;
2.425666666666667E+009;1.553138196468353E-001;-1.165844351053238E-001;-3.886439604684711E-003;-1.366195501759648E-003;
2.425833333333334E+009;1.555975973606110E-001;-1.171166151762009E-001;-3.829782828688622E-003;-1.272492692805827E-003;
2.426000000000000E+009;1.557862311601639E-001;-1.178576201200485E-001;-3.966649528592825E-003;-1.149371266365051E-003;
2.426166666666667E+009;1.561959236860275E-001;-1.182124689221382E-001;-3.913993481546640E-003;-8.682490442879498E-004;
2.426333333333334E+009;1.561070978641510E-001;-1.185664683580399E-001;-3.724499372765422E-003;-6.809352198615670E-004;
2.426500000000000E+009;1.561296284198761E-001;-1.188471168279648E-001;-3.743091598153114E-003;-6.060494342818856E-004;
2.426666666666667E+009;1.561113595962524E-001;-1.188387349247932E-001;-3.617130452767015E-003;-3.728250158019364E-004;
2.426833333333334E+009;1.558889299631119E-001;-1.190240457653999E-001;-3.842792008072138E-003;-3.319462994113565E-004;
2.427000000000000E+009;1.556245535612106E-001;-1.193147972226143E-001;-3.635885426774621E-003;-2.545450988691300E-004;
2.427166666666667E+009;1.552675664424896E-001;-1.192760691046715E-001;-3.489718539640307E-003;-1.508871791884303E-004;
2.427333333333334E+009;1.548517048358917E-001;-1.195053458213806E-001;-3.506014123558998E-003;-3.682831084006466E-005;
2.427500000000000E+009;1.545352339744568E-001;-1.196091845631599E-001;-3.620657604187727E-003;1.902693620650098E-004;
2.427666666666667E+009;1.537019908428192E-001;-1.196076422929764E-001;-3.473434830084443E-003;3.091843391302973E-004;
2.427833333333334E+009;1.529804915189743E-001;-1.197983771562576E-001;-3.411800367757678E-003;2.326059475308284E-004;
