# Version 1.00
#
freq[Hz];re:Trc1_S11;im:Trc1_S11;re:Trc2_S21;im:Trc2_S21;
2.400000000000000E+009;1.562011688947678E-001;6.046994403004646E-002;-4.072180017828941E-003;7.064557867124677E-004;
2.400166666666667E+009;1.562913358211517E-001;5.859336256980896E-002;-3.983667585998774E-003;8.495222427882254E-004;
2.400333333333334E+009;1.562886536121368E-001;5.666131153702736E-002;-3.935880027711391E-003;9.612254798412323E-004;
2.400500000000000E+009;1.565218120813370E-001;5.462742969393730E-002;-3.823600010946393E-003;1.001207856461406E-003;
2.400666666666667E+009;1.567875742912293E-001;5.256773903965950E-002;-3.904490731656551E-003;1.047792262397707E-003;
2.400833333333334E+009;1.571761369705200E-001;5.057855695486069E-002;-4.027174320071936E-003;1.329836202785373E-003;
2.401000000000000E+009;1.574023067951202E-001;4.845954105257988E-002;-3.919839859008789E-003;1.368212746456265E-003;
2.401166666666667E+009;1.578335464000702E-001;4.637431353330612E-002;-3.994067199528217E-003;1.459066756069660E-003;
2.401333333333334E+009;1.582074463367462E-001;4.434071481227875E-002;-3.750813193619251E-003;1.395304454490542E-003;
2.401500000000000E+009;1.589119285345078E-001;4.224533960223198E-002;-3.846090519800782E-003;1.566460938192904E-003;
2.401666666666667E+009;1.592929363250732E-001;4.044861346483231E-002;-3.787819761782885E-003;1.820366946049035E-003;
2.401833333333334E+009;1.598615199327469E-001;3.855451941490173E-002;-3.808260662481189E-003;1.826382707804442E-003;
2.402000000000000E+009;1.605469733476639E-001;3.673135116696358E-002;-3.540634876117110E-003;1.956586027517915E-003;
2.402166666666667E+009;1.612676680088043E-001;3.463632240891457E-002;-3.607130609452725E-003;2.052576746791601E-003;
2.402333333333334E+009;1.620948165655136E-001;3.313861414790154E-002;-3.480374114587903E-003;2.172056119889021E-003;
2.402500000000000E+009;1.631403416395187E-001;3.130593150854111E-002;-3.503268118947744E-003;2.217279514297843E-003;
2.402666666666667E+009;1.637680828571320E-001;2.993949130177498E-002;-3.275032388046384E-003;2.395331859588623E-003;
2.402833333333334E+009;1.648408025503159E-001;2.828464284539223E-002;-3.348016878589988E-003;2.438080264255405E-003;
2.403000000000000E+009;1.657740473747253E-001;2.675261348485947E-002;-3.324335906654596E-003;2.427828498184681E-003;
2.403166666666667E+009;1.665632873773575E-001;2.552809379994869E-002;-3.292783163487911E-003;2.478740643709898E-003;
2.403333333333334E+009;1.676705330610275E-001;2.435952238738537E-002;-3.087460761889815E-003;2.599638188257814E-003;
2.403500000000000E+009;1.685092747211456E-001;2.316316217184067E-002;-2.968720858916640E-003;2.684716833755374E-003;
2.403666666666667E+009;1.695937663316727E-001;2.196362242102623E-002;-3.095117397606373E-003;2.845244482159615E-003;
2.403833333333334E+009;1.705158799886704E-001;2.096106857061386E-002;-3.071806626394391E-003;2.878845203667879E-003;
2.404000000000000E+009;1.716594249010086E-001;1.995939016342163E-002;-2.913816133514047E-003;2.716856077313423E-003;
2.404166666666667E+009;1.725237518548966E-001;1.902581565082073E-002;-2.784189768135548E-003;3.123119473457336E-003;
2.404333333333334E+009;1.733315587043762E-001;1.835142076015472E-002;-2.710740314796567E-003;3.309641731902957E-003;
2.404500000000000E+009;1.742757558822632E-001;1.764746196568012E-002;-2.721664262935519E-003;3.315876703709364E-003;
2.404666666666667E+009;1.752016991376877E-001;1.687747053802013E-002;-2.669057808816433E-003;3.305101534351707E-003;
2.404833333333334E+009;1.757757365703583E-001;1.650968566536903E-002;-2.666556509211659E-003;3.459390718489885E-003;
2.405000000000000E+009;1.766865551471710E-001;1.582424156367779E-002;-2.544537186622620E-003;3.577126422896981E-003;
2.405166666666667E+009;1.772961467504501E-001;1.534826587885618E-002;-2.436870243400335E-003;3.713622223585844E-003;
2.405333333333334E+009;1.779856532812119E-001;1.485462766140699E-002;-2.253376645967364E-003;3.681074827909470E-003;
2.405500000000000E+009;1.783692240715027E-001;1.468141656368971E-002;-2.342288848012686E-003;3.814811119809747E-003;
2.405666666666667E+009;1.790146231651306E-001;1.430413126945496E-002;-2.032053191214800E-003;3.890658263117075E-003;
2.405833333333334E+009;1.792285889387131E-001;1.401237864047289E-002;-1.976704224944115E-003;3.978002350777388E-003;
2.406000000000000E+009;1.796568334102631E-001;1.348473224788904E-002;-1.834737369790673E-003;3.858742304146290E-003;
2.406166666666667E+009;1.797993332147598E-001;1.338576711714268E-002;-1.645115320570767E-003;4.147540777921677E-003;
2.406333333333334E+009;1.801689416170120E-001;1.302390359342098E-002;-1.569987274706364E-003;4.290287848562002E-003;
2.406500000000000E+009;1.801797896623612E-001;1.268324814736843E-002;-1.387647469528019E-003;4.536115098744631E-003;
2.406666666666667E+009;1.800184696912766E-001;1.247125491499901E-002;-1.289066858589649E-003;4.434297326952219E-003;
2.406833333333334E+009;1.801045686006546E-001;1.210794318467379E-002;-1.177955884486437E-003;4.507706034928560E-003;
2.407000000000000E+009;1.799234896898270E-001;1.163097191601992E-002;-9.126495569944382E-004;4.330792929977179E-003;
2.407166666666667E+009;1.797531992197037E-001;1.128942705690861E-002;-6.408659392036498E-004;4.535693209618330E-003;
2.407333333333334E+009;1.793075203895569E-001;1.069979276508093E-002;-6.160449120216072E-004;4.461029078811407E-003;
2.407500000000000E+009;1.789186596870422E-001;1.019764225929976E-002;-4.165949649177492E-004;4.469640087336302E-003;
2.407666666666667E+009;1.786386966705322E-001;9.589831344783306E-003;-2.089473855448887E-004;4.521702881902456E-003;
2.407833333333334E+009;1.779337823390961E-001;8.734954521059990E-003;-1.068036726792343E-004;4.535317886620760E-003;
2.408000000000000E+009;1.773946881294251E-001;7.999733090400696E-003;1.540576340630651E-004;4.459762480109930E-003;
2.408166666666667E+009;1.769308596849442E-001;7.327585015445948E-003;4.051482537761331E-004;4.466146230697632E-003;
2.408333333333334E+009;1.764127612113953E-001;6.394147407263517E-003;4.347604990471155E-004;4.507520236074925E-003;
2.408500000000000E+009;1.756530106067658E-001;5.150282755494118E-003;6.396639510057867E-004;4.477802198380232E-003;
2.408666666666667E+009;1.750917881727219E-001;4.124322440475225E-003;7.550764130428433E-004;4.537931177765131E-003;
2.408833333333334E+009;1.742208749055862E-001;2.965266583487392E-003;8.222571923397481E-004;4.353390540927649E-003;
2.409000000000000E+009;1.735939979553223E-001;1.676291693001986E-003;9.384179720655084E-004;4.362068139016628E-003;
2.409166666666667E+009;1.728443950414658E-001;2.606484049465507E-004;1.191121875308454E-003;4.148361273109913E-003;
2.409333333333334E+009;1.724384576082230E-001;-1.241688500158489E-003;1.355246175080538E-003;4.226109478622675E-003;
2.409500000000000E+009;1.715113371610642E-001;-2.937790472060442E-003;1.500312238931656E-003;4.083432257175446E-003;
2.409666666666667E+009;1.710102856159210E-001;-4.491547122597694E-003;1.621933653950691E-003;4.121817648410797E-003;
2.409833333333334E+009;1.703935414552689E-001;-6.018555257469416E-003;1.612167921848595E-003;3.965318668633699E-003;
2.410000000000000E+009;1.699136346578598E-001;-7.730929646641016E-003;1.829878892749548E-003;3.868513507768512E-003;
2.410166666666667E+009;1.693469434976578E-001;-9.569274261593819E-003;1.917507848702371E-003;3.768743947148323E-003;
2.410333333333334E+009;1.687831729650497E-001;-1.133736036717892E-002;2.088098786771298E-003;3.698137355968356E-003;
2.410500000000000E+009;1.685385555028915E-001;-1.324188802391291E-002;2.223558025434613E-003;3.578830044716597E-003;
2.410666666666667E+009;1.681145280599594E-001;-1.509117055684328E-002;2.221211325377226E-003;3.568532178178430E-003;
2.410833333333334E+009;1.679708808660507E-001;-1.702486537396908E-002;2.369161695241928E-003;3.705361625179648E-003;
2.411000000000000E+009;1.675911992788315E-001;-1.888241805136204E-002;2.352225361391902E-003;3.316942835226655E-003;
2.411166666666667E+009;1.675591468811035E-001;-2.087456919252873E-002;2.519569359719753E-003;3.334902226924896E-003;
2.411333333333334E+009;1.676313877105713E-001;-2.282865904271603E-002;2.624122425913811E-003;3.209039103239775E-003;
2.411500000000000E+009;1.674684435129166E-001;-2.498028427362442E-002;2.671048277989030E-003;2.987342886626720E-003;
2.411666666666667E+009;1.678008288145065E-001;-2.674031257629395E-002;2.780246548354626E-003;2.981928875669837E-003;
2.411833333333334E+009;1.679700911045075E-001;-2.875295281410217E-002;2.831976162269712E-003;2.883688313886523E-003;
2.412000000000000E+009;1.682260781526566E-001;-3.083419241011143E-002;2.979404758661985E-003;2.779930830001831E-003;
2.412166666666667E+009;1.683861166238785E-001;-3.254787251353264E-002;3.071025479584932E-003;2.660042839124799E-003;
2.412333333333334E+009;1.690187156200409E-001;-3.425827622413635E-002;2.965161576867104E-003;2.544012386351824E-003;
2.412500000000000E+009;1.692164689302445E-001;-3.620633855462074E-002;3.073890227824450E-003;2.321389736607671E-003;
2.412666666666667E+009;1.698020100593567E-001;-3.782285377383232E-002;3.081781323999167E-003;2.111659618094564E-003;
2.412833333333334E+009;1.703614741563797E-001;-3.972604498267174E-002;3.165517002344132E-003;2.019599778577685E-003;
2.413000000000000E+009;1.709461957216263E-001;-4.123557358980179E-002;3.155200276523829E-003;1.965021947398782E-003;
2.413166666666667E+009;1.714805066585541E-001;-4.291194304823875E-002;3.417133819311857E-003;1.829456537961960E-003;
2.413333333333334E+009;1.719712615013123E-001;-4.441042989492416E-002;3.175546415150166E-003;1.756148878484964E-003;
2.413500000000000E+009;1.726081222295761E-001;-4.575782269239426E-002;3.340020775794983E-003;1.516475924290717E-003;
2.413666666666667E+009;1.733763515949249E-001;-4.722362756729126E-002;3.345042467117310E-003;1.491414150223136E-003;
2.413833333333334E+009;1.738468259572983E-001;-4.852615296840668E-002;3.212190698832274E-003;1.393250306136906E-003;
2.414000000000000E+009;1.744158864021301E-001;-4.979546740651131E-002;3.325629746541381E-003;1.094711362384260E-003;
2.414166666666667E+009;1.750877201557159E-001;-5.079128593206406E-002;3.215488046407700E-003;1.011621439829469E-003;
2.414333333333334E+009;1.755595803260803E-001;-5.176452547311783E-002;3.441940760239959E-003;1.073899562470615E-003;
2.414500000000000E+009;1.762607097625732E-001;-5.266064032912254E-002;3.357428358867765E-003;1.009468105621636E-003;
2.414666666666667E+009;1.766488850116730E-001;-5.353654548525810E-002;3.192628733813763E-003;8.748466498218477E-004;
2.414833333333334E+009;1.770420670509338E-001;-5.436635762453079E-002;3.258735639974475E-003;6.985403015278280E-004;
2.415000000000000E+009;1.774467676877976E-001;-5.491055175662041E-002;3.364750184118748E-003;6.926784990355372E-004;
2.415166666666667E+009;1.778170019388199E-001;-5.544975399971008E-002;3.274597926065326E-003;5.123777664266527E-004;
2.415333333333334E+009;1.782344579696655E-001;-5.614443123340607E-002;3.081243950873613E-003;4.227947210893035E-004;
2.415500000000000E+009;1.783830672502518E-001;-5.650669336318970E-002;3.238047938793898E-003;3.451431111898273E-004;
2.415666666666667E+009;1.784504652023315E-001;-5.682246759533882E-002;3.174428362399340E-003;3.771885822061449E-004;
2.415833333333334E+009;1.785787045955658E-001;-5.724318325519562E-002;3.135588485747576E-003;2.614767290651798E-004;
2.416000000000000E+009;1.783480197191238E-001;-5.749659240245819E-002;2.965828869491816E-003;1.084683681256138E-004;
2.416166666666667E+009;1.785470992326737E-001;-5.770598724484444E-002;3.037632443010807E-003;6.604289956158027E-005;
2.416333333333334E+009;1.781920343637466E-001;-5.797716602683067E-002;3.017566632479429E-003;4.813480245502433E-006;
2.416500000000000E+009;1.778436303138733E-001;-5.819704383611679E-002;2.945075044408441E-003;-1.206969591294183E-005;
2.416666666666667E+009;1.775170415639877E-001;-5.836709588766098E-002;2.933402080088854E-003;-3.515713251545094E-005;
2.416833333333334E+009;1.770952939987183E-001;-5.869108065962791E-002;2.960509620606899E-003;-2.297895407536998E-004;
2.417000000000000E+009;1.763871759176254E-001;-5.893297493457794E-002;2.927327528595924E-003;-1.326609926763922E-004;
2.417166666666667E+009;1.758216470479965E-001;-5.904118716716766E-002;2.923241583630443E-003;-3.984074865002185E-004;
2.417333333333334E+009;1.750521659851074E-001;-5.915585160255432E-002;2.869928954169154E-003;-4.606571746990085E-004;
2.417500000000000E+009;1.741255968809128E-001;-5.981969088315964E-002;2.835909603163600E-003;-5.214463453739882E-004;
2.417666666666667E+009;1.733141839504242E-001;-5.985316634178162E-002;2.706925850361586E-003;-4.096113552805036E-004;
2.417833333333334E+009;1.723551750183106E-001;-6.020927429199219E-002;2.803678391501308E-003;-6.326229777187109E-004;
2.418000000000000E+009;1.713265478610992E-001;-6.064012646675110E-002;2.718434669077396E-003;-5.969455814920366E-004;
2.418166666666667E+009;1.701766252517700E-001;-6.089316308498383E-002;2.639012411236763E-003;-7.754660909995437E-004;
2.418333333333334E+009;1.692771315574646E-001;-6.158867105841637E-002;2.667659660801292E-003;-8.060662657953799E-004;
2.418500000000000E+009;1.679751127958298E-001;-6.207288429141045E-002;2.602860564365983E-003;-8.151289657689631E-004;
2.418666666666667E+009;1.668725907802582E-001;-6.274759769439697E-002;2.592245815321803E-003;-8.384974207729101E-004;
2.418833333333334E+009;1.654121577739716E-001;-6.349963694810867E-002;2.561656292527914E-003;-8.057794766500592E-004;
2.419000000000000E+009;1.641693264245987E-001;-6.422371417284012E-002;2.485577715560794E-003;-9.601018391549587E-004;
2.419166666666667E+009;1.629329770803452E-001;-6.514842063188553E-002;2.289943164214492E-003;-1.152601209469140E-003;
2.419333333333334E+009;1.614996343851090E-001;-6.572081893682480E-002;2.308957977220416E-003;-1.101484289392829E-003;
2.419500000000000E+009;1.604152172803879E-001;-6.703765690326691E-002;2.309112343937159E-003;-1.126403803937137E-003;
2.419666666666667E+009;1.594271361827850E-001;-6.807566434144974E-002;2.194276545196772E-003;-1.197972102090716E-003;
2.419833333333334E+009;1.581401824951172E-001;-6.908255070447922E-002;2.363389125093818E-003;-1.156742451712489E-003;
2.420000000000000E+009;1.571648865938187E-001;-7.049171626567841E-002;2.253188751637936E-003;-1.257104217074812E-003;
2.420166666666667E+009;1.560542136430740E-001;-7.174532115459442E-002;2.125187544152141E-003;-1.251717447303236E-003;
2.420333333333334E+009;1.552886664867401E-001;-7.317881286144257E-002;2.108743414282799E-003;-1.260187476873398E-003;
2.420500000000000E+009;1.542523801326752E-001;-7.447564601898193E-002;2.108712913468480E-003;-1.235183095559478E-003;
2.420666666666667E+009;1.533448845148087E-001;-7.586039602756500E-002;2.074639312922955E-003;-1.315223751589656E-003;
2.420833333333334E+009;1.525024920701981E-001;-7.742913067340851E-002;2.013091696426272E-003;-1.355451066046953E-003;
2.421000000000000E+009;1.517761349678040E-001;-7.906758785247803E-002;2.004592912271619E-003;-1.410093624144793E-003;
2.421166666666667E+009;1.513213813304901E-001;-8.066440373659134E-002;1.862205215729773E-003;-1.341994735412300E-003;
2.421333333333334E+009;1.508794128894806E-001;-8.243104070425034E-002;1.806083950214088E-003;-1.462160609662533E-003;
2.421500000000000E+009;1.502895504236221E-001;-8.398368954658508E-002;1.863281708210707E-003;-1.635815133340657E-003;
2.421666666666667E+009;1.500089317560196E-001;-8.569030463695526E-002;1.943393144756556E-003;-1.520394114777446E-003;
2.421833333333334E+009;1.497655361890793E-001;-8.741942793130875E-002;2.032998017966747E-003;-1.549565698951483E-003;
2.422000000000000E+009;1.493718475103378E-001;-8.910068869590759E-002;1.810372690670192E-003;-1.700451248325408E-003;
2.422166666666667E+009;1.495146602392197E-001;-9.096236526966095E-002;1.725563197396696E-003;-1.673702150583267E-003;
2.422333333333334E+009;1.494487375020981E-001;-9.257675707340241E-002;1.649619080126286E-003;-1.863120589405298E-003;
2.422500000000000E+009;1.494603455066681E-001;-9.405907988548279E-002;1.598491682671011E-003;-1.720944186672568E-003;
2.422666666666667E+009;1.494425386190414E-001;-9.587319940328598E-002;1.577590941451490E-003;-1.833026297390461E-003;
2.422833333333334E+009;1.499050110578537E-001;-9.744438529014587E-002;1.532355789095163E-003;-1.816608710214496E-003;
2.423000000000000E+009;1.500126570463181E-001;-9.897375851869583E-002;1.489841146394610E-003;-1.975024817511439E-003;
2.423166666666667E+009;1.505444049835205E-001;-1.005503386259079E-001;1.565600745379925E-003;-1.876391470432282E-003;
2.423333333333334E+009;1.510874181985855E-001;-1.018928587436676E-001;1.317089539952576E-003;-2.007326111197472E-003;
2.423500000000000E+009;1.512346565723419E-001;-1.033154949545860E-001;1.329205580987036E-003;-1.864530495367944E-003;
2.423666666666667E+009;1.516879945993424E-001;-1.048476099967957E-001;1.171138486824930E-003;-1.955920131877065E-003;
2.423833333333334E+009;1.523264199495316E-001;-1.061357036232948E-001;1.295884023420513E-003;-2.124984283000231E-003;
2.424000000000000E+009;1.526625305414200E-001;-1.071386188268662E-001;1.199722872115672E-003;-1.968672964721918E-003;
2.424166666666667E+009;1.532151997089386E-001;-1.083365380764008E-001;1.140126143582165E-003;-2.078975085169077E-003;
2.424333333333334E+009;1.537656337022781E-001;-1.092703118920326E-001;1.003346522338688E-003;-2.090921858325601E-003;
2.424500000000000E+009;1.543519645929337E-001;-1.102719828486443E-001;9.461007430218160E-004;-1.979679102078080E-003;
2.424666666666667E+009;1.549817919731140E-001;-1.109578907489777E-001;1.074845902621746E-003;-2.143603982403874E-003;
2.424833333333334E+009;1.554110497236252E-001;-1.119555681943893E-001;8.184550097212195E-004;-2.105852356180549E-003;
2.425000000000000E+009;1.558327972888947E-001;-1.127226352691650E-001;7.670256309211254E-004;-2.062648534774780E-003;
2.425166666666667E+009;1.559906750917435E-001;-1.134573593735695E-001;7.616092334501445E-004;-2.041816711425781E-003;
2.425333333333334E+009;1.564594358205795E-001;-1.140738576650620E-001;6.868976633995771E-004;-2.027793554589152E-003;
2.425500000000000E+009;1.568498462438583E-001;-1.146427467465401E-001;5.767750553786755E-004;-1.984792761504650E-003;
2.425666666666667E+009;1.568778753280640E-001;-1.149725764989853E-001;5.976228858344257E-004;-1.988997915759683E-003;
2.425833333333334E+009;1.571748405694962E-001;-1.155601963400841E-001;5.877547664567828E-004;-1.933322986587882E-003;
2.426000000000000E+009;1.570896357297897E-001;-1.158073991537094E-001;4.821864131372422E-004;-1.856398186646402E-003;
2.426166666666667E+009;1.573214530944824E-001;-1.160862222313881E-001;4.315227852202952E-004;-1.906482852064073E-003;
2.426333333333334E+009;1.570785343647003E-001;-1.163193434476852E-001;3.457472193986177E-004;-2.099054167047143E-003;
2.426500000000000E+009;1.570138633251190E-001;-1.165783703327179E-001;2.554025559220463E-004;-1.902200514450669E-003;
2.426666666666667E+009;1.568472236394882E-001;-1.164057478308678E-001;3.876480041071773E-004;-1.978101674467325E-003;
2.426833333333334E+009;1.565796583890915E-001;-1.167225688695908E-001;3.198285412508994E-004;-1.841264078393579E-003;
2.427000000000000E+009;1.559891998767853E-001;-1.168901845812798E-001;2.683779457584024E-004;-1.802029786631465E-003;
2.427166666666667E+009;1.554768979549408E-001;-1.169361993670464E-001;4.000797925982624E-004;-1.851321663707495E-003;
2.427333333333334E+009;1.547132283449173E-001;-1.171200871467590E-001;2.123130252584815E-004;-1.735317287966609E-003;
2.427500000000000E+009;1.541758775711060E-001;-1.171689555048943E-001;2.535934618208557E-004;-1.789540052413940E-003;
2.427666666666667E+009;1.532569974660873E-001;-1.173566952347755E-001;1.975959166884422E-004;-1.851945649832487E-003;
2.427833333333334E+009;1.521975398063660E-001;-1.174459457397461E-001;1.602994016138837E-004;-1.880044699646533E-003;
