# Version 1.00
#
freq[Hz];re:Trc1_S11;im:Trc1_S11;re:Trc2_S21;im:Trc2_S21;
2.400000000000000E+009;1.561628282070160E-001;6.022592633962631E-002;-3.723431378602982E-003;6.126043153926730E-004;
2.400166666666667E+009;1.561594009399414E-001;5.873958766460419E-002;-3.742090659216046E-003;6.910017109476030E-004;
2.400333333333334E+009;1.564706563949585E-001;5.651266500353813E-002;-3.673611674457789E-003;8.390291477553546E-004;
2.400500000000000E+009;1.566205471754074E-001;5.457252636551857E-002;-3.971180878579617E-003;9.213137091137469E-004;
2.400666666666667E+009;1.566713601350784E-001;5.248849093914032E-002;-3.775486256927252E-003;9.851744398474693E-004;
2.400833333333334E+009;1.571756750345230E-001;5.042899399995804E-002;-3.882111050188541E-003;1.120171975344420E-003;
2.401000000000000E+009;1.575207710266113E-001;4.846135154366493E-002;-3.758068196475506E-003;1.189803821034730E-003;
2.401166666666667E+009;1.577845811843872E-001;4.637331515550613E-002;-3.506609704345465E-003;1.535624847747386E-003;
2.401333333333334E+009;1.582034528255463E-001;4.427851364016533E-002;-3.620440838858485E-003;1.529189874418080E-003;
2.401500000000000E+009;1.588563621044159E-001;4.231927171349526E-002;-3.565427381545305E-003;1.505924155935645E-003;
2.401666666666667E+009;1.593215316534042E-001;4.049168527126312E-002;-3.403710899874568E-003;1.495389617048204E-003;
2.401833333333334E+009;1.598858684301376E-001;3.833038359880447E-002;-3.522082464769483E-003;1.697047613561153E-003;
2.402000000000000E+009;1.608058512210846E-001;3.653809800744057E-002;-3.435243386775255E-003;1.699400134384632E-003;
2.402166666666667E+009;1.612187623977661E-001;3.466175124049187E-002;-3.562037134543061E-003;1.906915334984660E-003;
2.402333333333334E+009;1.620500683784485E-001;3.299344331026077E-002;-3.343701129779220E-003;1.968214986845851E-003;
2.402500000000000E+009;1.631142646074295E-001;3.137660771608353E-002;-3.270175075158477E-003;2.191449515521526E-003;
2.402666666666667E+009;1.637430191040039E-001;2.977615594863892E-002;-3.132640384137631E-003;2.243818715214729E-003;
2.402833333333334E+009;1.645457744598389E-001;2.831030637025833E-002;-3.173467237502337E-003;2.172830281779170E-003;
2.403000000000000E+009;1.656152904033661E-001;2.696815319359303E-002;-3.103383583948016E-003;2.376066287979484E-003;
2.403166666666667E+009;1.667053401470184E-001;2.564355917274952E-002;-2.987068844959140E-003;2.448117127642036E-003;
2.403333333333334E+009;1.676318943500519E-001;2.446689642965794E-002;-2.899114741012454E-003;2.339802915230393E-003;
2.403500000000000E+009;1.684901714324951E-001;2.309713512659073E-002;-2.886483678594232E-003;2.726130420342088E-003;
2.403666666666667E+009;1.693645417690277E-001;2.203843928873539E-002;-2.971892012283206E-003;2.676717005670071E-003;
2.403833333333334E+009;1.706287860870361E-001;2.104737050831318E-002;-2.757309237495065E-003;2.675748663023114E-003;
2.404000000000000E+009;1.715326607227325E-001;2.006179280579090E-002;-2.827014075592160E-003;2.780990442261100E-003;
2.404166666666667E+009;1.725444197654724E-001;1.913509331643581E-002;-2.778496593236923E-003;2.837368287146092E-003;
2.404333333333334E+009;1.734279692173004E-001;1.851750351488590E-002;-2.794154221192002E-003;2.963478211313486E-003;
2.404500000000000E+009;1.741900891065598E-001;1.762695983052254E-002;-2.550334203988314E-003;3.105017123743892E-003;
2.404666666666667E+009;1.751478612422943E-001;1.700237579643726E-002;-2.619413658976555E-003;3.104916308075190E-003;
2.404833333333334E+009;1.758157014846802E-001;1.641199365258217E-002;-2.486200304701924E-003;3.090226557105780E-003;
2.405000000000000E+009;1.766111105680466E-001;1.581592112779617E-002;-2.512606559321284E-003;3.271023510023952E-003;
2.405166666666667E+009;1.771858185529709E-001;1.538709737360477E-002;-2.240987494587898E-003;3.526613349094987E-003;
2.405333333333334E+009;1.780036538839340E-001;1.493082754313946E-002;-2.288970863446593E-003;3.629537299275398E-003;
2.405500000000000E+009;1.785479336977005E-001;1.461160928010941E-002;-2.190710045397282E-003;3.773217089474201E-003;
2.405666666666667E+009;1.789147108793259E-001;1.422706805169582E-002;-2.059983322396874E-003;3.904099809005857E-003;
2.405833333333334E+009;1.793505102396011E-001;1.393646746873856E-002;-2.000152831897140E-003;3.902974771335721E-003;
2.406000000000000E+009;1.797870248556137E-001;1.342320162802935E-002;-1.784990890882909E-003;4.022278357297182E-003;
2.406166666666667E+009;1.798142939805985E-001;1.349748298525810E-002;-1.582800992764533E-003;4.090320318937302E-003;
2.406333333333334E+009;1.800449192523956E-001;1.311367284506559E-002;-1.460850355215371E-003;4.053694196045399E-003;
2.406500000000000E+009;1.801380068063736E-001;1.266643311828375E-002;-1.216551871038973E-003;4.089276306331158E-003;
2.406666666666667E+009;1.799717545509338E-001;1.237378548830748E-002;-1.233045593835414E-003;4.223195370286703E-003;
2.406833333333334E+009;1.800158023834229E-001;1.209851913154125E-002;-1.053010462783277E-003;4.109844565391541E-003;
2.407000000000000E+009;1.800294965505600E-001;1.154819317162037E-002;-8.335504098795354E-004;4.337572958320379E-003;
2.407166666666667E+009;1.798176318407059E-001;1.121706608682871E-002;-8.248670492321253E-004;4.295896273106337E-003;
2.407333333333334E+009;1.792276054620743E-001;1.056625694036484E-002;-5.623905453830957E-004;4.426738712936640E-003;
2.407500000000000E+009;1.789685487747192E-001;1.025134604424238E-002;-3.038812137674540E-004;4.580918699502945E-003;
2.407666666666667E+009;1.786003112792969E-001;9.689577855169773E-003;-2.497950918041170E-004;4.389587324112654E-003;
2.407833333333334E+009;1.779042780399323E-001;8.818451315164566E-003;-1.335996494162828E-004;4.311891272664070E-003;
2.408000000000000E+009;1.775122731924057E-001;8.037709631025791E-003;1.159717940026894E-004;4.597221501171589E-003;
2.408166666666667E+009;1.768888980150223E-001;7.256636861711741E-003;1.951691956492141E-004;4.304205998778343E-003;
2.408333333333334E+009;1.764323115348816E-001;6.276789121329784E-003;3.736648359335959E-004;4.279023036360741E-003;
2.408500000000000E+009;1.758572906255722E-001;5.164652597159147E-003;6.337004597298801E-004;4.410925321280956E-003;
2.408666666666667E+009;1.751407980918884E-001;4.092281218618155E-003;6.989593384787440E-004;4.219023510813713E-003;
2.408833333333334E+009;1.743736118078232E-001;2.826740732416511E-003;9.655122412368655E-004;4.247359931468964E-003;
2.409000000000000E+009;1.736102700233460E-001;1.560531440190971E-003;9.952211985364556E-004;4.265543073415756E-003;
2.409166666666667E+009;1.730449944734573E-001;1.791919348761439E-004;1.137616112828255E-003;4.267185926437378E-003;
2.409333333333334E+009;1.723913550376892E-001;-1.388482865877450E-003;1.283521647565067E-003;4.084735643118620E-003;
2.409500000000000E+009;1.717340201139450E-001;-2.932110335677862E-003;1.208676607348025E-003;4.124301020056009E-003;
2.409666666666667E+009;1.709742248058319E-001;-4.399985074996948E-003;1.477299840189517E-003;3.934628330171108E-003;
2.409833333333334E+009;1.703123599290848E-001;-5.970902740955353E-003;1.650718506425619E-003;3.698854474350810E-003;
2.410000000000000E+009;1.699399203062058E-001;-7.761321030557156E-003;1.621465780772269E-003;3.900249954313040E-003;
2.410166666666667E+009;1.692134737968445E-001;-9.431386366486549E-003;1.878282870166004E-003;3.840493736788631E-003;
2.410333333333334E+009;1.688716709613800E-001;-1.135081797838211E-002;1.850554952397943E-003;3.783119143918157E-003;
2.410500000000000E+009;1.685190945863724E-001;-1.318213902413845E-002;2.075864467769861E-003;3.479275153949857E-003;
2.410666666666667E+009;1.680605858564377E-001;-1.522677019238472E-002;2.208390738815069E-003;3.458538791164756E-003;
2.410833333333334E+009;1.678655594587326E-001;-1.698956266045570E-002;2.209747908636928E-003;3.457008162513375E-003;
2.411000000000000E+009;1.676714569330216E-001;-1.888182200491428E-002;2.415457740426064E-003;3.135100938379765E-003;
2.411166666666667E+009;1.676748394966126E-001;-2.101454325020313E-002;2.571673365309835E-003;3.139948239549995E-003;
2.411333333333334E+009;1.672894805669785E-001;-2.295201830565929E-002;2.493552863597870E-003;3.032438224181533E-003;
2.411500000000000E+009;1.674492508172989E-001;-2.493611164391041E-002;2.492658095434308E-003;3.014324232935906E-003;
2.411666666666667E+009;1.677743494510651E-001;-2.682571113109589E-002;2.734074834734201E-003;2.741146599873900E-003;
2.411833333333334E+009;1.679307222366333E-001;-2.865282446146011E-002;2.651522168889642E-003;2.632426563650370E-003;
2.412000000000000E+009;1.682101488113403E-001;-3.058660402894020E-002;2.754381159320474E-003;2.714434638619423E-003;
2.412166666666667E+009;1.684482097625732E-001;-3.267792984843254E-002;2.923455554991961E-003;2.445173216983676E-003;
2.412333333333334E+009;1.690200567245483E-001;-3.438683226704598E-002;2.878434956073761E-003;2.336498582735658E-003;
2.412500000000000E+009;1.692837625741959E-001;-3.607126325368881E-002;2.984575228765607E-003;2.268701791763306E-003;
2.412666666666667E+009;1.697504371404648E-001;-3.812506049871445E-002;3.044836223125458E-003;2.223988529294729E-003;
2.412833333333334E+009;1.702531725168228E-001;-3.967631235718727E-002;3.014879068359733E-003;2.039966173470020E-003;
2.413000000000000E+009;1.708533167839050E-001;-4.132400825619698E-002;3.184567438438535E-003;1.865033293142915E-003;
2.413166666666667E+009;1.713928282260895E-001;-4.301453009247780E-002;3.096721833571792E-003;1.736469683237374E-003;
2.413333333333334E+009;1.718296706676483E-001;-4.440127685666084E-002;3.164235502481461E-003;1.714418991468847E-003;
2.413500000000000E+009;1.725711226463318E-001;-4.585593193769455E-002;3.228141926229000E-003;1.692009856924415E-003;
2.413666666666667E+009;1.732917726039887E-001;-4.728827998042107E-002;3.342389827594161E-003;1.405403716489673E-003;
2.413833333333334E+009;1.737339496612549E-001;-4.845434799790382E-002;3.291466739028692E-003;1.411934616044164E-003;
2.414000000000000E+009;1.744421720504761E-001;-4.970666393637657E-002;3.198247635737062E-003;1.230484689585865E-003;
2.414166666666667E+009;1.750878244638443E-001;-5.086673796176910E-002;3.195275785401464E-003;1.043956959620118E-003;
2.414333333333334E+009;1.755581796169281E-001;-5.183384940028191E-002;3.253407543525100E-003;1.106998068280518E-003;
2.414500000000000E+009;1.763908118009567E-001;-5.283644422888756E-002;3.239794867113233E-003;8.779529598541558E-004;
2.414666666666667E+009;1.767145693302155E-001;-5.351170897483826E-002;3.255243645980954E-003;7.407350931316614E-004;
2.414833333333334E+009;1.770482510328293E-001;-5.436609685420990E-002;3.161221509799361E-003;6.890775403007865E-004;
2.415000000000000E+009;1.774888336658478E-001;-5.494538322091103E-002;3.203682601451874E-003;4.967473214492202E-004;
2.415166666666667E+009;1.777532994747162E-001;-5.553341656923294E-002;3.251393092796207E-003;6.311258766800165E-004;
2.415333333333334E+009;1.781599670648575E-001;-5.619108676910400E-002;3.126280615106225E-003;4.168107116129249E-004;
2.415500000000000E+009;1.784705519676209E-001;-5.645433813333511E-002;3.204488661140204E-003;3.200293576810509E-004;
2.415666666666667E+009;1.784995794296265E-001;-5.682892352342606E-002;3.095123451203108E-003;2.723263460211456E-004;
2.415833333333334E+009;1.786169856786728E-001;-5.722807720303536E-002;2.964355982840061E-003;2.301012573298067E-004;
2.416000000000000E+009;1.783243119716644E-001;-5.763110890984535E-002;3.005972132086754E-003;1.980636880034581E-004;
2.416166666666667E+009;1.784129887819290E-001;-5.777270719408989E-002;3.072962863370776E-003;1.803149352781475E-004;
2.416333333333334E+009;1.781811565160751E-001;-5.797839164733887E-002;2.990715671330690E-003;-5.949550177319907E-005;
2.416500000000000E+009;1.779115349054337E-001;-5.819316208362579E-002;2.921306062489748E-003;-1.588971354067326E-004;
2.416666666666667E+009;1.774806678295136E-001;-5.845797061920166E-002;2.985825063660741E-003;-2.021383261308074E-004;
2.416833333333334E+009;1.771244555711746E-001;-5.872981995344162E-002;2.896244870498776E-003;-1.731495140120387E-004;
2.417000000000000E+009;1.763339489698410E-001;-5.878498405218124E-002;2.953056711703539E-003;-2.632891992107034E-004;
2.417166666666667E+009;1.756964623928070E-001;-5.899462476372719E-002;2.781994407996535E-003;-3.090561658609659E-004;
2.417333333333334E+009;1.751327812671661E-001;-5.926855280995369E-002;2.757135080173612E-003;-4.192361957393587E-004;
2.417500000000000E+009;1.741145849227905E-001;-5.971433594822884E-002;2.919229445978999E-003;-4.786085919477046E-004;
2.417666666666667E+009;1.733990907669067E-001;-5.968090146780014E-002;2.917992649599910E-003;-4.686769680120051E-004;
2.417833333333334E+009;1.723314076662064E-001;-6.014233827590942E-002;2.759091323241592E-003;-6.486104684881866E-004;
2.418000000000000E+009;1.712592989206314E-001;-6.068784743547440E-002;2.602163935080171E-003;-5.071577033959329E-004;
2.418166666666667E+009;1.701747179031372E-001;-6.094989180564880E-002;2.641435014083982E-003;-7.126248674467206E-004;
2.418333333333334E+009;1.692333668470383E-001;-6.154996901750565E-002;2.672986360266805E-003;-8.512572385370731E-004;
2.418500000000000E+009;1.680909544229507E-001;-6.199673563241959E-002;2.506515244022012E-003;-9.235258912667632E-004;
2.418666666666667E+009;1.669133156538010E-001;-6.275647878646851E-002;2.510639838874340E-003;-8.141913567669690E-004;
2.418833333333334E+009;1.654670983552933E-001;-6.352768838405609E-002;2.439100528135896E-003;-9.953615954145789E-004;
2.419000000000000E+009;1.641301810741425E-001;-6.419026106595993E-002;2.485739300027490E-003;-9.462763555347920E-004;
2.419166666666667E+009;1.630456447601318E-001;-6.510852277278900E-002;2.498713554814458E-003;-9.696226916275919E-004;
2.419333333333334E+009;1.616709679365158E-001;-6.579973548650742E-002;2.401830628514290E-003;-9.992229752242565E-004;
2.419500000000000E+009;1.605344414710999E-001;-6.699636578559876E-002;2.366245724260807E-003;-1.144743524491787E-003;
2.419666666666667E+009;1.593722254037857E-001;-6.822891533374786E-002;2.258535241708159E-003;-1.033683773130179E-003;
2.419833333333334E+009;1.581100225448608E-001;-6.913091987371445E-002;2.153241308405995E-003;-1.106780604459345E-003;
2.420000000000000E+009;1.569824367761612E-001;-7.033593207597733E-002;2.144044730812311E-003;-1.110994489863515E-003;
2.420166666666667E+009;1.560280472040176E-001;-7.170211523771286E-002;2.105807419866324E-003;-1.262425677850843E-003;
2.420333333333334E+009;1.552129685878754E-001;-7.311435788869858E-002;2.155007561668754E-003;-1.288742758333683E-003;
2.420500000000000E+009;1.541663259267807E-001;-7.439377903938294E-002;2.132529160007834E-003;-1.281491597183049E-003;
2.420666666666667E+009;1.533594429492950E-001;-7.580323517322540E-002;2.103264443576336E-003;-1.410611323080957E-003;
2.420833333333334E+009;1.524116396903992E-001;-7.753432542085648E-002;2.026005415245891E-003;-1.416930579580367E-003;
2.421000000000000E+009;1.517619043588638E-001;-7.915651053190231E-002;1.977689797058702E-003;-1.283098012208939E-003;
2.421166666666667E+009;1.512953639030457E-001;-8.069425076246262E-002;1.985280308872461E-003;-1.433818018995225E-003;
2.421333333333334E+009;1.509162187576294E-001;-8.238828927278519E-002;1.989824697375298E-003;-1.460637548007071E-003;
2.421500000000000E+009;1.502422094345093E-001;-8.404099196195602E-002;2.031212672591209E-003;-1.451150979846716E-003;
2.421666666666667E+009;1.501145064830780E-001;-8.573351800441742E-002;1.938455621711910E-003;-1.677742111496627E-003;
2.421833333333334E+009;1.497447788715363E-001;-8.734746277332306E-002;1.866067992523313E-003;-1.552543952129781E-003;
2.422000000000000E+009;1.494192183017731E-001;-8.911498636007309E-002;1.807434135116637E-003;-1.594493864104152E-003;
2.422166666666667E+009;1.494396179914475E-001;-9.081532061100006E-002;1.632742816582322E-003;-1.583814620971680E-003;
2.422333333333334E+009;1.495252102613449E-001;-9.233248978853226E-002;1.736265840008855E-003;-1.751999370753765E-003;
2.422500000000000E+009;1.494270712137222E-001;-9.399919956922531E-002;1.696774852462113E-003;-1.615124987438321E-003;
2.422666666666667E+009;1.495420336723328E-001;-9.579889476299286E-002;1.511341310106218E-003;-1.798771671019495E-003;
2.422833333333334E+009;1.498177200555801E-001;-9.751794487237930E-002;1.516825286671519E-003;-1.722533605061472E-003;
2.423000000000000E+009;1.500316262245178E-001;-9.904432296752930E-002;1.505265710875392E-003;-1.833346323110163E-003;
2.423166666666667E+009;1.505356431007385E-001;-1.004788950085640E-001;1.368172816000879E-003;-2.013605320826173E-003;
2.423333333333334E+009;1.508381366729736E-001;-1.018097251653671E-001;1.302288379520178E-003;-1.886761281639338E-003;
2.423500000000000E+009;1.512741893529892E-001;-1.032260209321976E-001;1.401414745487273E-003;-1.993916695937514E-003;
2.423666666666667E+009;1.515127569437027E-001;-1.048040017485619E-001;1.312342705205083E-003;-1.926590804941952E-003;
2.423833333333334E+009;1.523289382457733E-001;-1.061156466603279E-001;1.097357366234064E-003;-1.912226667627692E-003;
2.424000000000000E+009;1.527372300624847E-001;-1.071360707283020E-001;1.086894772015512E-003;-2.171369967982173E-003;
2.424166666666667E+009;1.532493084669113E-001;-1.084116920828819E-001;1.164587796665728E-003;-1.983732916414738E-003;
2.424333333333334E+009;1.538721024990082E-001;-1.093160659074783E-001;1.132453908212483E-003;-2.090123714879155E-003;
2.424500000000000E+009;1.543037146329880E-001;-1.104814484715462E-001;1.066373311914504E-003;-2.050186740234494E-003;
2.424666666666667E+009;1.549769788980484E-001;-1.110348701477051E-001;8.666547946631908E-004;-2.024463843554258E-003;
2.424833333333334E+009;1.553809940814972E-001;-1.120072603225708E-001;7.946030818857253E-004;-1.981005771085620E-003;
2.425000000000000E+009;1.558599323034287E-001;-1.127636060118675E-001;8.382214000448585E-004;-1.971554476767778E-003;
2.425166666666667E+009;1.560821086168289E-001;-1.134260967373848E-001;7.948296843096614E-004;-1.971215941011906E-003;
2.425333333333334E+009;1.565103679895401E-001;-1.140124276280403E-001;6.413484225049615E-004;-2.059814520180225E-003;
2.425500000000000E+009;1.568035185337067E-001;-1.145605966448784E-001;6.163757643662393E-004;-1.980998087674379E-003;
2.425666666666667E+009;1.569001525640488E-001;-1.149926781654358E-001;6.098625017330051E-004;-2.068219473585486E-003;
2.425833333333334E+009;1.571134477853775E-001;-1.155223101377487E-001;5.285816150717437E-004;-2.034419681876898E-003;
2.426000000000000E+009;1.571504026651382E-001;-1.157967522740364E-001;5.198972066864371E-004;-1.811128458939493E-003;
2.426166666666667E+009;1.573597490787506E-001;-1.160830706357956E-001;5.218694568611682E-004;-1.957001630216837E-003;
2.426333333333334E+009;1.571699529886246E-001;-1.163598671555519E-001;4.215630178805441E-004;-1.902561984024942E-003;
2.426500000000000E+009;1.570357680320740E-001;-1.164606958627701E-001;4.598942759912461E-004;-1.923035946674645E-003;
2.426666666666667E+009;1.569756418466568E-001;-1.164795905351639E-001;5.075397202745080E-004;-1.897268346510828E-003;
2.426833333333334E+009;1.564624756574631E-001;-1.167517229914665E-001;4.237086686771363E-004;-1.818404067307711E-003;
2.427000000000000E+009;1.561377048492432E-001;-1.169471964240074E-001;3.751491312868893E-004;-1.957805128768086E-003;
2.427166666666667E+009;1.554126292467117E-001;-1.168871521949768E-001;2.554326783865690E-004;-1.776907360181212E-003;
2.427333333333334E+009;1.547928452491760E-001;-1.171068623661995E-001;3.677674394566566E-004;-1.780511345714331E-003;
2.427500000000000E+009;1.542423367500305E-001;-1.171772927045822E-001;1.831805275287479E-004;-1.819583005271852E-003;
2.427666666666667E+009;1.532373577356339E-001;-1.174324974417687E-001;2.251851838082075E-004;-1.883612712845206E-003;
2.427833333333334E+009;1.523676663637161E-001;-1.174990758299828E-001;1.332113606622443E-004;-1.780909136869013E-003;
