# Version 1.00
#
freq[Hz];re:Trc1_S11;im:Trc1_S11;re:Trc2_S21;im:Trc2_S21;
2.400000000000000E+009;1.561976075172424E-001;6.232670322060585E-002;-2.833695383742452E-003;6.129979738034308E-004;
2.400166666666667E+009;1.562260836362839E-001;6.051427498459816E-002;-3.010705346241593E-003;7.618421805091202E-004;
2.400333333333334E+009;1.562822908163071E-001;5.839230492711067E-002;-2.829380799084902E-003;8.411743328906596E-004;
2.400500000000000E+009;1.563103646039963E-001;5.652866885066032E-002;-2.786996308714151E-003;9.274627664126456E-004;
2.400666666666667E+009;1.563955098390579E-001;5.427027121186256E-002;-2.671021735295653E-003;9.502138127572835E-004;
2.400833333333334E+009;1.567464470863342E-001;5.222586914896965E-002;-2.626348286867142E-003;1.082768780179322E-003;
2.401000000000000E+009;1.570232659578323E-001;5.009745061397553E-002;-2.556069986894727E-003;1.349638798274100E-003;
2.401166666666667E+009;1.571381539106369E-001;4.786304384469986E-002;-2.322311978787184E-003;1.148012001067400E-003;
2.401333333333334E+009;1.573369801044464E-001;4.571482539176941E-002;-2.167986240237951E-003;1.283085555769503E-003;
2.401500000000000E+009;1.580468565225601E-001;4.347609728574753E-002;-2.167700789868832E-003;1.407387666404247E-003;
2.401666666666667E+009;1.585510075092316E-001;4.159907624125481E-002;-1.942836679518223E-003;1.504115527495742E-003;
2.401833333333334E+009;1.590416282415390E-001;3.925437107682228E-002;-1.776844845153391E-003;1.532580819912255E-003;
2.402000000000000E+009;1.595278233289719E-001;3.740826994180679E-002;-1.703169313259423E-003;1.599129987880588E-003;
2.402166666666667E+009;1.602195054292679E-001;3.536962345242500E-002;-1.690308912657201E-003;1.584853976964951E-003;
2.402333333333334E+009;1.609334051609039E-001;3.342929109930992E-002;-1.436227117665112E-003;1.582890632562339E-003;
2.402500000000000E+009;1.619290709495544E-001;3.166207298636437E-002;-1.092532649636269E-003;1.566428923979402E-003;
2.402666666666667E+009;1.628246158361435E-001;2.992632426321507E-002;-1.201851991936564E-003;1.584943151101470E-003;
2.402833333333334E+009;1.637373864650726E-001;2.823548763990402E-002;-9.874391835182905E-004;1.384895760565996E-003;
2.403000000000000E+009;1.645900309085846E-001;2.654668688774109E-002;-9.692821768112481E-004;1.585467136465013E-003;
2.403166666666667E+009;1.655622124671936E-001;2.521914988756180E-002;-8.417107164859772E-004;1.349568367004395E-003;
2.403333333333334E+009;1.665042936801910E-001;2.368719317018986E-002;-5.811310838907957E-004;1.182505744509399E-003;
2.403500000000000E+009;1.676194518804550E-001;2.232649736106396E-002;-5.023542325943708E-004;1.213385025039315E-003;
2.403666666666667E+009;1.686738431453705E-001;2.098371647298336E-002;-4.102908133063465E-004;1.078214147128165E-003;
2.403833333333334E+009;1.698454469442368E-001;1.979145407676697E-002;-5.375179462134838E-004;8.876138599589467E-004;
2.404000000000000E+009;1.707327216863632E-001;1.891800574958324E-002;-3.089938545599580E-004;8.804581011645496E-004;
2.404166666666667E+009;1.717932075262070E-001;1.783557608723640E-002;-2.874767233151943E-004;7.196164806373417E-004;
2.404333333333334E+009;1.729285269975662E-001;1.708941720426083E-002;-5.117657710798085E-004;6.951797986403108E-004;
2.404500000000000E+009;1.737361401319504E-001;1.600988768041134E-002;-1.919017377076671E-004;4.683143633883447E-004;
2.404666666666667E+009;1.747222840785980E-001;1.538026332855225E-002;-2.888876188080758E-004;5.189500516280532E-004;
2.404833333333334E+009;1.756246238946915E-001;1.485471054911614E-002;-2.541059511713684E-004;2.029160823440179E-004;
2.405000000000000E+009;1.765426993370056E-001;1.420068368315697E-002;-3.394563973415643E-004;2.310928102815524E-004;
2.405166666666667E+009;1.774560660123825E-001;1.371401362121105E-002;-2.530693600419909E-004;1.133117548306473E-004;
2.405333333333334E+009;1.781035661697388E-001;1.318091154098511E-002;-3.727361618075520E-004;7.596291834488511E-005;
2.405500000000000E+009;1.787019222974777E-001;1.299338694661856E-002;-3.974061110056937E-004;4.965183688909747E-005;
2.405666666666667E+009;1.793211847543716E-001;1.267226040363312E-002;-3.490255621727556E-004;-6.867936463095248E-005;
2.405833333333334E+009;1.797211915254593E-001;1.244137901812792E-002;-5.648370133712888E-004;-1.348668592981994E-004;
2.406000000000000E+009;1.803271621465683E-001;1.200132537633181E-002;-5.546795437112451E-004;-2.702072088140994E-004;
2.406166666666667E+009;1.805130392313004E-001;1.193439494818449E-002;-5.418489454314113E-004;-3.098819870501757E-004;
2.406333333333334E+009;1.809457838535309E-001;1.177885290235281E-002;-6.251109298318625E-004;-3.203018568456173E-004;
2.406500000000000E+009;1.810012161731720E-001;1.147656794637442E-002;-7.075345492921770E-004;-5.448861047625542E-004;
2.406666666666667E+009;1.810450404882431E-001;1.131216529756784E-002;-7.004778017289937E-004;-4.670710186474025E-004;
2.406833333333334E+009;1.811194568872452E-001;1.107062306255102E-002;-8.695081342011690E-004;-4.877645405940712E-004;
2.407000000000000E+009;1.811776459217072E-001;1.081121060997248E-002;-7.982145762071014E-004;-4.432438290677965E-004;
2.407166666666667E+009;1.811149716377258E-001;1.059971377253532E-002;-1.004003104753792E-003;-6.380312261171639E-004;
2.407333333333334E+009;1.806242316961289E-001;1.007280405610800E-002;-1.111048157326877E-003;-5.205994239076972E-004;
2.407500000000000E+009;1.803174763917923E-001;9.771377779543400E-003;-1.233769347891212E-003;-6.323598208837211E-004;
2.407666666666667E+009;1.800263226032257E-001;9.348796680569649E-003;-1.322710420936346E-003;-5.082133575342596E-004;
2.407833333333334E+009;1.794331222772598E-001;8.593700826168060E-003;-1.505129621364176E-003;-5.827390123158693E-004;
2.408000000000000E+009;1.789144128561020E-001;7.972799241542816E-003;-1.454178476706147E-003;-4.309062205720693E-004;
2.408166666666667E+009;1.782606095075607E-001;7.368081249296665E-003;-1.443227636627853E-003;-5.075497901998460E-004;
2.408333333333334E+009;1.779267042875290E-001;6.671955808997154E-003;-1.668099081143737E-003;-5.496022058650851E-004;
2.408500000000000E+009;1.769758313894272E-001;5.699087399989367E-003;-1.729802694171667E-003;-5.013243062421680E-004;
2.408666666666667E+009;1.764735579490662E-001;4.665726795792580E-003;-1.890651881694794E-003;-3.585932136047632E-004;
2.408833333333334E+009;1.755040585994721E-001;3.722944064065814E-003;-1.919954549521208E-003;-4.438246833160520E-004;
2.409000000000000E+009;1.747837364673615E-001;2.436020178720355E-003;-2.031371928751469E-003;-1.132105899159797E-004;
2.409166666666667E+009;1.740023195743561E-001;1.256197574548423E-003;-2.016466576606035E-003;-1.586052676429972E-004;
2.409333333333334E+009;1.733734011650085E-001;-1.135466445703059E-004;-2.070483285933733E-003;-2.284301008330658E-004;
2.409500000000000E+009;1.726180315017700E-001;-1.683436566963792E-003;-2.214024541899562E-003;-8.555370004614815E-005;
2.409666666666667E+009;1.717047542333603E-001;-3.063811222091317E-003;-2.243229420855641E-003;-1.353465777356178E-004;
2.409833333333334E+009;1.710941046476364E-001;-4.586426541209221E-003;-2.357738092541695E-003;5.403771137935109E-005;
2.410000000000000E+009;1.704543679952622E-001;-6.327135954052210E-003;-2.391137648373842E-003;1.228079636348411E-004;
2.410166666666667E+009;1.695594191551209E-001;-7.988138124346733E-003;-2.436362672597170E-003;1.454087032470852E-004;
2.410333333333334E+009;1.689874976873398E-001;-9.780698455870152E-003;-2.507560886442661E-003;1.859268668340519E-004;
2.410500000000000E+009;1.686089038848877E-001;-1.161962933838368E-002;-2.639634534716606E-003;4.224538861308247E-004;
2.410666666666667E+009;1.680842489004135E-001;-1.374091207981110E-002;-2.622392727062106E-003;3.746190923266113E-004;
2.410833333333334E+009;1.677027195692062E-001;-1.532365102320910E-002;-2.810231642797589E-003;5.828237044624984E-004;
2.411000000000000E+009;1.672114431858063E-001;-1.753783598542213E-002;-2.710919361561537E-003;5.468571325764060E-004;
2.411166666666667E+009;1.670058965682983E-001;-1.953731663525105E-002;-2.763290423899889E-003;7.781431777402759E-004;
2.411333333333334E+009;1.669489592313767E-001;-2.139176800847054E-002;-3.027899423614144E-003;8.789146086201072E-004;
2.411500000000000E+009;1.667098402976990E-001;-2.365237474441528E-002;-2.850000979378820E-003;1.010213978588581E-003;
2.411666666666667E+009;1.668374240398407E-001;-2.564188651740551E-002;-2.910889219492674E-003;1.144182635471225E-003;
2.411833333333334E+009;1.669687479734421E-001;-2.746894769370556E-002;-2.925201784819365E-003;1.194427139125764E-003;
2.412000000000000E+009;1.672352403402329E-001;-2.972348220646381E-002;-3.057887777686119E-003;1.381050213240087E-003;
2.412166666666667E+009;1.674296706914902E-001;-3.175389766693115E-002;-2.963287755846977E-003;1.677301712334156E-003;
2.412333333333334E+009;1.677398979663849E-001;-3.354315459728241E-002;-3.018040908500552E-003;1.801534672267735E-003;
2.412500000000000E+009;1.680048257112503E-001;-3.544582054018974E-002;-2.922863466665149E-003;2.038068836554885E-003;
2.412666666666667E+009;1.684921234846115E-001;-3.731282800436020E-002;-2.857872750610113E-003;2.106152474880219E-003;
2.412833333333334E+009;1.691275388002396E-001;-3.938863053917885E-002;-2.888975897803903E-003;2.219818066805601E-003;
2.413000000000000E+009;1.693949699401856E-001;-4.097646847367287E-002;-2.792120678350329E-003;2.443003002554178E-003;
2.413166666666667E+009;1.701268404722214E-001;-4.272000864148140E-002;-2.910574898123741E-003;2.556328196078539E-003;
2.413333333333334E+009;1.705581545829773E-001;-4.437217861413956E-002;-2.627693349495530E-003;2.793512772768736E-003;
2.413500000000000E+009;1.714235395193100E-001;-4.600871726870537E-002;-2.534296130761504E-003;3.038946539163590E-003;
2.413666666666667E+009;1.721075773239136E-001;-4.745898023247719E-002;-2.469797153025866E-003;3.080411115661264E-003;
2.413833333333334E+009;1.726095825433731E-001;-4.900951683521271E-002;-2.265067771077156E-003;3.163387067615986E-003;
2.414000000000000E+009;1.732732951641083E-001;-5.026608332991600E-002;-2.185094635933638E-003;3.358118468895555E-003;
2.414166666666667E+009;1.740783005952835E-001;-5.131819844245911E-002;-2.061643172055483E-003;3.517002100124955E-003;
2.414333333333334E+009;1.746122092008591E-001;-5.255353823304176E-002;-1.778747187927365E-003;3.691077465191484E-003;
2.414500000000000E+009;1.755278110504150E-001;-5.360267683863640E-002;-1.678399625234306E-003;3.554961178451777E-003;
2.414666666666667E+009;1.758999228477478E-001;-5.440399050712585E-002;-1.535718445666134E-003;3.703644964843988E-003;
2.414833333333334E+009;1.764247864484787E-001;-5.545467510819435E-002;-1.375495805405080E-003;3.811527276411653E-003;
2.415000000000000E+009;1.769667267799377E-001;-5.604735016822815E-002;-1.193149248138070E-003;3.920658025890589E-003;
2.415166666666667E+009;1.774116307497025E-001;-5.675615370273590E-002;-1.001786557026207E-003;3.975491505116224E-003;
2.415333333333334E+009;1.778655797243118E-001;-5.735199525952339E-002;-7.326917839236558E-004;3.866944694891572E-003;
2.415500000000000E+009;1.781453192234039E-001;-5.769048258662224E-002;-4.728524654638022E-004;4.002116620540619E-003;
2.415666666666667E+009;1.782998144626617E-001;-5.806225538253784E-002;-4.330635420046747E-004;3.954966086894274E-003;
2.415833333333334E+009;1.786110252141953E-001;-5.850682035088539E-002;-4.023525252705440E-005;3.803180996328592E-003;
2.416000000000000E+009;1.785636842250824E-001;-5.891571938991547E-002;-5.317022078088485E-005;4.007691983133555E-003;
2.416166666666667E+009;1.787122339010239E-001;-5.905338376760483E-002;2.077300159726292E-004;3.916778136044741E-003;
2.416333333333334E+009;1.787074357271195E-001;-5.914692208170891E-002;2.474139037076384E-004;3.813992720097303E-003;
2.416500000000000E+009;1.784843355417252E-001;-5.936213955283165E-002;5.462601548060775E-004;3.894448513165116E-003;
2.416666666666667E+009;1.782028377056122E-001;-5.939741432666779E-002;5.877651274204254E-004;3.691601799800992E-003;
2.416833333333334E+009;1.779229044914246E-001;-5.972724407911301E-002;8.872672915458679E-004;3.777398262172937E-003;
2.417000000000000E+009;1.772454082965851E-001;-5.983618274331093E-002;7.394668064080179E-004;3.709038253873587E-003;
2.417166666666667E+009;1.768063902854919E-001;-5.981227010488510E-002;9.545639040879905E-004;3.638988593593240E-003;
2.417333333333334E+009;1.761545091867447E-001;-5.999493971467018E-002;1.118264859542251E-003;3.537020646035671E-003;
2.417500000000000E+009;1.753070950508118E-001;-6.030251458287239E-002;1.206789165735245E-003;3.402769332751632E-003;
2.417666666666667E+009;1.746354401111603E-001;-6.034099310636520E-002;1.255256123840809E-003;3.354002023115754E-003;
2.417833333333334E+009;1.735790520906448E-001;-6.050019711256027E-002;1.419210224412382E-003;3.244484774768353E-003;
2.418000000000000E+009;1.724789887666702E-001;-6.085895374417305E-002;1.460205414332449E-003;3.178480779752135E-003;
2.418166666666667E+009;1.714742630720139E-001;-6.109213083982468E-002;1.598514267243445E-003;3.158386796712875E-003;
2.418333333333334E+009;1.705454438924789E-001;-6.156717985868454E-002;1.646052813157439E-003;2.993214176967740E-003;
2.418500000000000E+009;1.692708432674408E-001;-6.195921823382378E-002;1.641177921555936E-003;2.910909708589315E-003;
2.418666666666667E+009;1.681564301252365E-001;-6.252977997064591E-002;1.830929191783071E-003;2.773821819573641E-003;
2.418833333333334E+009;1.667065918445587E-001;-6.304311752319336E-002;1.873847446404398E-003;2.711265580728650E-003;
2.419000000000000E+009;1.654229909181595E-001;-6.352194398641586E-002;1.852780813351274E-003;2.572482684627175E-003;
2.419166666666667E+009;1.641851067543030E-001;-6.430359929800034E-002;1.858327887021005E-003;2.582968212664127E-003;
2.419333333333334E+009;1.627155542373657E-001;-6.508546322584152E-002;2.166630001738668E-003;2.454002154991031E-003;
2.419500000000000E+009;1.616041064262390E-001;-6.622089445590973E-002;2.147256396710873E-003;2.300161635503173E-003;
2.419666666666667E+009;1.603800803422928E-001;-6.716771423816681E-002;2.135139890015125E-003;2.443386474624276E-003;
2.419833333333334E+009;1.589996963739395E-001;-6.807282567024231E-002;2.039273735135794E-003;2.165029058232904E-003;
2.420000000000000E+009;1.579056382179260E-001;-6.931601464748383E-002;2.050195122137666E-003;2.121021738275886E-003;
2.420166666666667E+009;1.567894220352173E-001;-7.058565318584442E-002;2.207295736297965E-003;2.064088126644492E-003;
2.420333333333334E+009;1.555817425251007E-001;-7.187958806753159E-002;2.348503097891808E-003;1.924901269376278E-003;
2.420500000000000E+009;1.545409560203552E-001;-7.307842373847961E-002;2.300392836332321E-003;1.861612196080387E-003;
2.420666666666667E+009;1.536293923854828E-001;-7.455135136842728E-002;2.373001538217068E-003;1.915371511131525E-003;
2.420833333333334E+009;1.527360528707504E-001;-7.611421495676041E-002;2.319417893886566E-003;1.784132677130401E-003;
2.421000000000000E+009;1.518922150135040E-001;-7.774198800325394E-002;2.275634324178100E-003;1.667308970354497E-003;
2.421166666666667E+009;1.511812508106232E-001;-7.955142110586166E-002;2.305284142494202E-003;1.627576071768999E-003;
2.421333333333334E+009;1.505988836288452E-001;-8.109988272190094E-002;2.282503060996532E-003;1.309149316512048E-003;
2.421500000000000E+009;1.499077975749970E-001;-8.266933262348175E-002;2.168109407648444E-003;1.462823362089694E-003;
2.421666666666667E+009;1.495810747146606E-001;-8.444140106439591E-002;2.215322107076645E-003;1.144677749834955E-003;
2.421833333333334E+009;1.492124944925308E-001;-8.621657639741898E-002;2.352371346205473E-003;1.375754713080823E-003;
2.422000000000000E+009;1.489149183034897E-001;-8.795910328626633E-002;2.281638095155358E-003;1.196670462377369E-003;
2.422166666666667E+009;1.486418843269348E-001;-8.989459276199341E-002;2.347221365198493E-003;1.234026509337127E-003;
2.422333333333334E+009;1.486108452081680E-001;-9.160818904638290E-002;2.385661704465747E-003;1.061042188666761E-003;
2.422500000000000E+009;1.487156599760056E-001;-9.336017817258835E-002;2.306023612618446E-003;1.154733588919044E-003;
2.422666666666667E+009;1.485420614480972E-001;-9.509381651878357E-002;2.156376140192151E-003;9.791494812816382E-004;
2.422833333333334E+009;1.489677429199219E-001;-9.683741629123688E-002;2.325846580788493E-003;8.069533505477011E-004;
2.423000000000000E+009;1.490446180105209E-001;-9.853189438581467E-002;2.252647187560797E-003;9.021788137033582E-004;
2.423166666666667E+009;1.494696587324143E-001;-1.001917719841003E-001;2.217805013060570E-003;8.111984934657812E-004;
2.423333333333334E+009;1.499519050121307E-001;-1.016882061958313E-001;2.192588755860925E-003;6.674699252471328E-004;
2.423500000000000E+009;1.501871198415756E-001;-1.033382862806320E-001;2.241497859358788E-003;6.164116202853620E-004;
2.423666666666667E+009;1.505910456180573E-001;-1.048429757356644E-001;2.194359665736556E-003;7.167310686782002E-004;
2.423833333333334E+009;1.512869000434876E-001;-1.061648726463318E-001;2.250256482511759E-003;7.369938539341092E-004;
2.424000000000000E+009;1.516361236572266E-001;-1.074212417006493E-001;2.339936094358563E-003;6.494657136499882E-004;
2.424166666666667E+009;1.522653698921204E-001;-1.087415143847466E-001;2.178155351430178E-003;6.443231832236052E-004;
2.424333333333334E+009;1.528694629669190E-001;-1.099285259842873E-001;2.268015872687101E-003;5.220047896727920E-004;
2.424500000000000E+009;1.534834802150726E-001;-1.110283508896828E-001;2.134668873623014E-003;4.651361668948084E-004;
2.424666666666667E+009;1.540426015853882E-001;-1.119020059704781E-001;2.291261916980147E-003;4.781031457241625E-004;
2.424833333333334E+009;1.544940322637558E-001;-1.127833575010300E-001;2.229774370789528E-003;3.361555864103138E-004;
2.425000000000000E+009;1.551715582609177E-001;-1.137989908456802E-001;2.195539651438594E-003;4.660014237742871E-004;
2.425166666666667E+009;1.554730683565140E-001;-1.144624575972557E-001;2.165160374715924E-003;4.634087381418794E-004;
2.425333333333334E+009;1.559624522924423E-001;-1.150556728243828E-001;2.205822616815567E-003;3.134325670544058E-004;
2.425500000000000E+009;1.563329398632050E-001;-1.157709360122681E-001;2.234879415482283E-003;2.756175526883453E-004;
2.425666666666667E+009;1.565415412187576E-001;-1.162759214639664E-001;2.253232989460230E-003;2.247329393867403E-004;
2.425833333333334E+009;1.568351387977600E-001;-1.165965199470520E-001;2.225195523351431E-003;1.812230184441432E-004;
2.426000000000000E+009;1.569634228944778E-001;-1.170011907815933E-001;2.161730313673616E-003;1.218683828483336E-004;
2.426166666666667E+009;1.573424190282822E-001;-1.173252612352371E-001;2.108871936798096E-003;1.867336977738887E-004;
2.426333333333334E+009;1.573145538568497E-001;-1.174975857138634E-001;2.176928799599409E-003;1.745230838423595E-004;
2.426500000000000E+009;1.572706401348114E-001;-1.176662370562553E-001;2.113613765686750E-003;1.054929452948272E-004;
2.426666666666667E+009;1.572311073541641E-001;-1.176779791712761E-001;2.067897701635957E-003;9.041914745466784E-005;
2.426833333333334E+009;1.568731218576431E-001;-1.178894490003586E-001;2.073491225019097E-003;-4.825181167689152E-005;
2.427000000000000E+009;1.566112041473389E-001;-1.180507391691208E-001;1.931116683408618E-003;-1.220682243001647E-004;
2.427166666666667E+009;1.560129672288895E-001;-1.179233193397522E-001;2.025811700150371E-003;8.744249498704448E-005;
2.427333333333334E+009;1.554704159498215E-001;-1.179783642292023E-001;1.978235552087426E-003;-3.762046253541485E-005;
2.427500000000000E+009;1.549635082483292E-001;-1.180642545223236E-001;2.010257216170430E-003;-8.662805339554325E-005;
2.427666666666667E+009;1.542271077632904E-001;-1.182353049516678E-001;2.020804444327951E-003;-5.739136395277455E-005;
2.427833333333334E+009;1.531525850296021E-001;-1.182158738374710E-001;2.045736182481051E-003;-4.368514419184066E-005;
