# Version 1.00
#
freq[Hz];re:Trc1_S11;im:Trc1_S11;re:Trc2_S21;im:Trc2_S21;
2.400000000000000E+009;1.550262570381165E-001;1.067221611738205E-001;-5.024608224630356E-003;-3.533307462930679E-003;
2.400166666666667E+009;1.547230780124664E-001;1.043742597103119E-001;-5.274342373013496E-003;-3.469414310529828E-003;
2.400333333333334E+009;1.547701507806778E-001;1.019085943698883E-001;-5.400485359132290E-003;-3.530954942107201E-003;
2.400500000000000E+009;1.548430621623993E-001;9.912505745887756E-002;-5.560054909437895E-003;-3.445571055635810E-003;
2.400666666666667E+009;1.548906117677689E-001;9.673411399126053E-002;-5.838031880557537E-003;-3.157848957926035E-003;
2.400833333333334E+009;1.550155431032181E-001;9.390795230865479E-002;-6.054976023733616E-003;-3.093095263466239E-003;
2.401000000000000E+009;1.551413685083389E-001;9.109737724065781E-002;-6.203094031661749E-003;-3.047328907996416E-003;
2.401166666666667E+009;1.552603542804718E-001;8.830024302005768E-002;-6.464303471148014E-003;-2.629769267514348E-003;
2.401333333333334E+009;1.558344066143036E-001;8.553188294172287E-002;-6.641148589551449E-003;-2.541143214330077E-003;
2.401500000000000E+009;1.561032086610794E-001;8.256264030933380E-002;-6.868908181786537E-003;-2.342513063922525E-003;
2.401666666666667E+009;1.565495282411575E-001;8.003406971693039E-002;-6.894594058394432E-003;-2.001100219786167E-003;
2.401833333333334E+009;1.572039276361466E-001;7.728626579046249E-002;-7.120842114090920E-003;-1.756771933287382E-003;
2.402000000000000E+009;1.581143885850906E-001;7.444425672292709E-002;-7.317068055272102E-003;-1.591618987731636E-003;
2.402166666666667E+009;1.588246673345566E-001;7.200993597507477E-002;-7.317863870412111E-003;-1.358672394417226E-003;
2.402333333333334E+009;1.599448323249817E-001;6.928421556949616E-002;-7.428877986967564E-003;-1.148161129094660E-003;
2.402500000000000E+009;1.610314846038818E-001;6.674785912036896E-002;-7.578392047435045E-003;-5.579386488534510E-004;
2.402666666666667E+009;1.623619496822357E-001;6.450171023607254E-002;-7.507886271923780E-003;-5.225474014878273E-004;
2.402833333333334E+009;1.636825948953629E-001;6.202761083841324E-002;-7.656919304281473E-003;-2.718167088460177E-004;
2.403000000000000E+009;1.650712788105011E-001;5.972318723797798E-002;-7.787987124174833E-003;1.330665836576372E-004;
2.403166666666667E+009;1.668732464313507E-001;5.755475163459778E-002;-7.939539849758148E-003;3.464367473497987E-004;
2.403333333333334E+009;1.683290153741837E-001;5.551518127322197E-002;-7.954329252243042E-003;7.556477794423699E-004;
2.403500000000000E+009;1.700528711080551E-001;5.336806923151016E-002;-7.915915921330452E-003;1.113501610234380E-003;
2.403666666666667E+009;1.718121618032455E-001;5.150351673364639E-002;-8.119257166981697E-003;1.441707951016724E-003;
2.403833333333334E+009;1.734831184148789E-001;4.970744624733925E-002;-7.960490882396698E-003;1.917375600896776E-003;
2.404000000000000E+009;1.749335080385208E-001;4.792635142803192E-002;-7.896155118942261E-003;2.490969840437174E-003;
2.404166666666667E+009;1.767159849405289E-001;4.644157737493515E-002;-7.947606965899468E-003;2.763306489214301E-003;
2.404333333333334E+009;1.783999055624008E-001;4.498874023556709E-002;-7.752755191177130E-003;3.042124211788178E-003;
2.404500000000000E+009;1.800107061862946E-001;4.344772547483444E-002;-7.502248510718346E-003;3.623258555307984E-003;
2.404666666666667E+009;1.815674901008606E-001;4.251947999000549E-002;-7.295402698218823E-003;3.772192168980837E-003;
2.404833333333334E+009;1.830973625183106E-001;4.139215499162674E-002;-7.121249102056027E-003;4.128559492528439E-003;
2.405000000000000E+009;1.844839453697205E-001;4.080322757363319E-002;-6.868074182420969E-003;4.663839936256409E-003;
2.405166666666667E+009;1.859518885612488E-001;3.993992507457733E-002;-6.594417151063681E-003;4.819433670490980E-003;
2.405333333333334E+009;1.875249892473221E-001;3.952224925160408E-002;-6.468019913882017E-003;4.955786280333996E-003;
2.405500000000000E+009;1.887120306491852E-001;3.896376490592957E-002;-6.030882243067026E-003;5.264050792902708E-003;
2.405666666666667E+009;1.899642795324326E-001;3.859444707632065E-002;-5.847647786140442E-003;5.454732105135918E-003;
2.405833333333334E+009;1.910524964332581E-001;3.843565657734871E-002;-5.575369112193584E-003;5.666634533554316E-003;
2.406000000000000E+009;1.921018660068512E-001;3.819766268134117E-002;-5.301424767822027E-003;5.764829460531473E-003;
2.406166666666667E+009;1.930701285600662E-001;3.805372864007950E-002;-4.875346552580595E-003;6.045506335794926E-003;
2.406333333333334E+009;1.939546465873718E-001;3.798298910260201E-002;-4.491074476391077E-003;6.346786860376597E-003;
2.406500000000000E+009;1.946826279163361E-001;3.799194470047951E-002;-4.221772309392691E-003;6.468939129263163E-003;
2.406666666666667E+009;1.951894909143448E-001;3.801134973764420E-002;-4.084001295268536E-003;6.562698166817427E-003;
2.406833333333334E+009;1.957085877656937E-001;3.797932341694832E-002;-3.703984431922436E-003;6.648600567132235E-003;
2.407000000000000E+009;1.959921121597290E-001;3.810608014464378E-002;-3.312981221824884E-003;6.576439365744591E-003;
2.407166666666667E+009;1.963269710540772E-001;3.793775290250778E-002;-2.979404991492629E-003;6.499810609966517E-003;
2.407333333333334E+009;1.962672173976898E-001;3.798088431358337E-002;-2.884371671825647E-003;6.656016223132610E-003;
2.407500000000000E+009;1.963261365890503E-001;3.805067390203476E-002;-2.522513736039400E-003;6.571250036358833E-003;
2.407666666666667E+009;1.963893622159958E-001;3.797170147299767E-002;-2.136913593858481E-003;6.624666508287191E-003;
2.407833333333334E+009;1.958373188972473E-001;3.766498714685440E-002;-1.830325229093432E-003;6.617734208703041E-003;
2.408000000000000E+009;1.956585794687271E-001;3.749934583902359E-002;-1.660832902416587E-003;6.496290210634470E-003;
2.408166666666667E+009;1.950415223836899E-001;3.710457682609558E-002;-1.385293668136001E-003;6.444688420742750E-003;
2.408333333333334E+009;1.946440339088440E-001;3.661770001053810E-002;-1.200626953504980E-003;6.312473211437464E-003;
2.408500000000000E+009;1.938980519771576E-001;3.619122877717018E-002;-9.571831906214356E-004;6.469077430665493E-003;
2.408666666666667E+009;1.933161765336990E-001;3.555611148476601E-002;-8.253954583778977E-004;6.306135561317205E-003;
2.408833333333334E+009;1.924823820590973E-001;3.484725952148438E-002;-5.604296457022429E-004;6.411135196685791E-003;
2.409000000000000E+009;1.916252374649048E-001;3.386113792657852E-002;-3.955531865358353E-004;6.225509569048882E-003;
2.409166666666667E+009;1.906391680240631E-001;3.280458599328995E-002;-1.110888697439805E-004;5.948890931904316E-003;
2.409333333333334E+009;1.898183226585388E-001;3.183362260460854E-002;-9.106114157475531E-005;6.004426628351212E-003;
2.409500000000000E+009;1.886837780475617E-001;3.035258874297142E-002;1.331357907474740E-005;5.915649235248566E-003;
2.409666666666667E+009;1.876933574676514E-001;2.893365360796452E-002;2.742789511103183E-004;5.817762110382319E-003;
2.409833333333334E+009;1.865333020687103E-001;2.745756506919861E-002;3.535436408128589E-004;5.561599973589182E-003;
2.410000000000000E+009;1.856959462165833E-001;2.583356015384197E-002;4.044641973450780E-004;5.505904089659452E-003;
2.410166666666667E+009;1.846251189708710E-001;2.405214682221413E-002;6.527864607051015E-004;5.511313211172819E-003;
2.410333333333334E+009;1.836882680654526E-001;2.219082042574883E-002;8.403863757848740E-004;5.314842332154512E-003;
2.410500000000000E+009;1.827075332403183E-001;2.031388878822327E-002;8.783577941358089E-004;5.221539177000523E-003;
2.410666666666667E+009;1.817863434553146E-001;1.797062158584595E-002;1.030679908581078E-003;5.162241868674755E-003;
2.410833333333334E+009;1.810085326433182E-001;1.575488038361073E-002;9.851130889728665E-004;4.947375506162643E-003;
2.411000000000000E+009;1.802484840154648E-001;1.358485780656338E-002;1.056675333529711E-003;4.942976869642735E-003;
2.411166666666667E+009;1.797140985727310E-001;1.145935710519552E-002;1.249710679985583E-003;4.812477156519890E-003;
2.411333333333334E+009;1.793919056653976E-001;8.904424495995045E-003;1.302491989918053E-003;4.722734447568655E-003;
2.411500000000000E+009;1.787276566028595E-001;6.530226208269596E-003;1.257847063243389E-003;4.656958859413862E-003;
2.411666666666667E+009;1.787417829036713E-001;4.097391385585070E-003;1.358437351882458E-003;4.665994551032782E-003;
2.411833333333334E+009;1.785359829664230E-001;1.798423938453198E-003;1.351016922853887E-003;4.510635044425726E-003;
2.412000000000000E+009;1.786492466926575E-001;-8.700641919858754E-004;1.441043918021023E-003;4.422422032803297E-003;
2.412166666666667E+009;1.786209642887116E-001;-3.089437494054437E-003;1.535941730253398E-003;4.285052884370089E-003;
2.412333333333334E+009;1.788847446441650E-001;-5.482165142893791E-003;1.538774464279413E-003;4.355999641120434E-003;
2.412500000000000E+009;1.794304549694061E-001;-7.929909974336624E-003;1.526250969618559E-003;4.285194445401430E-003;
2.412666666666667E+009;1.798244565725327E-001;-1.052249595522881E-002;1.678182277828455E-003;4.184447228908539E-003;
2.412833333333334E+009;1.805706918239594E-001;-1.281775813549757E-002;1.557911979034543E-003;4.073252435773611E-003;
2.413000000000000E+009;1.812552064657211E-001;-1.505997404456139E-002;1.535023562610149E-003;4.035409539937973E-003;
2.413166666666667E+009;1.821025013923645E-001;-1.716396585106850E-002;1.602709060534835E-003;4.104699008166790E-003;
2.413333333333334E+009;1.831027865409851E-001;-1.941303722560406E-002;1.632045255973935E-003;4.231717437505722E-003;
2.413500000000000E+009;1.839163899421692E-001;-2.177074179053307E-002;1.610501902177930E-003;4.050611518323422E-003;
2.413666666666667E+009;1.851333975791931E-001;-2.383511140942574E-002;1.714184647426009E-003;4.345530178397894E-003;
2.413833333333334E+009;1.861683577299118E-001;-2.570318803191185E-002;1.764088287018240E-003;4.411336965858936E-003;
2.414000000000000E+009;1.872820407152176E-001;-2.772947028279305E-002;1.886003417894244E-003;4.550473298877478E-003;
2.414166666666667E+009;1.885028034448624E-001;-2.941744774580002E-002;1.994144171476364E-003;4.410264547914267E-003;
2.414333333333334E+009;1.894911527633667E-001;-3.148299455642700E-002;2.093764021992683E-003;4.592170473188162E-003;
2.414500000000000E+009;1.907433420419693E-001;-3.273101523518562E-002;2.314278623089194E-003;4.370819311589003E-003;
2.414666666666667E+009;1.919134110212326E-001;-3.428474813699722E-002;2.352434908971191E-003;4.411755595356226E-003;
2.414833333333334E+009;1.931341439485550E-001;-3.554531559348106E-002;2.674701390787959E-003;4.465420264750719E-003;
2.415000000000000E+009;1.941182464361191E-001;-3.687458112835884E-002;2.711449982598424E-003;4.572744946926832E-003;
2.415166666666667E+009;1.953584253787994E-001;-3.788385540246964E-002;3.149941330775619E-003;4.469129722565413E-003;
2.415333333333334E+009;1.963420510292053E-001;-3.880273923277855E-002;3.129628486931324E-003;4.303146153688431E-003;
2.415500000000000E+009;1.974429041147232E-001;-3.953999653458595E-002;3.397990018129349E-003;4.231713712215424E-003;
2.415666666666667E+009;1.984527707099915E-001;-4.026313498616219E-002;3.432285273447633E-003;4.301038570702076E-003;
2.415833333333334E+009;1.992786526679993E-001;-4.090551286935806E-002;3.705305978655815E-003;4.321365617215633E-003;
2.416000000000000E+009;1.999461948871613E-001;-4.145327582955360E-002;3.712145145982504E-003;4.208757076412439E-003;
2.416166666666667E+009;2.006939053535461E-001;-4.204150289297104E-002;3.922685049474239E-003;4.093393683433533E-003;
2.416333333333334E+009;2.013631612062454E-001;-4.229272902011871E-002;4.225028678774834E-003;3.947242163121700E-003;
2.416500000000000E+009;2.017078101634979E-001;-4.251157864928246E-002;4.207196179777384E-003;3.942714538425207E-003;
2.416666666666667E+009;2.019473612308502E-001;-4.279298707842827E-002;4.533107392489910E-003;3.806021064519882E-003;
2.416833333333334E+009;2.022056430578232E-001;-4.279546439647675E-002;4.733525216579437E-003;3.671954153105617E-003;
2.417000000000000E+009;2.021111398935318E-001;-4.301363602280617E-002;4.965270403772593E-003;3.539109136909246E-003;
2.417166666666667E+009;2.019081860780716E-001;-4.298587888479233E-002;5.190984345972538E-003;3.423759480938315E-003;
2.417333333333334E+009;2.016303837299347E-001;-4.278777912259102E-002;5.281595513224602E-003;3.231802256777883E-003;
2.417500000000000E+009;2.014000564813614E-001;-4.279318824410439E-002;5.457444116473198E-003;2.757285023108125E-003;
2.417666666666667E+009;2.006885409355164E-001;-4.261372610926628E-002;5.453520454466343E-003;2.667353488504887E-003;
2.417833333333334E+009;2.003379613161087E-001;-4.240739345550537E-002;5.717042367905378E-003;2.431219443678856E-003;
2.418000000000000E+009;1.994312852621079E-001;-4.219387099146843E-002;5.796694662421942E-003;2.259033732116222E-003;
2.418166666666667E+009;1.987414062023163E-001;-4.206149652600288E-002;5.576089024543762E-003;2.132472349330783E-003;
2.418333333333334E+009;1.978130936622620E-001;-4.198754578828812E-002;5.939115770161152E-003;1.676989835686982E-003;
2.418500000000000E+009;1.966983973979950E-001;-4.205521941184998E-002;5.915752146393061E-003;1.528009423054755E-003;
2.418666666666667E+009;1.957605630159378E-001;-4.189699515700340E-002;5.797266028821468E-003;1.493423245847225E-003;
2.418833333333334E+009;1.945741772651672E-001;-4.198744148015976E-002;5.723329726606607E-003;1.218682155013084E-003;
2.419000000000000E+009;1.932901442050934E-001;-4.237434640526772E-002;5.857115611433983E-003;9.937118738889694E-004;
2.419166666666667E+009;1.920552998781204E-001;-4.269658774137497E-002;5.901765543967485E-003;9.762228582985699E-004;
2.419333333333334E+009;1.906701922416687E-001;-4.319958016276360E-002;5.949131678789854E-003;7.452918798662722E-004;
2.419500000000000E+009;1.891569942235947E-001;-4.363591969013214E-002;5.780163221061230E-003;5.831160233356059E-004;
2.419666666666667E+009;1.875987499952316E-001;-4.441255703568459E-002;5.913699045777321E-003;4.422671918291599E-004;
2.419833333333334E+009;1.859425157308579E-001;-4.502724483609200E-002;5.814600735902786E-003;2.683519560378045E-004;
2.420000000000000E+009;1.845237612724304E-001;-4.593995958566666E-002;5.910681560635567E-003;1.645187876420096E-004;
2.420166666666667E+009;1.830161213874817E-001;-4.682377353310585E-002;5.998231936246157E-003;-6.212702282937244E-005;
2.420333333333334E+009;1.812302470207214E-001;-4.807640612125397E-002;6.071704905480146E-003;-1.292803790420294E-004;
2.420500000000000E+009;1.797704398632050E-001;-4.945963248610497E-002;6.023725494742394E-003;-4.231719067320228E-004;
2.420666666666667E+009;1.780627816915512E-001;-5.054024979472160E-002;5.956504959613085E-003;-7.126170094124973E-004;
2.420833333333334E+009;1.766038537025452E-001;-5.186836794018745E-002;6.124907638877630E-003;-8.166156476363540E-004;
2.421000000000000E+009;1.750085353851318E-001;-5.351585522294045E-002;6.061892025172710E-003;-1.009243424050510E-003;
2.421166666666667E+009;1.736339479684830E-001;-5.517442896962166E-002;5.993667524307966E-003;-1.288711093366146E-003;
2.421333333333334E+009;1.721903234720230E-001;-5.675652623176575E-002;6.036669947206974E-003;-1.582519733346999E-003;
2.421500000000000E+009;1.709496974945068E-001;-5.865269899368286E-002;5.962941329926252E-003;-1.830509398132563E-003;
2.421666666666667E+009;1.697798520326614E-001;-6.048396229743958E-002;5.918974056839943E-003;-1.947237062267959E-003;
2.421833333333334E+009;1.685286760330200E-001;-6.229400262236595E-002;5.733210127800703E-003;-2.341513987630606E-003;
2.422000000000000E+009;1.675126254558563E-001;-6.413637101650238E-002;5.622925236821175E-003;-2.462005708366633E-003;
2.422166666666667E+009;1.668459475040436E-001;-6.623168289661408E-002;5.546628963202238E-003;-2.647500950843096E-003;
2.422333333333334E+009;1.657822281122208E-001;-6.834727525711060E-002;5.313332658261061E-003;-2.917525591328740E-003;
2.422500000000000E+009;1.649231016635895E-001;-7.013010978698731E-002;5.311134736984968E-003;-3.025930142030120E-003;
2.422666666666667E+009;1.641862392425537E-001;-7.225949317216873E-002;5.054770968854427E-003;-3.215958364307880E-003;
2.422833333333334E+009;1.638900935649872E-001;-7.431602478027344E-002;4.986746236681938E-003;-3.320187795907259E-003;
2.423000000000000E+009;1.635277867317200E-001;-7.627976685762405E-002;4.782339092344046E-003;-3.659000154584646E-003;
2.423166666666667E+009;1.631429493427277E-001;-7.833030819892883E-002;4.536455031484366E-003;-3.626963123679161E-003;
2.423333333333334E+009;1.629133373498917E-001;-8.014875650405884E-002;4.341915715485811E-003;-3.797227516770363E-003;
2.423500000000000E+009;1.628090739250183E-001;-8.194354921579361E-002;4.178165458142757E-003;-4.006287548691034E-003;
2.423666666666667E+009;1.628505140542984E-001;-8.382059633731842E-002;3.908914979547262E-003;-3.962204325944185E-003;
2.423833333333334E+009;1.628225296735764E-001;-8.540769666433334E-002;3.727473551407456E-003;-4.131958819925785E-003;
2.424000000000000E+009;1.629310995340347E-001;-8.726517856121063E-002;3.510218812152743E-003;-4.244282376021147E-003;
2.424166666666667E+009;1.629456281661987E-001;-8.880320936441422E-002;3.392706159502268E-003;-4.115796647965908E-003;
2.424333333333334E+009;1.631442606449127E-001;-9.022582322359085E-002;3.050519386306405E-003;-4.252019803971052E-003;
2.424500000000000E+009;1.635504215955734E-001;-9.197115898132324E-002;2.868508920073509E-003;-4.246889613568783E-003;
2.424666666666667E+009;1.637574583292007E-001;-9.324531257152557E-002;2.880619606003165E-003;-4.582312423735857E-003;
2.424833333333334E+009;1.643132567405701E-001;-9.445233643054962E-002;2.717730123549700E-003;-4.391316324472427E-003;
2.425000000000000E+009;1.648250967264175E-001;-9.569767862558365E-002;2.406432060524821E-003;-4.426445811986923E-003;
2.425166666666667E+009;1.649263650178909E-001;-9.671194106340408E-002;2.358417259529233E-003;-4.438649863004684E-003;
2.425333333333334E+009;1.653628498315811E-001;-9.750068187713623E-002;2.049428177997470E-003;-4.335950128734112E-003;
2.425500000000000E+009;1.658583879470825E-001;-9.865519404411316E-002;2.147911116480827E-003;-4.404407460242510E-003;
2.425666666666667E+009;1.660952121019363E-001;-9.934840351343155E-002;1.914719003252685E-003;-4.395397379994392E-003;
2.425833333333334E+009;1.664168238639832E-001;-1.000711172819138E-001;1.843831269070506E-003;-4.341705236583948E-003;
2.426000000000000E+009;1.667838543653488E-001;-1.004731953144074E-001;1.743702683597803E-003;-4.412503913044930E-003;
2.426166666666667E+009;1.672335714101791E-001;-1.008857935667038E-001;1.579827279783785E-003;-4.408115055412054E-003;
2.426333333333334E+009;1.673397570848465E-001;-1.014788895845413E-001;1.486784312874079E-003;-4.422500729560852E-003;
2.426500000000000E+009;1.676755696535111E-001;-1.016805991530418E-001;1.361237256787717E-003;-4.347442649304867E-003;
2.426666666666667E+009;1.678365916013718E-001;-1.020067930221558E-001;1.295587862841785E-003;-4.380650352686644E-003;
2.426833333333334E+009;1.680917441844940E-001;-1.022669002413750E-001;1.200383878313005E-003;-4.296114668250084E-003;
2.427000000000000E+009;1.681509017944336E-001;-1.024260148406029E-001;1.155204605311155E-003;-4.391785711050034E-003;
2.427166666666667E+009;1.681344211101532E-001;-1.025897562503815E-001;1.055972417816520E-003;-4.358573351055384E-003;
2.427333333333334E+009;1.679469048976898E-001;-1.028807312250137E-001;8.411628659814596E-004;-4.368497524410486E-003;
2.427500000000000E+009;1.677144765853882E-001;-1.030460372567177E-001;7.138116052374244E-004;-4.309791140258312E-003;
2.427666666666667E+009;1.673141419887543E-001;-1.030983850359917E-001;5.910889012739062E-004;-4.293484147638083E-003;
2.427833333333334E+009;1.670276075601578E-001;-1.032686978578568E-001;6.927407230250537E-004;-4.435386043041945E-003;
