# Version 1.00
#
freq[Hz];re:Trc1_S11;im:Trc1_S11;re:Trc2_S21;im:Trc2_S21;
2.400000000000000E+009;1.581065058708191E-001;6.194327399134636E-002;-4.361944738775492E-003;2.944144187495112E-003;
2.400166666666667E+009;1.580449491739273E-001;6.046425551176071E-002;-3.997061867266893E-003;3.065247554332018E-003;
2.400333333333334E+009;1.577875912189484E-001;5.851762741804123E-002;-4.147196188569069E-003;3.285956801846623E-003;
2.400500000000000E+009;1.579576283693314E-001;5.670835077762604E-002;-3.820154583081603E-003;3.425100352615118E-003;
2.400666666666667E+009;1.579664498567581E-001;5.475245043635368E-002;-3.855022368952632E-003;3.458342747762799E-003;
2.400833333333334E+009;1.579667478799820E-001;5.279388278722763E-002;-3.576689865440130E-003;3.517593722790480E-003;
2.401000000000000E+009;1.580542773008347E-001;5.081625282764435E-002;-3.638738300651312E-003;3.807398723438382E-003;
2.401166666666667E+009;1.582498848438263E-001;4.872940108180046E-002;-3.435597289353609E-003;3.803340252488852E-003;
2.401333333333334E+009;1.585061848163605E-001;4.676562547683716E-002;-3.288182429969311E-003;3.919929265975952E-003;
2.401500000000000E+009;1.589742451906204E-001;4.461111873388290E-002;-3.232941497117281E-003;3.921799361705780E-003;
2.401666666666667E+009;1.591353714466095E-001;4.266239330172539E-002;-3.115096362307668E-003;4.228299017995596E-003;
2.401833333333334E+009;1.596098840236664E-001;4.074560478329659E-002;-2.936581615358591E-003;4.276275169104338E-003;
2.402000000000000E+009;1.599240154027939E-001;3.872461989521980E-002;-2.795385429635644E-003;4.575735889375210E-003;
2.402166666666667E+009;1.604689359664917E-001;3.677443414926529E-002;-2.561104251071811E-003;4.568529315292835E-003;
2.402333333333334E+009;1.609107404947281E-001;3.497491031885147E-002;-2.515112515538931E-003;4.861391149461269E-003;
2.402500000000000E+009;1.618870347738266E-001;3.311330825090408E-002;-2.284973626956344E-003;4.894122481346130E-003;
2.402666666666667E+009;1.625207364559174E-001;3.160762414336205E-002;-2.166724065318704E-003;5.125103052705526E-003;
2.402833333333334E+009;1.632769107818604E-001;2.987617999315262E-002;-2.109894528985024E-003;5.162244196981192E-003;
2.403000000000000E+009;1.640175729990006E-001;2.821308560669422E-002;-1.772291609086096E-003;5.178260151296854E-003;
2.403166666666667E+009;1.648482382297516E-001;2.678261324763298E-002;-1.669814693741500E-003;5.301123484969139E-003;
2.403333333333334E+009;1.659062951803207E-001;2.530929818749428E-002;-1.417285297065973E-003;5.404132883995771E-003;
2.403500000000000E+009;1.666487455368042E-001;2.376285940408707E-002;-1.048658159561455E-003;5.494460463523865E-003;
2.403666666666667E+009;1.676901876926422E-001;2.239776030182838E-002;-7.456130697391927E-004;5.584333091974258E-003;
2.403833333333334E+009;1.687392890453339E-001;2.109129540622234E-002;-7.078532362356782E-004;5.721784196794033E-003;
2.404000000000000E+009;1.696441620588303E-001;1.991882547736168E-002;-4.493065644055605E-004;5.561502184718847E-003;
2.404166666666667E+009;1.705553382635117E-001;1.884051784873009E-002;-3.080257738474757E-004;5.769941490143538E-003;
2.404333333333334E+009;1.713770776987076E-001;1.786742359399796E-002;8.853316830936819E-005;5.696956999599934E-003;
2.404500000000000E+009;1.723864674568176E-001;1.666761003434658E-002;4.310115473344922E-004;5.718871951103210E-003;
2.404666666666667E+009;1.732427328824997E-001;1.593823544681072E-002;6.085701170377433E-004;5.554742179811001E-003;
2.404833333333334E+009;1.741236597299576E-001;1.515178475528956E-002;9.048235369846225E-004;5.706139840185642E-003;
2.405000000000000E+009;1.749868243932724E-001;1.433661766350269E-002;1.129046897403896E-003;5.671596154570580E-003;
2.405166666666667E+009;1.756925582885742E-001;1.363935507833958E-002;1.393542625010014E-003;5.594213958829641E-003;
2.405333333333334E+009;1.763908714056015E-001;1.295978855341673E-002;1.526769716292620E-003;5.656046327203512E-003;
2.405500000000000E+009;1.771905720233917E-001;1.252663228660822E-002;1.905696000903845E-003;5.384227260947228E-003;
2.405666666666667E+009;1.779465228319168E-001;1.217704359441996E-002;2.048088936135173E-003;5.297851748764515E-003;
2.405833333333334E+009;1.783468574285507E-001;1.171217206865549E-002;2.496429253369570E-003;5.160239525139332E-003;
2.406000000000000E+009;1.789146512746811E-001;1.109284162521362E-002;2.717176452279091E-003;5.169848911464214E-003;
2.406166666666667E+009;1.792558878660202E-001;1.096061989665031E-002;2.903807675465941E-003;5.161643028259277E-003;
2.406333333333334E+009;1.798148006200790E-001;1.056046131998301E-002;3.204706124961376E-003;4.766336176544428E-003;
2.406500000000000E+009;1.800855249166489E-001;1.010043080896139E-002;3.334587439894676E-003;4.768048878759146E-003;
2.406666666666667E+009;1.801086515188217E-001;9.864676743745804E-003;3.609882201999426E-003;4.771034233272076E-003;
2.406833333333334E+009;1.804099529981613E-001;9.482720866799355E-003;3.667096141725779E-003;4.387216642498970E-003;
2.407000000000000E+009;1.803572326898575E-001;9.207298979163170E-003;3.920883405953646E-003;4.124793224036694E-003;
2.407166666666667E+009;1.804953217506409E-001;8.843068033456802E-003;4.164816346019507E-003;3.789824433624744E-003;
2.407333333333334E+009;1.802632957696915E-001;8.361861109733582E-003;4.320269450545311E-003;3.609038889408112E-003;
2.407500000000000E+009;1.801684796810150E-001;7.917121052742004E-003;4.411834292113781E-003;3.441954264417291E-003;
2.407666666666667E+009;1.799392998218536E-001;7.480969186872244E-003;4.396297968924046E-003;3.278801450505853E-003;
2.407833333333334E+009;1.794778555631638E-001;6.715088151395321E-003;4.564177244901657E-003;2.972366521134973E-003;
2.408000000000000E+009;1.792573481798172E-001;6.205447949469090E-003;4.667866509407759E-003;2.766961464658380E-003;
2.408166666666667E+009;1.787107586860657E-001;5.699099041521549E-003;4.854120314121246E-003;2.418761607259512E-003;
2.408333333333334E+009;1.783816218376160E-001;4.855240229517222E-003;4.892204422503710E-003;2.218439243733883E-003;
2.408500000000000E+009;1.776891946792603E-001;4.026273265480995E-003;4.886890761554241E-003;1.924225012771785E-003;
2.408666666666667E+009;1.772003620862961E-001;3.124811220914125E-003;4.903525114059448E-003;1.787462970241904E-003;
2.408833333333334E+009;1.764577925205231E-001;2.117726486176252E-003;4.996984265744686E-003;1.484576263464987E-003;
2.409000000000000E+009;1.758579760789871E-001;1.117899897508323E-003;5.048086401075125E-003;1.260050456039608E-003;
2.409166666666667E+009;1.753061413764954E-001;-1.003018915071152E-004;4.996816627681255E-003;1.071507460437715E-003;
2.409333333333334E+009;1.745960861444473E-001;-1.381748472340405E-003;4.889159463346005E-003;8.731428533792496E-004;
2.409500000000000E+009;1.739637851715088E-001;-2.796876244246960E-003;4.817031789571047E-003;6.689555593766272E-004;
2.409666666666667E+009;1.733949929475784E-001;-4.004732239991427E-003;4.816508386284113E-003;3.257567004766315E-004;
2.409833333333334E+009;1.725912094116211E-001;-5.445080809295178E-003;4.939795471727848E-003;3.660399233922362E-004;
2.410000000000000E+009;1.720829606056213E-001;-7.002372294664383E-003;4.835099447518587E-003;2.358129904678208E-006;
2.410166666666667E+009;1.715075373649597E-001;-8.481858298182488E-003;4.778127651661634E-003;-1.580358657520264E-004;
2.410333333333334E+009;1.708252429962158E-001;-1.024176180362701E-002;4.740418400615454E-003;-4.212714266031981E-004;
2.410500000000000E+009;1.705372333526611E-001;-1.185537036508322E-002;4.689479712396860E-003;-7.037181057967246E-004;
2.410666666666667E+009;1.697926372289658E-001;-1.387837622314692E-002;4.612120334059000E-003;-8.415899355895817E-004;
2.410833333333334E+009;1.694909781217575E-001;-1.536377891898155E-002;4.476651549339294E-003;-9.263829560950398E-004;
2.411000000000000E+009;1.691363453865051E-001;-1.721632294356823E-002;4.298365674912930E-003;-1.179430168122053E-003;
2.411166666666667E+009;1.688653379678726E-001;-1.914342679083347E-002;4.251069854944944E-003;-1.287556835450232E-003;
2.411333333333334E+009;1.685005426406860E-001;-2.104975096881390E-002;4.293289501219988E-003;-1.588352140970528E-003;
2.411500000000000E+009;1.683077812194824E-001;-2.315267175436020E-002;4.253291059285402E-003;-1.653922488912940E-003;
2.411666666666667E+009;1.683844327926636E-001;-2.498128823935986E-002;4.098684526979923E-003;-1.859684474766254E-003;
2.411833333333334E+009;1.682383865118027E-001;-2.680874802172184E-002;3.905209014192224E-003;-2.153533045202494E-003;
2.412000000000000E+009;1.684688478708267E-001;-2.899691835045815E-002;3.600985743105412E-003;-2.146915066987276E-003;
2.412166666666667E+009;1.683178991079330E-001;-3.081443719565868E-002;3.525346517562866E-003;-2.372812712565064E-003;
2.412333333333334E+009;1.688142120838165E-001;-3.251371905207634E-002;3.357192967087030E-003;-2.427855972200632E-003;
2.412500000000000E+009;1.689523011445999E-001;-3.436402976512909E-002;3.286603838205338E-003;-2.477962290868163E-003;
2.412666666666667E+009;1.691286712884903E-001;-3.637987375259399E-002;3.122841473668814E-003;-2.776481909677386E-003;
2.412833333333334E+009;1.695799231529236E-001;-3.822167962789536E-002;2.769116312265396E-003;-2.843888010829687E-003;
2.413000000000000E+009;1.698170453310013E-001;-3.997321426868439E-002;2.732274821028113E-003;-2.776953624561429E-003;
2.413166666666667E+009;1.703579276800156E-001;-4.166189581155777E-002;2.724845428019762E-003;-2.981283934786916E-003;
2.413333333333334E+009;1.707031279802322E-001;-4.332677274942398E-002;2.145499922335148E-003;-3.030268242582679E-003;
2.413500000000000E+009;1.712533831596375E-001;-4.489524662494659E-002;2.295495942234993E-003;-3.027008613571525E-003;
2.413666666666667E+009;1.717704683542252E-001;-4.647109657526016E-002;2.058154670521617E-003;-3.199456259608269E-003;
2.413833333333334E+009;1.722012013196945E-001;-4.793812334537506E-002;1.902927411720157E-003;-3.161404049023986E-003;
2.414000000000000E+009;1.725815832614899E-001;-4.941282793879509E-002;1.576473354361951E-003;-3.150997683405876E-003;
2.414166666666667E+009;1.732072085142136E-001;-5.045694485306740E-002;1.495097996667028E-003;-3.364483360201120E-003;
2.414333333333334E+009;1.737505197525024E-001;-5.177300423383713E-002;1.206844230182469E-003;-3.376462263986468E-003;
2.414500000000000E+009;1.744580268859863E-001;-5.282090976834297E-002;1.102439360693097E-003;-3.326083999127150E-003;
2.414666666666667E+009;1.747225821018219E-001;-5.379975587129593E-002;9.647122351452708E-004;-3.203005529940128E-003;
2.414833333333334E+009;1.751895546913147E-001;-5.489647015929222E-002;6.990777328610420E-004;-3.105292562395334E-003;
2.415000000000000E+009;1.755492687225342E-001;-5.568677559494972E-002;6.969871465116739E-004;-3.031963482499123E-003;
2.415166666666667E+009;1.758972555398941E-001;-5.639311671257019E-002;5.090421182103455E-004;-3.131711157038808E-003;
2.415333333333334E+009;1.764079332351685E-001;-5.708421021699905E-002;3.968281962443143E-004;-3.093957901000977E-003;
2.415500000000000E+009;1.767419129610062E-001;-5.781378224492073E-002;1.685783936409280E-004;-3.025451907888055E-003;
2.415666666666667E+009;1.768814772367477E-001;-5.831821635365486E-002;-9.151184713118710E-006;-2.789449878036976E-003;
2.415833333333334E+009;1.771578043699265E-001;-5.881569162011147E-002;-1.329404040006921E-004;-2.871559234336019E-003;
2.416000000000000E+009;1.770588308572769E-001;-5.919880419969559E-002;-1.334787812083960E-004;-2.633008407428861E-003;
2.416166666666667E+009;1.773408800363541E-001;-5.966132506728172E-002;-1.915639732033014E-004;-2.615742851048708E-003;
2.416333333333334E+009;1.771643310785294E-001;-5.990789458155632E-002;-3.241828526370227E-004;-2.634464763104916E-003;
2.416500000000000E+009;1.769655495882034E-001;-6.022919714450836E-002;-4.994299379177392E-004;-2.588832285255194E-003;
2.416666666666667E+009;1.768843531608582E-001;-6.049511581659317E-002;-5.697924643754959E-004;-2.312628086656332E-003;
2.416833333333334E+009;1.767255067825317E-001;-6.086557358503342E-002;-6.427190965041518E-004;-2.290688222274184E-003;
2.417000000000000E+009;1.761068999767304E-001;-6.106531247496605E-002;-7.280946010723710E-004;-2.200560411438346E-003;
2.417166666666667E+009;1.756835132837296E-001;-6.130136922001839E-002;-7.716479012742639E-004;-2.064547268673778E-003;
2.417333333333334E+009;1.750857532024384E-001;-6.141849234700203E-002;-8.807745180092752E-004;-2.089884132146835E-003;
2.417500000000000E+009;1.744813024997711E-001;-6.186383962631226E-002;-9.300255333073437E-004;-1.925888704136014E-003;
2.417666666666667E+009;1.739686727523804E-001;-6.204588338732719E-002;-1.027530757710338E-003;-1.866277074441314E-003;
2.417833333333334E+009;1.731472760438919E-001;-6.217740476131439E-002;-1.007861224934459E-003;-1.794773037545383E-003;
2.418000000000000E+009;1.721582710742950E-001;-6.255120784044266E-002;-1.025077654048801E-003;-1.702294917777181E-003;
2.418166666666667E+009;1.712279915809631E-001;-6.299787014722824E-002;-9.475373663008213E-004;-1.628096913918853E-003;
2.418333333333334E+009;1.705658435821533E-001;-6.336110830307007E-002;-1.024475204758346E-003;-1.584538724273443E-003;
2.418500000000000E+009;1.693817079067230E-001;-6.368614733219147E-002;-1.179888029582799E-003;-1.443084212951362E-003;
2.418666666666667E+009;1.684358119964600E-001;-6.436827778816223E-002;-1.038334565237165E-003;-1.439508399926126E-003;
2.418833333333334E+009;1.671620607376099E-001;-6.501583009958267E-002;-1.056087668985128E-003;-1.344328396953642E-003;
2.419000000000000E+009;1.658627837896347E-001;-6.557356566190720E-002;-1.161152264103293E-003;-1.293216831982136E-003;
2.419166666666667E+009;1.647692173719406E-001;-6.630399823188782E-002;-1.055041910149157E-003;-1.158825587481260E-003;
2.419333333333334E+009;1.634042114019394E-001;-6.682912260293961E-002;-1.132995705120266E-003;-1.230445341207087E-003;
2.419500000000000E+009;1.624413728713989E-001;-6.786401569843292E-002;-1.256248913705349E-003;-9.266872075386345E-004;
2.419666666666667E+009;1.613447070121765E-001;-6.885839253664017E-002;-1.067131175659597E-003;-1.028309692628682E-003;
2.419833333333334E+009;1.600060611963272E-001;-6.958101689815521E-002;-1.104526570998132E-003;-1.009136205539107E-003;
2.420000000000000E+009;1.591161787509918E-001;-7.066231220960617E-002;-1.113698352128267E-003;-8.332190336659551E-004;
2.420166666666667E+009;1.578869223594666E-001;-7.184245437383652E-002;-1.031016465276480E-003;-6.785534787923098E-004;
2.420333333333334E+009;1.570363789796829E-001;-7.301123440265656E-002;-1.199455815367401E-003;-7.009749533608556E-004;
2.420500000000000E+009;1.560255289077759E-001;-7.424300163984299E-002;-1.126285758800805E-003;-5.839869845658541E-004;
2.420666666666667E+009;1.549829542636871E-001;-7.554202526807785E-002;-1.060362672433257E-003;-4.488306585699320E-004;
2.420833333333334E+009;1.541092991828919E-001;-7.689090073108673E-002;-9.729018202051520E-004;-5.000731325708330E-004;
2.421000000000000E+009;1.532524526119232E-001;-7.830773293972015E-002;-1.013249508105218E-003;-3.352490602992475E-004;
2.421166666666667E+009;1.524767279624939E-001;-7.994695007801056E-002;-9.685858967714012E-004;-4.375957942102104E-004;
2.421333333333334E+009;1.519406288862228E-001;-8.147772401571274E-002;-1.005663303658366E-003;-4.315031401347369E-004;
2.421500000000000E+009;1.511259526014328E-001;-8.287587761878967E-002;-9.367077727802098E-004;-4.457760078366846E-004;
2.421666666666667E+009;1.509233117103577E-001;-8.469796925783157E-002;-9.166783420369029E-004;-3.393673396203667E-004;
2.421833333333334E+009;1.503868699073792E-001;-8.631440252065659E-002;-8.940320112742484E-004;-2.364327665418387E-004;
2.422000000000000E+009;1.501330435276032E-001;-8.793658763170242E-002;-7.186718285083771E-004;-2.785672259051353E-004;
2.422166666666667E+009;1.497041881084442E-001;-8.976718783378601E-002;-7.907873950898647E-004;-2.852648613043129E-004;
2.422333333333334E+009;1.497250944375992E-001;-9.127255529165268E-002;-6.879864376969636E-004;-8.097097452264279E-005;
2.422500000000000E+009;1.495043188333511E-001;-9.291476011276245E-002;-7.936140755191445E-004;-1.682849688222632E-004;
2.422666666666667E+009;1.494082510471344E-001;-9.454276412725449E-002;-7.351008243858814E-004;-1.128556250478141E-004;
2.422833333333334E+009;1.496578007936478E-001;-9.632216393947601E-002;-6.975063006393611E-004;-1.758182625053451E-004;
2.423000000000000E+009;1.497160643339157E-001;-9.799227863550186E-002;-5.149329663254321E-004;-3.714640843099915E-005;
2.423166666666667E+009;1.500798910856247E-001;-9.961032122373581E-002;-6.865230971015990E-004;1.473578449804336E-004;
2.423333333333334E+009;1.503864526748657E-001;-1.009315848350525E-001;-6.464294274337590E-004;-5.787155896541663E-005;
2.423500000000000E+009;1.504598557949066E-001;-1.026148721575737E-001;-5.180276348255575E-004;6.672160816378892E-005;
2.423666666666667E+009;1.506642699241638E-001;-1.040455922484398E-001;-5.217397119849920E-004;-1.875375346571673E-005;
2.423833333333334E+009;1.513557881116867E-001;-1.056358888745308E-001;-3.504320338834077E-004;-5.391048034653068E-005;
2.424000000000000E+009;1.517153531312943E-001;-1.068295389413834E-001;-4.610089235939086E-004;1.609812461538240E-004;
2.424166666666667E+009;1.519909352064133E-001;-1.081412360072136E-001;-3.874608373735100E-004;2.424920239718631E-004;
2.424333333333334E+009;1.525921225547791E-001;-1.091805249452591E-001;-4.903001245111227E-004;5.430636156233959E-005;
2.424500000000000E+009;1.530727148056030E-001;-1.105671674013138E-001;-3.704169066622853E-004;2.018234226852655E-004;
2.424666666666667E+009;1.536896079778671E-001;-1.113357320427895E-001;-2.837328065652400E-004;2.282677742186934E-004;
2.424833333333334E+009;1.539261788129807E-001;-1.123918741941452E-001;-3.256483469158411E-004;1.635383669054136E-004;
2.425000000000000E+009;1.544280499219894E-001;-1.134475544095039E-001;-3.223420062568039E-004;1.332578831352294E-004;
2.425166666666667E+009;1.546147465705872E-001;-1.141630485653877E-001;-2.473371860105544E-004;2.311139978701249E-004;
2.425333333333334E+009;1.551363170146942E-001;-1.148281842470169E-001;-1.011451677186415E-004;1.770935195963830E-004;
2.425500000000000E+009;1.554162651300430E-001;-1.156957522034645E-001;-1.546494459034875E-004;1.908999547595158E-004;
2.425666666666667E+009;1.556416004896164E-001;-1.162399649620056E-001;-1.576068316353485E-004;1.727984345052391E-004;
2.425833333333334E+009;1.558636277914047E-001;-1.167205274105072E-001;1.158609957201406E-004;3.610050189308822E-004;
2.426000000000000E+009;1.560200303792954E-001;-1.172232329845429E-001;3.025124715350103E-005;2.232560364063829E-004;
2.426166666666667E+009;1.562496572732925E-001;-1.176573708653450E-001;9.859343117568642E-005;1.053477753885090E-004;
2.426333333333334E+009;1.561835110187531E-001;-1.179951131343842E-001;1.620197726879269E-004;2.372307062614709E-004;
2.426500000000000E+009;1.561777293682098E-001;-1.182783842086792E-001;2.350874419789761E-004;1.045752724166960E-004;
2.426666666666667E+009;1.561000943183899E-001;-1.183396056294441E-001;1.302572782151401E-004;5.055095607531257E-005;
2.426833333333334E+009;1.558222770690918E-001;-1.185691878199577E-001;1.946836564457044E-004;1.503615494584665E-004;
2.427000000000000E+009;1.554985344409943E-001;-1.188755258917809E-001;2.750950516201556E-004;-8.980055281426758E-005;
2.427166666666667E+009;1.551695764064789E-001;-1.188940629363060E-001;3.153519646730274E-004;1.790201495168731E-004;
2.427333333333334E+009;1.546227484941483E-001;-1.190835162997246E-001;2.113932132488117E-004;1.063479976437520E-005;
2.427500000000000E+009;1.541509032249451E-001;-1.191127449274063E-001;3.944980853702873E-004;-1.359857706120238E-004;
2.427666666666667E+009;1.533868312835693E-001;-1.193453818559647E-001;4.778905713465065E-004;-1.588198356330395E-004;
