# Hz S RI R 50
2400000000.0000000000 0.169246003031730707366619981258 0.045972350984811782836914062500 -0.004189766477793455123901367188 -0.003030295018106698989868164062 0 0 0 0 
2400166666.6666665077 0.170209884643554687500000000000 0.045095395296812057495117187500 -0.004115204792469739913940429688 -0.002816566731780767007115029443 0 0 0 0 
2400333333.3333334923 0.171209216117858886718750000000 0.043851871043443679809570312500 -0.004137842450290918350219726562 -0.002711096778512001037597656250 0 0 0 0 
2400500000.0000000000 0.172336295247077886383380018742 0.043044444173574447631835937500 -0.004168365150690078735351562500 -0.002559896791353822188136435400 0 0 0 0 
2400666666.6666665077 0.173116251826286288162393134371 0.041999153792858116840402971093 -0.004287357442080974578857421875 -0.002365371910855174064636230469 0 0 0 0 
2400833333.3333334923 0.174063622951507596114950615629 0.041297111660242080688476562500 -0.004239495377987623214721679688 -0.002225389471277595000026083838 0 0 0 0 
2401000000.0000000000 0.174815163016319302657919365629 0.040375951677560813213307966407 -0.004111798480153083801269531250 -0.002062603831291199164149618994 0 0 0 0 
2401166666.6666665077 0.175767645239829989334268134371 0.039666883647441857074777971093 -0.004240070004016160964965820312 -0.001987439114600419998168945312 0 0 0 0 
2401333333.3333334923 0.176344320178031893631143134371 0.039001520723104476928710937500 -0.004142156336456537246704101562 -0.001813448034226893944981240381 0 0 0 0 
2401500000.0000000000 0.177384749054908807952557481258 0.038375895470380783081054687500 -0.004147509578615427017211914062 -0.001642817165702580971958779443 0 0 0 0 
2401666666.6666665077 0.177749052643775912185830634371 0.037905767560005187988281250000 -0.004264758434146642684936523438 -0.001701759174466132900835346753 0 0 0 0 
2401833333.3333334923 0.178367510437965393066406250000 0.037396900355815887451171875000 -0.004381989594548940658569335938 -0.001623471616767347075818705981 0 0 0 0 
2402000000.0000000000 0.178760364651679992675781250000 0.036753024905920028686523437500 -0.004238529130816459655761718750 -0.001362893148325384096858359229 0 0 0 0 
2402166666.6666665077 0.178963899612426813323651231258 0.036121860146522521972656250000 -0.004160624463111162185668945312 -0.001291057327762245915056538159 0 0 0 0 
2402333333.3333334923 0.179428875446319607833700615629 0.035519752651453018188476562500 -0.004301298875361680984497070312 -0.001026845769956707954406738281 0 0 0 0 
2402500000.0000000000 0.179929167032241793533486884371 0.034946542233228676532785783593 -0.004325406625866889953613281250 -0.001056495821103454069850302588 0 0 0 0 
2402666666.6666665077 0.180120915174484308440838731258 0.034361295402050018310546875000 -0.004273259080946446332449628613 -0.000873259385116398334503173828 0 0 0 0 
2402833333.3333334923 0.180022776126861600021200615629 0.033705092966556549072265625000 -0.004317516926676034927368164062 -0.000807674718089401721954345703 0 0 0 0 
2403000000.0000000000 0.180086001753807095626669365629 0.033053051680326461791992187500 -0.004558763001114130020141601562 -0.000488649820908904075622558594 0 0 0 0 
2403166666.6666665077 0.180170089006424005706463731258 0.032165057957172386859934221093 -0.004326002206653357419485761426 -0.000333202333422377705574035645 0 0 0 0 
2403333333.3333334923 0.179966092109680203536825615629 0.031333122402429580688476562500 -0.004330243449658154573922441699 -0.000338813319103792309761047363 0 0 0 0 
2403500000.0000000000 0.179610237479209899902343750000 0.030517030507326129568079764454 -0.004340040963143110275268554688 -0.000107431216747500002384185791 0 0 0 0 
2403666666.6666665077 0.179554343223571805099325615629 0.029489869251847270620325858204 -0.004202782642096281051635742188 -0.000177002366399392512723645621 0 0 0 0 
2403833333.3333334923 0.179027512669563293457031250000 0.028370857238769531250000000000 -0.004277610685676336288452148438 -0.000024041259166551750490461656 0 0 0 0 
2404000000.0000000000 0.178712293505668612381143134371 0.027374457567930221557617187500 -0.004140167031437158584594726562 0.000037851797969778999686241150 0 0 0 0 
2404166666.6666665077 0.178225383162498501876669365629 0.026213318109512329101562500000 -0.004257823340594769391531659863 0.000242560228798538500636500226 0 0 0 0 
2404333333.3333334923 0.177867755293846102615518134371 0.025024002417922019958496093750 -0.004148532170802354812622070312 0.000354406918631866574287414551 0 0 0 0 
2404500000.0000000000 0.177065581083297701736611884371 0.023585485294461250305175781250 -0.004074878524988889694213867188 0.000677087344229221343994140625 0 0 0 0 
2404666666.6666665077 0.176723971962928799728231865629 0.022406471893191341054896170704 -0.004226874560117722424978925488 0.000534546037670224905014038086 0 0 0 0 
2404833333.3333334923 0.176117777824401910979901231258 0.020811352878808978689173514454 -0.004083245992660523328299237988 0.000565618625842034816741943359 0 0 0 0 
2405000000.0000000000 0.175719633698463412185830634371 0.019274914637207988393763358204 -0.003943001385778188705444335938 0.000800464244093745946884155273 0 0 0 0 
2405166666.6666665077 0.175083398818969698806924384371 0.017767110839486118661900704296 -0.004029197618365287780761718750 0.000798858527559787034988403320 0 0 0 0 
2405333333.3333334923 0.174604773521423312088174384371 0.015969622880220409738560860546 -0.003851862158626317977905273438 0.000888766080606728792190551758 0 0 0 0 
2405500000.0000000000 0.174137189984321594238281250000 0.014407359994947910308837890625 -0.003820316866040229797363281250 0.000851873192004859447479248047 0 0 0 0 
2405666666.6666665077 0.173768326640129089355468750000 0.012653896585106849670410156250 -0.003975358791649341583251953125 0.000948327768128365278244018555 0 0 0 0 
2405833333.3333334923 0.173239514231681795974893134371 0.010993096977472310502021990430 -0.003857945092022418975830078125 0.001034395652823149941088032300 0 0 0 0 
2406000000.0000000000 0.173050627112388610839843750000 0.008952314034104347229003906250 -0.003815088188275694847106933594 0.001152370008639991066576313550 0 0 0 0 
2406166666.6666665077 0.172698199748992892166299384371 0.007120515685528516769409179688 -0.004038837272673845291137695312 0.001164282439276576042175292969 0 0 0 0 
2406333333.3333334923 0.172674328088760403732138115629 0.005136156454682350158691406250 -0.003964535892009735107421875000 0.001322679221630096001866006006 0 0 0 0 
2406500000.0000000000 0.172299832105636596679687500000 0.003113126382231711907627724756 -0.003825496882200241088867187500 0.001293834066018461964250874097 0 0 0 0 
2406666666.6666665077 0.172099381685257013518963731258 0.001134597812779247977613139575 -0.003966061398386955261230468750 0.001533720642328261895420693506 0 0 0 0 
2406833333.3333334923 0.172234222292900113204794365629 -0.001009404310025274970410991138 -0.003984495066106319427490234375 0.001673144055530429103254008716 0 0 0 0 
2407000000.0000000000 0.172312110662460299392861884371 -0.003207308705896139144897460938 -0.004008559975773096084594726562 0.001489276066422462897059775244 0 0 0 0 
2407166666.6666665077 0.172543793916702298263388115629 -0.005195653531700372695922851562 -0.003851488698273897171020507812 0.001740142935886979103088378906 0 0 0 0 
2407333333.3333334923 0.172581896185874911209268134371 -0.007446990814059972763061523438 -0.004177306778728961944580078125 0.001994952093809843063354492188 0 0 0 0 
2407500000.0000000000 0.172898128628730801681356865629 -0.009541864506900310516357421875 -0.004057606682181358337402343750 0.002254721475765109062194824219 0 0 0 0 
2407666666.6666665077 0.173238083720207186599893134371 -0.011574245058000089472760585352 -0.003997031133621931076049804688 0.002316492842510343031642294775 0 0 0 0 
2407833333.3333334923 0.173389926552772494217080634371 -0.013782630674541000020960623829 -0.003945722710341215133666992188 0.002440130105242133140563964844 0 0 0 0 
2408000000.0000000000 0.173790365457534790039062500000 -0.015887543559074398386021798046 -0.004032915458083152770996093750 0.002641570055857301192042685400 0 0 0 0 
2408166666.6666665077 0.174211502075195312500000000000 -0.017841113731265071523646170704 -0.003925065044313669204711914062 0.002887099981307982964756631006 0 0 0 0 
2408333333.3333334923 0.174806118011474609375000000000 -0.019928652793169021606445312500 -0.003704093163833022117614746094 0.003120635170489550070521689307 0 0 0 0 
2408500000.0000000000 0.175218164920806912521200615629 -0.021781405434012409555455391796 -0.003647971432656050162074423682 0.003345910692587494850158691406 0 0 0 0 
2408666666.6666665077 0.175576269626617403885049384371 -0.023752935230731960641881173046 -0.003464514855295420126674033057 0.003690119832754135131835937500 0 0 0 0 
2408833333.3333334923 0.175866022706031799316406250000 -0.025608981028199199331263358204 -0.003391613252460957007167197119 0.003748524468392134146449423682 0 0 0 0 
2409000000.0000000000 0.176215291023254394531250000000 -0.027079211547970768320103829296 -0.003227937733754516081569052588 0.003949289675801992416381835938 0 0 0 0 
2409166666.6666665077 0.176862701773643493652343750000 -0.028625361621379848825474923046 -0.002823056885972619056701660156 0.004185696132481098175048828125 0 0 0 0 
2409333333.3333334923 0.177373379468917902190838731258 -0.030131308361887928354283516796 -0.002762979827821255163905478369 0.004216963425278663635253906250 0 0 0 0 
2409500000.0000000000 0.177837565541267395019531250000 -0.031608197838068008422851562500 -0.002487289719283581213710165869 0.004239465575665236386770917676 0 0 0 0 
2409666666.6666665077 0.178106933832168606857138115629 -0.032741885632276541973073591407 -0.002339549362659453912022256006 0.004512812476605176925659179688 0 0 0 0 
2409833333.3333334923 0.178468748927116394042968750000 -0.033582042902708046649973283593 -0.002086666179820895195007324219 0.004681967664510011672973632812 0 0 0 0 
2410000000.0000000000 0.179214060306549100021200615629 -0.034656278789043433452565778907 -0.001791370217688382105586386572 0.004484246950596570968627929688 0 0 0 0 
2410166666.6666665077 0.179782986640930203536825615629 -0.035645540803670883178710937500 -0.001555608003400265953661274487 0.004542603157460690412039472363 0 0 0 0 
2410333333.3333334923 0.180138245224952697753906250000 -0.036368481814861297607421875000 -0.001390766701661050102831196362 0.004673270042985677719116210938 0 0 0 0 
2410500000.0000000000 0.180695876479148892501669365629 -0.037141866981983191753347028907 -0.001103818183764814896824502100 0.004591841716319322586059570312 0 0 0 0 
2410666666.6666665077 0.180865362286567687988281250000 -0.037954904139041900634765625000 -0.000966590188909322023391723633 0.004648256115615367889404296875 0 0 0 0 
2410833333.3333334923 0.181424632668495205978231865629 -0.038191653788089752197265625000 -0.000757608562707901000976562500 0.004663070198148488998413085938 0 0 0 0 
2411000000.0000000000 0.181688517332076998611611884371 -0.038888543844223022460937500000 -0.000464634853415191173553466797 0.004476977046579123410696698926 0 0 0 0 
2411166666.6666665077 0.182139754295349093338174384371 -0.039480797946453087543527971093 -0.000409271684475243091583251953 0.004484087694436311721801757812 0 0 0 0 
2411333333.3333334923 0.182211175560951205154580634371 -0.039664201438426971435546875000 -0.000228953635087236789151868277 0.004427339415997266769409179688 0 0 0 0 
2411500000.0000000000 0.182104051113128689864950615629 -0.040211811661720282817800153907 -0.000028661603209911849012578658 0.004305196925997734069824218750 0 0 0 0 
2411666666.6666665077 0.182345747947692898849325615629 -0.040526662021875381469726562500 0.000121979763207491500817160335 0.004396475851535797119140625000 0 0 0 0 
2411833333.3333334923 0.182338342070579501053018134371 -0.040741533041000373149831403907 0.000166188867297023507669725961 0.004136691801249980926513671875 0 0 0 0 
2412000000.0000000000 0.182347774505615206619424384371 -0.041229147464036941528320312500 0.000312891614157706499099731445 0.004259111825376749038696289062 0 0 0 0 
2412166666.6666665077 0.181753352284431513030682481258 -0.041617188602685928344726562500 0.000450220657512545585632324219 0.004103687126189470291137695312 0 0 0 0 
2412333333.3333334923 0.181501910090446499923544365629 -0.041911520063877112651784528907 0.000454787106718868017196655273 0.004140473436564207077026367188 0 0 0 0 
2412500000.0000000000 0.181014701724052401443643134371 -0.042156204581260681152343750000 0.000477865629363805109828394757 0.003938226029276847839355468750 0 0 0 0 
2412666666.6666665077 0.180573716759681701660156250000 -0.042654674500226967548410783593 0.000541606626939028501510620117 0.003949102479964494705200195312 0 0 0 0 
2412833333.3333334923 0.180065453052520807464276231258 -0.042960718274116523052175153907 0.000699976633768528699874877930 0.003987411968410015106201171875 0 0 0 0 
2413000000.0000000000 0.179324477910995511154013115629 -0.043345667421817779541015625000 0.000869841431267559528350830078 0.003980295732617378234863281250 0 0 0 0 
2413166666.6666665077 0.178331628441810607910156250000 -0.043688427656888961791992187500 0.000862123561091721057891845703 0.003813169430941342873814248193 0 0 0 0 
2413333333.3333334923 0.177331626415252713302450615629 -0.044227857142686836933176408593 0.001149368239566683986066508716 0.003955518361181020736694335938 0 0 0 0 
2413500000.0000000000 0.176339223980903597732705634371 -0.044669315218925483013112653907 0.001008211402222513935686420972 0.003932052291929721832275390625 0 0 0 0 
2413666666.6666665077 0.175543650984764099121093750000 -0.045257918536663062358815778907 0.001197634846903383948682475513 0.003769110422581433816197060693 0 0 0 0 
2413833333.3333334923 0.174354061484336908538494981258 -0.045787736773490912700612653907 0.001306915772147477106807089697 0.003823352279141544862034463037 0 0 0 0 
2414000000.0000000000 0.172981873154640197753906250000 -0.046478051692247390747070312500 0.001454301178455353000043559497 0.003801920451223849816563271631 0 0 0 0 
2414166666.6666665077 0.171969309449195889571981865629 -0.047256100922822952270507812500 0.001406377297826111099840473706 0.003698365762829781012294150244 0 0 0 0 
2414333333.3333334923 0.170593976974487304687500000000 -0.047908335924148559570312500000 0.001575918868184090094325400244 0.003611675929278134866001748193 0 0 0 0 
2414500000.0000000000 0.169673845171928405761718750000 -0.048837836831808090209960937500 0.001741721993312240080592490088 0.003590376814827322959899902344 0 0 0 0 
2414666666.6666665077 0.168393030762672396560830634371 -0.049688551574945449829101562500 0.001855013309977949099299765479 0.003483286360278726057765341650 0 0 0 0 
2414833333.3333334923 0.167014673352241488357705634371 -0.050865903496742248535156250000 0.001954466802999376816990517725 0.003306082217022777037379599463 0 0 0 0 
2415000000.0000000000 0.165839329361915588378906250000 -0.051993712782859802246093750000 0.002026166301220655007603310693 0.003140436951071023941040039062 0 0 0 0 
2415166666.6666665077 0.164498984813690213302450615629 -0.053110901266336441040039062500 0.002091870876029133796691894531 0.003257799660786985917332314600 0 0 0 0 
2415333333.3333334923 0.163331001996993990799111884371 -0.054690252989530563354492187500 0.002191122854128479957580566406 0.003129344433546065850498818506 0 0 0 0 
2415500000.0000000000 0.162158980965614291092080634371 -0.055971555411815643310546875000 0.002237653359770774841308593750 0.003207753645256162123439169775 0 0 0 0 
2415666666.6666665077 0.160965248942375210861044365629 -0.057531479746103286743164062500 0.002299935091286898092982626807 0.003086008131504058837890625000 0 0 0 0 
2415833333.3333334923 0.159965083003044100662393134371 -0.059257924556732177734375000000 0.002400203840807079835178994287 0.003055401844903827147242880713 0 0 0 0 
2416000000.0000000000 0.158686667680740411956463731258 -0.060945585370063781738281250000 0.002574729034677147865295410156 0.003024898236617445945739746094 0 0 0 0 
2416166666.6666665077 0.157907098531722994705361884371 -0.062694728374481201171875000000 0.002594599267467855973484658350 0.002876064507290720939636230469 0 0 0 0 
2416333333.3333334923 0.156770914793014498611611884371 -0.064483828842639923095703125000 0.002564199035987257957458496094 0.002863364061340690092799521338 0 0 0 0 
2416500000.0000000000 0.155903622508049011230468750000 -0.066306546330451965332031250000 0.002713742200285195870640420068 0.002692032605409622192382812500 0 0 0 0 
2416666666.6666665077 0.154891163110733004470986884371 -0.068201854825019836425781250000 0.002718960400670766830444335938 0.002689954824745655059814453125 0 0 0 0 
2416833333.3333334923 0.154163852334022494217080634371 -0.070189535617828369140625000000 0.002655392047017813162562704932 0.002777860267087817192077636719 0 0 0 0 
2417000000.0000000000 0.153211399912834195236044365629 -0.072308562695980072021484375000 0.002934291027486323876621865381 0.002638726262375711961033486475 0 0 0 0 
2417166666.6666665077 0.152514547109603909591513115629 -0.074096076190471649169921875000 0.002855464117601513862609863281 0.002603699220344423814060830225 0 0 0 0 
2417333333.3333334923 0.151975154876709012130575615629 -0.076050624251365661621093750000 0.002968840068206191062927246094 0.002605259185656905174255371094 0 0 0 0 
2417500000.0000000000 0.151378154754638699630575615629 -0.078165546059608459472656250000 0.003201615996658802032470703125 0.002545498078688979148864746094 0 0 0 0 
2417666666.6666665077 0.150926023721695001800213731258 -0.079872690141201019287109375000 0.003238732693716884093043661963 0.002498643705621362166163779150 0 0 0 0 
2417833333.3333334923 0.150694012641906710525674384371 -0.081892192363739013671875000000 0.003379612229764461951014853369 0.002502153161913156943080283057 0 0 0 0 
2418000000.0000000000 0.150143742561340304275674384371 -0.083768486976623535156250000000 0.003588399151340126991271972656 0.002331436378881334824803017725 0 0 0 0 
2418166666.6666665077 0.149970069527626009842080634371 -0.085353866219520568847656250000 0.003789167618378996849060058594 0.002282964531332253976109170068 0 0 0 0 
2418333333.3333334923 0.149884626269340487381143134371 -0.087252490222454071044921875000 0.003750381758436561064479208838 0.002022562315687537193298339844 0 0 0 0 
2418500000.0000000000 0.149591803550720187088174384371 -0.088711597025394439697265625000 0.004085567314177752408499433301 0.002000893931835889816284179688 0 0 0 0 
2418666666.6666665077 0.149679914116859408279580634371 -0.090207561850547790527343750000 0.004310365766286849975585937500 0.001796411699615418910980224609 0 0 0 0 
2418833333.3333334923 0.149416610598564203460369981258 -0.091666735708713531494140625000 0.004418500233441591262817382812 0.001607733312994241931317973560 0 0 0 0 
2419000000.0000000000 0.149439603090286310393963731258 -0.092992357909679412841796875000 0.004613970872014760971069335938 0.001472952775657176971435546875 0 0 0 0 
2419166666.6666665077 0.149710968136787386795205634371 -0.094363942742347717285156250000 0.004611229058355093002319335938 0.001084803370758891105651855469 0 0 0 0 
2419333333.3333334923 0.149594515562057495117187500000 -0.095109008252620697021484375000 0.004811090417206287384033203125 0.000922408245969563722610473633 0 0 0 0 
2419500000.0000000000 0.149953335523605402190838731258 -0.096419848501682281494140625000 0.004675055388361215591430664062 0.000819604669231921434402465820 0 0 0 0 
2419666666.6666665077 0.150343790650367709060830634371 -0.097309343516826629638671875000 0.004853371065109968185424804688 0.000412862893426790779263096942 0 0 0 0 
2419833333.3333334923 0.150454014539718600174111884371 -0.098001681268215179443359375000 0.004906560759991407394409179688 0.000133257373818196410506647931 0 0 0 0 
