# Version 1.00
#
freq[Hz];re:Trc1_S11;im:Trc1_S11;re:Trc2_S21;im:Trc2_S21;
2.400000000000000E+009;1.570651084184647E-001;6.082535535097122E-002;-4.140461795032024E-003;8.444252307526767E-004;
2.400166666666667E+009;1.572336256504059E-001;5.928149446845055E-002;-4.026872571557760E-003;1.131326891481876E-003;
2.400333333333334E+009;1.571972668170929E-001;5.708697438240051E-002;-4.012160934507847E-003;1.062619267031550E-003;
2.400500000000000E+009;1.572772264480591E-001;5.512071773409843E-002;-3.789651673287153E-003;1.306078163906932E-003;
2.400666666666667E+009;1.573813408613205E-001;5.317172408103943E-002;-3.857048926874995E-003;1.224856358021498E-003;
2.400833333333334E+009;1.577411442995071E-001;5.119794234633446E-002;-3.728668671101332E-003;1.375591033138335E-003;
2.401000000000000E+009;1.579149812459946E-001;4.907898232340813E-002;-3.738962812349200E-003;1.514485571533442E-003;
2.401166666666667E+009;1.584058701992035E-001;4.705697298049927E-002;-3.601225791499019E-003;1.621469622477889E-003;
2.401333333333334E+009;1.585547327995300E-001;4.487868398427963E-002;-3.556096926331520E-003;1.759441103786230E-003;
2.401500000000000E+009;1.592545807361603E-001;4.298886284232140E-002;-3.508773399516940E-003;1.662382273934782E-003;
2.401666666666667E+009;1.597876697778702E-001;4.099209606647492E-002;-3.410874633118510E-003;1.885144622065127E-003;
2.401833333333334E+009;1.603796482086182E-001;3.892368823289871E-002;-3.344133961945772E-003;2.072747796773911E-003;
2.402000000000000E+009;1.607045680284500E-001;3.713937103748322E-002;-3.183776978403330E-003;1.944718067534268E-003;
2.402166666666667E+009;1.613978445529938E-001;3.506140410900116E-002;-3.061883617192507E-003;2.183029660955071E-003;
2.402333333333334E+009;1.620833277702332E-001;3.329133242368698E-002;-3.097566775977612E-003;2.140625379979610E-003;
2.402500000000000E+009;1.630639731884003E-001;3.173325583338738E-002;-2.974230563268066E-003;2.213972155004740E-003;
2.402666666666667E+009;1.637119054794312E-001;3.018561750650406E-002;-2.778706839308143E-003;2.180296462029219E-003;
2.402833333333334E+009;1.645704656839371E-001;2.868223376572132E-002;-2.659695222973824E-003;2.332882722839713E-003;
2.403000000000000E+009;1.654216498136520E-001;2.695103175938129E-002;-2.548318589106202E-003;2.377830911427736E-003;
2.403166666666667E+009;1.664127111434937E-001;2.556531690061092E-002;-2.504397183656693E-003;2.440980169922113E-003;
2.403333333333334E+009;1.673031151294708E-001;2.430391311645508E-002;-2.466803882271051E-003;2.402884652838111E-003;
2.403500000000000E+009;1.678092032670975E-001;2.301502600312233E-002;-2.432581502944231E-003;2.399767283350229E-003;
2.403666666666667E+009;1.691453307867050E-001;2.176467515528202E-002;-2.324562054127455E-003;2.452310640364885E-003;
2.403833333333334E+009;1.701483875513077E-001;2.069628052413464E-002;-2.202670555561781E-003;2.349375281482935E-003;
2.404000000000000E+009;1.708847582340241E-001;1.960744336247444E-002;-2.223679097369313E-003;2.367298351600766E-003;
2.404166666666667E+009;1.719349026679993E-001;1.877837814390659E-002;-1.861462718807161E-003;2.400991739705205E-003;
2.404333333333334E+009;1.725888401269913E-001;1.794156990945339E-002;-1.926630269736052E-003;2.587137278169394E-003;
2.404500000000000E+009;1.733758449554443E-001;1.703231036663055E-002;-2.023622859269381E-003;2.444367622956634E-003;
2.404666666666667E+009;1.746222674846649E-001;1.626283302903175E-002;-1.857536844909191E-003;2.452370943501592E-003;
2.404833333333334E+009;1.752156168222427E-001;1.572494581341744E-002;-1.748958951793611E-003;2.464785706251860E-003;
2.405000000000000E+009;1.759226918220520E-001;1.501812040805817E-002;-1.758294296450913E-003;2.492370549589396E-003;
2.405166666666667E+009;1.765453666448593E-001;1.446432713419199E-002;-1.531595946289599E-003;2.565178554505110E-003;
2.405333333333334E+009;1.772825568914414E-001;1.397457718849182E-002;-1.589298597536981E-003;2.615521429106593E-003;
2.405500000000000E+009;1.777707338333130E-001;1.383535098284483E-002;-1.651218510232866E-003;2.434739377349615E-003;
2.405666666666667E+009;1.783798187971115E-001;1.330503169447184E-002;-1.537253847345710E-003;2.519856672734022E-003;
2.405833333333334E+009;1.786461025476456E-001;1.302861236035824E-002;-1.592153450474143E-003;2.595234895125032E-003;
2.406000000000000E+009;1.791377514600754E-001;1.261712890118361E-002;-1.471164054237306E-003;2.669561421498656E-003;
2.406166666666667E+009;1.793649792671204E-001;1.245681382715702E-002;-1.560505479574204E-003;2.569334115833044E-003;
2.406333333333334E+009;1.797782331705093E-001;1.207922305911779E-002;-1.258451957255602E-003;2.528425073251128E-003;
2.406500000000000E+009;1.798055320978165E-001;1.168667338788509E-002;-1.164623536169529E-003;2.697033807635307E-003;
2.406666666666667E+009;1.796012222766876E-001;1.143832504749298E-002;-1.263113110326231E-003;2.604386070743203E-003;
2.406833333333334E+009;1.797922402620316E-001;1.104020047932863E-002;-1.082447124645114E-003;2.790161874145269E-003;
2.407000000000000E+009;1.797315776348114E-001;1.073358487337828E-002;-1.119820983149111E-003;2.680147066712380E-003;
2.407166666666667E+009;1.796550601720810E-001;1.035325322300196E-002;-9.494785335846245E-004;2.572286874055862E-003;
2.407333333333334E+009;1.792814731597900E-001;9.702227078378201E-003;-9.480688022449613E-004;2.743452554568648E-003;
2.407500000000000E+009;1.790860742330551E-001;9.301291778683662E-003;-1.016305177472532E-003;2.688082866370678E-003;
2.407666666666667E+009;1.786620169878006E-001;8.711063303053379E-003;-8.430515299551189E-004;2.708869986236095E-003;
2.407833333333334E+009;1.780472993850708E-001;7.937612012028694E-003;-7.594208582304418E-004;2.738713985309005E-003;
2.408000000000000E+009;1.776484549045563E-001;7.216782309114933E-003;-5.612866370938718E-004;2.783263800665736E-003;
2.408166666666667E+009;1.772029846906662E-001;6.539977621287108E-003;-5.776265752501786E-004;2.607314614579082E-003;
2.408333333333334E+009;1.768272668123245E-001;5.577564239501953E-003;-6.102838669903576E-004;2.582763554528356E-003;
2.408500000000000E+009;1.760353147983551E-001;4.751296713948250E-003;-5.217963480390608E-004;2.543955110013485E-003;
2.408666666666667E+009;1.755208075046539E-001;3.607929218560457E-003;-4.101627564523369E-004;2.602682914584875E-003;
2.408833333333334E+009;1.747109442949295E-001;2.589452546089888E-003;-4.483886004891247E-004;2.581348409876227E-003;
2.409000000000000E+009;1.740345656871796E-001;1.498356228694320E-003;-5.668883677572012E-004;2.547740703448653E-003;
2.409166666666667E+009;1.734021902084351E-001;1.353529660264030E-004;-2.687071100808680E-004;2.514403313398361E-003;
2.409333333333334E+009;1.728918105363846E-001;-1.305049518123269E-003;-4.126180429011583E-004;2.558279782533646E-003;
2.409500000000000E+009;1.721791923046112E-001;-2.852254081517458E-003;-3.890164953190833E-004;2.515552565455437E-003;
2.409666666666667E+009;1.714249998331070E-001;-4.273441154509783E-003;-3.031198284588754E-004;2.608189126476646E-003;
2.409833333333334E+009;1.709026545286179E-001;-5.710643716156483E-003;-4.173100169282407E-004;2.498011104762554E-003;
2.410000000000000E+009;1.704661399126053E-001;-7.219911087304354E-003;-2.636925200931728E-004;2.529198303818703E-003;
2.410166666666667E+009;1.699367910623550E-001;-9.022058919072151E-003;-2.236566506326199E-004;2.392865484580398E-003;
2.410333333333334E+009;1.693857610225678E-001;-1.078163832426071E-002;-2.940719132311642E-004;2.542201895266771E-003;
2.410500000000000E+009;1.689713746309280E-001;-1.255651470273733E-002;-3.333367349114269E-004;2.328013302758336E-003;
2.410666666666667E+009;1.686828583478928E-001;-1.464760582894087E-002;-1.307801721850410E-004;2.494932152330875E-003;
2.410833333333334E+009;1.683240085840225E-001;-1.634070836007595E-002;-2.970825298689306E-004;2.435631584376097E-003;
2.411000000000000E+009;1.679717004299164E-001;-1.811272464692593E-002;-1.401045155944303E-004;2.586470916867256E-003;
2.411166666666667E+009;1.678095012903214E-001;-2.000894770026207E-002;-2.773925953079015E-004;2.599612809717655E-003;
2.411333333333334E+009;1.678201705217362E-001;-2.193560637533665E-002;-2.572863595560193E-004;2.561251167207956E-003;
2.411500000000000E+009;1.678234189748764E-001;-2.422761544585228E-002;-3.841808356810361E-004;2.663121325895190E-003;
2.411666666666667E+009;1.680016964673996E-001;-2.599613927304745E-002;-1.203811407322064E-004;2.679884200915694E-003;
2.411833333333334E+009;1.680153906345367E-001;-2.783988602459431E-002;-1.825271319830790E-004;2.634805394336581E-003;
2.412000000000000E+009;1.684660315513611E-001;-2.985523082315922E-002;-1.342314499197528E-004;2.738748211413622E-003;
2.412166666666667E+009;1.685398817062378E-001;-3.175231814384460E-002;-2.129885797330644E-005;2.609938383102417E-003;
2.412333333333334E+009;1.690164506435394E-001;-3.355193883180618E-002;4.336241181590594E-005;2.829076722264290E-003;
2.412500000000000E+009;1.691340655088425E-001;-3.532103821635246E-002;9.173103535431437E-006;2.862076740711927E-003;
2.412666666666667E+009;1.698051244020462E-001;-3.713620081543922E-002;1.228467881446704E-004;3.061336698010564E-003;
2.412833333333334E+009;1.701906621456146E-001;-3.888438642024994E-002;2.246359363198280E-004;2.979081589728594E-003;
2.413000000000000E+009;1.707442104816437E-001;-4.059003666043282E-002;4.090084403287619E-004;2.950558206066489E-003;
2.413166666666667E+009;1.710978001356125E-001;-4.213164374232292E-002;4.504687967710197E-004;2.978204051032662E-003;
2.413333333333334E+009;1.716181039810181E-001;-4.388297349214554E-002;3.819882695097476E-004;3.165456466376782E-003;
2.413500000000000E+009;1.723455786705017E-001;-4.517062008380890E-002;5.596944829449058E-004;3.055274020880461E-003;
2.413666666666667E+009;1.730274707078934E-001;-4.681494459509850E-002;5.009458400309086E-004;3.046716796234250E-003;
2.413833333333334E+009;1.736078262329102E-001;-4.804012924432755E-002;8.267936646007001E-004;3.144386922940612E-003;
2.414000000000000E+009;1.740622371435165E-001;-4.940772429108620E-002;9.547455119900405E-004;3.129409858956933E-003;
2.414166666666667E+009;1.746908873319626E-001;-5.049018189311028E-002;9.421202703379095E-004;3.160916501656175E-003;
2.414333333333334E+009;1.751209199428558E-001;-5.161710456013680E-002;1.183155109174550E-003;3.092659171670675E-003;
2.414500000000000E+009;1.759099960327148E-001;-5.264995619654656E-002;1.272237161174417E-003;3.112874925136566E-003;
2.414666666666667E+009;1.763150840997696E-001;-5.358088016510010E-002;1.445055822841823E-003;3.173504723235965E-003;
2.414833333333334E+009;1.767461448907852E-001;-5.443582683801651E-002;1.482695923186839E-003;3.072701161727309E-003;
2.415000000000000E+009;1.772030293941498E-001;-5.516915023326874E-002;1.597478985786438E-003;2.960822777822614E-003;
2.415166666666667E+009;1.773938536643982E-001;-5.583457276225090E-002;1.684605958871543E-003;2.857397310435772E-003;
2.415333333333334E+009;1.779339462518692E-001;-5.638749897480011E-002;1.917829620651901E-003;2.796725835651159E-003;
2.415500000000000E+009;1.780929714441299E-001;-5.682605504989624E-002;1.959638437256217E-003;2.744917990639806E-003;
2.415666666666667E+009;1.781005561351776E-001;-5.727034062147141E-002;1.945203635841608E-003;2.772118197754026E-003;
2.415833333333334E+009;1.784150451421738E-001;-5.787255614995956E-002;2.099233679473400E-003;2.777819288894534E-003;
2.416000000000000E+009;1.783564239740372E-001;-5.818787217140198E-002;2.265439135953784E-003;2.449062885716558E-003;
2.416166666666667E+009;1.783442497253418E-001;-5.850780010223389E-002;2.169125480577350E-003;2.449570223689079E-003;
2.416333333333334E+009;1.780691593885422E-001;-5.874906852841377E-002;2.366152592003346E-003;2.449322724714875E-003;
2.416500000000000E+009;1.779444217681885E-001;-5.906595662236214E-002;2.404357539489865E-003;2.381617901846767E-003;
2.416666666666667E+009;1.776026040315628E-001;-5.913622304797173E-002;2.404146827757359E-003;2.305037574842572E-003;
2.416833333333334E+009;1.771759539842606E-001;-5.958103761076927E-002;2.692025154829025E-003;2.366686239838600E-003;
2.417000000000000E+009;1.765045970678330E-001;-5.975894629955292E-002;2.629816299304366E-003;2.160454168915749E-003;
2.417166666666667E+009;1.759030371904373E-001;-5.991294607520104E-002;2.572997007519007E-003;2.030927222222090E-003;
2.417333333333334E+009;1.752682030200958E-001;-6.019989401102066E-002;2.646102104336023E-003;2.020891755819321E-003;
2.417500000000000E+009;1.744834333658218E-001;-6.056927889585495E-002;2.611360047012568E-003;1.886948011815548E-003;
2.417666666666667E+009;1.737270504236221E-001;-6.057841703295708E-002;2.853700192645192E-003;1.720182364806533E-003;
2.417833333333334E+009;1.728119254112244E-001;-6.101886183023453E-002;2.895861631259322E-003;1.761198043823242E-003;
2.418000000000000E+009;1.718244999647141E-001;-6.156339868903160E-002;2.722807461395860E-003;1.695734332315624E-003;
2.418166666666667E+009;1.706750243902206E-001;-6.171761080622673E-002;2.883714390918613E-003;1.601363182999194E-003;
2.418333333333334E+009;1.699762493371964E-001;-6.234391033649445E-002;2.886526985093951E-003;1.476301695220172E-003;
2.418500000000000E+009;1.687287986278534E-001;-6.277562677860260E-002;2.938684774562717E-003;1.524699036963284E-003;
2.418666666666667E+009;1.675957441329956E-001;-6.346464157104492E-002;3.035438712686300E-003;1.472833566367626E-003;
2.418833333333334E+009;1.662659645080566E-001;-6.413976848125458E-002;2.836164319887757E-003;1.366217387840152E-003;
2.419000000000000E+009;1.650315821170807E-001;-6.485774368047714E-002;2.991870744153857E-003;1.249941997230053E-003;
2.419166666666667E+009;1.638433337211609E-001;-6.561001390218735E-002;3.021956421434879E-003;1.147995470091701E-003;
2.419333333333334E+009;1.624262779951096E-001;-6.631459295749664E-002;3.036091104149818E-003;1.166590489447117E-003;
2.419500000000000E+009;1.614108681678772E-001;-6.754574179649353E-002;3.227070206776261E-003;1.131056575104594E-003;
2.419666666666667E+009;1.602788567543030E-001;-6.851485371589661E-002;3.193352837115526E-003;1.034346409142017E-003;
2.419833333333334E+009;1.589411646127701E-001;-6.942287087440491E-002;3.093561390414834E-003;1.046830089762807E-003;
2.420000000000000E+009;1.579192429780960E-001;-7.058957964181900E-002;3.250062000006437E-003;9.007469634525478E-004;
2.420166666666667E+009;1.568908989429474E-001;-7.196015119552612E-002;3.311573062092066E-003;7.562532555311918E-004;
2.420333333333334E+009;1.559375077486038E-001;-7.322061061859131E-002;3.300918731838465E-003;7.528406567871571E-004;
2.420500000000000E+009;1.549545675516129E-001;-7.443087548017502E-002;3.313371445983648E-003;5.889399326406419E-004;
2.420666666666667E+009;1.539870351552963E-001;-7.587718218564987E-002;3.300200216472149E-003;6.257203058339655E-004;
2.420833333333334E+009;1.531763076782227E-001;-7.752761244773865E-002;3.313108114525676E-003;4.318192950449884E-004;
2.421000000000000E+009;1.524773240089417E-001;-7.892857491970062E-002;3.443282097578049E-003;1.663513685343787E-004;
2.421166666666667E+009;1.517485380172730E-001;-8.056346327066422E-002;3.543452592566609E-003;2.503201540093869E-004;
2.421333333333334E+009;1.512318998575211E-001;-8.220601081848145E-002;3.507233923301101E-003;-5.480216714204289E-005;
2.421500000000000E+009;1.506334990262985E-001;-8.385587483644486E-002;3.580326680094004E-003;-6.870074139442295E-005;
2.421666666666667E+009;1.502486914396286E-001;-8.549959957599640E-002;3.594895126298070E-003;-1.928715646499768E-004;
2.421833333333334E+009;1.501532196998596E-001;-8.731610327959061E-002;3.524531610310078E-003;-3.551181871443987E-004;
2.422000000000000E+009;1.495701819658279E-001;-8.887602388858795E-002;3.546425141394138E-003;-3.378572582732886E-004;
2.422166666666667E+009;1.494496464729309E-001;-9.073542803525925E-002;3.499140730127692E-003;-6.250607548281550E-004;
2.422333333333334E+009;1.495706290006638E-001;-9.228706359863281E-002;3.409516066312790E-003;-7.254013326019049E-004;
2.422500000000000E+009;1.493342667818070E-001;-9.381154179573059E-002;3.386349417269230E-003;-8.654158446006477E-004;
2.422666666666667E+009;1.493112295866013E-001;-9.564647078514099E-002;3.492892021313310E-003;-9.925133781507611E-004;
2.422833333333334E+009;1.498022824525833E-001;-9.726041555404663E-002;3.319132840260863E-003;-1.146805821917951E-003;
2.423000000000000E+009;1.497921645641327E-001;-9.896036982536316E-002;3.130682511255145E-003;-1.187378307804465E-003;
2.423166666666667E+009;1.500869989395142E-001;-1.005585491657257E-001;3.055752022191882E-003;-1.316505251452327E-003;
2.423333333333334E+009;1.505328118801117E-001;-1.018267050385475E-001;3.117750398814678E-003;-1.438059727661312E-003;
2.423500000000000E+009;1.509297043085098E-001;-1.032895892858505E-001;2.877016784623265E-003;-1.454483834095299E-003;
2.423666666666667E+009;1.511235982179642E-001;-1.047388389706612E-001;2.859832253307104E-003;-1.562391640618444E-003;
2.423833333333334E+009;1.517659574747086E-001;-1.061384677886963E-001;2.839223947376013E-003;-1.643403316847980E-003;
2.424000000000000E+009;1.519909948110580E-001;-1.072782427072525E-001;2.693027025088668E-003;-1.622081850655377E-003;
2.424166666666667E+009;1.525463461875916E-001;-1.084517091512680E-001;2.551009645685554E-003;-1.768663059920073E-003;
2.424333333333334E+009;1.530578285455704E-001;-1.094087809324265E-001;2.534712431952357E-003;-1.914963009767234E-003;
2.424500000000000E+009;1.535697728395462E-001;-1.105049923062325E-001;2.405372681096196E-003;-1.855092355981469E-003;
2.424666666666667E+009;1.541350781917572E-001;-1.112818643450737E-001;2.210644073784351E-003;-2.100931713357568E-003;
2.424833333333334E+009;1.544395387172699E-001;-1.122055500745773E-001;2.177311107516289E-003;-2.136895433068276E-003;
2.425000000000000E+009;1.549907922744751E-001;-1.129934340715408E-001;2.202212577685714E-003;-2.234385581687093E-003;
2.425166666666667E+009;1.551615595817566E-001;-1.137910708785057E-001;2.099892357364297E-003;-2.173066139221191E-003;
2.425333333333334E+009;1.556225568056107E-001;-1.143426895141602E-001;1.897560665383935E-003;-2.300584921613336E-003;
2.425500000000000E+009;1.560593694448471E-001;-1.149689480662346E-001;1.752486685290933E-003;-2.126696286723018E-003;
2.425666666666667E+009;1.561644226312637E-001;-1.154304295778275E-001;1.542487298138440E-003;-2.171728061512113E-003;
2.425833333333334E+009;1.563379019498825E-001;-1.158893629908562E-001;1.450216048397124E-003;-2.278271596878767E-003;
2.426000000000000E+009;1.563752740621567E-001;-1.164125725626946E-001;1.489937771111727E-003;-2.133786445483565E-003;
2.426166666666667E+009;1.567265093326569E-001;-1.166411489248276E-001;1.469780923798680E-003;-2.135641174390912E-003;
2.426333333333334E+009;1.565720289945602E-001;-1.168784424662590E-001;1.338754780590534E-003;-2.164623234421015E-003;
2.426500000000000E+009;1.564391851425171E-001;-1.171429976820946E-001;1.259814249351621E-003;-2.258790191262960E-003;
2.426666666666667E+009;1.564128249883652E-001;-1.171776801347733E-001;1.219811383634806E-003;-2.094104653224349E-003;
2.426833333333334E+009;1.560898125171661E-001;-1.173994988203049E-001;1.084268209524453E-003;-2.194644650444388E-003;
2.427000000000000E+009;1.556278616189957E-001;-1.175452023744583E-001;1.029428560286760E-003;-2.242933958768845E-003;
2.427166666666667E+009;1.551649123430252E-001;-1.176283955574036E-001;9.295759373344481E-004;-2.122867386788130E-003;
2.427333333333334E+009;1.544542014598846E-001;-1.178134456276894E-001;1.026186277158558E-003;-2.236299915239215E-003;
2.427500000000000E+009;1.539391875267029E-001;-1.179030239582062E-001;9.896903065964580E-004;-1.987837487831712E-003;
2.427666666666667E+009;1.532001793384552E-001;-1.180495917797089E-001;8.650900563225150E-004;-2.031285548582673E-003;
2.427833333333334E+009;1.522762030363083E-001;-1.182202175259590E-001;6.850439240224659E-004;-1.988223055377603E-003;
