# Hz S RI R 
2400000000.0000000000 0.154981851577758789062500000000 0.109309978783130701263104356258 -0.004156141541898250579833984375 -0.002840513829141854806187295068 0 0 0 0 
2400166666.6666665077 0.154799327254295404632244981258 0.106914140284061404129190009371 -0.004497178364545106887817382812 -0.002607387257739901976344443213 0 0 0 0 
2400333333.3333334923 0.154524728655815096756143134371 0.104702174663543701171875000000 -0.004428228829056025418753339551 -0.002251552650704979896545410156 0 0 0 0 
2400500000.0000000000 0.154297813773155212402343750000 0.102043107151985196212606865629 -0.004391998518258333206176757812 -0.001876081922091544108149863135 0 0 0 0 
2400666666.6666665077 0.154260903596878107268963731258 0.099660187959671020507812500000 -0.004388660192489624023437500000 -0.001555666327476501898524618994 0 0 0 0 
2400833333.3333334923 0.154164150357246398925781250000 0.096677839756011962890625000000 -0.004336249083280563354492187500 -0.001351462444290518977521586841 0 0 0 0 
2401000000.0000000000 0.154187262058258112151776231258 0.093786954879760742187500000000 -0.004282887559384107589721679688 -0.001173623604699969074846577222 0 0 0 0 
2401166666.6666665077 0.154318705201148986816406250000 0.091210536658763885498046875000 -0.004048990551382303237915039062 -0.000833996455185115337371826172 0 0 0 0 
2401333333.3333334923 0.154632762074470492263955634371 0.088361978530883789062500000000 -0.003946655895560979843139648438 -0.000805117131676524877548217773 0 0 0 0 
2401500000.0000000000 0.154732212424278287032919365629 0.085361525416374206542968750000 -0.003829514840617775917053222656 -0.000525511393789201974868774414 0 0 0 0 
2401666666.6666665077 0.155202344059944208343182481258 0.082500137388706207275390625000 -0.003779661376029253005981445312 -0.000484170333947986418574732648 0 0 0 0 
2401833333.3333334923 0.155426636338234003265057481258 0.079574815928936004638671875000 -0.003678055014461278915405273438 -0.000292521901428699493408203125 0 0 0 0 
2402000000.0000000000 0.156458824872970608810263115629 0.076737850904464721679687500000 -0.003457161365076899962184286963 -0.000203611809411086087853032245 0 0 0 0 
2402166666.6666665077 0.156947925686836187164630018742 0.074124753475189208984375000000 -0.003299987642094492912292480469 -0.000157506176037713912412366324 0 0 0 0 
2402333333.3333334923 0.157826244831085205078125000000 0.071354232728481292724609375000 -0.003282477380707859992980957031 -0.000206151642487384406015119009 0 0 0 0 
2402500000.0000000000 0.159019887447357205489950615629 0.068763524293899536132812500000 -0.003200614592060447172877646338 0.000012880584108643230387960740 0 0 0 0 
2402666666.6666665077 0.160427048802375793457031250000 0.066321343183517456054687500000 -0.003237656783312559127807617188 -0.000155306348460726412847796030 0 0 0 0 
2402833333.3333334923 0.161472886800765991210937500000 0.063543058931827545166015625000 -0.002871095668524504141566611182 -0.000025696865122881721368039779 0 0 0 0 
2403000000.0000000000 0.162932068109512301345986884371 0.061190586537122733379323591407 -0.002916915109381080107447958838 -0.000077521290222648531198501587 0 0 0 0 
2403166666.6666665077 0.164664551615714999099893134371 0.058876417577266693115234375000 -0.003001321107149124145507812500 0.000003390888423382421024143696 0 0 0 0 
2403333333.3333334923 0.166132748126983587066973768742 0.056581679731607437133789062500 -0.002980882301926612854003906250 -0.000066556116507854312658309937 0 0 0 0 
2403500000.0000000000 0.168005421757698086837606865629 0.054399326443672180175781250000 -0.003029488958418368859532021631 -0.000076290147262625396251678467 0 0 0 0 
2403666666.6666665077 0.169717460870742797851562500000 0.052459590137004852294921875000 -0.002915516728535294966456747900 -0.000188428457477129995822906494 0 0 0 0 
2403833333.3333334923 0.171531841158866910079794365629 0.050468582659959793090820312500 -0.003151554614305496215820312500 -0.000176866058609448400422772818 0 0 0 0 
2404000000.0000000000 0.173076033592224093338174384371 0.048663344234228127216379533593 -0.002777960151433945135829306494 -0.000281737709883600473403930664 0 0 0 0 
2404166666.6666665077 0.174965962767601013183593750000 0.047118719667196266864817033593 -0.003169836476445198059082031250 -0.000166417914442718001917162485 0 0 0 0 
2404333333.3333334923 0.176758959889411898513955634371 0.045406129211187362670898437500 -0.003191799856722354888916015625 -0.000237362022744491696357727051 0 0 0 0 
2404500000.0000000000 0.178407534956932095626669365629 0.043855510652065277099609375000 -0.003132687648758292198181152344 0.000010976924386341129855223196 0 0 0 0 
2404666666.6666665077 0.180253311991691589355468750000 0.042796183377504348754882812500 -0.003401027061045169830322265625 0.000076192962296772748231887817 0 0 0 0 
2404833333.3333334923 0.182028904557228088378906250000 0.041588999330997467041015625000 -0.003491141134873033003566122900 0.000231440906645730110719957895 0 0 0 0 
2405000000.0000000000 0.183438986539840698242187500000 0.040858313441276550292968750000 -0.003625577082857490019557333838 0.000263572350377216880947667255 0 0 0 0 
2405166666.6666665077 0.185071811079978887359942518742 0.040012225508689880371093750000 -0.003489342052489519119262695312 0.000451522326329723000526428223 0 0 0 0 
2405333333.3333334923 0.186588585376739501953125000000 0.039504479616880416870117187500 -0.003486805362626910209655761719 0.000603603781200945377349853516 0 0 0 0 
2405500000.0000000000 0.188205614686012295821981865629 0.038951884955167770385742187500 -0.003598863957449793815612792969 0.000813092163298279047012329102 0 0 0 0 
2405666666.6666665077 0.189663171768188504318075615629 0.038583680987358093261718750000 -0.003553035436198114915135048975 0.000916049466468393802642822266 0 0 0 0 
2405833333.3333334923 0.191044941544532803634481865629 0.038384571671485900878906250000 -0.003437346545979381041285849463 0.001118418527767061970354389722 0 0 0 0 
2406000000.0000000000 0.192144960165023803710937500000 0.038293652236461639404296875000 -0.003303045174106955961940146338 0.001198051730170845985412597656 0 0 0 0 
2406166666.6666665077 0.193207293748855590820312500000 0.038060549646615982055664062500 -0.003301241667941213087794638525 0.001179103041067719893214560400 0 0 0 0 
2406333333.3333334923 0.194333523511886596679687500000 0.038154810667037956928293596093 -0.003275582334026693864109658350 0.001285787438973784013035439600 0 0 0 0 
2406500000.0000000000 0.195216089487075805664062500000 0.038304597139358520507812500000 -0.003035975620150566101074218750 0.001343510812148452021955180591 0 0 0 0 
2406666666.6666665077 0.196126133203506497482138115629 0.038483895361423492431640625000 -0.003200157079845666885375976562 0.001361387083306909041163779150 0 0 0 0 
2406833333.3333334923 0.196524277329444913009481865629 0.038532920181751251220703125000 -0.003176434896886349158046103369 0.001410461729392409107805561597 0 0 0 0 
2407000000.0000000000 0.197023853659629794021768134371 0.038867495954036712646484375000 -0.003042431315407156944274902344 0.001615170389413834051844931494 0 0 0 0 
2407166666.6666665077 0.197376519441604586502236884371 0.038820352405309677124023437500 -0.003026273567229508919956826318 0.001420422107912600040435791016 0 0 0 0 
2407333333.3333334923 0.197548732161521911621093750000 0.039156734943389892578125000000 -0.003143163863569498062133789062 0.001527609303593635992762900244 0 0 0 0 
2407500000.0000000000 0.197506755590438787262286268742 0.039265278726816177368164062500 -0.003109830431640148162841796875 0.001649129670113324902178120190 0 0 0 0 
2407666666.6666665077 0.197618037462234497070312500000 0.039351921528577811504323591407 -0.003059128066524862809422158350 0.001739004044793545982958149487 0 0 0 0 
2407833333.3333334923 0.197159558534622192382812500000 0.039409935474395751953125000000 -0.003118861233815550804138183594 0.001954599749296904043910361182 0 0 0 0 
2408000000.0000000000 0.197112724184989901443643134371 0.039448089897632598876953125000 -0.003138803411275147958042763818 0.001935393083840609030482626807 0 0 0 0 
2408166666.6666665077 0.196650773286819513518963731258 0.039067164063453667377512346093 -0.003166344482451676888706826318 0.002196151763200759887695312500 0 0 0 0 
2408333333.3333334923 0.196180462837219210525674384371 0.038913987576961517333984375000 -0.003069262951612472967860556494 0.002258486347272992134094238281 0 0 0 0 
2408500000.0000000000 0.195500448346138000488281250000 0.038579214364290237426757812500 -0.003206071211025118827819824219 0.002440753625705838203430175781 0 0 0 0 
2408666666.6666665077 0.194765090942382812500000000000 0.038354653865098953247070312500 -0.003147713141515851020812988281 0.002561040688306093215942382812 0 0 0 0 
2408833333.3333334923 0.194139689207076998611611884371 0.037859976291656487201731096093 -0.003056995104998350143432617188 0.002656160853803157806396484375 0 0 0 0 
2409000000.0000000000 0.193186223506927490234375000000 0.036941517144441611553151716407 -0.003075320739299058914184570312 0.002965875435620545907261513818 0 0 0 0 
2409166666.6666665077 0.192208543419838007171307481258 0.036353461444377899169921875000 -0.003005615202710032896754599463 0.003205452114343643188476562500 0 0 0 0 
2409333333.3333334923 0.191209331154823303222656250000 0.035377670079469680786132812500 -0.002858665771782397790196084131 0.003140324493870139122009277344 0 0 0 0 
2409500000.0000000000 0.190107360482215909103231865629 0.034186124801635742187500000000 -0.002706798259168862862827920068 0.003421011613681911988499306787 0 0 0 0 
2409666666.6666665077 0.188940823078155489822549384371 0.032953001558780670166015625000 -0.002666058251634240150451660156 0.003497274359688162803649902344 0 0 0 0 
2409833333.3333334923 0.187740564346313504318075615629 0.031618345528841018676757812500 -0.002474845852702856063842773438 0.003649255959317088127136230469 0 0 0 0 
2410000000.0000000000 0.186765670776367187500000000000 0.030134709551930431020716483204 -0.002425128826871513886692666162 0.003705967683345078988316201318 0 0 0 0 
2410166666.6666665077 0.185432329773902893066406250000 0.028243277221918109548548514454 -0.002128857187926768822910927881 0.004069806542247533798217773438 0 0 0 0 
2410333333.3333334923 0.184567496180534390548544365629 0.026647439226508140563964843750 -0.002170660765841602845432900537 0.003987611271440982818603515625 0 0 0 0 
2410500000.0000000000 0.183208897709846496582031250000 0.024649888277053829538365548046 -0.001899002119898796081542968750 0.004037228412926197052001953125 0 0 0 0 
2410666666.6666665077 0.182398751378059387207031250000 0.022511115297675129282017891796 -0.001771834213286638043047260815 0.004255596082657575607299804688 0 0 0 0 
2410833333.3333334923 0.181560471653938293457031250000 0.020273553207516670227050781250 -0.001541686360724269910099648584 0.004357929807156324386596679688 0 0 0 0 
2411000000.0000000000 0.180633857846260098556356865629 0.018271518871188160287877266796 -0.001296501955948770046234130859 0.004349063150584697723388671875 0 0 0 0 
2411166666.6666665077 0.179860815405845586578692518742 0.015945160761475559579869454296 -0.001044557546265423081041645581 0.004485180135816335678100585938 0 0 0 0 
2411333333.3333334923 0.179134607315063504318075615629 0.013573009520769119262695312500 -0.000971566420048475265502929688 0.004480553325265645980834960938 0 0 0 0 
2411500000.0000000000 0.178678140044212313553018134371 0.011056104674935339146624180273 -0.000726120371837168931961059570 0.004413911607116460800170898438 0 0 0 0 
2411666666.6666665077 0.178100183606147793868856865629 0.008661312982439994812011718750 -0.000554515805561095476150512695 0.004402624908834695816040039062 0 0 0 0 
2411833333.3333334923 0.178019762039184598068075615629 0.006124670151621103286743164062 -0.000265996961388737017482203351 0.004579346626996994018554687500 0 0 0 0 
2412000000.0000000000 0.177835226058959988693075615629 0.003707692958414555029628134619 -0.000142884207889437702581128531 0.004509653430432081222534179688 0 0 0 0 
2412166666.6666665077 0.177839174866676302810830634371 0.001160241547040641090990376050 0.000178564703674055608824053354 0.004641308449208736419677734375 0 0 0 0 
2412333333.3333334923 0.178123638033866910079794365629 -0.001386112766340374946594238281 0.000401404395233839804500025616 0.004550416022539138793945312500 0 0 0 0 
2412500000.0000000000 0.178372621536254910568075615629 -0.003943621646612882614135742188 0.000507231219671666622161865234 0.004493831191211938858032226562 0 0 0 0 
2412666666.6666665077 0.178771913051605196853799384371 -0.006404744461178779602050781250 0.000670198933221399784088134766 0.004454679787158966064453125000 0 0 0 0 
2412833333.3333334923 0.179435700178146390060263115629 -0.009025129489600658416748046875 0.000892682350240647792816162109 0.004382092040032148361206054688 0 0 0 0 
2413000000.0000000000 0.180201500654220608810263115629 -0.011542956344783309591273123829 0.001084390562027693011640239185 0.004302871413528919219970703125 0 0 0 0 
2413166666.6666665077 0.180752396583557101150674384371 -0.013726780191063879185686680273 0.001348260324448347091674804688 0.004153030924499034881591796875 0 0 0 0 
2413333333.3333334923 0.181942418217658996582031250000 -0.016205586493015289306640625000 0.001526796724647283987758017432 0.004132755100727081298828125000 0 0 0 0 
2413500000.0000000000 0.182664096355438204666299384371 -0.018519936129450801504114920704 0.001631635939702392058131552588 0.003773842239752411842346191406 0 0 0 0 
2413666666.6666665077 0.183871522545814486404580634371 -0.020884640514850619924525076954 0.001902372459881008105037070166 0.003700583241879940032958984375 0 0 0 0 
2413833333.3333334923 0.184881433844566400725994981258 -0.023002291098237041128138358204 0.002000008244067430929896689307 0.003490016097202897071838378906 0 0 0 0 
2414000000.0000000000 0.186040967702865600585937500000 -0.025102997198700908315638358204 0.002165812999010086059570312500 0.003371707396581768989562988281 0 0 0 0 
2414166666.6666665077 0.187446653842925997635049384371 -0.026927448809146881103515625000 0.002086688764393330054042197119 0.003256607102230190797093056787 0 0 0 0 
2414333333.3333334923 0.188578441739082308670205634371 -0.029020017012953761709193045704 0.002173691289499402046203613281 0.002970765810459851784947060693 0 0 0 0 
2414500000.0000000000 0.189888566732406588455361884371 -0.030531916767358779907226562500 0.002266673604026436805725097656 0.002797761699184774918797158350 0 0 0 0 
2414666666.6666665077 0.191252484917640713790731865629 -0.032135628163814551616628278907 0.002218511654064058823826455225 0.002555148676037787957432412256 0 0 0 0 
2414833333.3333334923 0.192555129528045709808026231258 -0.033593490719795227050781250000 0.002376311225816607908961630713 0.002602813998237251801731728662 0 0 0 0 
2415000000.0000000000 0.193648681044578607757244981258 -0.034892968833446502685546875000 0.002249002689495683150050497900 0.002459354931488633155822753906 0 0 0 0 
2415166666.6666665077 0.195059433579444913009481865629 -0.036109372973442077636718750000 0.002255058614537119865417480469 0.002533111488446592850926064600 0 0 0 0 
2415333333.3333334923 0.196401655673980712890625000000 -0.037150762975215911865234375000 0.002378291217610239982604980469 0.002473453758284450011012411963 0 0 0 0 
2415500000.0000000000 0.197555214166641207595986884371 -0.037860780954360961914062500000 0.002352599054574965996983193506 0.002231649123132228851318359375 0 0 0 0 
2415666666.6666665077 0.198780223727226312835369981258 -0.038679718971252441406250000000 0.002470299834385513825657509912 0.002208942547440528869628906250 0 0 0 0 
2415833333.3333334923 0.199756667017936706542968750000 -0.039368551224470138549804687500 0.002367930253967642784118652344 0.002163286320865153832676552881 0 0 0 0 
2416000000.0000000000 0.200721159577369689941406250000 -0.039870161563158042217214216407 0.002586525632068514823913574219 0.002033398021012545065638876807 0 0 0 0 
2416166666.6666665077 0.201627001166343688964843750000 -0.040610641241073608398437500000 0.002725032391026616096496582031 0.001843576668761671023127890479 0 0 0 0 
2416333333.3333334923 0.202350750565528897384481865629 -0.040755849331617362285573591407 0.002603732980787754058837890625 0.001768662245012819983838725513 0 0 0 0 
2416500000.0000000000 0.203185245394706698318643134371 -0.041045919060707092285156250000 0.002655063522979617118835449219 0.001564509817399085001704550635 0 0 0 0 
2416666666.6666665077 0.203503593802452087402343750000 -0.041291303932666778564453125000 0.002534527331590652899501181494 0.001459296792745589993120503003 0 0 0 0 
2416833333.3333334923 0.203857570886611910720986884371 -0.041219580918550491333007812500 0.002360655460506678061244345557 0.001303418539464473941205668872 0 0 0 0 
2417000000.0000000000 0.204163849353790310958700615629 -0.041346505284309387207031250000 0.002377642318606377081630087744 0.001360747148282825946807861328 0 0 0 0 
2417166666.6666665077 0.204141736030578613281250000000 -0.041265767067670822143554687500 0.002138201612979174093959189307 0.001142856664955615997314453125 0 0 0 0 
2417333333.3333334923 0.204061940312385586837606865629 -0.041083112359046942974050153907 0.002126561244949698014500283350 0.001228138105943799018859863281 0 0 0 0 
2417500000.0000000000 0.203893646597862188141192518742 -0.040933445096015930175781250000 0.002033017342910170988795615088 0.001297097303904592990875244141 0 0 0 0 
2417666666.6666665077 0.203566372394561795333700615629 -0.040622815489768981933593750000 0.002009543823078275160548544775 0.001279451302252710082410502856 0 0 0 0 
2417833333.3333334923 0.203164920210838290115518134371 -0.040473662316799156879465471093 0.001987274968996644020080566406 0.001346462289802730083465576172 0 0 0 0 
2418000000.0000000000 0.202665373682975796798544365629 -0.040171038359403610229492187500 0.002014540601521729989292763818 0.001443580142222345092176127856 0 0 0 0 
2418166666.6666665077 0.201973155140876797775106865629 -0.039908267557621002197265625000 0.002039484214037656784057617188 0.001541749807074666023254394531 0 0 0 0 
2418333333.3333334923 0.201114907860755892654580634371 -0.039715588092803962017018903907 0.002190003171563148932216025244 0.001690316246822475953343056787 0 0 0 0 
2418500000.0000000000 0.199989527463912991622763115629 -0.039669189602136611938476562500 0.002213300904259086088893271338 0.001563709462061523957493447412 0 0 0 0 
2418666666.6666665077 0.199390769004821805099325615629 -0.039433397352695472026784528907 0.002309107687324285940883017432 0.001731137861497699997545551831 0 0 0 0 
2418833333.3333334923 0.198071390390396090408486884371 -0.039571266621351242065429687500 0.002541055437177420096156454932 0.001686603645794094042537070166 0 0 0 0 
2419000000.0000000000 0.196888968348503112792968750000 -0.039679031819105148315429687500 0.002601242158561944961547851562 0.001514472416602075099945068359 0 0 0 0 
2419166666.6666665077 0.195605501532554598709268134371 -0.039895147085189819335937500000 0.002649237867444754080531454932 0.001566733932122587940813374097 0 0 0 0 
2419333333.3333334923 0.194260999560356112381143134371 -0.040217895060777657245676408593 0.002889956813305615945103310693 0.001573905814439058086992573315 0 0 0 0 
2419500000.0000000000 0.192641332745552090743856865629 -0.040717292577028281475026716407 0.002949643880128860907313681494 0.001405310584232210896135639722 0 0 0 0 
2419666666.6666665077 0.191017314791679410079794365629 -0.041325747966766357421875000000 0.003025213256478310065028525244 0.001303838682360946915270161206 0 0 0 0 
2419833333.3333334923 0.189423412084579495529013115629 -0.041919410228729248046875000000 0.003015437396243215040919638525 0.001236517447978257916094135815 0 0 0 0 
