# Hz S RI R 50
2400000000.0000000000 0.157874643802642794510049384371 0.111536473035812405685263115629 -0.004078745841979981336111737988 -0.008471743203699588775634765625 0 0 0 0 
2400166666.6666665077 0.157243356108665494064169365629 0.109330140054225893875283759371 -0.004284242168068885803222656250 -0.008334503509104251861572265625 0 0 0 0 
2400333333.3333334923 0.156876906752586392501669365629 0.107282698154449504523988423443 -0.004516423214226961135864257812 -0.008137305267155170440673828125 0 0 0 0 
2400500000.0000000000 0.156386926770210293868856865629 0.104610487818717998176332173443 -0.004540543537586927413940429688 -0.008221984840929508209228515625 0 0 0 0 
2400666666.6666665077 0.156094849109649713714276231258 0.102020107209682506232972798443 -0.004357196390628814697265625000 -0.007592855952680110931396484375 0 0 0 0 
2400833333.3333334923 0.155587777495384188553018134371 0.099410511553287506103515625000 -0.005353577900677919387817382812 -0.007813466712832450866699218750 0 0 0 0 
2401000000.0000000000 0.155599489808082608321981865629 0.096559442579746246337890625000 -0.004713329952210187911987304688 -0.007608955260366201400756835938 0 0 0 0 
2401166666.6666665077 0.154952749609947204589843750000 0.093773841857910156250000000000 -0.005067619029432535171508789062 -0.008176262490451335906982421875 0 0 0 0 
2401333333.3333334923 0.155145838856697110275106865629 0.090723708271980285644531250000 -0.005432698875665664672851562500 -0.007268779445439577102661132812 0 0 0 0 
2401500000.0000000000 0.155094563961029108245526231258 0.087906531989574432373046875000 -0.005570183508098126325125409863 -0.007621188648045063018798828125 0 0 0 0 
2401666666.6666665077 0.155147761106491088867187500000 0.084682323038578033447265625000 -0.005955169908702374372000409863 -0.007287561893463134765625000000 0 0 0 0 
2401833333.3333334923 0.155288353562355013748330634371 0.081772066652774810791015625000 -0.006692004855722188949584960938 -0.007173497695475816726684570312 0 0 0 0 
2402000000.0000000000 0.155938699841499300857705634371 0.078583635389804840087890625000 -0.006588016171008349332327558301 -0.006661615334451198577880859375 0 0 0 0 
2402166666.6666665077 0.156343206763267489334268134371 0.075902841985225677490234375000 -0.006811564322561025619506835938 -0.006607467774301767349243164062 0 0 0 0 
2402333333.3333334923 0.156942188739776611328125000000 0.072746559977531433105468750000 -0.007115351501852273941040039062 -0.006479588337242603302001953125 0 0 0 0 
2402500000.0000000000 0.157845675945282010177450615629 0.070029087364673614501953125000 -0.007341796066612005233764648438 -0.006342987064272165298461914062 0 0 0 0 
2402666666.6666665077 0.158711209893226595779580634371 0.067398317158222198486328125000 -0.007433217484503985318655683301 -0.005786749999970197677612304688 0 0 0 0 
2402833333.3333334923 0.159939914941787691970986884371 0.064600206911563873291015625000 -0.007715958170592784881591796875 -0.005571267567574977874755859375 0 0 0 0 
2403000000.0000000000 0.161060318350791903396768134371 0.061826586723327636718750000000 -0.007747435010969638824462890625 -0.005119252484291791915893554688 0 0 0 0 
2403166666.6666665077 0.162687659263610812088174384371 0.059398807585239410400390625000 -0.007929568178951740264892578125 -0.004899502266198396682739257812 0 0 0 0 
2403333333.3333334923 0.163942158222198486328125000000 0.056797303259372711181640625000 -0.007932067848742008209228515625 -0.004545375239104033383841230176 0 0 0 0 
2403500000.0000000000 0.165578648447990389724893134371 0.054377850145101547241210937500 -0.007994768209755420684814453125 -0.004055803176015616330618573926 0 0 0 0 
2403666666.6666665077 0.167480915784835787674111884371 0.052172470837831497192382812500 -0.008299219422042369842529296875 -0.003860319033265113830566406250 0 0 0 0 
2403833333.3333334923 0.169033020734786987304687500000 0.049830406904220581054687500000 -0.008453541435301303863525390625 -0.003493020543828607039210654150 0 0 0 0 
2404000000.0000000000 0.170743390917777987381143134371 0.047731112688779830932617187500 -0.008497734554111957550048828125 -0.003088725730776786804199218750 0 0 0 0 
2404166666.6666665077 0.172742024064063998123330634371 0.045782599598169326782226562500 -0.008336381986737251281738281250 -0.002954144729301332993748330225 0 0 0 0 
2404333333.3333334923 0.174363270401954706390057481258 0.044016610831022262573242187500 -0.008244102820754051208496093750 -0.002459939103573561148402548682 0 0 0 0 
2404500000.0000000000 0.176187589764595003982705634371 0.042255207896232611919362653907 -0.008362462744116783142089843750 -0.002176092704758048057556152344 0 0 0 0 
2404666666.6666665077 0.178144335746765108963174384371 0.040886960923671722412109375000 -0.008534896187484264373779296875 -0.001976936822757124900817871094 0 0 0 0 
2404833333.3333334923 0.179870814085006713867187500000 0.039536230266094207763671875000 -0.008335485123097896575927734375 -0.001605550642125308947322226416 0 0 0 0 
2405000000.0000000000 0.181625351309776306152343750000 0.038601391017436981201171875000 -0.008212643675506114959716796875 -0.001434158417396246953251504053 0 0 0 0 
2405166666.6666665077 0.183305904269218389313067518742 0.037668280303478240966796875000 -0.008307172916829586029052734375 -0.001238970668055116913439106519 0 0 0 0 
2405333333.3333334923 0.185163661837577792068643134371 0.037072110921144492412526716407 -0.008241916075348854064941406250 -0.000993459019809961318969726562 0 0 0 0 
2405500000.0000000000 0.186936631798744201660156250000 0.036448143422603607177734375000 -0.008202320896089076995849609375 -0.000865419860929250717163085938 0 0 0 0 
2405666666.6666665077 0.188385903835296603103799384371 0.035748861730098717426340471093 -0.008091471157968044281005859375 -0.000527108437381684780120849609 0 0 0 0 
2405833333.3333334923 0.190091699361801202972088731258 0.035556603223085403442382812500 -0.008019417524337768554687500000 -0.000318351696478202884823399677 0 0 0 0 
2406000000.0000000000 0.191508039832115201095419365629 0.035256277769804000854492187500 -0.007822304964065551757812500000 -0.000034910353861050680279731750 0 0 0 0 
2406166666.6666665077 0.192810028791427612304687500000 0.035135764628648757934570312500 -0.007799512241035699844360351562 0.000222026545088738203048706055 0 0 0 0 
2406333333.3333334923 0.194141492247581509689169365629 0.035206541419029242778737653907 -0.007690964732319116592407226562 0.000230242498219013187006273813 0 0 0 0 
2406500000.0000000000 0.195266500115394592285156250000 0.035295061767101287841796875000 -0.007625838275998830795288085938 0.000397566007450223023265284406 0 0 0 0 
2406666666.6666665077 0.196386590600013705154580634371 0.035444658249616622924804687500 -0.007587769534438849362845136426 0.000537453510332852602005004883 0 0 0 0 
2406833333.3333334923 0.197240918874740600585937500000 0.035546652972698211669921875000 -0.007451000623404979705810546875 0.000760292285121977329254150391 0 0 0 0 
2407000000.0000000000 0.197885110974311800857705634371 0.035954959690570831298828125000 -0.007464788854122161865234375000 0.001058163587003946087480854565 0 0 0 0 
2407166666.6666665077 0.198602735996246310135049384371 0.036003228276968002319335937500 -0.007507296744734048843383789062 0.001187231857329607009887695312 0 0 0 0 
2407333333.3333334923 0.198962435126304598709268134371 0.036476284265518188476562500000 -0.007497342769056558609008789062 0.001192929688841104941127158057 0 0 0 0 
2407500000.0000000000 0.199172466993331909179687500000 0.036752495914697647094726562500 -0.007356992922723293304443359375 0.001432261080481112003326416016 0 0 0 0 
2407666666.6666665077 0.199470847845077486892861884371 0.037102881819009780883789062500 -0.007296603638678789138793945312 0.001523492857813834927202534253 0 0 0 0 
2407833333.3333334923 0.199236243963241604904013115629 0.037296485155820846557617187500 -0.007370267529040575027465820312 0.001729477779008447907091450269 0 0 0 0 
2408000000.0000000000 0.199312165379524203201455634371 0.037511117756366729736328125000 -0.007241214625537396344656659863 0.001806978136301041083094931494 0 0 0 0 
2408166666.6666665077 0.198968604207038907150106865629 0.037604503333568572998046875000 -0.007297320757061243057250976562 0.002061938168480991883518838037 0 0 0 0 
2408333333.3333334923 0.198593407869338989257812500000 0.037564240396022796630859375000 -0.007188390474766492843627929688 0.002152755623683332963230752100 0 0 0 0 
2408500000.0000000000 0.197981461882591303069744981258 0.037588451057672500610351562500 -0.007188506424427033338064862988 0.002405455801635981039759970557 0 0 0 0 
2408666666.6666665077 0.197457641363143893142861884371 0.037477079778909683227539062500 -0.007080112118273974332327558301 0.002498226007446647124049521338 0 0 0 0 
2408833333.3333334923 0.196796342730522211272869981258 0.037200555205345146869699846093 -0.007216305006295442581176757812 0.002740655560046433968784951318 0 0 0 0 
2409000000.0000000000 0.195775106549263000488281250000 0.036671895533800132060964216407 -0.007070916239172220230102539062 0.002789034508168696923496865381 0 0 0 0 
2409166666.6666665077 0.194813817739486694335937500000 0.036150932312011718750000000000 -0.006962328683584929379934980176 0.003167818067595363096949911963 0 0 0 0 
2409333333.3333334923 0.193954274058342007736044365629 0.035577479749917977069895158593 -0.007008143700659275054931640625 0.003471825737506151199340820312 0 0 0 0 
2409500000.0000000000 0.192702949047088595291299384371 0.034756138920783996582031250000 -0.006995193194597960385794355176 0.003649003570899366898777627100 0 0 0 0 
2409666666.6666665077 0.191594913601875305175781250000 0.033731512725353240966796875000 -0.006682316306978464126586914062 0.003889514366164803938624716650 0 0 0 0 
2409833333.3333334923 0.190311580896377591232138115629 0.032621596008539199829101562500 -0.006658398546278476715087890625 0.003866999875754117965698242188 0 0 0 0 
2410000000.0000000000 0.189016178250312805175781250000 0.031253453344106667255442033593 -0.006427899934351444244384765625 0.004131165333092212677001953125 0 0 0 0 
2410166666.6666665077 0.187846675515174893478231865629 0.029998026788234710693359375000 -0.006493452936410903930664062500 0.004247868433594703674316406250 0 0 0 0 
2410333333.3333334923 0.186527758836746188064736884371 0.028290439397096630441685860546 -0.006295675877481698989868164062 0.004539947025477886199951171875 0 0 0 0 
2410500000.0000000000 0.185230746865272494217080634371 0.026528261601924899709681326954 -0.006325259339064359664916992188 0.004682406783103942871093750000 0 0 0 0 
2410666666.6666665077 0.184010535478591891189736884371 0.024472637102007869375208670704 -0.006062286440283060073852539062 0.004799867048859596252441406250 0 0 0 0 
2410833333.3333334923 0.183014571666717501541299384371 0.022513559088110920297642891796 -0.005930886138230562210083007812 0.004857676569372416409964277051 0 0 0 0 
2411000000.0000000000 0.181946486234664889236611884371 0.020548859611153599130650704296 -0.005651651881635189056396484375 0.005143950693309307098388671875 0 0 0 0 
2411166666.6666665077 0.180960834026336697677450615629 0.018308106809854510915736014454 -0.005480230320245028409475995801 0.005205851048231124877929687500 0 0 0 0 
2411333333.3333334923 0.179936423897743197342080634371 0.015813188627362251281738281250 -0.005349922925233840942382812500 0.005189376883208751678466796875 0 0 0 0 
2411500000.0000000000 0.179264828562736511230468750000 0.013443881645798679697056954296 -0.005365577060729265213012695312 0.005376895889639854431152343750 0 0 0 0 
2411666666.6666665077 0.178782910108566311935263115629 0.011135278269648550206194492773 -0.005107614211738109588623046875 0.005442311055958271026611328125 0 0 0 0 
2411833333.3333334923 0.178175255656242398361044365629 0.008658087812364101409912109375 -0.005168289411813020706176757812 0.005520638544112443923950195312 0 0 0 0 
2412000000.0000000000 0.177834868431091308593750000000 0.005876791663467884063720703125 -0.005173106212168931961059570312 0.005705381277948617935180664062 0 0 0 0 
2412166666.6666665077 0.177640423178672790527343750000 0.003521173726767301993129111182 -0.004943501669913530349731445312 0.005913389381021261215209960938 0 0 0 0 
2412333333.3333334923 0.177441954612731905838174384371 0.000865045061800628900527954102 -0.004999406170099973678588867188 0.006115804892033339414114667676 0 0 0 0 
2412500000.0000000000 0.177578106522560091873330634371 -0.001751039526425302028656005859 -0.004801674280315637588500976562 0.006227811798453330993652343750 0 0 0 0 
2412666666.6666665077 0.177955120801925686935263115629 -0.004552318714559078216552734375 -0.004660663194954395294189453125 0.006356059107929468154907226562 0 0 0 0 
2412833333.3333334923 0.178298160433769198318643134371 -0.007058511488139629364013671875 -0.004448606166988611221313476562 0.006586805451661348342895507812 0 0 0 0 
2413000000.0000000000 0.179047763347625704666299384371 -0.009769107215106487274169921875 -0.004263252019882202148437500000 0.006733742076903581619262695312 0 0 0 0 
2413166666.6666665077 0.179567947983741788009481865629 -0.012023288756608959543248360546 -0.004161569755524396896362304688 0.007035065442323684692382812500 0 0 0 0 
2413333333.3333334923 0.180338263511657687088174384371 -0.014715479686856269836425781250 -0.003927604760974645614624023438 0.007351182401180267333984375000 0 0 0 0 
2413500000.0000000000 0.181202158331871004959268134371 -0.017427379265427589416503906250 -0.003626944497227669195887900244 0.007380274124443531036376953125 0 0 0 0 
2413666666.6666665077 0.182309359312057495117187500000 -0.019838022068142890930175781250 -0.003486206755042076110839843750 0.007641215343028306961059570312 0 0 0 0 
2413833333.3333334923 0.183356046676635686676348768742 -0.022163519635796550405482108204 -0.003170094452798366980311728369 0.007841407321393489837646484375 0 0 0 0 
2414000000.0000000000 0.184460595250129699707031250000 -0.024542832747101780282994454296 -0.003035590983927249908447265625 0.007842386141419410705566406250 0 0 0 0 
2414166666.6666665077 0.185817703604698208907919365629 -0.026810180395841598510742187500 -0.002547869691625237898585654150 0.008081250824034214019775390625 0 0 0 0 
2414333333.3333334923 0.187023311853408813476562500000 -0.029044590890407558786412423046 -0.002369446912780404090881347656 0.008132406510412693023681640625 0 0 0 0 
2414500000.0000000000 0.188255697488784790039062500000 -0.030818993225693699228306954296 -0.001908370759338140921351767432 0.008163599297404289245605468750 0 0 0 0 
2414666666.6666665077 0.189733490347862188141192518742 -0.032521441578865051269531250000 -0.001433778903447092013118124854 0.008300896733999252319335937500 0 0 0 0 
2414833333.3333334923 0.190986663103103609939736884371 -0.034435197710990912700612653907 -0.001277458504773675961735390771 0.008209324441850185394287109375 0 0 0 0 
2415000000.0000000000 0.192179009318351801116619981258 -0.035926021635532379150390625000 -0.000918589008506387472152709961 0.008312365971505641937255859375 0 0 0 0 
2415166666.6666665077 0.193683862686157198806924384371 -0.037329278886318206787109375000 -0.000592083495575934648513793945 0.008362575434148311614990234375 0 0 0 0 
2415333333.3333334923 0.195132479071617098709268134371 -0.038505572825670242309570312500 -0.000249113014433533007472437726 0.008339798077940940856933593750 0 0 0 0 
2415500000.0000000000 0.196369677782058688064736884371 -0.039516266435384750366210937500 0.000015389206964755430817604065 0.008064451627433300018310546875 0 0 0 0 
2415666666.6666665077 0.197800800204277010818643134371 -0.040469024330377578735351562500 0.000156275011249817907810211182 0.008227036334574222564697265625 0 0 0 0 
2415833333.3333334923 0.198912709951400812347088731258 -0.041218109428882598876953125000 0.000494214647915214300155639648 0.008094985038042068481445312500 0 0 0 0 
2416000000.0000000000 0.199965432286262512207031250000 -0.041932992637157440185546875000 0.000893883989192545413970947266 0.008042291738092899322509765625 0 0 0 0 
2416166666.6666665077 0.201145634055137606521768134371 -0.042663712054491043090820312500 0.001102317823097110011457133716 0.007919258438050746917724609375 0 0 0 0 
2416333333.3333334923 0.202171579003334100921307481258 -0.042994424700736999511718750000 0.001333347754552959962132119287 0.007776932325214147567749023438 0 0 0 0 
2416500000.0000000000 0.202880159020423889160156250000 -0.043383918702602393413503278907 0.001575536676682532050489116138 0.007833849638700485229492187500 0 0 0 0 
2416666666.6666665077 0.203547894954681396484375000000 -0.043680116534233093261718750000 0.001835630275309086062787700122 0.007704411167651414871215820312 0 0 0 0 
2416833333.3333334923 0.204037815332412691970986884371 -0.043617252260446548461914062500 0.002133490284904838042018271338 0.007689609657973051071166992188 0 0 0 0 
2417000000.0000000000 0.204593837261200006683026231258 -0.043775085359811782836914062500 0.002277262508869171142578125000 0.007575342431664466857910156250 0 0 0 0 
2417166666.6666665077 0.204678192734718294998330634371 -0.043572597205638892436940778907 0.002600131090730429129359579932 0.007588799577206373214721679688 0 0 0 0 
2417333333.3333334923 0.204812154173851013183593750000 -0.043242301791906356811523437500 0.002798615721985698179957724463 0.007341185584664344787597656250 0 0 0 0 
2417500000.0000000000 0.204877480864524813553018134371 -0.043046962469816207885742187500 0.003013728186488151983973837744 0.007172981742769479751586914062 0 0 0 0 
2417666666.6666665077 0.204719439148902893066406250000 -0.042815051972866058349609375000 0.003409186843782662911656045068 0.007128384429961442947387695312 0 0 0 0 
2417833333.3333334923 0.204640448093414306640625000000 -0.042321089655160896991770158593 0.003466953057795763015747070312 0.006866925861686468124389648438 0 0 0 0 
2418000000.0000000000 0.204143568873405512054119981258 -0.041912235319614410400390625000 0.003746258094906806945800781250 0.006676968652755022048950195312 0 0 0 0 
2418166666.6666665077 0.203614398837089510818643134371 -0.041491858661174767231027971093 0.003844856517389417128321982275 0.006660036742687225341796875000 0 0 0 0 
2418333333.3333334923 0.202840492129325894454794365629 -0.041161831468343741680104841407 0.004039441701024770736694335938 0.006315021775662899017333984375 0 0 0 0 
2418500000.0000000000 0.202152535319328308105468750000 -0.040870960801839828491210937500 0.004099808167666196823120117188 0.006185142789036036405081464551 0 0 0 0 
2418666666.6666665077 0.201298967003822298904580634371 -0.040509797632694237445871721093 0.004335680510848760604858398438 0.005938685499131680402273847363 0 0 0 0 
2418833333.3333334923 0.200209856033325195312500000000 -0.040291257202625281597097028907 0.004460062365978956222534179688 0.005907387007027865323538495801 0 0 0 0 
2419000000.0000000000 0.198917865753173800369424384371 -0.040139611810445792461354841407 0.004530261736363173398489667676 0.005753599107265472412109375000 0 0 0 0 
2419166666.6666665077 0.197814121842384310623330634371 -0.040181126445531852031667341407 0.004758050199598073959350585938 0.005480272229760885238647460938 0 0 0 0 
2419333333.3333334923 0.196379587054252596756143134371 -0.040294602513313293457031250000 0.004664979409426450729370117188 0.005233096890151500701904296875 0 0 0 0 
2419500000.0000000000 0.194970473647117586990518134371 -0.040280740708112716674804687500 0.004843416158109903335571289062 0.005203599110245704650878906250 0 0 0 0 
2419666666.6666665077 0.193253010511398287674111884371 -0.040800195187330252910573591407 0.004834361840039491653442382812 0.004932321608066558837890625000 0 0 0 0 
2419833333.3333334923 0.191628053784370394607705634371 -0.041171375662088387226145158593 0.005045175552368164062500000000 0.004900719039142131805419921875 0 0 0 0 
