# Hz S RI R 50
2400000000.0000000000 0.156968683004379300216513115629 0.105614148080348996261434990629 0.008181092329323291778564453125 -0.004701254423707723617553710938 0 0 0 0 
2400166666.6666665077 0.156910523772239712814169365629 0.103461042046546894401792826557 0.008100569248199462890625000000 -0.005077351815998554229736328125 0 0 0 0 
2400333333.3333334923 0.157409936189651489257812500000 0.100993514060974093338174384371 0.007946423254907131195068359375 -0.005409723147749900817871093750 0 0 0 0 
2400500000.0000000000 0.157262623310089111328125000000 0.098481446504592895507812500000 0.007561423350125551223754882812 -0.005707511212676764401907636426 0 0 0 0 
2400666666.6666665077 0.157705962657928494552450615629 0.096254184842109680175781250000 0.007552981842309237393850995801 -0.005970566067844629287719726562 0 0 0 0 
2400833333.3333334923 0.157835245132446289062500000000 0.093227207660675048828125000000 0.007512329146265983581542968750 -0.006239058915525674819946289062 0 0 0 0 
2401000000.0000000000 0.158218160271644592285156250000 0.090644590556621551513671875000 0.007050646003335714340209960938 -0.006431037560105323791503906250 0 0 0 0 
2401166666.6666665077 0.158375814557075500488281250000 0.087870843708515167236328125000 0.007101223804056643572335527637 -0.006863487418740987777709960938 0 0 0 0 
2401333333.3333334923 0.158720910549163790603799384371 0.085311315953731536865234375000 0.006731045432388783368582441113 -0.007027972023934125900268554688 0 0 0 0 
2401500000.0000000000 0.159449502825736999511718750000 0.082441657781600952148437500000 0.006596292834728956222534179688 -0.007286970503628253936767578125 0 0 0 0 
2401666666.6666665077 0.159649088978767395019531250000 0.079883538186550140380859375000 0.006291300989687442779541015625 -0.007481103297322989377493573926 0 0 0 0 
2401833333.3333334923 0.160363435745239313323651231258 0.077339425683021545410156250000 0.006041610613465309143066406250 -0.007695422042161226272583007812 0 0 0 0 
2402000000.0000000000 0.161113992333412198165731865629 0.074765630066394805908203125000 0.005767081864178180694580078125 -0.007842915132641792297363281250 0 0 0 0 
2402166666.6666665077 0.162096485495567294021768134371 0.072345227003097534179687500000 0.005707636009901762008666992188 -0.008293576538562774658203125000 0 0 0 0 
2402333333.3333334923 0.162898346781730707366619981258 0.069599583745002746582031250000 0.005404507741332054138183593750 -0.008451519533991813659667968750 0 0 0 0 
2402500000.0000000000 0.164005741477012606521768134371 0.067460983991622924804687500000 0.005170849151909351348876953125 -0.008775630965828895568847656250 0 0 0 0 
2402666666.6666665077 0.165081173181533813476562500000 0.065220616757869720458984375000 0.004799584392458201322073652051 -0.008988079614937305450439453125 0 0 0 0 
2402833333.3333334923 0.166171625256538391113281250000 0.062869697809219360351562500000 0.004507004749029874801635742188 -0.009204895235598087310791015625 0 0 0 0 
2403000000.0000000000 0.167494371533393887618856865629 0.060696586966514587402343750000 0.004110736306756734848022460938 -0.009272387251257896423339843750 0 0 0 0 
2403166666.6666665077 0.169049397110938998123330634371 0.058797854930162429809570312500 0.003971384838223457336425781250 -0.009484924376010894775390625000 0 0 0 0 
2403333333.3333334923 0.170375168323516901214276231258 0.056630488485097892070729841407 0.003694615792483090920689248193 -0.009787558577954769134521484375 0 0 0 0 
2403500000.0000000000 0.172097921371459988693075615629 0.054635699838399887084960937500 0.003176934318616985841038369287 -0.010100905783474450547188006055 0 0 0 0 
2403666666.6666665077 0.173637062311172513107138115629 0.052869424223899841308593750000 0.002878613770008087158203125000 -0.010208638384938240051269531250 0 0 0 0 
2403833333.3333334923 0.175087556242942810058593750000 0.051189702004194259643554687500 0.002480173017829657034633017432 -0.010398361831903459376325038477 0 0 0 0 
2404000000.0000000000 0.176240846514701787750567518742 0.049409769475460052490234375000 0.002147033344954251809361123193 -0.010539153590798379725446132227 0 0 0 0 
2404166666.6666665077 0.178060278296470586578692518742 0.048062641173601150512695312500 0.001758171943947673060773539966 -0.010670158080756660806676094921 0 0 0 0 
2404333333.3333334923 0.179384440183639498611611884371 0.046516880393028259277343750000 0.001137629966251552104949951172 -0.010822772979736329859723475977 0 0 0 0 
2404500000.0000000000 0.180891826748847989181356865629 0.044914204627275466918945312500 0.000606480462010949850082397461 -0.010958573780953880655308907421 0 0 0 0 
2404666666.6666665077 0.182356342673301696777343750000 0.043932266533374793315847028907 0.000240290391957387301042833871 -0.010872359387576580047607421875 0 0 0 0 
2404833333.3333334923 0.183742523193359402755575615629 0.042712375521659851074218750000 -0.000240436376770958304405212402 -0.011086490936577320098876953125 0 0 0 0 
2405000000.0000000000 0.184875845909118707854901231258 0.042049843817949301982839216407 -0.001018106820993125005009316553 -0.011070787906646730250348475977 0 0 0 0 
2405166666.6666665077 0.186105206608772305587606865629 0.041299208998680121684987653907 -0.001273033209145068905474018628 -0.011050880886614319192906563671 0 0 0 0 
2405333333.3333334923 0.187210604548454312423544365629 0.040572255849838256835937500000 -0.001835771254263818047167133862 -0.010821322910487650090227695898 0 0 0 0 
2405500000.0000000000 0.188383236527442904373330634371 0.040067121386528022075612653907 -0.002295783720910549163818359375 -0.010731953196227550506591796875 0 0 0 0 
2405666666.6666665077 0.189392820000648498535156250000 0.039625763893127441406250000000 -0.002823213580995798110961914062 -0.010416955687105659139612967579 0 0 0 0 
2405833333.3333334923 0.190434306859970092773437500000 0.039409555494785308837890625000 -0.003152068238705397085902548682 -0.010135276243090629577636718750 0 0 0 0 
2406000000.0000000000 0.191228479146957397460937500000 0.039058156311511993408203125000 -0.003807661589235066933872841943 -0.009676299989223480224609375000 0 0 0 0 
2406166666.6666665077 0.191995844244956997970419365629 0.038668811321258551860768903907 -0.004130874760448932647705078125 -0.009781996719539165496826171875 0 0 0 0 
2406333333.3333334923 0.192901924252510098556356865629 0.038651011884212486957590471093 -0.004412644077092409133911132812 -0.009289546869695186614990234375 0 0 0 0 
2406500000.0000000000 0.193621203303337097167968750000 0.038215503096580512309987653907 -0.005005419719964265823364257812 -0.009239982813596725463867187500 0 0 0 0 
2406666666.6666665077 0.193903058767318697830361884371 0.038938164710998542095143903907 -0.004724700469523668289184570312 -0.008664319291710853576660156250 0 0 0 0 
2406833333.3333334923 0.194412991404533386230468750000 0.038048632442951202392578125000 -0.005391601473093032836914062500 -0.008743941783905029296875000000 0 0 0 0 
2407000000.0000000000 0.194493100047111511230468750000 0.038257002830505371093750000000 -0.005424617789685726165771484375 -0.008092450909316539764404296875 0 0 0 0 
2407166666.6666665077 0.194738686084747286697549384371 0.037711493670940399169921875000 -0.005771102383732795715332031250 -0.007676389999687671661376953125 0 0 0 0 
2407333333.3333334923 0.194709420204162597656250000000 0.037729896605014801025390625000 -0.006145934574306011199951171875 -0.007650613784790039062500000000 0 0 0 0 
2407500000.0000000000 0.194861426949501009842080634371 0.037673551589250571514089216407 -0.006085333880037069320678710938 -0.007381479255855084332937909863 0 0 0 0 
2407666666.6666665077 0.194792032241821289062500000000 0.037577427923679351806640625000 -0.006064805667847394943237304688 -0.007044651545584201812744140625 0 0 0 0 
2407833333.3333334923 0.194318249821662902832031250000 0.037149574607610702514648437500 -0.006652114912867546081542968750 -0.006984403822571039199829101562 0 0 0 0 
2408000000.0000000000 0.194078430533409090896768134371 0.036677513271570212627370466407 -0.007055075839161872863769531250 -0.006617760285735130310058593750 0 0 0 0 
2408166666.6666665077 0.193784743547439602950888115629 0.036551266908645629882812500000 -0.006582044530659914016723632812 -0.006325041875243186950683593750 0 0 0 0 
2408333333.3333334923 0.193393439054489107986611884371 0.035948704928159706806223283593 -0.006672681309282779693603515625 -0.006135802716016769409179687500 0 0 0 0 
2408500000.0000000000 0.192812323570251492599325615629 0.035468645393848419189453125000 -0.006957176141440868377685546875 -0.005654164589941501617431640625 0 0 0 0 
2408666666.6666665077 0.192251116037368802169638115629 0.034966737031936652446706403907 -0.006846080068498849868774414062 -0.005435124505311250686645507812 0 0 0 0 
2408833333.3333334923 0.191765561699867304046307481258 0.034029558300971991802175153907 -0.007182567846029996871948242188 -0.005180971696972846984863281250 0 0 0 0 
2409000000.0000000000 0.190929993987083407303018134371 0.032917991280555732036550153907 -0.006967307534068822860717773438 -0.004840644076466560363769531250 0 0 0 0 
2409166666.6666665077 0.190269142389297513107138115629 0.032006610184907913208007812500 -0.007103931624442338943481445312 -0.004575762432068586349487304688 0 0 0 0 
2409333333.3333334923 0.189526438713073702713174384371 0.030984343960881229745885079296 -0.007121111731976270675659179688 -0.004300717264413833618164062500 0 0 0 0 
2409500000.0000000000 0.188449054956436212737713731258 0.029605120420455929147740548046 -0.006912455428391695022583007812 -0.004188884515315294265747070312 0 0 0 0 
2409666666.6666665077 0.187765195965766906738281250000 0.028249643743038180959681326954 -0.006899771746248006820678710938 -0.004167762584984303388113691113 0 0 0 0 
2409833333.3333334923 0.186903491616249112228231865629 0.026792930439114570617675781250 -0.006915668025612831115722656250 -0.003790546441450715065002441406 0 0 0 0 
2410000000.0000000000 0.186054810881614712814169365629 0.025207623839378360403040701954 -0.007079833187162876129150390625 -0.003636104986071587042567587744 0 0 0 0 
2410166666.6666665077 0.185163393616676302810830634371 0.023275561630725860595703125000 -0.007035300601273775100708007812 -0.003461512271314858956577920068 0 0 0 0 
2410333333.3333334923 0.184539809823036193847656250000 0.021691931411623961711843122657 -0.007037974428385496139526367188 -0.003435345832258462905883789062 0 0 0 0 
2410500000.0000000000 0.183603107929229708572549384371 0.019728327170014381408691406250 -0.006957162637263537320608808301 -0.003243554150685667991638183594 0 0 0 0 
2410666666.6666665077 0.182812720537185696700888115629 0.017749574035406109201451485546 -0.007031206041574478149414062500 -0.003051953390240668816807412256 0 0 0 0 
2410833333.3333334923 0.182386800646781893631143134371 0.015750946477055549621582031250 -0.007079405244439840316772460938 -0.002969873370602726936340332031 0 0 0 0 
2411000000.0000000000 0.181695088744163513183593750000 0.013570642098784450185755545704 -0.007137090899050235748291015625 -0.002842095680534840063807822119 0 0 0 0 
2411166666.6666665077 0.181310296058654812911825615629 0.011472750455141069239606288477 -0.007192694582045078277587890625 -0.002561780391260981993434286963 0 0 0 0 
2411333333.3333334923 0.180873990058898898025674384371 0.009107640944421291351318359375 -0.007333446294069290161132812500 -0.002669016132131218910217285156 0 0 0 0 
2411500000.0000000000 0.180566042661666897872763115629 0.006924286019057034578805254199 -0.007283789105713368329519941113 -0.002405509585514665083644247900 0 0 0 0 
2411666666.6666665077 0.180477321147918701171875000000 0.004874991253018379211425781250 -0.007165442220866680145263671875 -0.002210156759247183799743652344 0 0 0 0 
2411833333.3333334923 0.180161833763122586349325615629 0.002727463375777006149291992188 -0.007223143707960844039916992188 -0.002180657815188169913050986182 0 0 0 0 
2412000000.0000000000 0.180481523275375393966513115629 0.000146109028719365596771240234 -0.007404095958918333053588867188 -0.002022885251790285110473632812 0 0 0 0 
2412166666.6666665077 0.180582240223884610275106865629 -0.001766328001394867897033691406 -0.007348674349486827850341796875 -0.002009708900004624886753701318 0 0 0 0 
2412333333.3333334923 0.180793911218643188476562500000 -0.004156095907092094421386718750 -0.007479400839656591415405273438 -0.001845531398430467085597372900 0 0 0 0 
2412500000.0000000000 0.181109338998794611175213731258 -0.006404682993888854980468750000 -0.007602139841765165328979492188 -0.001436722464859486059901572119 0 0 0 0 
2412666666.6666665077 0.181628540158271789550781250000 -0.008652386255562305450439453125 -0.007627800107002258300781250000 -0.001445933827199042060254741138 0 0 0 0 
2412833333.3333334923 0.182374730706214904785156250000 -0.010823082178831100463867187500 -0.007800106890499591827392578125 -0.001399554428644478104235004956 0 0 0 0 
2413000000.0000000000 0.183032959699630709549111884371 -0.012910308316349979745885079296 -0.008001336827874183654785156250 -0.001246673171408474011662148584 0 0 0 0 
2413166666.6666665077 0.183892354369163513183593750000 -0.014957034960389140737513358204 -0.008020678535103797912597656250 -0.001058482332155109102364565210 0 0 0 0 
2413333333.3333334923 0.184765040874481201171875000000 -0.017256001010537150991419608204 -0.008154323324561119079589843750 -0.000801293062977492809295654297 0 0 0 0 
2413500000.0000000000 0.185572996735572787185830634371 -0.019085388630628589284876639454 -0.008285928517580032348632812500 -0.000588147027883678674697875977 0 0 0 0 
2413666666.6666665077 0.186692491173744201660156250000 -0.021089641377329829824427420704 -0.008358457125723361968994140625 -0.000289422110654413700103759766 0 0 0 0 
2413833333.3333334923 0.187702447175979586502236884371 -0.022990487515926361083984375000 -0.008439538069069385528564453125 -0.000122641562484204796239575797 0 0 0 0 
2414000000.0000000000 0.188567459583282498458700615629 -0.024729108437895778310755545704 -0.008298321627080440521240234375 0.000166406520293094190672197885 0 0 0 0 
2414166666.6666665077 0.189706712961196899414062500000 -0.026528492569923400878906250000 -0.008648387156426906585693359375 0.000405696046072989702224731445 0 0 0 0 
2414333333.3333334923 0.190765440464019803146200615629 -0.028277803212404251098632812500 -0.008573703467845916748046875000 0.000729250372387468814849853516 0 0 0 0 
2414500000.0000000000 0.192006632685661288162393134371 -0.029498467221856120717982108204 -0.008589782752096652984619140625 0.000998687813989818096160888672 0 0 0 0 
2414666666.6666665077 0.192882448434829711914062500000 -0.030904438346624370920201485546 -0.008548600599169731140136718750 0.001389430835843086025835346753 0 0 0 0 
2414833333.3333334923 0.193948984146118191818075615629 -0.032253082841634750366210937500 -0.008578011766076087951660156250 0.001770056551322340965270996094 0 0 0 0 
2415000000.0000000000 0.194873556494712801834268134371 -0.033604759722948067401926408593 -0.008557806722819805145263671875 0.001914052059873938994166708838 0 0 0 0 
2415166666.6666665077 0.196006655693054199218750000000 -0.034709103405475623393972028907 -0.008602038025856018066406250000 0.002216005232185124917271279443 0 0 0 0 
2415333333.3333334923 0.197030812501907404143963731258 -0.035494782030582427978515625000 -0.008509855717420578002929687500 0.002539239823818206787109375000 0 0 0 0 
2415500000.0000000000 0.197921097278594998458700615629 -0.036203753203153610229492187500 -0.008458745665848255157470703125 0.002861358458176254792454384912 0 0 0 0 
2415666666.6666665077 0.198919624090194702148437500000 -0.037153560668230056762695312500 -0.008486412465572357177734375000 0.003164344234392046928405761719 0 0 0 0 
2415833333.3333334923 0.199578568339347811599893134371 -0.037842757999897003173828125000 -0.008284084498882293701171875000 0.003591590560972691015956259619 0 0 0 0 
2416000000.0000000000 0.200218558311462402343750000000 -0.038401175290346152568776716407 -0.008313511498272418975830078125 0.003804331179708241982700966943 0 0 0 0 
2416166666.6666665077 0.200801014900207491775674384371 -0.039098542183637619018554687500 -0.008260726928710937500000000000 0.004188370425254107388968183301 0 0 0 0 
2416333333.3333334923 0.201257884502410888671875000000 -0.039384458214044570922851562500 -0.007930515334010124206542968750 0.004581108223646879196166992188 0 0 0 0 
2416500000.0000000000 0.201684072613716097732705634371 -0.039830546826124191284179687500 -0.007715149782598018646240234375 0.004941119812428951263427734375 0 0 0 0 
2416666666.6666665077 0.201806694269180297851562500000 -0.040282234549522399902343750000 -0.007637926843017339706420898438 0.005330676212906838330740644238 0 0 0 0 
2416833333.3333334923 0.202011495828628512283486884371 -0.040362250059843063354492187500 -0.007509313523769378662109375000 0.005611568689346314343924237988 0 0 0 0 
2417000000.0000000000 0.201941221952438410003338731258 -0.040627162903547286987304687500 -0.007166699506342411041259765625 0.005798315629363059997558593750 0 0 0 0 
2417166666.6666665077 0.201675221323967007736044365629 -0.040771532803773880004882812500 -0.006958343554288148880004882812 0.006196021568030118942260742188 0 0 0 0 
2417333333.3333334923 0.201493933796882601638955634371 -0.040640469640493392944335937500 -0.006801309064030647277832031250 0.006265204399824143323416425488 0 0 0 0 
2417500000.0000000000 0.201197937130928011795205634371 -0.040950622409582138061523437500 -0.006334234960377216339111328125 0.006526895333081483840942382812 0 0 0 0 
2417666666.6666665077 0.200577899813652010818643134371 -0.040802218019962310791015625000 -0.006152548361569643020629882812 0.006711480207741261395926191113 0 0 0 0 
2417833333.3333334923 0.200142621994018610198651231258 -0.040814947336912162090261091407 -0.005984744522720575332641601562 0.006867748685181140899658203125 0 0 0 0 
2418000000.0000000000 0.199544727802276611328125000000 -0.040759980678558349609375000000 -0.005788641050457954406738281250 0.007075438275933265686035156250 0 0 0 0 
2418166666.6666665077 0.198625773191451998611611884371 -0.040953572839498519897460937500 -0.005341588053852319717407226562 0.007044360041618347167968750000 0 0 0 0 
2418333333.3333334923 0.197885304689407404143963731258 -0.040954560041427612304687500000 -0.005210020579397678375244140625 0.007378311827778816223144531250 0 0 0 0 
2418500000.0000000000 0.196939006447792108733807481258 -0.041149701923131942749023437500 -0.004987402819097042083740234375 0.007549716625362634658813476562 0 0 0 0 
2418666666.6666665077 0.196107760071754511077557481258 -0.041215796023607247089426408593 -0.004637308418750762939453125000 0.007524549495428800582885742188 0 0 0 0 
2418833333.3333334923 0.194777444005012512207031250000 -0.041442044079303741455078125000 -0.004544423427432776364798261426 0.007707014214247465133666992188 0 0 0 0 
2419000000.0000000000 0.193649724125862093826455634371 -0.041814375668764107440988908593 -0.004187222570180892944335937500 0.007823877036571502685546875000 0 0 0 0 
2419166666.6666665077 0.192618712782859802246093750000 -0.042432975023984909057617187500 -0.003954633604735136032104492188 0.008064769208431243896484375000 0 0 0 0 
2419333333.3333334923 0.191268786787986810882244981258 -0.043054711073637008666992187500 -0.003642087569460272789001464844 0.008164059370756149291992187500 0 0 0 0 
2419500000.0000000000 0.189866200089454706390057481258 -0.043403949588537223125417341407 -0.003414160804823040962219238281 0.008141341619193553924560546875 0 0 0 0 
2419666666.6666665077 0.188524097204208401779013115629 -0.044399194419384002685546875000 -0.003121556248515843911411904443 0.008365762419998645782470703125 0 0 0 0 
2419833333.3333334923 0.187068417668342590332031250000 -0.045208349823951721191406250000 -0.002899954328313469886779785156 0.008389100432395935058593750000 0 0 0 0 
