# Hz S RI R 50
2400000000.0000000000 0.157386183738708496093750000000 0.063090808689594268798828125000 -0.002538037719205021858215332031 -0.001079869922250509045244526440 0 0 0 0 
2400166666.6666665077 0.157187581062316894531250000000 0.061309706419706351543386091407 -0.002456702990457416014430380713 -0.001086198491975665092468261719 0 0 0 0 
2400333333.3333334923 0.156979456543922396560830634371 0.059289634227752692485768903907 -0.002436098409816623167750693213 -0.000918246689252555370330810547 0 0 0 0 
2400500000.0000000000 0.157222539186477688888388115629 0.057326555252075202251393903907 -0.002579493680968881087062216650 -0.000752034771721810102462768555 0 0 0 0 
2400666666.6666665077 0.157135799527168301681356865629 0.055274769663810729980468750000 -0.002576753264293075041529990088 -0.000780966423917561769485473633 0 0 0 0 
2400833333.3333334923 0.157175794243812588790731865629 0.053390052169561393047292341407 -0.002517076209187508063075400244 -0.000926146574784070253372192383 0 0 0 0 
2401000000.0000000000 0.157230690121650695800781250000 0.051232684403657913208007812500 -0.002568541094660758972167968750 -0.000681589299347251653671264648 0 0 0 0 
2401166666.6666665077 0.157584756612777709960937500000 0.048997607082128531719167341407 -0.002645569853484631018397665869 -0.000650050234980881214141845703 0 0 0 0 
2401333333.3333334923 0.157720953226089505294638115629 0.047033216804265982891042341407 -0.002738468581810594038722372900 -0.000573435914702713489532470703 0 0 0 0 
2401500000.0000000000 0.157971933484077509124432481258 0.044977173209190368652343750000 -0.002601558808237313790562295068 -0.000543987960554659366607666016 0 0 0 0 
2401666666.6666665077 0.158388748764991788009481865629 0.043040417134761810302734375000 -0.002760042203590273857116699219 -0.000667155545670539140701293945 0 0 0 0 
2401833333.3333334923 0.158814579248428289215411268742 0.040828831493854522705078125000 -0.002693808637559413909912109375 -0.000487614946905523484379368915 0 0 0 0 
2402000000.0000000000 0.159231975674629211425781250000 0.038825806230306632305104841407 -0.002629427704960107803344726562 -0.000422731798607855981022435321 0 0 0 0 
2402166666.6666665077 0.159875929355621310135049384371 0.036700040102005011821706403907 -0.002705025253817439079284667969 -0.000499647110700607299804687500 0 0 0 0 
2402333333.3333334923 0.160299316048622103592080634371 0.034871049225330352783203125000 -0.002855838509276508851292275537 -0.000335793301928788423538208008 0 0 0 0 
2402500000.0000000000 0.161399111151695306975994981258 0.033200431615114212036132812500 -0.002776490757241845130920410156 -0.000356507254764437675476074219 0 0 0 0 
2402666666.6666665077 0.162029027938842801193075615629 0.031307104974985122680664062500 -0.002899689367040992216822958838 -0.000056635093642398721795489652 0 0 0 0 
2402833333.3333334923 0.162858411669731112381143134371 0.029670853167772289621373360546 -0.002981256693601607842686318506 0.000006299315828073304146528244 0 0 0 0 
2403000000.0000000000 0.163734495639800997635049384371 0.028086518868803981435755545704 -0.002830546582117677168605185400 -0.000109496002551168203353881836 0 0 0 0 
2403166666.6666665077 0.164569258689880398849325615629 0.026439487934112548828125000000 -0.003063317388296126885655068506 0.000079000041296239942312240601 0 0 0 0 
2403333333.3333334923 0.165660649538040188888388115629 0.024847274646162990224818045704 -0.003087074961513280868530273438 0.000234695718972943696096697397 0 0 0 0 
2403500000.0000000000 0.166567847132682800292968750000 0.023730913177132609975794608204 -0.003088416997343302206752158057 0.000447219150373712182044982910 0 0 0 0 
2403666666.6666665077 0.167578443884849603850994981258 0.022214006632566448556920235546 -0.003068950260058044953587197412 0.000546123483218252658843994141 0 0 0 0 
2403833333.3333334923 0.168586388230323791503906250000 0.021016439422965049743652343750 -0.003029792336747049851658486475 0.000396886985981836915016174316 0 0 0 0 
2404000000.0000000000 0.169573590159416198730468750000 0.019928971305489540100097656250 -0.003164233407005668120143271338 0.000730477971956133842468261719 0 0 0 0 
2404166666.6666665077 0.170647755265235900878906250000 0.018745848909020420419713204296 -0.003131440607830882072448730469 0.000795494474004954099655151367 0 0 0 0 
2404333333.3333334923 0.171434938907623291015625000000 0.017732379958033561706542968750 -0.003204122185707091851475381006 0.001071907230652868964551616138 0 0 0 0 
2404500000.0000000000 0.172302708029747009277343750000 0.016758291050791740417480468750 -0.003239702433347702026367187500 0.001061747549101710102678608472 0 0 0 0 
2404666666.6666665077 0.173451155424117986481036268742 0.016013264656066901470143903907 -0.003121258690953255133387900244 0.001139139174483716921565390479 0 0 0 0 
2404833333.3333334923 0.174237594008445711990518134371 0.015306794084608560044258318555 -0.003160468302667140960693359375 0.001484064268879591984989785303 0 0 0 0 
2405000000.0000000000 0.175247758626937893966513115629 0.014596971683204170572301094921 -0.003080603666603565216064453125 0.001601551310159265995025634766 0 0 0 0 
2405166666.6666665077 0.176061213016510009765625000000 0.013967419043183330190638358204 -0.002940649399533867835998535156 0.001712666475214063904405903394 0 0 0 0 
2405333333.3333334923 0.176981359720230102539062500000 0.013284873217344280588170235546 -0.002965831197798252105712890625 0.001870566396974026939989399487 0 0 0 0 
2405500000.0000000000 0.177716568112373407561932481258 0.013043946586549280339251133398 -0.002899425104260445074794150244 0.002067369874566793008091591943 0 0 0 0 
2405666666.6666665077 0.178299888968467712402343750000 0.012620634399354459589948085352 -0.002799761248752474784851074219 0.002150914398953319029567099463 0 0 0 0 
2405833333.3333334923 0.178905174136161804199218750000 0.012281196191906930750836757227 -0.002711852313950657844543457031 0.002389221452176570892333984375 0 0 0 0 
2406000000.0000000000 0.179361492395401000976562500000 0.011813043616712089883824532421 -0.002431001281365751786472939600 0.002535020466893910928013466943 0 0 0 0 
2406166666.6666665077 0.179781496524810791015625000000 0.011766222305595879990547381055 -0.002414039103314280943629599463 0.002665736246854066848754882812 0 0 0 0 
2406333333.3333334923 0.180274307727813692947549384371 0.011426036246120929718017578125 -0.002280927961692214012145996094 0.002792126266285777091979980469 0 0 0 0 
2406500000.0000000000 0.180569782853126498123330634371 0.011082758195698259526262852148 -0.001946905045770108916639018481 0.002777808345854281945469521631 0 0 0 0 
2406666666.6666665077 0.180655717849731500823651231258 0.010836887173354629171351248829 -0.002020864514634013175964355469 0.002910541137680410905125283350 0 0 0 0 
2406833333.3333334923 0.180942863225936889648437500000 0.010522905737161639821986014454 -0.001783345127478241920471191406 0.003186177462339400811436318506 0 0 0 0 
2407000000.0000000000 0.180932924151420593261718750000 0.010179162025451660156250000000 -0.001733700628392397923710488428 0.003203960834071040153503417969 0 0 0 0 
2407166666.6666665077 0.180998444557189913650674384371 0.009846579283475875854492187500 -0.001399163505993783907649374854 0.003201019018888473944423056494 0 0 0 0 
2407333333.3333334923 0.180686831474304199218750000000 0.009399033151566982269287109375 -0.001147598959505558013916015625 0.003455787664279342131373740088 0 0 0 0 
2407500000.0000000000 0.180608704686164911468182481258 0.009068244136869907379150390625 -0.001022943411953747055651020581 0.003270186483860015869140625000 0 0 0 0 
2407666666.6666665077 0.180301249027252197265625000000 0.008710508234798908233642578125 -0.000842570618260651826858520508 0.003382016438990830941441201318 0 0 0 0 
2407833333.3333334923 0.179853141307830810546875000000 0.008052608929574489593505859375 -0.000618002028204500675201416016 0.003248463384807109832763671875 0 0 0 0 
2408000000.0000000000 0.179492548108100891113281250000 0.007464440539479255676269531250 -0.000538572785444557666778564453 0.003381863934919238090515136719 0 0 0 0 
2408166666.6666665077 0.178988471627235412597656250000 0.006895980332046747207641601562 -0.000447969970991834998130798340 0.003224155865609645843505859375 0 0 0 0 
2408333333.3333334923 0.178728818893432589431924384371 0.006181812379509210586547851562 -0.000012293666259211020712750588 0.003113027429208159013035439600 0 0 0 0 
2408500000.0000000000 0.177937895059585599044638115629 0.005379488226026296615600585938 -0.000104219194327015402630129404 0.002968087093904614014866494287 0 0 0 0 
2408666666.6666665077 0.177328094840049688141192518742 0.004492674488574265566354082324 0.000133735389681533006116589957 0.003093664068728684945347451318 0 0 0 0 
2408833333.3333334923 0.176737517118454007247763115629 0.003488092217594385147094726562 0.000340788945322856307029724121 0.003051728243008255958557128906 0 0 0 0 
2409000000.0000000000 0.175892576575279208084268134371 0.002293804893270134925842285156 0.000421506556449458003044128418 0.002892418764531611962559365381 0 0 0 0 
2409166666.6666665077 0.175300911068916293045205634371 0.001236525713466108062146830981 0.000529768818523734807968139648 0.002804688643664122061488486182 0 0 0 0 
2409333333.3333334923 0.174681529402732904632244981258 -0.000101228346466086804866790771 0.000678647716995328664779663086 0.002725100843235849900486611475 0 0 0 0 
2409500000.0000000000 0.173928365111351013183593750000 -0.001423510257154702923418354565 0.000836819701362401247024536133 0.002558300970122218132019042969 0 0 0 0 
2409666666.6666665077 0.172911316156387301345986884371 -0.002825218252837657928466796875 0.000758786161895841360092163086 0.002451539505273104147670126807 0 0 0 0 
2409833333.3333334923 0.172288194298744201660156250000 -0.004330486059188842773437500000 0.000893824559170752763748168945 0.002367339795455337004420615088 0 0 0 0 
2410000000.0000000000 0.171982824802398709396200615629 -0.005796604324132204055786132812 0.001036465167999268011805868994 0.002275519771501421928405761719 0 0 0 0 
2410166666.6666665077 0.171300932765006991287393134371 -0.007448982447385787963867187500 0.000934601004701107740402221680 0.002143456134945154190063476562 0 0 0 0 
2410333333.3333334923 0.170609951019287109375000000000 -0.009183874353766441345214843750 0.001055733300745486996294331128 0.002232456346973776817321777344 0 0 0 0 
2410500000.0000000000 0.170047059655189486404580634371 -0.010903232730925079690953438671 0.001253031077794731096980429541 0.002024330431595445112941122900 0 0 0 0 
2410666666.6666665077 0.169536992907524108886718750000 -0.012827302329242229461669921875 0.001195387914776802062988281250 0.001907169469632207913639687646 0 0 0 0 
2410833333.3333334923 0.169029384851455688476562500000 -0.014687775634229179727574532421 0.001058716210536658980725932544 0.001655952073633671023725200122 0 0 0 0 
2411000000.0000000000 0.168675243854522705078125000000 -0.016456289216876029968261718750 0.001130581251345575072644877856 0.001815039431676269011256552588 0 0 0 0 
2411166666.6666665077 0.168407097458839388748330634371 -0.018443642184138301504114920704 0.001228824025020003101946186597 0.001781419501639903025386191260 0 0 0 0 
2411333333.3333334923 0.168026626110076904296875000000 -0.020460627973079681396484375000 0.001204301370307802937151264722 0.001589810475707053921343159253 0 0 0 0 
2411500000.0000000000 0.167991772294044494628906250000 -0.022571429610252380371093750000 0.001238938304595649025560688550 0.001580193988047539970995258862 0 0 0 0 
2411666666.6666665077 0.167906716465950012207031250000 -0.024402074515819549560546875000 0.001215363270603119893314980615 0.001397920539602637074114155347 0 0 0 0 
2411833333.3333334923 0.167979508638382013518963731258 -0.026427656412124630319615548046 0.001198448240756988959071493994 0.001323654898442327976226806641 0 0 0 0 
2412000000.0000000000 0.167975410819053705413494981258 -0.028480321168899539602259451954 0.001177671598270535902736044775 0.001303759519942105033277202075 0 0 0 0 
2412166666.6666665077 0.167949840426445007324218750000 -0.030500432476401329040527343750 0.001323005300946533896802592700 0.001136293169111012978794716943 0 0 0 0 
2412333333.3333334923 0.168377041816711398025674384371 -0.032412033528089523315429687500 0.001178066711872816085815429688 0.001021993346512318091151572119 0 0 0 0 
2412500000.0000000000 0.168410494923591613769531250000 -0.034234263002872467041015625000 0.001310524879954755089403461987 0.001149646588601171970367431641 0 0 0 0 
2412666666.6666665077 0.168846726417541503906250000000 -0.036354392766952521587331403907 0.001188375987112521908403706128 0.000985538586974143981933593750 0 0 0 0 
2412833333.3333334923 0.169137150049209594726562500000 -0.038119602948427200317382812500 0.001094730920158327059504843604 0.000947979977354407310485839844 0 0 0 0 
2413000000.0000000000 0.169624432921409606933593750000 -0.039827205240726470947265625000 0.001184290042147039933445595850 0.000567624520044773817062377930 0 0 0 0 
2413166666.6666665077 0.169937849044799804687500000000 -0.041530102491378777240793596093 0.001175498007796704985974955981 0.000825596915092319250106811523 0 0 0 0 
2413333333.3333334923 0.170525237917900113204794365629 -0.043247181922197341918945312500 0.001011296175420284054399799878 0.000795316591393202543258666992 0 0 0 0 
2413500000.0000000000 0.171052962541580200195312500000 -0.044975869357585906982421875000 0.001052029663696884892107319409 0.000584114575758576393127441406 0 0 0 0 
2413666666.6666665077 0.171801298856735201736611884371 -0.046371735632419593120534528907 0.000910023692995309829711914062 0.000582398439291864633560180664 0 0 0 0 
2413833333.3333334923 0.172156736254692105392294365629 -0.047970633953809738159179687500 0.000926325446926057338714599609 0.000549809250514954328536987305 0 0 0 0 
2414000000.0000000000 0.172781795263290405273437500000 -0.049308173358440399169921875000 0.000813049555290490388870239258 0.000442291086073964780003148212 0 0 0 0 
2414166666.6666665077 0.173520430922508211990518134371 -0.050549518316984176635742187500 0.000865736510604619979858398438 0.000438733695773407816886901855 0 0 0 0 
2414333333.3333334923 0.173926725983619689941406250000 -0.051870256662368767475168596093 0.000758965790737420320510864258 0.000581320433411747217178344727 0 0 0 0 
2414500000.0000000000 0.174734428524971008300781250000 -0.052821926772594451904296875000 0.000596461410168558359146118164 0.000412463588872924501269739972 0 0 0 0 
2414666666.6666665077 0.175138041377067593673544365629 -0.053980249911546707153320312500 0.000678633106872439384460449219 0.000602145271841436624526977539 0 0 0 0 
2414833333.3333334923 0.175702944397926302810830634371 -0.054793816059827811504323591407 0.000479612994240596890449523926 0.000515875348355621099472045898 0 0 0 0 
2415000000.0000000000 0.176113143563270596603231865629 -0.055644206702709197998046875000 0.000542641850188374519348144531 0.000477285881061106920242309570 0 0 0 0 
2415166666.6666665077 0.176659688353538513183593750000 -0.056385297328233718872070312500 0.000449703395133838111728113995 0.000566065078601241111755371094 0 0 0 0 
2415333333.3333334923 0.177128136157989501953125000000 -0.057085849344730377197265625000 0.000569264113437384366989135742 0.000524339266121387481689453125 0 0 0 0 
2415500000.0000000000 0.177473962306976290603799384371 -0.057525388896465301513671875000 0.000467138801468536311953944073 0.000558983883820474147796630859 0 0 0 0 
2415666666.6666665077 0.177678555250167902190838731258 -0.058012302964925772930104841407 0.000585698348004370927810668945 0.000725250400137156248092651367 0 0 0 0 
2415833333.3333334923 0.177967861294746398925781250000 -0.058600313961505889892578125000 0.000439396098954603075981140137 0.000625948072411119937896728516 0 0 0 0 
2416000000.0000000000 0.177849128842353793045205634371 -0.059056852012872702861745466407 0.000643980980385094881057739258 0.000614296703133732080459594727 0 0 0 0 
2416166666.6666665077 0.178280577063560513595419365629 -0.059305712580680847167968750000 0.000446218036813661510318201886 0.000669876928441226482391357422 0 0 0 0 
2416333333.3333334923 0.178140312433242797851562500000 -0.059520218521356582641601562500 0.000605583947617560625076293945 0.000749655184336006641387939453 0 0 0 0 
2416500000.0000000000 0.177962481975555392166299384371 -0.059857349842786788940429687500 0.000555152306333184242248535156 0.000838735373690724372863769531 0 0 0 0 
2416666666.6666665077 0.177789017558097811599893134371 -0.059887465089559561992604841407 0.000549399293959140777587890625 0.000751894898712635040283203125 0 0 0 0 
2416833333.3333334923 0.177719831466674804687500000000 -0.060273412615060813213307966407 0.000604919681791216135025024414 0.000740890798624604940414428711 0 0 0 0 
2417000000.0000000000 0.177066072821617098709268134371 -0.060471933335065841674804687500 0.000633031362667679786682128906 0.000748092192225158214569091797 0 0 0 0 
2417166666.6666665077 0.176608353853225708007812500000 -0.060523461550474166870117187500 0.000607687223237007856369018555 0.000825883762445300817489624023 0 0 0 0 
2417333333.3333334923 0.176146522164344787597656250000 -0.060711860656738281250000000000 0.000588466704357415437698364258 0.000993237947113811969757080078 0 0 0 0 
2417500000.0000000000 0.175471961498260498046875000000 -0.061025168746709816669504533593 0.000580626772716641426086425781 0.000810948607977479696273803711 0 0 0 0 
2417666666.6666665077 0.174835711717605590820312500000 -0.061132382601499557495117187500 0.000717260525561869144439697266 0.000912083312869071960449218750 0 0 0 0 
2417833333.3333334923 0.173894226551055908203125000000 -0.061451990157365798950195312500 0.000739154405891895294189453125 0.000986247439868748188018798828 0 0 0 0 
2418000000.0000000000 0.172895744442939813811932481258 -0.061787322163581848144531250000 0.000911927374545484781265258789 0.000927088956814259290695190430 0 0 0 0 
2418166666.6666665077 0.172069087624549893478231865629 -0.061970647424459457397460937500 0.000901310064364224672317504883 0.001020339434035121960880898584 0 0 0 0 
2418333333.3333334923 0.171260401606559808929119981258 -0.062392573803663246845285783593 0.000857918872497975826263427734 0.000946870772168040275573730469 0 0 0 0 
2418500000.0000000000 0.170028522610664395431356865629 -0.062782153487205505371093750000 0.000914480828214436769485473633 0.001010283594951034025904990088 0 0 0 0 
2418666666.6666665077 0.168943509459495488922442518742 -0.063218891620635986328125000000 0.001184048363938928084132529150 0.000953496666625142097473144531 0 0 0 0 
2418833333.3333334923 0.167655155062675503829794365629 -0.063811093568801879882812500000 0.001135235419496894099591899341 0.000934031209908425807952880859 0 0 0 0 
2419000000.0000000000 0.166427135467529296875000000000 -0.064379446208477020263671875000 0.001082801958546042008640908350 0.000988612999208271503448486328 0 0 0 0 
2419166666.6666665077 0.165322318673133905608807481258 -0.064947962760925292968750000000 0.001155921956524253108380961841 0.000833633414003998041152954102 0 0 0 0 
2419333333.3333334923 0.163799077272415188888388115629 -0.065531402826309204101562500000 0.001244411338120698928833007812 0.000973081216216087341308593750 0 0 0 0 
2419500000.0000000000 0.162724524736404391189736884371 -0.066693648695945739746093750000 0.001177708618342876000645302881 0.000961563258897513151168823242 0 0 0 0 
2419666666.6666665077 0.161556303501129205901776231258 -0.067596741020679473876953125000 0.001193487434647976918461464990 0.000861570180859416723251342773 0 0 0 0 
2419833333.3333334923 0.160391464829444913009481865629 -0.068419091403484344482421875000 0.001219420344568789005279541016 0.000939976482186466455459594727 0 0 0 0 
2420000000.0000000000 0.159274712204933194259481865629 -0.069504007697105407714843750000 0.001335627166554331996320414966 0.000892890442628413438796997070 0 0 0 0 
