# Hz S RI R 50
2400000000.0000000000 0.157324016094207791427450615629 0.063047081232070922851562500000 -0.002482723444700241088867187500 -0.001023196149617433981654501807 0 0 0 0 
2400166666.6666665077 0.157297089695930508712606865629 0.061331700533628456806223283593 -0.002592606469988822937011718750 -0.001061172457411885044695210034 0 0 0 0 
2400333333.3333334923 0.157164439558982904632244981258 0.059208001941442489624023437500 -0.002443517092615365982055664062 -0.000892619485966861248016357422 0 0 0 0 
2400500000.0000000000 0.157210290431976290603799384371 0.057384107261896133422851562500 -0.002692404203116894201991415869 -0.000907735666260123252868652344 0 0 0 0 
2400666666.6666665077 0.157082065939903287032919365629 0.055288251489400856708567033593 -0.002590538002550601959228515625 -0.000784178089816123247146606445 0 0 0 0 
2400833333.3333334923 0.157240152359008789062500000000 0.053331226110458367084543596093 -0.002684069797396659851074218750 -0.000796803098637610673904418945 0 0 0 0 
2401000000.0000000000 0.157263785600662203689736884371 0.051255561411380767822265625000 -0.002607715083286166191101074219 -0.000766140292398631572723388672 0 0 0 0 
2401166666.6666665077 0.157527133822441101074218750000 0.049021370708942413330078125000 -0.002712366636842488808872841943 -0.000656612159218639135360717773 0 0 0 0 
2401333333.3333334923 0.157757192850112887283486884371 0.047129157930612557148020158593 -0.002608241047710179848911904443 -0.000542148074600845575332641602 0 0 0 0 
2401500000.0000000000 0.158107653260230990310830634371 0.044836986809968948364257812500 -0.002642965409904717965366982568 -0.000492316961754113435745239258 0 0 0 0 
2401666666.6666665077 0.158559516072273309905682481258 0.043151203542947769165039062500 -0.002575987717136741118190146338 -0.000517241307534277439117431641 0 0 0 0 
2401833333.3333334923 0.158799111843109103103799384371 0.040901802480220801616628278907 -0.002690823981538414955139160156 -0.000488879624754190444946289062 0 0 0 0 
2402000000.0000000000 0.159340277314186096191406250000 0.038974016904830932617187500000 -0.002673717215657234191894531250 -0.000440896139480173587799072266 0 0 0 0 
2402166666.6666665077 0.159785389900207491775674384371 0.036680895835161209106445312500 -0.002633435185998678207397460938 -0.000188584803254343596383771353 0 0 0 0 
2402333333.3333334923 0.160294055938720703125000000000 0.035155866295099258422851562500 -0.002819877583533525900599814307 -0.000330141658196225816577357159 0 0 0 0 
2402500000.0000000000 0.161265760660171508789062500000 0.033319789916276931762695312500 -0.002910919720306992964503622900 -0.000088721651991363614797592163 0 0 0 0 
2402666666.6666665077 0.162315487861633300781250000000 0.031673744320869452739675153907 -0.002827928401529788970947265625 -0.000010562518582446500658988953 0 0 0 0 
2402833333.3333334923 0.162813231348991394042968750000 0.030009772628545761108398437500 -0.002965519903227686882019042969 0.000017326532542938369920457534 0 0 0 0 
2403000000.0000000000 0.163803860545158386230468750000 0.028210526332259181631068045704 -0.003006827319040894942042685400 0.000049639918870525441389491422 0 0 0 0 
2403166666.6666665077 0.164718225598335293868856865629 0.026713745668530460702916329296 -0.002764869015663861794712685693 0.000171896215761080411359509879 0 0 0 0 
2403333333.3333334923 0.165630578994751004318075615629 0.025093391537666320800781250000 -0.003036028705537319183349609375 0.000432806846220046281814575195 0 0 0 0 
2403500000.0000000000 0.166649058461189297775106865629 0.023850524798035621643066406250 -0.003087860299274324937107705225 0.000370404974091798121303004132 0 0 0 0 
2403666666.6666665077 0.167405530810356112381143134371 0.022434981539845470083216483204 -0.003123700851574540138244628906 0.000587471527978777885437011719 0 0 0 0 
2403833333.3333334923 0.168573126196861294845419365629 0.020882297307252880441685860546 -0.003250798210501670837402343750 0.000542934576515108346939086914 0 0 0 0 
2404000000.0000000000 0.169674903154373196700888115629 0.019921839237213141704518903907 -0.003023330355063080787658691406 0.000768610276281833648681640625 0 0 0 0 
2404166666.6666665077 0.170622467994689913650674384371 0.018721900880336761474609375000 -0.003063587937504053115844726562 0.000600190716795623302459716797 0 0 0 0 
2404333333.3333334923 0.171604752540588406661825615629 0.018013736233115199697474295704 -0.003157689934596418900730752100 0.001139960018917917988420795972 0 0 0 0 
2404500000.0000000000 0.172448053956031799316406250000 0.016799001023173328744908516796 -0.003157809842377901077270507812 0.001206871238537132956861186450 0 0 0 0 
2404666666.6666665077 0.173642590641975402832031250000 0.016181867569684978830357735546 -0.003015027148649096922633505713 0.001168167684227227947832417065 0 0 0 0 
2404833333.3333334923 0.174427956342697088043536268742 0.015199676156044009817103201954 -0.003102755406871438026428222656 0.001443631132133305072784423828 0 0 0 0 
2405000000.0000000000 0.175375610589981106857138115629 0.014531566761434079951276210352 -0.003008161438629031181335449219 0.001548092346638441085815429688 0 0 0 0 
2405166666.6666665077 0.176237508654594393631143134371 0.013954046182334419595738594921 -0.003017267677932978110072470557 0.001671669073402882055995322119 0 0 0 0 
2405333333.3333334923 0.177109792828559903243856865629 0.013366836123168470210065272852 -0.003123178612440824942347861182 0.001974711194634437994716025244 0 0 0 0 
2405500000.0000000000 0.177671849727630587478799384371 0.013023114763200279581090157421 -0.002841547364369035200831747900 0.002146547194570302963256835938 0 0 0 0 
2405666666.6666665077 0.178420469164848299881143134371 0.012657301500439640390416329296 -0.002813527360558509826660156250 0.002210550475865602926967001807 0 0 0 0 
2405833333.3333334923 0.178985878825187710861044365629 0.012201416306197639810582344921 -0.002688400214537978172302246094 0.002423149533569813208339072119 0 0 0 0 
2406000000.0000000000 0.179578334093093899825888115629 0.011833781376481059682825858204 -0.002341352170333265824558877100 0.002448245882987976074218750000 0 0 0 0 
2406166666.6666665077 0.179776743054390009124432481258 0.011665790341794490814208984375 -0.002441536867991089820861816406 0.002625949680805205865147256006 0 0 0 0 
2406333333.3333334923 0.180576682090759305099325615629 0.011328978464007379359235194727 -0.002275338163599371910095214844 0.002905027475208044052124023438 0 0 0 0 
2406500000.0000000000 0.180726021528243990799111884371 0.011060929857194420206090157421 -0.002240675501525402069091796875 0.002890845993533730940577841650 0 0 0 0 
2406666666.6666665077 0.180661484599113492111044365629 0.010755178518593309575090977148 -0.002003004774451255798339843750 0.003053016727790236906764365088 0 0 0 0 
2406833333.3333334923 0.180883288383483886718750000000 0.010524719953536990774134451954 -0.001741042011417448954341269385 0.003121119225397706031799316406 0 0 0 0 
2407000000.0000000000 0.181102976202964810470419365629 0.010210370644927030045479021680 -0.001539808581583202102063823169 0.003233000403270124955418252100 0 0 0 0 
2407166666.6666665077 0.181126952171325711349325615629 0.009935091249644756317138671875 -0.001215158961713314056396484375 0.003190530231222509904148720850 0 0 0 0 
2407333333.3333334923 0.180713012814521789550781250000 0.009522723034024238586425781250 -0.001087937504053116061566996997 0.003133454592898488044738769531 0 0 0 0 
2407500000.0000000000 0.180638700723648099044638115629 0.009109344333410263061523437500 -0.000964659266173839569091796875 0.003412310499697924093959189307 0 0 0 0 
2407666666.6666665077 0.180409356951713589767294365629 0.008683227002620697021484375000 -0.000747791433241218328475952148 0.003219648730009793801548623193 0 0 0 0 
2407833333.3333334923 0.179915711283683804611044365629 0.007987825199961662292480468750 -0.000480311340652406215667724609 0.003400385379791260199305868994 0 0 0 0 
2408000000.0000000000 0.179510205984115600585937500000 0.007338277064263820648193359375 -0.000482376781292259693145751953 0.003162340028211473984959267725 0 0 0 0 
2408166666.6666665077 0.179056927561760004241619981258 0.006904934998601675033569335938 -0.000315404118737205917209071027 0.003161766799166799025294638525 0 0 0 0 
2408333333.3333334923 0.178660616278648404220419365629 0.006137700751423835754394531250 -0.000263033056398853713839930402 0.003067861776798963980433798682 0 0 0 0 
2408500000.0000000000 0.178044855594635009765625000000 0.005379396956413984298706054688 0.000066691856773104518651962280 0.003039366565644741058349609375 0 0 0 0 
2408666666.6666665077 0.177428305149078396896200615629 0.004179088398814201354980468750 0.000254311744356527924537658691 0.003036933485418558120727539062 0 0 0 0 
2408833333.3333334923 0.176631793379783602615518134371 0.003232134971767663955688476562 0.000415204238379374200671595441 0.003019825555384159088134765625 0 0 0 0 
2409000000.0000000000 0.175896674394607488434161268742 0.002360025886446237997767783057 0.000451935891760513186454772949 0.002860425040125846862792968750 0 0 0 0 
2409166666.6666665077 0.175319388508796691894531250000 0.001265990780666470961329794775 0.000529638840816915035247802734 0.002685840008780359788181923975 0 0 0 0 
2409333333.3333334923 0.174744665622711209396200615629 -0.000115258335426915396325527052 0.000682482321280986070632934570 0.002562335459515451951267861475 0 0 0 0 
2409500000.0000000000 0.174075230956077603439169365629 -0.001559956232085824012756347656 0.000647864013444632291793823242 0.002622970147058368162867880713 0 0 0 0 
2409666666.6666665077 0.173110589385032709319744981258 -0.002879567677155137062072753906 0.000681847566738724708557128906 0.002447303151711821989772177588 0 0 0 0 
2409833333.3333334923 0.172497481107711791992187500000 -0.004259376320987939834594726562 0.000848262861836701631546020508 0.002473285654559731917140341650 0 0 0 0 
2410000000.0000000000 0.171929091215133694747763115629 -0.005869538523256778717041015625 0.000899995968211442232131958008 0.002351884264498949050903320312 0 0 0 0 
2410166666.6666665077 0.171234279870986910720986884371 -0.007468452677130699157714843750 0.000935550080612301826477050781 0.002143039600923656983616494287 0 0 0 0 
2410333333.3333334923 0.170559346675872802734375000000 -0.009200489148497581481933593750 0.000950606307014822959899902344 0.002225269563496112823486328125 0 0 0 0 
2410500000.0000000000 0.170113876461982699295205634371 -0.011050770059227939950963204296 0.001212670351378620104548788916 0.002048777416348456902744912256 0 0 0 0 
2410666666.6666665077 0.169495746493339510818643134371 -0.012863161042332649230957031250 0.001185339759103954055188823169 0.002109727822244166894199990381 0 0 0 0 
2410833333.3333334923 0.169093981385230990310830634371 -0.014530678279697900254219256055 0.001056131790392101027845073169 0.001857103896327316977857280200 0 0 0 0 
2411000000.0000000000 0.168635934591293307205361884371 -0.016466170549392700195312500000 0.001235444215126336054560995947 0.001776224002242088101030659253 0 0 0 0 
2411166666.6666665077 0.168383717536926297286825615629 -0.018522242084145549428919608204 0.001240363344550132968305278247 0.001723781111650168895721435547 0 0 0 0 
2411333333.3333334923 0.168148249387741088867187500000 -0.020375287160277370107630545704 0.001251172856427728912950825269 0.001789229223504662947413779150 0 0 0 0 
2411500000.0000000000 0.167981624603271512130575615629 -0.022517455741763118398646170704 0.001246069092303514914271689307 0.001493319869041443087934184497 0 0 0 0 
2411666666.6666665077 0.167845174670219393631143134371 -0.024503529071807861328125000000 0.001270068110898137092590332031 0.001448115333914756991742778247 0 0 0 0 
2411833333.3333334923 0.167852431535720797439736884371 -0.026546288281679149972935860546 0.001324754208326339938520121997 0.001347187673673033931134868091 0 0 0 0 
2412000000.0000000000 0.168075993657112093826455634371 -0.028445381671190258371373360546 0.001408054027706385092494345557 0.001368529745377599976183247144 0 0 0 0 
2412166666.6666665077 0.168001085519790704925213731258 -0.030528111383318901062011718750 0.001328195095993578000309609521 0.001207352848723530986188579028 0 0 0 0 
2412333333.3333334923 0.168324232101440401931924384371 -0.032379046082496643066406250000 0.001263519516214727921726845850 0.001261060126125812964198447119 0 0 0 0 
2412500000.0000000000 0.168465629220008905608807481258 -0.034322820603847496723215471093 0.001331899547949432893040322412 0.001155899604782461903215717847 0 0 0 0 
2412666666.6666665077 0.168985649943351801116619981258 -0.036193918436765670776367187500 0.001130474614910780949833535303 0.001043421099893748977063823169 0 0 0 0 
2412833333.3333334923 0.169193848967552212814169365629 -0.038044579327106482768972028907 0.001155947451479732990264892578 0.001118976040743290944340371240 0 0 0 0 
2413000000.0000000000 0.169630840420722989181356865629 -0.039812143892049789428710937500 0.001207127468660474040387797778 0.000940440280828624963760375977 0 0 0 0 
2413166666.6666665077 0.170109614729881286621093750000 -0.041469350457191467285156250000 0.001233645831234752915026020581 0.000953322509303689002990722656 0 0 0 0 
2413333333.3333334923 0.170634746551513699630575615629 -0.043208267539739608764648437500 0.001139367348514497063280415112 0.000730712374206632375717163086 0 0 0 0 
2413500000.0000000000 0.171161472797393798828125000000 -0.044949151575565338134765625000 0.001184240798465908007380820166 0.000510317797306925058364868164 0 0 0 0 
2413666666.6666665077 0.171764165163040188888388115629 -0.046527411788702011108398437500 0.001142845605500042004826211084 0.000539557193405926227569580078 0 0 0 0 
2413833333.3333334923 0.172204151749610900878906250000 -0.047986503690481192851979841407 0.001099450048059225082397460938 0.000624610518570989370346069336 0 0 0 0 
2414000000.0000000000 0.172777622938156100174111884371 -0.049431230872869491577148437500 0.001059572561644017913221049731 0.000478584639495238715976160870 0 0 0 0 
2414166666.6666665077 0.173393607139587402343750000000 -0.050726681947708129882812500000 0.001059019588865339972852397388 0.000497231725603342056274414062 0 0 0 0 
2414333333.3333334923 0.174064517021179199218750000000 -0.051920786499977111816406250000 0.001026716548949480056762695312 0.000433927081758156418800354004 0 0 0 0 
2414500000.0000000000 0.174768283963203402420205634371 -0.052953936159610748291015625000 0.000872860837262123823165893555 0.000480415270430967211723327637 0 0 0 0 
2414666666.6666665077 0.175145924091339111328125000000 -0.053896281868219382549245466407 0.000956090749241411685943603516 0.000406229664804413914680480957 0 0 0 0 
2414833333.3333334923 0.175684496760368402679119981258 -0.054867271333932876586914062500 0.000898412195965647697448730469 0.000504792260471731424331665039 0 0 0 0 
2415000000.0000000000 0.176248803734779413421307481258 -0.055742241442203521728515625000 0.000716087000910192728042602539 0.000412674737162888104289454327 0 0 0 0 
2415166666.6666665077 0.176544576883316012283486884371 -0.056521456688642501831054687500 0.000655303534585982561111450195 0.000330450478941202217906397687 0 0 0 0 
2415333333.3333334923 0.177116245031356811523437500000 -0.057131014764308929443359375000 0.000688585045281797647476196289 0.000572199875023216009140014648 0 0 0 0 
2415500000.0000000000 0.177411600947380093673544365629 -0.057614397257566452026367187500 0.000643525447230786085128784180 0.000594640383496880531311035156 0 0 0 0 
2415666666.6666665077 0.177682295441627502441406250000 -0.058029428124427802349050153907 0.000555540958885103464126586914 0.000586338341236114501953125000 0 0 0 0 
2415833333.3333334923 0.177912920713424710372763115629 -0.058518107980489730834960937500 0.000678615586366504430770874023 0.000580596039071679115295410156 0 0 0 0 
2416000000.0000000000 0.177895784378051813323651231258 -0.058976016938686370849609375000 0.000539354165084660053253173828 0.000545033777598291635513305664 0 0 0 0 
2416166666.6666665077 0.178235113620758112151776231258 -0.059315398335456848144531250000 0.000517349224537611007690429688 0.000783277733717113733291625977 0 0 0 0 
2416333333.3333334923 0.178089618682861300369424384371 -0.059462655335664749145507812500 0.000587805465329438447952270508 0.000634702795650810003280639648 0 0 0 0 
2416500000.0000000000 0.178030252456665011306924384371 -0.059739910066127777099609375000 0.000493975705467164516448974609 0.000826774106826633214950561523 0 0 0 0 
2416666666.6666665077 0.177811652421951293945312500000 -0.059922933578491210937500000000 0.000484288699226453900337219238 0.000650876376312226057052612305 0 0 0 0 
2416833333.3333334923 0.177662327885627802093182481258 -0.060095995664596557617187500000 0.000561115564778447151184082031 0.000734103785362094640731811523 0 0 0 0 
2417000000.0000000000 0.176998049020767211914062500000 -0.060478009283542633056640625000 0.000507604971062391996383666992 0.000611744238995015621185302734 0 0 0 0 
2417166666.6666665077 0.176638960838317898849325615629 -0.060543160885572426532785783593 0.000535059079993516206741333008 0.000898358994163572788238525391 0 0 0 0 
2417333333.3333334923 0.176166266202926607986611884371 -0.060709744691848761821706403907 0.000690618820954114198684692383 0.000996684771962463855743408203 0 0 0 0 
2417500000.0000000000 0.175449222326278686523437500000 -0.061088550835847861553151716407 0.000600467901676893234252929688 0.000931359594687819480895996094 0 0 0 0 
2417666666.6666665077 0.174841493368148803710937500000 -0.061042685061693191528320312500 0.000659711309708654880523681641 0.000936194963287562131881713867 0 0 0 0 
2417833333.3333334923 0.173960357904434204101562500000 -0.061347860842943191528320312500 0.000850834709126502275466918945 0.000957738433498889207839965820 0 0 0 0 
2418000000.0000000000 0.172990024089813204666299384371 -0.061821520328521728515625000000 0.000971844943705946207046508789 0.000979221542365849018096923828 0 0 0 0 
2418166666.6666665077 0.172003462910652188400106865629 -0.061995808035135269165039062500 0.001039479859173298098920512622 0.000975648988969624042510986328 0 0 0 0 
2418333333.3333334923 0.171187624335289001464843750000 -0.062341671437025070190429687500 0.000861757143866270780563354492 0.000973585643805563449859619141 0 0 0 0 
2418500000.0000000000 0.170196726918220492263955634371 -0.062663480639457702636718750000 0.001026809099130332903621054541 0.000940595869906246662139892578 0 0 0 0 
2418666666.6666665077 0.169084683060646112640057481258 -0.063289098441600799560546875000 0.000910064962226897478103637695 0.000989979598671197891235351562 0 0 0 0 
2418833333.3333334923 0.167670235037803705413494981258 -0.063847362995147705078125000000 0.000919467420317232608795166016 0.001053236308507621071459126050 0 0 0 0 
2419000000.0000000000 0.166389644145965603927450615629 -0.064421296119689941406250000000 0.001072702114470303058624267578 0.000792927341535687446594238281 0 0 0 0 
2419166666.6666665077 0.165337368845939608474893134371 -0.064862117171287536621093750000 0.001009324565529823086382221753 0.001023743418045341968536376953 0 0 0 0 
2419333333.3333334923 0.163953036069869995117187500000 -0.065568000078201293945312500000 0.001236705691553652069689106519 0.000982375582680106163024902344 0 0 0 0 
2419500000.0000000000 0.162795901298523004729901231258 -0.066594682633876800537109375000 0.001191107323393226103541708838 0.000897898280527442693710327148 0 0 0 0 
2419666666.6666665077 0.161658689379692105392294365629 -0.067672446370124816894531250000 0.001128919306211173968074179541 0.000812283193226903676986694336 0 0 0 0 
2419833333.3333334923 0.160348296165466308593750000000 -0.068417660892009735107421875000 0.001298502204008400006535195459 0.000805147516075521707534790039 0 0 0 0 
2420000000.0000000000 0.159305080771446200271768134371 -0.069468840956687927246093750000 0.001285212696529925086377788013 0.000878924387507140636444091797 0 0 0 0 
