# Version 1.00
#
freq[Hz];re:Trc1_S11;im:Trc1_S11;re:Trc2_S21;im:Trc2_S21;
2.400000000000000E+009;1.681991070508957E-001;4.110727086663246E-002;2.976799733005464E-004;2.714978531002998E-003;
2.400166666666667E+009;1.688685268163681E-001;4.030669480562210E-002;2.916101948358119E-004;2.576400293037295E-003;
2.400333333333334E+009;1.692979037761688E-001;3.949675336480141E-002;4.013739817310125E-004;2.708530053496361E-003;
2.400500000000000E+009;1.699781566858292E-001;3.847681730985642E-002;4.337263235356659E-004;2.645885106176138E-003;
2.400666666666667E+009;1.702997088432312E-001;3.743157163262367E-002;5.445650313049555E-004;2.746190875768662E-003;
2.400833333333334E+009;1.707154959440231E-001;3.674098104238510E-002;6.398681434802711E-004;2.733797999098897E-003;
2.401000000000000E+009;1.710190027952194E-001;3.586215153336525E-002;7.482758956030011E-004;2.762357937172055E-003;
2.401166666666667E+009;1.712566167116165E-001;3.488701954483986E-002;7.568871369585395E-004;2.831096528097987E-003;
2.401333333333334E+009;1.714104264974594E-001;3.424173220992088E-002;8.184769540093839E-004;2.832270693033934E-003;
2.401500000000000E+009;1.719935238361359E-001;3.318762034177780E-002;1.077504828572273E-003;3.006332088261843E-003;
2.401666666666667E+009;1.718743741512299E-001;3.252655640244484E-002;1.196425757370889E-003;2.809298224747181E-003;
2.401833333333334E+009;1.720136106014252E-001;3.151485323905945E-002;1.413121004588902E-003;2.911605406552553E-003;
2.402000000000000E+009;1.718858778476715E-001;3.068329952657223E-002;1.366850105114281E-003;2.921849954873323E-003;
2.402166666666667E+009;1.720317304134369E-001;2.980423532426357E-002;1.694696373306215E-003;2.620823448523879E-003;
2.402333333333334E+009;1.720206439495087E-001;2.891847677528858E-002;1.772848190739751E-003;2.760707400739193E-003;
2.402500000000000E+009;1.722911894321442E-001;2.789662033319473E-002;1.999356318265200E-003;2.511529019102454E-003;
2.402666666666667E+009;1.722431033849716E-001;2.722660638391972E-002;1.936132088303566E-003;2.424642210826278E-003;
2.402833333333334E+009;1.721901893615723E-001;2.605232223868370E-002;2.191354054957628E-003;2.300780033692718E-003;
2.403000000000000E+009;1.721180975437164E-001;2.509941905736923E-002;2.293821191415191E-003;2.322758780792356E-003;
2.403166666666667E+009;1.719333380460739E-001;2.400705032050610E-002;2.342189429327846E-003;2.152107888832688E-003;
2.403333333333334E+009;1.721003800630570E-001;2.287750318646431E-002;2.425127429887652E-003;1.889132312498987E-003;
2.403500000000000E+009;1.718477159738541E-001;2.185688167810440E-002;2.471074461936951E-003;1.951207639649510E-003;
2.403666666666667E+009;1.717019677162170E-001;2.034671045839787E-002;2.361716702580452E-003;1.732339384034276E-003;
2.403833333333334E+009;1.715295016765595E-001;1.946553774178028E-002;2.589864190667868E-003;1.771976239979267E-003;
2.404000000000000E+009;1.714501529932022E-001;1.817011274397373E-002;2.542222384363413E-003;1.397960586473346E-003;
2.404166666666667E+009;1.712179481983185E-001;1.684018224477768E-002;2.501410432159901E-003;1.435068203136325E-003;
2.404333333333334E+009;1.710307151079178E-001;1.547730062156916E-002;2.552139572799206E-003;1.382792252115905E-003;
2.404500000000000E+009;1.708974987268448E-001;1.406405400484800E-002;2.660264493897557E-003;1.119621796533465E-003;
2.404666666666667E+009;1.708674877882004E-001;1.268962863832712E-002;2.561259083449841E-003;1.117643085308373E-003;
2.404833333333334E+009;1.708710342645645E-001;1.138654630631208E-002;2.623494481667876E-003;1.001087366603315E-003;
2.405000000000000E+009;1.707643419504166E-001;9.805887937545776E-003;2.605747664347291E-003;1.027210382744670E-003;
2.405166666666667E+009;1.705673187971115E-001;8.311714977025986E-003;2.646966604515910E-003;8.394391043111682E-004;
2.405333333333334E+009;1.705104261636734E-001;6.659421604126692E-003;2.492848550900817E-003;7.004668586887419E-004;
2.405500000000000E+009;1.705248653888702E-001;5.122990813106298E-003;2.748531289398670E-003;5.769841372966766E-004;
2.405666666666667E+009;1.703931987285614E-001;3.518819576129317E-003;2.709126798436046E-003;5.088921170681715E-004;
2.405833333333334E+009;1.701074987649918E-001;1.942376256920397E-003;2.630150876939297E-003;3.331550688017160E-004;
2.406000000000000E+009;1.700285673141480E-001;7.912960427347571E-005;2.409606473520398E-003;4.046780522912741E-004;
2.406166666666667E+009;1.697876900434494E-001;-1.328567159362137E-003;2.464029239490628E-003;2.090569760184735E-004;
2.406333333333334E+009;1.697777211666107E-001;-2.926798537373543E-003;2.225648146122694E-003;2.853568876162171E-004;
2.406500000000000E+009;1.695525348186493E-001;-4.543652758002281E-003;2.057329984381795E-003;2.418626099824905E-004;
2.406666666666667E+009;1.691540032625198E-001;-6.053974386304617E-003;2.054834971204400E-003;2.592666714917868E-004;
2.406833333333334E+009;1.690890192985535E-001;-7.663273718208075E-003;2.042247913777828E-003;5.054365028627217E-004;
2.407000000000000E+009;1.689018011093140E-001;-9.212119504809380E-003;2.229660283774138E-003;4.806876822840422E-004;
2.407166666666667E+009;1.688133478164673E-001;-1.063198409974575E-002;2.132536144927144E-003;5.285093211568892E-004;
2.407333333333334E+009;1.686056554317474E-001;-1.204853132367134E-002;2.334515331313014E-003;6.063459441065788E-004;
2.407500000000000E+009;1.684376746416092E-001;-1.328895520418882E-002;2.536186249926686E-003;4.882700159214437E-004;
2.407666666666667E+009;1.682932227849960E-001;-1.449757255613804E-002;2.618118422105908E-003;4.901003558188677E-004;
2.407833333333334E+009;1.679793745279312E-001;-1.593513227999210E-002;2.634068252518773E-003;4.538091598078609E-004;
2.408000000000000E+009;1.680118292570114E-001;-1.699065603315830E-002;2.826279494911432E-003;5.468286108225584E-004;
2.408166666666667E+009;1.678412258625031E-001;-1.788040623068810E-002;3.109134966507554E-003;1.781872997526079E-004;
2.408333333333334E+009;1.680550873279572E-001;-1.896945387125015E-002;3.179694758728147E-003;5.476576188812032E-005;
2.408500000000000E+009;1.679867506027222E-001;-1.996082067489624E-002;3.203348722308874E-003;-1.384170464007184E-004;
2.408666666666667E+009;1.680780351161957E-001;-2.096562087535858E-002;3.231902606785297E-003;-4.334517288953066E-004;
2.408833333333334E+009;1.681528091430664E-001;-2.180206961929798E-002;3.279861761257052E-003;-5.862585385330021E-004;
2.409000000000000E+009;1.682155281305313E-001;-2.271236665546894E-002;3.420452587306500E-003;-5.676659056916833E-004;
2.409166666666667E+009;1.684810817241669E-001;-2.350899204611778E-002;3.318868577480316E-003;-1.021661795675755E-003;
2.409333333333334E+009;1.687165200710297E-001;-2.452089637517929E-002;3.431435674428940E-003;-9.941249154508114E-004;
2.409500000000000E+009;1.689144223928452E-001;-2.549857273697853E-002;3.218480385839939E-003;-1.345638884231448E-003;
2.409666666666667E+009;1.690426766872406E-001;-2.635482326149941E-002;3.004611935466528E-003;-1.466076937504113E-003;
2.409833333333334E+009;1.693110316991806E-001;-2.715531177818775E-002;3.025059588253498E-003;-1.612774329259992E-003;
2.410000000000000E+009;1.693829596042633E-001;-2.814349904656410E-002;2.804966177791357E-003;-1.796082244254649E-003;
2.410166666666667E+009;1.695054918527603E-001;-2.894605882465839E-002;2.687229076400399E-003;-1.990242162719369E-003;
2.410333333333334E+009;1.695245206356049E-001;-2.979270368814468E-002;2.592361532151699E-003;-2.163116121664643E-003;
2.410500000000000E+009;1.695278584957123E-001;-3.071238659322262E-002;2.509585348889232E-003;-2.319848630577326E-003;
2.410666666666667E+009;1.695186495780945E-001;-3.179524466395378E-002;2.183770295232534E-003;-2.420351840555668E-003;
2.410833333333334E+009;1.696187853813171E-001;-3.249166160821915E-002;2.052072202786803E-003;-2.403503982350230E-003;
2.411000000000000E+009;1.696120798587799E-001;-3.317448496818543E-002;1.878451206721366E-003;-2.427685307338834E-003;
2.411166666666667E+009;1.695442199707031E-001;-3.421829268336296E-002;1.719292602501810E-003;-2.359982579946518E-003;
2.411333333333334E+009;1.690836697816849E-001;-3.499442338943481E-002;1.580682699568570E-003;-2.300721826031804E-003;
2.411500000000000E+009;1.691333204507828E-001;-3.601206466555595E-002;1.356042339466512E-003;-2.370944013819099E-003;
2.411666666666667E+009;1.689768135547638E-001;-3.679822385311127E-002;1.190694631077349E-003;-2.482283860445023E-003;
2.411833333333334E+009;1.687904298305512E-001;-3.752936422824860E-002;1.184543129056692E-003;-2.224407391622663E-003;
2.412000000000000E+009;1.686432361602783E-001;-3.847432509064674E-002;1.060194335877895E-003;-2.215523039922118E-003;
2.412166666666667E+009;1.683888733386993E-001;-3.937730193138123E-002;1.023341785185039E-003;-2.095895586535335E-003;
2.412333333333334E+009;1.681372970342636E-001;-4.020983725786209E-002;1.071427017450333E-003;-2.001543994992971E-003;
2.412500000000000E+009;1.676338464021683E-001;-4.104215279221535E-002;1.006103237159550E-003;-1.871077343821526E-003;
2.412666666666667E+009;1.673099547624588E-001;-4.224562644958496E-002;1.063422067090869E-003;-1.914857537485659E-003;
2.412833333333334E+009;1.670422703027725E-001;-4.322617873549461E-002;1.061662915162742E-003;-1.796112279407680E-003;
2.413000000000000E+009;1.664875894784927E-001;-4.392296820878983E-002;1.003360492177308E-003;-1.885884325020015E-003;
2.413166666666667E+009;1.660307943820953E-001;-4.506410658359528E-002;1.004229765385389E-003;-1.867216662503779E-003;
2.413333333333334E+009;1.655209809541702E-001;-4.594856128096581E-002;1.161460881121457E-003;-1.990941120311618E-003;
2.413500000000000E+009;1.651239991188049E-001;-4.695883765816689E-002;1.151036238297820E-003;-2.038591774180532E-003;
2.413666666666667E+009;1.648340523242950E-001;-4.785742610692978E-002;1.108597964048386E-003;-1.997659448534250E-003;
2.413833333333334E+009;1.640529334545136E-001;-4.881152883172035E-002;1.188257709145546E-003;-2.035374054685235E-003;
2.414000000000000E+009;1.634984463453293E-001;-4.985460638999939E-002;1.233342336490750E-003;-2.239459194242954E-003;
2.414166666666667E+009;1.632003486156464E-001;-5.066450312733650E-002;9.174341103062034E-004;-2.404893049970269E-003;
2.414333333333334E+009;1.626792699098587E-001;-5.170911550521851E-002;1.097925822250545E-003;-2.312186639755964E-003;
2.414500000000000E+009;1.624858528375626E-001;-5.268992856144905E-002;9.506982751190662E-004;-2.378600649535656E-003;
2.414666666666667E+009;1.622269004583359E-001;-5.356481671333313E-002;8.929719915613532E-004;-2.611506264656782E-003;
2.414833333333334E+009;1.617525368928909E-001;-5.464627593755722E-002;6.896766135469079E-004;-2.526105381548405E-003;
2.415000000000000E+009;1.614078283309937E-001;-5.557535216212273E-002;5.943391588516533E-004;-2.638887846842408E-003;
2.415166666666667E+009;1.612722426652908E-001;-5.669097602367401E-002;4.495283064898104E-004;-2.706887898966670E-003;
2.415333333333334E+009;1.611416637897492E-001;-5.801304802298546E-002;4.114309849683195E-004;-2.779600443318486E-003;
2.415500000000000E+009;1.608085483312607E-001;-5.909990146756172E-002;3.259749792050570E-004;-2.670135814696550E-003;
2.415666666666667E+009;1.605091542005539E-001;-6.020217016339302E-002;1.869313564384356E-004;-2.585966372862458E-003;
2.415833333333334E+009;1.604461818933487E-001;-6.156620383262634E-002;1.425593072781339E-004;-2.704681828618050E-003;
2.416000000000000E+009;1.600877344608307E-001;-6.284148246049881E-002;-1.810295361792669E-005;-2.503193216398358E-003;
2.416166666666667E+009;1.599286943674088E-001;-6.413612514734268E-002;2.407892316114157E-004;-2.388647524639964E-003;
2.416333333333334E+009;1.596114784479141E-001;-6.523687392473221E-002;-3.682474925881252E-005;-2.438801573589444E-003;
2.416500000000000E+009;1.592261344194412E-001;-6.658083200454712E-002;-7.292460941243917E-005;-2.579780528321862E-003;
2.416666666666667E+009;1.588521599769592E-001;-6.773345172405243E-002;-9.070576197700575E-005;-2.512803301215172E-003;
2.416833333333334E+009;1.586697846651077E-001;-6.908550858497620E-002;-7.981677481438965E-005;-2.518728375434876E-003;
2.417000000000000E+009;1.581196933984757E-001;-7.017048448324204E-002;1.004284713417292E-004;-2.604838227853179E-003;
2.417166666666667E+009;1.578432768583298E-001;-7.117647677659988E-002;-1.350039383396506E-004;-2.743594115599990E-003;
2.417333333333334E+009;1.575411111116409E-001;-7.228440046310425E-002;-1.536102790851146E-004;-2.699483418837190E-003;
2.417500000000000E+009;1.571862548589706E-001;-7.344122976064682E-002;-3.637092886492610E-004;-2.875382080674171E-003;
2.417666666666667E+009;1.570090651512146E-001;-7.426391541957855E-002;-4.471845168154687E-004;-2.954407362267375E-003;
2.417833333333334E+009;1.568043231964111E-001;-7.518109679222107E-002;-5.357079207897186E-004;-2.869521034881473E-003;
2.418000000000000E+009;1.563349068164825E-001;-7.630200684070587E-002;-5.851589958183467E-004;-2.847318537533283E-003;
2.418166666666667E+009;1.560436338186264E-001;-7.685919851064682E-002;-7.599670789204538E-004;-2.923680702224374E-003;
2.418333333333334E+009;1.561160385608673E-001;-7.796710729598999E-002;-9.304857230745256E-004;-2.917505335062742E-003;
2.418500000000000E+009;1.557993739843369E-001;-7.875171303749085E-002;-1.083080656826496E-003;-2.873874269425869E-003;
2.418666666666667E+009;1.556629538536072E-001;-7.965136319398880E-002;-1.179520855657756E-003;-2.908973488956690E-003;
2.418833333333334E+009;1.553063392639160E-001;-8.044555783271790E-002;-1.148368464782834E-003;-2.803821815177798E-003;
2.419000000000000E+009;1.549952030181885E-001;-8.122742921113968E-002;-1.336913788691163E-003;-2.876734593883157E-003;
2.419166666666667E+009;1.547127962112427E-001;-8.195568621158600E-002;-1.497139455750585E-003;-2.718976465985179E-003;
2.419333333333334E+009;1.543807387351990E-001;-8.237952739000320E-002;-1.554896007291973E-003;-2.793854335322976E-003;
2.419500000000000E+009;1.541349887847900E-001;-8.339355140924454E-002;-1.715564401820302E-003;-2.647971268743277E-003;
2.419666666666667E+009;1.540130972862244E-001;-8.403138071298599E-002;-1.853251946158707E-003;-2.500971080735326E-003;
2.419833333333334E+009;1.535700559616089E-001;-8.444306254386902E-002;-2.005676738917828E-003;-2.598828868940473E-003;
2.420000000000000E+009;1.534306108951569E-001;-8.523936569690704E-002;-2.099534263834357E-003;-2.559945685788989E-003;
2.420166666666667E+009;1.529685109853745E-001;-8.579007536172867E-002;-2.193103311583400E-003;-2.508892212063074E-003;
2.420333333333334E+009;1.528193950653076E-001;-8.649321645498276E-002;-2.306932816281915E-003;-2.396608004346490E-003;
2.420500000000000E+009;1.525732874870300E-001;-8.683629333972931E-002;-2.401633886620402E-003;-2.319185528904200E-003;
2.420666666666667E+009;1.519841849803925E-001;-8.744168281555176E-002;-2.595469821244478E-003;-2.069105859845877E-003;
2.420833333333334E+009;1.518061608076096E-001;-8.805099129676819E-002;-2.462710719555616E-003;-2.116041956469417E-003;
2.421000000000000E+009;1.512758880853653E-001;-8.890110254287720E-002;-2.601755550131202E-003;-2.160894684493542E-003;
2.421166666666667E+009;1.510739922523499E-001;-8.946343511343002E-002;-2.782741561532021E-003;-1.858501113019884E-003;
2.421333333333334E+009;1.506613194942474E-001;-9.020797163248062E-002;-2.674184273928404E-003;-1.877866103313863E-003;
2.421500000000000E+009;1.501687318086624E-001;-9.070173650979996E-002;-2.877032151445746E-003;-1.752710784785450E-003;
2.421666666666667E+009;1.495365500450134E-001;-9.138906747102737E-002;-3.011807333678007E-003;-1.661571674048901E-003;
2.421833333333334E+009;1.491602957248688E-001;-9.196673333644867E-002;-3.111054189503193E-003;-1.429554075002670E-003;
2.422000000000000E+009;1.484856605529785E-001;-9.266050904989243E-002;-3.030166728422046E-003;-1.324592740274966E-003;
2.422166666666667E+009;1.480623632669449E-001;-9.358556568622589E-002;-3.072027582675219E-003;-1.312164007686079E-003;
2.422333333333334E+009;1.474711447954178E-001;-9.414419531822205E-002;-3.170253708958626E-003;-1.192100113257766E-003;
2.422500000000000E+009;1.468667834997177E-001;-9.476142376661301E-002;-3.266630228608847E-003;-1.007130835205317E-003;
2.422666666666667E+009;1.459808498620987E-001;-9.564908593893051E-002;-3.417743835598230E-003;-8.731560665182769E-004;
2.422833333333334E+009;1.455194503068924E-001;-9.654301404953003E-002;-3.512906143441796E-003;-8.546020253561437E-004;
2.423000000000000E+009;1.446308791637421E-001;-9.729458391666412E-002;-3.401838708668947E-003;-4.426068917382509E-004;
2.423166666666667E+009;1.443009972572327E-001;-9.802374988794327E-002;-3.289218293502927E-003;-4.336031561251730E-004;
2.423333333333334E+009;1.436140984296799E-001;-9.881932288408279E-002;-3.308946732431650E-003;-2.952328650280833E-004;
2.423500000000000E+009;1.426481753587723E-001;-9.982027858495712E-002;-3.309359075501561E-003;-1.224271836690605E-004;
2.423666666666667E+009;1.417662203311920E-001;-1.007981300354004E-001;-3.243017708882690E-003;1.082632661564276E-004;
2.423833333333334E+009;1.414315104484558E-001;-1.015623882412911E-001;-3.345457138493657E-003;6.080025923438370E-005;
2.424000000000000E+009;1.405284255743027E-001;-1.022374927997589E-001;-3.138009225949645E-003;8.256787987193093E-005;
2.424166666666667E+009;1.398190408945084E-001;-1.033770218491554E-001;-3.215349977836013E-003;3.769877075683326E-004;
2.424333333333334E+009;1.392633318901062E-001;-1.041254699230194E-001;-3.134592436254025E-003;4.185774596408010E-004;
2.424500000000000E+009;1.385320723056793E-001;-1.051213890314102E-001;-3.099682042375207E-003;5.192898097448051E-004;
2.424666666666667E+009;1.379296779632568E-001;-1.058640405535698E-001;-3.092243103310466E-003;6.230117869563401E-004;
2.424833333333334E+009;1.370872557163239E-001;-1.068423688411713E-001;-3.172432072460651E-003;5.516575765796006E-004;
2.425000000000000E+009;1.365694403648377E-001;-1.078653112053871E-001;-3.182110842317343E-003;8.999018464237452E-004;
2.425166666666667E+009;1.358515620231628E-001;-1.087960973381996E-001;-3.011126304045320E-003;9.030497749336064E-004;
2.425333333333334E+009;1.354133933782578E-001;-1.097605451941490E-001;-3.022057004272938E-003;9.565161890350282E-004;
2.425500000000000E+009;1.349153518676758E-001;-1.107591614127159E-001;-2.994260052219033E-003;1.155315316282213E-003;
2.425666666666667E+009;1.341853588819504E-001;-1.117228120565414E-001;-2.859515370801091E-003;1.331620616838336E-003;
2.425833333333334E+009;1.336894333362579E-001;-1.126556172966957E-001;-2.700785174965859E-003;1.419971464201808E-003;
2.426000000000000E+009;1.330977678298950E-001;-1.137978732585907E-001;-2.992707770317793E-003;1.744955079630017E-003;
2.426166666666667E+009;1.327886879444122E-001;-1.146613135933876E-001;-2.709880704060197E-003;1.679498585872352E-003;
2.426333333333334E+009;1.321234554052353E-001;-1.156514585018158E-001;-2.659795805811882E-003;1.895773457363248E-003;
2.426500000000000E+009;1.317957937717438E-001;-1.164418905973434E-001;-2.447250997647643E-003;2.028868999332190E-003;
2.426666666666667E+009;1.314565986394882E-001;-1.172814667224884E-001;-2.292346209287643E-003;2.000666921958327E-003;
2.426833333333334E+009;1.308966279029846E-001;-1.181818842887878E-001;-2.196694491431117E-003;2.078552031889558E-003;
2.427000000000000E+009;1.303913444280624E-001;-1.190811768174171E-001;-1.901876763440669E-003;2.176681999117136E-003;
2.427166666666667E+009;1.300999671220779E-001;-1.197919100522995E-001;-1.778865815140307E-003;2.172172535210848E-003;
2.427333333333334E+009;1.296207457780838E-001;-1.205964237451553E-001;-1.698529114946723E-003;2.048834227025509E-003;
2.427500000000000E+009;1.293580085039139E-001;-1.213333159685135E-001;-1.509940135292709E-003;2.194017637521029E-003;
2.427666666666667E+009;1.290268599987030E-001;-1.221195086836815E-001;-1.187668531201780E-003;2.140577882528305E-003;
