# Version 1.00
#
freq[Hz];re:Trc1_S11;im:Trc1_S11;re:Trc2_S21;im:Trc2_S21;
2.400000000000000E+009;1.614496707916260E-001;5.351518467068672E-002;-1.045347089529969E-004;-2.941813785582781E-003;
2.400166666666667E+009;1.612094193696976E-001;5.185817554593086E-002;-2.306117821717635E-004;-3.067782381549478E-003;
2.400333333333334E+009;1.611024141311646E-001;4.983087629079819E-002;-3.062612377107143E-004;-3.102688351646066E-003;
2.400500000000000E+009;1.609880477190018E-001;4.776636138558388E-002;-2.939740079455078E-004;-3.076858352869749E-003;
2.400666666666667E+009;1.609210073947907E-001;4.578145965933800E-002;-3.644869138952345E-004;-3.088515484705567E-003;
2.400833333333334E+009;1.610314846038818E-001;4.373528063297272E-002;-5.367014091461897E-004;-3.283781697973609E-003;
2.401000000000000E+009;1.609927266836166E-001;4.164919257164002E-002;-4.891501157544553E-004;-3.267230931669474E-003;
2.401166666666667E+009;1.610985100269318E-001;3.933775052428246E-002;-6.635737372562289E-004;-3.261633217334747E-003;
2.401333333333334E+009;1.614014953374863E-001;3.722186759114265E-002;-6.973592098802328E-004;-3.212056821212173E-003;
2.401500000000000E+009;1.616003364324570E-001;3.498723357915878E-002;-7.300873985514045E-004;-3.314431291073561E-003;
2.401666666666667E+009;1.619101762771606E-001;3.315335512161255E-002;-1.032440690323710E-003;-3.366495016962290E-003;
2.401833333333334E+009;1.620557606220245E-001;3.093893826007843E-002;-1.050718012265861E-003;-3.406943753361702E-003;
2.402000000000000E+009;1.623620837926865E-001;2.889661863446236E-002;-1.182397827506065E-003;-3.291054163128138E-003;
2.402166666666667E+009;1.629624217748642E-001;2.659182995557785E-002;-1.257317722775042E-003;-3.291684202849865E-003;
2.402333333333334E+009;1.633689552545548E-001;2.475697547197342E-002;-1.420224434696138E-003;-3.239914309233427E-003;
2.402500000000000E+009;1.643378585577011E-001;2.290610037744045E-002;-1.468580449000001E-003;-3.303487552329898E-003;
2.402666666666667E+009;1.647091507911682E-001;2.102989703416824E-002;-1.568175153806806E-003;-3.179634222760797E-003;
2.402833333333334E+009;1.653622388839722E-001;1.915619894862175E-002;-1.672366866841912E-003;-3.083004383370280E-003;
2.403000000000000E+009;1.660344004631043E-001;1.752616092562676E-002;-1.924269017763436E-003;-3.172598546370864E-003;
2.403166666666667E+009;1.671771854162216E-001;1.590246707201004E-002;-1.915672211907804E-003;-3.279215889051557E-003;
2.403333333333334E+009;1.679927110671997E-001;1.430254988372326E-002;-2.022458473220468E-003;-3.009501146152616E-003;
2.403500000000000E+009;1.686721891164780E-001;1.280597597360611E-002;-2.174148336052895E-003;-3.064483869820833E-003;
2.403666666666667E+009;1.695911884307861E-001;1.137432921677828E-002;-2.300044288858771E-003;-3.017944516614080E-003;
2.403833333333334E+009;1.706305444240570E-001;1.001213118433952E-002;-2.432422712445259E-003;-3.059525974094868E-003;
2.404000000000000E+009;1.715232282876968E-001;8.829695172607899E-003;-2.650101901963353E-003;-2.778687747195363E-003;
2.404166666666667E+009;1.724569201469421E-001;7.609797175973654E-003;-2.729061758145690E-003;-2.777867950499058E-003;
2.404333333333334E+009;1.733523458242416E-001;6.710636429488659E-003;-2.777264686301351E-003;-2.830808516591787E-003;
2.404500000000000E+009;1.741365939378738E-001;5.567692685872316E-003;-2.938687568530440E-003;-2.556150779128075E-003;
2.404666666666667E+009;1.751766651868820E-001;5.049965810030699E-003;-3.120605600997806E-003;-2.504716627299786E-003;
2.404833333333334E+009;1.760223209857941E-001;4.001970868557692E-003;-3.170488169416785E-003;-2.427738159894943E-003;
2.405000000000000E+009;1.767508238554001E-001;3.525355830788612E-003;-3.303514095023274E-003;-2.185028046369553E-003;
2.405166666666667E+009;1.775285601615906E-001;2.704156097024679E-003;-3.375105792656541E-003;-2.199274254962802E-003;
2.405333333333334E+009;1.783310770988464E-001;2.209442434832454E-003;-3.557268995791674E-003;-2.102212980389595E-003;
2.405500000000000E+009;1.789160221815109E-001;1.914875581860542E-003;-3.680421039462090E-003;-1.893753185868263E-003;
2.405666666666667E+009;1.794939637184143E-001;1.587000093422830E-003;-3.723992267623544E-003;-1.685610972344875E-003;
2.405833333333334E+009;1.798448860645294E-001;1.263826969079673E-003;-3.985171671956778E-003;-1.647019642405212E-003;
2.406000000000000E+009;1.805803775787354E-001;8.314111619256437E-004;-3.963418304920197E-003;-1.613257220014930E-003;
2.406166666666667E+009;1.807760149240494E-001;7.879389449954033E-004;-4.118018317967653E-003;-1.296600326895714E-003;
2.406333333333334E+009;1.813969314098358E-001;5.938353133387864E-004;-4.022226203233004E-003;-1.223384984768927E-003;
2.406500000000000E+009;1.814467608928680E-001;4.623096319846809E-004;-4.179793410003185E-003;-1.202985993586481E-003;
2.406666666666667E+009;1.814449876546860E-001;3.306760336272419E-004;-4.241297487169504E-003;-7.351626991294324E-004;
2.406833333333334E+009;1.815553307533264E-001;1.123600159189664E-004;-4.209931474179030E-003;-6.513160769827664E-004;
2.407000000000000E+009;1.815765798091888E-001;-1.021387361106463E-004;-4.114706069231033E-003;-4.455895395949483E-004;
2.407166666666667E+009;1.816343069076538E-001;-1.276006223633885E-004;-4.227433353662491E-003;-3.346318262629211E-004;
2.407333333333334E+009;1.813631802797318E-001;-4.792613908648491E-004;-4.096922464668751E-003;-8.833697938825935E-005;
2.407500000000000E+009;1.811562180519104E-001;-6.278275395743549E-004;-4.176200833171606E-003;1.824851788114756E-004;
2.407666666666667E+009;1.806395500898361E-001;-9.233189048245549E-004;-4.235314205288887E-003;2.405048289801925E-004;
2.407833333333334E+009;1.801689118146896E-001;-1.618462498299778E-003;-4.228524398058653E-003;3.861331788357347E-004;
2.408000000000000E+009;1.796900779008865E-001;-1.926396274939179E-003;-4.123640712350607E-003;6.126608350314200E-004;
2.408166666666667E+009;1.790359020233154E-001;-2.287385519593954E-003;-4.241403192281723E-003;8.121429709717631E-004;
2.408333333333334E+009;1.786080151796341E-001;-2.922507468611002E-003;-4.143533762544394E-003;1.068188110366464E-003;
2.408500000000000E+009;1.778456717729569E-001;-3.608655882999301E-003;-3.996133338660002E-003;1.124821021221578E-003;
2.408666666666667E+009;1.770845055580139E-001;-4.406626801937819E-003;-3.777932608500123E-003;1.364361029118300E-003;
2.408833333333334E+009;1.761762052774429E-001;-5.100529175251722E-003;-3.811821341514587E-003;1.453796867281199E-003;
2.409000000000000E+009;1.753057390451431E-001;-6.009360775351524E-003;-3.667213721200824E-003;1.473070122301579E-003;
2.409166666666667E+009;1.746324896812439E-001;-7.168048527091742E-003;-3.638333873823285E-003;1.536685856990516E-003;
2.409333333333334E+009;1.738751530647278E-001;-8.313088677823544E-003;-3.418249310925603E-003;1.657958724536002E-003;
2.409500000000000E+009;1.727741509675980E-001;-9.709976613521576E-003;-3.313110210001469E-003;1.885977224446833E-003;
2.409666666666667E+009;1.720154881477356E-001;-1.070306077599526E-002;-3.339543007314205E-003;1.948126358911395E-003;
2.409833333333334E+009;1.711812168359757E-001;-1.212465204298496E-002;-3.110388992354274E-003;1.943937735632062E-003;
2.410000000000000E+009;1.704225987195969E-001;-1.377309951931238E-002;-3.083347110077739E-003;2.114573493599892E-003;
2.410166666666667E+009;1.695635020732880E-001;-1.535136997699738E-002;-2.883962588384748E-003;2.045737812295556E-003;
2.410333333333334E+009;1.686734855175018E-001;-1.695792563259602E-002;-2.823672955855727E-003;2.231724094599485E-003;
2.410500000000000E+009;1.680860966444016E-001;-1.855699159204960E-002;-2.722315723076463E-003;2.157312119379640E-003;
2.410666666666667E+009;1.673555970191956E-001;-2.057904191315174E-002;-2.664971863850951E-003;2.343502826988697E-003;
2.410833333333334E+009;1.668034344911575E-001;-2.245477214455605E-002;-2.539571607485414E-003;2.279203152284026E-003;
2.411000000000000E+009;1.661870181560516E-001;-2.426618523895741E-002;-2.404016675427556E-003;2.289904281497002E-003;
2.411166666666667E+009;1.658183485269547E-001;-2.635341696441174E-002;-2.394938375800848E-003;2.423624973744154E-003;
2.411333333333334E+009;1.654424667358398E-001;-2.814361453056335E-002;-2.304468071088195E-003;2.510892692953348E-003;
2.411500000000000E+009;1.649973690509796E-001;-3.039352223277092E-002;-2.284614834934473E-003;2.518369117751718E-003;
2.411666666666667E+009;1.647960245609283E-001;-3.241539746522903E-002;-2.261226996779442E-003;2.547861775383353E-003;
2.411833333333334E+009;1.647584587335587E-001;-3.428763151168823E-002;-2.277679042890668E-003;2.574669662863016E-003;
2.412000000000000E+009;1.646325737237930E-001;-3.655026853084564E-002;-2.144456375390291E-003;2.670420799404383E-003;
2.412166666666667E+009;1.647893786430359E-001;-3.856262937188149E-002;-2.160999923944473E-003;2.769377315416932E-003;
2.412333333333334E+009;1.649031341075897E-001;-4.073812440037727E-002;-2.168153645470738E-003;2.721706870943308E-003;
2.412500000000000E+009;1.648597568273544E-001;-4.254063591361046E-002;-2.136995783075690E-003;2.773501910269260E-003;
2.412666666666667E+009;1.651675701141357E-001;-4.478981718420982E-002;-1.919765374623239E-003;3.040391020476818E-003;
2.412833333333334E+009;1.655380576848984E-001;-4.682475328445435E-002;-1.944215036928654E-003;3.288738196715713E-003;
2.413000000000000E+009;1.658947765827179E-001;-4.851998016238213E-002;-1.819354481995106E-003;3.012755652889609E-003;
2.413166666666667E+009;1.660097092390060E-001;-5.047898367047310E-002;-1.782599370926619E-003;3.366812132298946E-003;
2.413333333333334E+009;1.667014211416245E-001;-5.210254713892937E-002;-1.681453431956470E-003;3.405144438147545E-003;
2.413500000000000E+009;1.673097759485245E-001;-5.392695218324661E-002;-1.456726342439652E-003;3.633090062066913E-003;
2.413666666666667E+009;1.678568571805954E-001;-5.564634129405022E-002;-1.363576040603221E-003;3.739384468644857E-003;
2.413833333333334E+009;1.683792918920517E-001;-5.731111019849777E-002;-1.118852756917477E-003;3.808324458077550E-003;
2.414000000000000E+009;1.688283085823059E-001;-5.873857811093330E-002;-1.024890225380659E-003;3.907908219844103E-003;
2.414166666666667E+009;1.694442182779312E-001;-5.984292179346085E-002;-7.086158148013055E-004;4.010588396340609E-003;
2.414333333333334E+009;1.700571775436401E-001;-6.139352172613144E-002;-5.392814637161791E-004;4.068708047270775E-003;
2.414500000000000E+009;1.708912700414658E-001;-6.253210455179215E-002;-1.724122266750783E-004;4.074504133313894E-003;
2.414666666666667E+009;1.713660210371018E-001;-6.361838430166245E-002;-2.362909581279382E-004;4.058543127030134E-003;
2.414833333333334E+009;1.719331145286560E-001;-6.441512703895569E-002;1.594055211171508E-004;4.043354652822018E-003;
2.415000000000000E+009;1.724600940942764E-001;-6.537825614213944E-002;2.516446984373033E-004;4.140909761190414E-003;
2.415166666666667E+009;1.729232519865036E-001;-6.613380461931229E-002;4.269868659321219E-004;4.126608371734619E-003;
2.415333333333334E+009;1.734904646873474E-001;-6.703154742717743E-002;6.723027909174562E-004;4.001874011009932E-003;
2.415500000000000E+009;1.737848818302155E-001;-6.746939569711685E-002;6.890525110065937E-004;3.773757722228766E-003;
2.415666666666667E+009;1.741541922092438E-001;-6.789106875658035E-002;9.035879047587514E-004;3.924778662621975E-003;
2.415833333333334E+009;1.743913292884827E-001;-6.847114861011505E-002;1.220479258336127E-003;3.722167806699872E-003;
2.416000000000000E+009;1.745269596576691E-001;-6.879991292953491E-002;1.398004009388387E-003;3.624148434028029E-003;
2.416166666666667E+009;1.749999523162842E-001;-6.914591789245606E-002;1.689854776486754E-003;3.748784540221095E-003;
2.416333333333334E+009;1.748214215040207E-001;-6.935948133468628E-002;1.684665214270353E-003;3.501788014546037E-003;
2.416500000000000E+009;1.747943311929703E-001;-6.955918669700623E-002;1.808748464100063E-003;3.352446248754859E-003;
2.416666666666667E+009;1.745729148387909E-001;-6.967850774526596E-002;1.965926494449377E-003;3.296743379905820E-003;
2.416833333333334E+009;1.744126379489899E-001;-6.990851461887360E-002;2.170241205021739E-003;3.063640790060163E-003;
2.417000000000000E+009;1.739175319671631E-001;-7.002713531255722E-002;2.321124542504549E-003;3.008232219144702E-003;
2.417166666666667E+009;1.735173612833023E-001;-6.995787471532822E-002;2.347593195736408E-003;2.825089264661074E-003;
2.417333333333334E+009;1.729481071233749E-001;-6.997641921043396E-002;2.388226101174951E-003;2.652162220329046E-003;
2.417500000000000E+009;1.723375618457794E-001;-7.014570385217667E-002;2.568966010585427E-003;2.715949434787035E-003;
2.417666666666667E+009;1.716248095035553E-001;-7.010361552238464E-002;2.552932826802135E-003;2.387195359915495E-003;
2.417833333333334E+009;1.707501858472824E-001;-7.027218490839005E-002;2.755637513473630E-003;2.250044140964747E-003;
2.418000000000000E+009;1.697924882173538E-001;-7.056718319654465E-002;2.798184985294938E-003;2.211918588727713E-003;
2.418166666666667E+009;1.688494682312012E-001;-7.055376470088959E-002;2.905925735831261E-003;1.967488555237651E-003;
2.418333333333334E+009;1.679256260395050E-001;-7.081895321607590E-002;2.832893282175064E-003;1.848785905167460E-003;
2.418500000000000E+009;1.665993779897690E-001;-7.099542021751404E-002;2.999623306095600E-003;1.593262189999223E-003;
2.418666666666667E+009;1.655427664518356E-001;-7.144903391599655E-002;3.045981982722879E-003;1.575989765115082E-003;
2.418833333333334E+009;1.641978025436401E-001;-7.190487533807755E-002;3.011641325429082E-003;1.331356237642467E-003;
2.419000000000000E+009;1.628357470035553E-001;-7.229837030172348E-002;3.017740324139595E-003;1.350894919596613E-003;
2.419166666666667E+009;1.614176034927368E-001;-7.270019501447678E-002;3.145567839965224E-003;1.149841351434588E-003;
2.419333333333334E+009;1.598917990922928E-001;-7.319581508636475E-002;3.011357737705112E-003;1.042698393575847E-003;
2.419500000000000E+009;1.585822254419327E-001;-7.403951883316040E-002;2.897274913266301E-003;7.676690584048629E-004;
2.419666666666667E+009;1.573460102081299E-001;-7.471385598182678E-002;2.927074907347560E-003;6.129476241767407E-004;
2.419833333333334E+009;1.558865755796433E-001;-7.561928778886795E-002;3.097618464380503E-003;4.744062316603959E-004;
2.420000000000000E+009;1.545877158641815E-001;-7.681158185005188E-002;3.048131242394447E-003;4.201006086077541E-004;
2.420166666666667E+009;1.532460749149323E-001;-7.782064378261566E-002;3.104027127847076E-003;2.878184895962477E-004;
2.420333333333334E+009;1.520793735980988E-001;-7.902587205171585E-002;2.911735558882356E-003;2.217190340161324E-004;
2.420500000000000E+009;1.507455259561539E-001;-8.004561811685562E-002;2.976110205054283E-003;4.331518357503228E-005;
2.420666666666667E+009;1.495667994022369E-001;-8.126543462276459E-002;3.047178499400616E-003;-2.572308585513383E-004;
2.420833333333334E+009;1.484563201665878E-001;-8.268294483423233E-002;2.899371320381761E-003;-2.217912406194955E-004;
2.421000000000000E+009;1.473915129899979E-001;-8.429402858018875E-002;2.802974777296186E-003;-4.455146554391831E-004;
2.421166666666667E+009;1.464523822069168E-001;-8.569332212209702E-002;2.742644399404526E-003;-5.621328018605709E-004;
2.421333333333334E+009;1.455474644899368E-001;-8.738189190626144E-002;2.635678974911571E-003;-8.444238337688148E-004;
2.421500000000000E+009;1.447450816631317E-001;-8.903573453426361E-002;2.477935981005430E-003;-8.539857808500528E-004;
2.421666666666667E+009;1.440903097391129E-001;-9.069646149873734E-002;2.454559085890651E-003;-9.029071079567075E-004;
2.421833333333334E+009;1.434511095285416E-001;-9.244178980588913E-002;2.097144490107894E-003;-1.102706184610724E-003;
2.422000000000000E+009;1.428951621055603E-001;-9.436815977096558E-002;2.090170281007886E-003;-1.161360531114042E-003;
2.422166666666667E+009;1.424131542444229E-001;-9.620773047208786E-002;2.137400442734361E-003;-1.169077120721340E-003;
2.422333333333334E+009;1.422243416309357E-001;-9.793875366449356E-002;1.891348045319319E-003;-1.186589593999088E-003;
2.422500000000000E+009;1.418903172016144E-001;-9.961622208356857E-002;1.696436782367528E-003;-1.368079683743417E-003;
2.422666666666667E+009;1.418401896953583E-001;-1.016181707382202E-001;1.502118539065123E-003;-1.428071758709848E-003;
2.422833333333334E+009;1.417561024427414E-001;-1.034127697348595E-001;1.521087833680213E-003;-1.494173193350434E-003;
2.423000000000000E+009;1.416871547698975E-001;-1.052300184965134E-001;1.252523157745600E-003;-1.437844824977219E-003;
2.423166666666667E+009;1.418930888175964E-001;-1.069950535893440E-001;1.253547379747033E-003;-1.419615233317018E-003;
2.423333333333334E+009;1.421978622674942E-001;-1.084145307540894E-001;1.155885984189808E-003;-1.382973860017955E-003;
2.423500000000000E+009;1.424319297075272E-001;-1.101981699466705E-001;1.022015232592821E-003;-1.223921892233193E-003;
2.423666666666667E+009;1.424539834260941E-001;-1.119206920266151E-001;9.541731560602784E-004;-1.202085870318115E-003;
2.423833333333334E+009;1.431279480457306E-001;-1.134214922785759E-001;9.521326865069568E-004;-1.235351664945483E-003;
2.424000000000000E+009;1.434376090764999E-001;-1.147812157869339E-001;9.139385074377060E-004;-1.122130779549480E-003;
2.424166666666667E+009;1.438985019922257E-001;-1.161815524101257E-001;8.863395196385682E-004;-1.163931563496590E-003;
2.424333333333334E+009;1.444347351789475E-001;-1.173541918396950E-001;8.063437999226153E-004;-1.275716698728502E-003;
2.424500000000000E+009;1.450142264366150E-001;-1.187881901860237E-001;6.498749135062099E-004;-1.058850437402725E-003;
2.424666666666667E+009;1.456385403871536E-001;-1.197471544146538E-001;6.317347870208323E-004;-1.169861061498523E-003;
2.424833333333334E+009;1.460582613945007E-001;-1.208104118704796E-001;5.772470030933619E-004;-1.095248153433204E-003;
2.425000000000000E+009;1.465416401624680E-001;-1.216547712683678E-001;5.648145452141762E-004;-1.086713513359428E-003;
2.425166666666667E+009;1.469222605228424E-001;-1.225221678614616E-001;6.456605042330921E-004;-1.008214778266847E-003;
2.425333333333334E+009;1.473712176084518E-001;-1.232545673847199E-001;3.762414853554219E-004;-1.121957437135279E-003;
2.425500000000000E+009;1.480961292982101E-001;-1.241165995597839E-001;4.039029008708894E-004;-1.119819818995893E-003;
2.425666666666667E+009;1.482529193162918E-001;-1.244052648544312E-001;4.245525051373988E-004;-9.931599488481879E-004;
2.425833333333334E+009;1.486396044492722E-001;-1.250998079776764E-001;3.607011749409139E-004;-9.363706922158599E-004;
2.426000000000000E+009;1.488832831382752E-001;-1.254411488771439E-001;2.908190654125065E-004;-1.006022212095559E-003;
2.426166666666667E+009;1.493326276540756E-001;-1.257688105106354E-001;3.827260225079954E-004;-1.013134606182575E-003;
2.426333333333334E+009;1.492751985788345E-001;-1.259320229291916E-001;3.242827660869807E-004;-9.931758977472782E-004;
2.426500000000000E+009;1.496109068393707E-001;-1.260010451078415E-001;3.540440520737320E-004;-9.512986871413887E-004;
2.426666666666667E+009;1.496407687664032E-001;-1.259795278310776E-001;2.164503966923803E-004;-9.180585620924830E-004;
2.426833333333334E+009;1.494139432907105E-001;-1.260452121496201E-001;3.758382445084862E-005;-9.309671004302800E-004;
2.427000000000000E+009;1.491696536540985E-001;-1.262154281139374E-001;1.473777956562117E-004;-9.551926050335169E-004;
2.427166666666667E+009;1.489352434873581E-001;-1.259633451700211E-001;-2.634259362821467E-005;-1.034699263982475E-003;
2.427333333333334E+009;1.483864933252335E-001;-1.258910745382309E-001;5.417230204329826E-005;-8.728457614779472E-004;
2.427500000000000E+009;1.479813158512116E-001;-1.258363872766495E-001;7.691462087677792E-005;-9.009254863485694E-004;
2.427666666666667E+009;1.474008709192276E-001;-1.257786303758621E-001;-1.263797639694531E-005;-9.336151415482163E-004;
