# Version 1.00
#
freq[Hz];re:Trc1_S11;im:Trc1_S11;re:Trc2_S21;im:Trc2_S21;
2.400000000000000E+009;1.637651175260544E-001;5.139897763729096E-002;5.993726197630167E-003;2.327886642888188E-003;
2.400166666666667E+009;1.636648625135422E-001;5.004578828811646E-002;6.155367475003004E-003;2.183235250413418E-003;
2.400333333333334E+009;1.635032594203949E-001;4.825445637106895E-002;6.048733368515968E-003;2.008073963224888E-003;
2.400500000000000E+009;1.634584516286850E-001;4.642589390277863E-002;6.174979731440544E-003;1.821420504711568E-003;
2.400666666666667E+009;1.634591817855835E-001;4.459029063582420E-002;6.397872231900692E-003;1.773933181539178E-003;
2.400833333333334E+009;1.635623127222061E-001;4.280789569020271E-002;6.459054537117481E-003;1.694876351393759E-003;
2.401000000000000E+009;1.634199172258377E-001;4.077272489666939E-002;6.439191754907370E-003;1.469977432861924E-003;
2.401166666666667E+009;1.635859012603760E-001;3.877376765012741E-002;6.624088622629643E-003;1.305752084590495E-003;
2.401333333333334E+009;1.635041832923889E-001;3.681506961584091E-002;6.656970828771591E-003;1.053569838404656E-003;
2.401500000000000E+009;1.638483107089996E-001;3.484467789530754E-002;6.672282703220844E-003;9.431539801880717E-004;
2.401666666666667E+009;1.639638990163803E-001;3.301163390278816E-002;6.803546100854874E-003;6.118639139458537E-004;
2.401833333333334E+009;1.641896814107895E-001;3.093219175934792E-002;6.846391130238771E-003;5.545726744458079E-004;
2.402000000000000E+009;1.643937528133392E-001;2.923612669110298E-002;7.120852358639240E-003;3.338857786729932E-004;
2.402166666666667E+009;1.646753251552582E-001;2.713474445044994E-002;7.160541135817766E-003;-4.237524535710691E-006;
2.402333333333334E+009;1.651320159435272E-001;2.526349760591984E-002;7.099153008311987E-003;-1.968108117580414E-004;
2.402500000000000E+009;1.656207889318466E-001;2.362565137445927E-002;7.126545999199152E-003;-4.349297378212214E-004;
2.402666666666667E+009;1.660503000020981E-001;2.209599874913693E-002;7.204258348792791E-003;-8.525467710569501E-004;
2.402833333333334E+009;1.665072590112686E-001;2.028659731149674E-002;7.386646699160337E-003;-1.104552764445543E-003;
2.403000000000000E+009;1.671588122844696E-001;1.857438869774342E-002;7.308644242584705E-003;-1.342716277576983E-003;
2.403166666666667E+009;1.678160578012466E-001;1.706489920616150E-002;7.237769197672606E-003;-1.635534572415054E-003;
2.403333333333334E+009;1.685187220573425E-001;1.547906361520290E-002;7.186194881796837E-003;-2.023947425186634E-003;
2.403500000000000E+009;1.691057980060577E-001;1.418050192296505E-002;7.245597429573536E-003;-2.268936950713396E-003;
2.403666666666667E+009;1.697806715965271E-001;1.260978449136019E-002;7.234131451696158E-003;-2.644674852490425E-003;
2.403833333333334E+009;1.705286502838135E-001;1.144528388977051E-002;7.154644932597876E-003;-3.135449951514602E-003;
2.404000000000000E+009;1.713558584451675E-001;1.019834727048874E-002;7.142074406147003E-003;-3.438962390646339E-003;
2.404166666666667E+009;1.720570027828217E-001;8.927126415073872E-003;6.692917551845312E-003;-3.611871274188161E-003;
2.404333333333334E+009;1.726710200309753E-001;7.912533357739449E-003;6.777086760848761E-003;-4.035661462694407E-003;
2.404500000000000E+009;1.733388155698776E-001;6.864879280328751E-003;6.605302914977074E-003;-4.317324142903090E-003;
2.404666666666667E+009;1.741765588521957E-001;5.953170359134674E-003;6.315861362963915E-003;-4.591888282448053E-003;
2.404833333333334E+009;1.748810559511185E-001;5.079409573227167E-003;6.220819428563118E-003;-5.033009219914675E-003;
2.405000000000000E+009;1.756804138422012E-001;4.306831862777472E-003;5.845384206622839E-003;-5.269709974527359E-003;
2.405166666666667E+009;1.762060821056366E-001;3.604038618505001E-003;5.551534239202738E-003;-5.489696748554707E-003;
2.405333333333334E+009;1.769596636295319E-001;2.788199344649911E-003;5.397181026637554E-003;-5.787319038063288E-003;
2.405500000000000E+009;1.774859279394150E-001;2.438656520098448E-003;5.118367262184620E-003;-5.909718573093414E-003;
2.405666666666667E+009;1.781259477138519E-001;1.831170520745218E-003;4.678292199969292E-003;-6.120142992585897E-003;
2.405833333333334E+009;1.784189939498901E-001;1.414663391187787E-003;4.335110075771809E-003;-6.469250656664372E-003;
2.406000000000000E+009;1.788923740386963E-001;7.570555317215622E-004;4.102585837244988E-003;-6.500018760561943E-003;
2.406166666666667E+009;1.792557537555695E-001;6.681455997750163E-004;3.782900283113122E-003;-6.543650291860104E-003;
2.406333333333334E+009;1.796309053897858E-001;2.446842263452709E-004;3.361679613590241E-003;-6.789369974285364E-003;
2.406500000000000E+009;1.798216849565506E-001;-2.621495514176786E-004;3.115950850769877E-003;-6.619560532271862E-003;
2.406666666666667E+009;1.798043996095657E-001;-4.200951952952892E-004;2.797276712954044E-003;-6.857883185148239E-003;
2.406833333333334E+009;1.800943911075592E-001;-8.565919124521315E-004;2.428738400340080E-003;-6.820075213909149E-003;
2.407000000000000E+009;1.803128123283386E-001;-1.242945087142289E-003;2.207742538303137E-003;-6.879444234073162E-003;
2.407166666666667E+009;1.803271323442459E-001;-1.502718543633819E-003;1.913750311359763E-003;-6.966038141399622E-003;
2.407333333333334E+009;1.801377236843109E-001;-2.064036671072245E-003;1.495643635280430E-003;-6.872814614325762E-003;
2.407500000000000E+009;1.799891442060471E-001;-2.318392507731915E-003;1.359086716547608E-003;-6.831097416579723E-003;
2.407666666666667E+009;1.797724813222885E-001;-2.783543430268765E-003;1.031537191011012E-003;-6.913018878549337E-003;
2.407833333333334E+009;1.794094294309616E-001;-3.556010546162725E-003;8.501641568727791E-004;-6.854109466075897E-003;
2.408000000000000E+009;1.789768487215042E-001;-4.054419230669737E-003;4.702977603301406E-004;-6.607616320252419E-003;
2.408166666666667E+009;1.786847412586212E-001;-4.548237659037113E-003;2.282543719047681E-004;-6.927147042006254E-003;
2.408333333333334E+009;1.783986389636993E-001;-5.189903546124697E-003;-4.119748336961493E-005;-6.661790423095226E-003;
2.408500000000000E+009;1.777584850788117E-001;-5.892741959542036E-003;-2.417380455881357E-004;-6.643519736826420E-003;
2.408666666666667E+009;1.772919297218323E-001;-6.922756321728230E-003;-4.619220271706581E-004;-6.486976984888315E-003;
2.408833333333334E+009;1.766068637371063E-001;-7.724120747298002E-003;-6.485619232989848E-004;-6.413835566490889E-003;
2.409000000000000E+009;1.758258640766144E-001;-8.621220476925373E-003;-7.948764250613749E-004;-6.287479307502508E-003;
2.409166666666667E+009;1.752748936414719E-001;-9.751847945153713E-003;-1.080362009815872E-003;-6.149001419544220E-003;
2.409333333333334E+009;1.746014654636383E-001;-1.083472650498152E-002;-1.211945782415569E-003;-5.933962762355804E-003;
2.409500000000000E+009;1.737739443778992E-001;-1.198316179215908E-002;-1.432921504601836E-003;-5.834294017404318E-003;
2.409666666666667E+009;1.731753647327423E-001;-1.327868364751339E-002;-1.566773396916688E-003;-5.785219371318817E-003;
2.409833333333334E+009;1.723175942897797E-001;-1.448969077318907E-002;-1.689705299213529E-003;-5.506461020559073E-003;
2.410000000000000E+009;1.717929542064667E-001;-1.587927155196667E-002;-1.990259159356356E-003;-5.519231781363487E-003;
2.410166666666667E+009;1.711203157901764E-001;-1.731924153864384E-002;-2.080233301967382E-003;-5.444538779556751E-003;
2.410333333333334E+009;1.704653501510620E-001;-1.889490708708763E-002;-2.057565608993173E-003;-5.396708846092224E-003;
2.410500000000000E+009;1.697800755500794E-001;-2.059260383248329E-002;-2.121500438079238E-003;-5.120847374200821E-003;
2.410666666666667E+009;1.692638546228409E-001;-2.224219776690006E-002;-2.302210545167327E-003;-4.935189615935087E-003;
2.410833333333334E+009;1.688034087419510E-001;-2.381289564073086E-002;-2.420664764940739E-003;-4.899558145552874E-003;
2.411000000000000E+009;1.681945770978928E-001;-2.563534490764141E-002;-2.625349676236510E-003;-4.751789849251509E-003;
2.411166666666667E+009;1.677450239658356E-001;-2.758491784334183E-002;-2.552634803578258E-003;-4.486438352614641E-003;
2.411333333333334E+009;1.672574877738953E-001;-2.927893213927746E-002;-2.777079585939646E-003;-4.583372268825769E-003;
2.411500000000000E+009;1.670367270708084E-001;-3.149281442165375E-002;-2.804522402584553E-003;-4.398655612021685E-003;
2.411666666666667E+009;1.668617129325867E-001;-3.318875283002853E-002;-2.870327560231090E-003;-4.254636354744434E-003;
2.411833333333334E+009;1.665872186422348E-001;-3.505996242165566E-002;-2.926438115537167E-003;-4.188789054751396E-003;
2.412000000000000E+009;1.665748357772827E-001;-3.710689023137093E-002;-2.988841384649277E-003;-4.006943665444851E-003;
2.412166666666667E+009;1.665031015872955E-001;-3.888580948114395E-002;-3.159892978146672E-003;-3.932744264602661E-003;
2.412333333333334E+009;1.664149910211563E-001;-4.078495502471924E-002;-3.204637672752142E-003;-3.837430849671364E-003;
2.412500000000000E+009;1.664251834154129E-001;-4.265101253986359E-002;-3.303713630884886E-003;-3.781464882194996E-003;
2.412666666666667E+009;1.666524112224579E-001;-4.462802037596703E-002;-3.329486818984151E-003;-3.648312762379646E-003;
2.412833333333334E+009;1.668548732995987E-001;-4.655238986015320E-002;-3.556502051651478E-003;-3.613869892433286E-003;
2.413000000000000E+009;1.670026928186417E-001;-4.829918593168259E-002;-3.574180649593473E-003;-3.595321439206600E-003;
2.413166666666667E+009;1.670666635036469E-001;-4.997801035642624E-002;-3.609533188864589E-003;-3.403769573196769E-003;
2.413333333333334E+009;1.673950552940369E-001;-5.177142098546028E-002;-3.645876888185740E-003;-3.308819606900215E-003;
2.413500000000000E+009;1.679356247186661E-001;-5.335804820060730E-002;-3.621232230216265E-003;-3.242581617087126E-003;
2.413666666666667E+009;1.682333350181580E-001;-5.499209463596344E-002;-3.910952247679234E-003;-3.038959112018347E-003;
2.413833333333334E+009;1.685854494571686E-001;-5.633910745382309E-002;-4.010127857327461E-003;-2.880156273022294E-003;
2.414000000000000E+009;1.687904447317123E-001;-5.797940492630005E-002;-3.939592745155096E-003;-2.607656875625253E-003;
2.414166666666667E+009;1.692843288183212E-001;-5.914913490414619E-002;-4.035276826471090E-003;-2.673705108463764E-003;
2.414333333333334E+009;1.696252226829529E-001;-6.043123826384544E-002;-4.016088321805000E-003;-2.586392220109701E-003;
2.414500000000000E+009;1.702997684478760E-001;-6.174905225634575E-002;-4.160351119935513E-003;-2.418864518404007E-003;
2.414666666666667E+009;1.706896871328354E-001;-6.271766126155853E-002;-4.101024474948645E-003;-2.228845143690705E-003;
2.414833333333334E+009;1.710633039474487E-001;-6.373401731252670E-002;-4.251236561685801E-003;-2.268707612529397E-003;
2.415000000000000E+009;1.713302582502365E-001;-6.464356184005737E-002;-4.262446425855160E-003;-2.121293684467673E-003;
2.415166666666667E+009;1.716469228267670E-001;-6.550608575344086E-002;-4.323037806898356E-003;-2.088694367557764E-003;
2.415333333333334E+009;1.722163259983063E-001;-6.632866710424423E-002;-4.418708384037018E-003;-1.944393850862980E-003;
2.415500000000000E+009;1.724042147397995E-001;-6.689477711915970E-002;-4.422106314450502E-003;-1.695916871540248E-003;
2.415666666666667E+009;1.727014482021332E-001;-6.743624061346054E-002;-4.411408212035894E-003;-1.715886872261763E-003;
2.415833333333334E+009;1.729795187711716E-001;-6.801725924015045E-002;-4.383949097245932E-003;-1.538042910397053E-003;
2.416000000000000E+009;1.729578375816345E-001;-6.854080408811569E-002;-4.518687259405851E-003;-1.206553657539189E-003;
2.416166666666667E+009;1.732454150915146E-001;-6.895447522401810E-002;-4.677133169025183E-003;-1.222171238623560E-003;
2.416333333333334E+009;1.731559634208679E-001;-6.931068748235703E-002;-4.865256138145924E-003;-1.115726656280458E-003;
2.416500000000000E+009;1.730142533779144E-001;-6.960441172122955E-002;-4.658067133277655E-003;-8.971457718871534E-004;
2.416666666666667E+009;1.729259639978409E-001;-6.981790065765381E-002;-4.821874666959047E-003;-7.738586282357574E-004;
2.416833333333334E+009;1.727691739797592E-001;-7.016959786415100E-002;-4.790157079696655E-003;-6.924260524101555E-004;
2.417000000000000E+009;1.723379939794540E-001;-7.057218998670578E-002;-4.665212240070105E-003;-4.535849730018526E-004;
2.417166666666667E+009;1.720652580261231E-001;-7.062342017889023E-002;-4.823161754757166E-003;-3.003685851581395E-004;
2.417333333333334E+009;1.715252250432968E-001;-7.070040702819824E-002;-4.846130032092333E-003;-2.507001627236605E-004;
2.417500000000000E+009;1.708704382181168E-001;-7.128699868917465E-002;-4.836401902139187E-003;-1.061631410266273E-004;
2.417666666666667E+009;1.702779084444046E-001;-7.119037955999374E-002;-4.755492322146893E-003;-1.152597178588621E-005;
2.417833333333334E+009;1.695986390113831E-001;-7.146885246038437E-002;-4.866322502493858E-003;3.395169915165752E-004;
2.418000000000000E+009;1.687172353267670E-001;-7.176145911216736E-002;-4.757872316986322E-003;3.946772485505790E-004;
2.418166666666667E+009;1.679538786411285E-001;-7.183628529310226E-002;-4.789868835359812E-003;6.089802482165396E-004;
2.418333333333334E+009;1.671413481235504E-001;-7.230453193187714E-002;-4.728750791400671E-003;8.654980920255184E-004;
2.418500000000000E+009;1.659930795431137E-001;-7.270912826061249E-002;-4.671737086027861E-003;8.416219498030841E-004;
2.418666666666667E+009;1.651059389114380E-001;-7.311827689409256E-002;-4.539926536381245E-003;1.142357476055622E-003;
2.418833333333334E+009;1.637710481882095E-001;-7.363355904817581E-002;-4.540171474218369E-003;1.105250092223287E-003;
2.419000000000000E+009;1.626390218734741E-001;-7.395136356353760E-002;-4.454572219401598E-003;1.312511973083019E-003;
2.419166666666667E+009;1.617073863744736E-001;-7.461334764957428E-002;-4.571165423840284E-003;1.328692538663745E-003;
2.419333333333334E+009;1.601935923099518E-001;-7.504931092262268E-002;-4.324066452682018E-003;1.393170445226133E-003;
2.419500000000000E+009;1.590824276208878E-001;-7.599942386150360E-002;-4.347363952547312E-003;1.714381156489253E-003;
2.419666666666667E+009;1.579407155513763E-001;-7.688218355178833E-002;-4.259780049324036E-003;1.825999817810953E-003;
2.419833333333334E+009;1.566061377525330E-001;-7.760094851255417E-002;-4.246999975293875E-003;1.845777616836131E-003;
2.420000000000000E+009;1.555455476045609E-001;-7.857408374547958E-002;-3.966803662478924E-003;1.994481310248375E-003;
2.420166666666667E+009;1.542881578207016E-001;-7.949469983577728E-002;-3.897588467225432E-003;2.132921712473035E-003;
2.420333333333334E+009;1.532106548547745E-001;-8.061537146568298E-002;-3.977621905505657E-003;2.181775169447064E-003;
2.420500000000000E+009;1.520116776227951E-001;-8.168333768844605E-002;-3.838754957541823E-003;2.349806483834982E-003;
2.420666666666667E+009;1.510294824838638E-001;-8.280315250158310E-002;-3.677312983199954E-003;2.580481581389904E-003;
2.420833333333334E+009;1.499115079641342E-001;-8.437244594097138E-002;-3.533108392730355E-003;2.540573012083769E-003;
2.421000000000000E+009;1.488540470600128E-001;-8.567848056554794E-002;-3.653179621323943E-003;2.886602422222495E-003;
2.421166666666667E+009;1.480813771486282E-001;-8.709663152694702E-002;-3.403245704248548E-003;2.741684438660741E-003;
2.421333333333334E+009;1.472686380147934E-001;-8.850824832916260E-002;-3.313893917948008E-003;2.858035964891315E-003;
2.421500000000000E+009;1.462810337543488E-001;-9.002166986465454E-002;-3.250213339924812E-003;2.916570287197828E-003;
2.421666666666667E+009;1.457286775112152E-001;-9.170816093683243E-002;-2.998702693730593E-003;3.035530447959900E-003;
2.421833333333334E+009;1.450823247432709E-001;-9.321063011884689E-002;-2.780574839562178E-003;3.055152250453830E-003;
2.422000000000000E+009;1.445591002702713E-001;-9.489399939775467E-002;-2.762399613857269E-003;3.206325229257345E-003;
2.422166666666667E+009;1.441477090120316E-001;-9.671322256326675E-002;-2.604134613648057E-003;3.318792441859841E-003;
2.422333333333334E+009;1.437268704175949E-001;-9.831335395574570E-002;-2.588153816759586E-003;3.332230029627681E-003;
2.422500000000000E+009;1.433532238006592E-001;-9.992559254169464E-002;-2.491289982572198E-003;3.461443819105625E-003;
2.422666666666667E+009;1.431223005056381E-001;-1.017409339547157E-001;-2.309965202584863E-003;3.431296208873391E-003;
2.422833333333334E+009;1.428856402635574E-001;-1.035480871796608E-001;-2.195545006543398E-003;3.475220408290625E-003;
2.423000000000000E+009;1.428899168968201E-001;-1.051479354500771E-001;-2.109157387167215E-003;3.533851820975542E-003;
2.423166666666667E+009;1.430965960025787E-001;-1.067774146795273E-001;-1.858490402810276E-003;3.566920524463058E-003;
2.423333333333334E+009;1.431472301483154E-001;-1.083653867244721E-001;-1.764119020663202E-003;3.612234489992261E-003;
2.423500000000000E+009;1.432937085628510E-001;-1.100882217288017E-001;-1.589505583979189E-003;3.645951626822352E-003;
2.423666666666667E+009;1.432904899120331E-001;-1.117827892303467E-001;-1.586037222296000E-003;3.675207961350679E-003;
2.423833333333334E+009;1.436964869499207E-001;-1.131336838006973E-001;-1.395943108946085E-003;3.673498285934329E-003;
2.424000000000000E+009;1.437902152538300E-001;-1.145933419466019E-001;-1.291012624278665E-003;3.643463365733624E-003;
2.424166666666667E+009;1.441176086664200E-001;-1.159543022513390E-001;-1.280366326682270E-003;3.669951111078262E-003;
2.424333333333334E+009;1.445278674364090E-001;-1.172474250197411E-001;-1.035356195643544E-003;3.754700766876340E-003;
2.424500000000000E+009;1.448520123958588E-001;-1.185035035014153E-001;-1.191544928587973E-003;3.623490920290351E-003;
2.424666666666667E+009;1.453317254781723E-001;-1.194206178188324E-001;-9.497581631876528E-004;3.659016685560346E-003;
2.424833333333334E+009;1.454589515924454E-001;-1.206229478120804E-001;-8.943833527155221E-004;3.855002578347921E-003;
2.425000000000000E+009;1.461012512445450E-001;-1.217173337936401E-001;-8.618495776318014E-004;3.673407481983304E-003;
2.425166666666667E+009;1.460966616868973E-001;-1.225586980581284E-001;-6.627945112995803E-004;3.624158678576350E-003;
2.425333333333334E+009;1.465887129306793E-001;-1.233443915843964E-001;-3.937851288355887E-004;3.593393368646503E-003;
2.425500000000000E+009;1.469654440879822E-001;-1.241493746638298E-001;-4.177193331997842E-004;3.606977639719844E-003;
2.425666666666667E+009;1.470475345849991E-001;-1.248116120696068E-001;-2.674572460819036E-004;3.666599746793509E-003;
2.425833333333334E+009;1.474186331033707E-001;-1.253097802400589E-001;-2.167713391827419E-004;3.736911108717322E-003;
2.426000000000000E+009;1.474871039390564E-001;-1.258727610111237E-001;-1.388345554005355E-004;3.633847227320075E-003;
2.426166666666667E+009;1.478187888860703E-001;-1.262033730745316E-001;-1.722054148558527E-004;3.575103357434273E-003;
2.426333333333334E+009;1.478060781955719E-001;-1.264630556106567E-001;1.090700898203068E-004;3.491900162771344E-003;
2.426500000000000E+009;1.478642076253891E-001;-1.268255710601807E-001;2.139722637366504E-004;3.632571781054139E-003;
2.426666666666667E+009;1.478213816881180E-001;-1.268412172794342E-001;3.815349773503840E-004;3.510953625664115E-003;
2.426833333333334E+009;1.477122455835342E-001;-1.270397007465363E-001;4.825291689485312E-004;3.554976312443614E-003;
2.427000000000000E+009;1.473792344331741E-001;-1.272562444210053E-001;4.999019438400865E-004;3.636873327195644E-003;
2.427166666666667E+009;1.470909714698792E-001;-1.271753609180450E-001;5.843897815793753E-004;3.452706150710583E-003;
2.427333333333334E+009;1.466619074344635E-001;-1.271837353706360E-001;7.258053519763053E-004;3.509425558149815E-003;
2.427500000000000E+009;1.462580859661102E-001;-1.271677017211914E-001;8.824177202768624E-004;3.329598810523748E-003;
2.427666666666667E+009;1.456136405467987E-001;-1.271769702434540E-001;8.748699910938740E-004;3.375082043930888E-003;
