# Hz S RI R 50
2400000000.0000000000 0.168770179152488708496093750000 0.039448652416467666625976562500 0.002267157658934593200683593750 -0.001379925291985272927525185693 0 0 0 0 
2400166666.6666665077 0.169541731476783807952557481258 0.038684848695993423461914062500 0.002125484636053442955017089844 -0.001490199938416481018066406250 0 0 0 0 
2400333333.3333334923 0.170038118958473205566406250000 0.037879437208175659179687500000 0.002155283233150839805603027344 -0.001703702146187425093409872900 0 0 0 0 
2400500000.0000000000 0.170716330409049987792968750000 0.036950264126062393188476562500 0.002045891946181654930114746094 -0.001728757051751018004176474463 0 0 0 0 
2400666666.6666665077 0.171280428767204312423544365629 0.036304224282503128051757812500 0.001983085414394735856297158350 -0.001812212169170380072352743994 0 0 0 0 
2400833333.3333334923 0.171730980277061490157919365629 0.035469144582748413085937500000 0.001911731786094605922698974609 -0.001861999393440783023834228516 0 0 0 0 
2401000000.0000000000 0.172144979238510104080361884371 0.034734491258859627460520158593 0.001638464862480760054347372900 -0.001972026890143752098083496094 0 0 0 0 
2401166666.6666665077 0.172646045684814508636151231258 0.033902887254953377460520158593 0.001571412896737456104875874097 -0.002070916350930929183959960938 0 0 0 0 
2401333333.3333334923 0.172656267881393404861611884371 0.033232074230909347534179687500 0.001312528154812752983690571362 -0.002102581784129143194911337744 0 0 0 0 
2401500000.0000000000 0.172987222671508789062500000000 0.032607100903987891460378278907 0.001289911335334182002423930591 -0.002030541189014912085292197119 0 0 0 0 
2401666666.6666665077 0.173296749591827392578125000000 0.031994145363569259643554687500 0.001090326812118292071698832935 -0.002012921031564474105834960938 0 0 0 0 
2401833333.3333334923 0.173412084579467801193075615629 0.031312905251979827880859375000 0.001095214975066483020782470703 -0.001872049295343459086177206885 0 0 0 0 
2402000000.0000000000 0.173441320657730102539062500000 0.030495345592498779296875000000 0.001006601378321648077723837744 -0.002058815211057662963867187500 0 0 0 0 
2402166666.6666665077 0.173472627997398404220419365629 0.029742062091827389108678048046 0.000861904409248381853103637695 -0.001616511493921279907226562500 0 0 0 0 
2402333333.3333334923 0.173394232988357488434161268742 0.029038019478321078908900076954 0.000829882163088768720626831055 -0.001646007061935961029650044019 0 0 0 0 
2402500000.0000000000 0.173470586538314791580361884371 0.028171358630061149597167968750 0.000950319867115467786788940430 -0.001391292549669743017909384619 0 0 0 0 
2402666666.6666665077 0.173368021845817593673544365629 0.027310147881507870065709298046 0.000854011275805532932281494141 -0.001536298426799475929857563550 0 0 0 0 
2402833333.3333334923 0.173345550894737188141192518742 0.026511367410421371459960937500 0.000970779568888247013092041016 -0.001380225759930908896802592700 0 0 0 0 
2403000000.0000000000 0.173143818974494906326455634371 0.025592699646949771535853201954 0.001028146594762801907183003003 -0.001513917231932282014134072412 0 0 0 0 
2403166666.6666665077 0.172836750745773287674111884371 0.024612884968519210815429687500 0.001180591178126632950426411206 -0.001300557982176542065264057690 0 0 0 0 
2403333333.3333334923 0.172797188162803705413494981258 0.023632632568478580820103829296 0.001170355360954999923706054688 -0.001502248109318315982818603516 0 0 0 0 
2403500000.0000000000 0.172628030180931091308593750000 0.022505728527903560293177420704 0.001154544064775109074236225659 -0.001380899222567677931544638525 0 0 0 0 
2403666666.6666665077 0.172356903553009005447549384371 0.021389316767454150808314139454 0.001292847562581300952314067310 -0.001663758768700063011766743237 0 0 0 0 
2403833333.3333334923 0.172163277864456204513388115629 0.020269861444830891000767891796 0.001481610350310802893397665869 -0.001728288945741951899287558447 0 0 0 0 
2404000000.0000000000 0.171806469559669494628906250000 0.019062260165810588491419608204 0.001277170493267476992366171729 -0.001840984332375227971317910303 0 0 0 0 
2404166666.6666665077 0.171494334936141995529013115629 0.017815966159105300903320312500 0.001271136337891221046447753906 -0.001922896713949739933013916016 0 0 0 0 
2404333333.3333334923 0.171253979206085205078125000000 0.016763685271143909799596016796 0.001398197142407298088073730469 -0.002146370708942412896397256006 0 0 0 0 
2404500000.0000000000 0.170962408185005187988281250000 0.015132595784962180746058280079 0.001506703440099955038783408057 -0.002212879247963428930995322119 0 0 0 0 
2404666666.6666665077 0.170661270618438692947549384371 0.013867442496120929718017578125 0.001419186708517373041865683447 -0.002408689353615045981166220557 0 0 0 0 
2404833333.3333334923 0.170465633273124694824218750000 0.012353193946182729548444179102 0.001206248067319392941118549878 -0.002438946859911084175109863281 0 0 0 0 
2405000000.0000000000 0.170184835791587801834268134371 0.010716173797845840454101562500 0.000998922041617333889007568359 -0.002685876796022057966945029150 0 0 0 0 
2405166666.6666665077 0.170147761702537508865518134371 0.009294461458921432495117187500 0.000928981171455234289169311523 -0.002656080992892384962794638525 0 0 0 0 
2405333333.3333334923 0.170110449194908086578692518742 0.007334897294640541076660156250 0.000710382941178977489471435547 -0.002712140791118144989013671875 0 0 0 0 
2405500000.0000000000 0.169781312346458407303018134371 0.005905537866055965423583984375 0.000439532042946666479110717773 -0.002825973322615026993992470850 0 0 0 0 
2405666666.6666665077 0.169654518365860013107138115629 0.004213942214846611022949218750 0.000400415243348106687695103778 -0.002863589441403747038600302588 0 0 0 0 
2405833333.3333334923 0.169360101222991887848223768742 0.002529591554775834083557128906 0.000332653289660811424255371094 -0.002853466896340250968933105469 0 0 0 0 
2406000000.0000000000 0.169134840369224603850994981258 0.000604242552071809768676757812 0.000121027071145363206237238751 -0.002778778783977032141444540869 0 0 0 0 
2406166666.6666665077 0.168922826647758511642294365629 -0.000862409186083823442459106445 -0.000014106690287007950246334076 -0.002603531116619706153869628906 0 0 0 0 
2406333333.3333334923 0.168822675943374606033486884371 -0.002759414725005627112147665869 0.000029224360332591459155082703 -0.002675142837688326835632324219 0 0 0 0 
2406500000.0000000000 0.168440267443656893631143134371 -0.004520039074122905731201171875 -0.000185127166332677006721496582 -0.002669280394911766052246093750 0 0 0 0 
2406666666.6666665077 0.168105334043502807617187500000 -0.006010766141116619110107421875 -0.000292026437819004113047999249 -0.002673924900591373009922646631 0 0 0 0 
2406833333.3333334923 0.167873978614807101150674384371 -0.007846647873520851135253906250 -0.000352300034137442708015441895 -0.002670108340680599212646484375 0 0 0 0 
2407000000.0000000000 0.167826399207115201095419365629 -0.009407169185578823089599609375 -0.000277213519439101219177246094 -0.002596004866063594818115234375 0 0 0 0 
2407166666.6666665077 0.167651668190956087967080634371 -0.010813773609697820490826991602 -0.000364935054676607305377405988 -0.002512908307835460142848349463 0 0 0 0 
2407333333.3333334923 0.167497500777244595626669365629 -0.012506450526416299992571445898 -0.000385059247491881305545252667 -0.002249614801257849173304892432 0 0 0 0 
2407500000.0000000000 0.167336404323577908614950615629 -0.013864045962691310537318045704 -0.000407173123676329905360621320 -0.002402633428573607964756631006 0 0 0 0 
2407666666.6666665077 0.167251855134963989257812500000 -0.015225687995553020132044608204 -0.000362129387212917208671569824 -0.002444783691316843032836914062 0 0 0 0 
2407833333.3333334923 0.166978076100349398513955634371 -0.016757769510149959218958670704 -0.000443265918875113075405675067 -0.002647488843649626211879111182 0 0 0 0 
2408000000.0000000000 0.166961342096328707595986884371 -0.017848556861281398427943045704 -0.000430746993515640497207641602 -0.002676868811249732971191406250 0 0 0 0 
2408166666.6666665077 0.166879564523696899414062500000 -0.018832957372069358825683593750 -0.000698229821864515542984008789 -0.002713815541937946839573525537 0 0 0 0 
2408333333.3333334923 0.167263984680175809005575615629 -0.019953489303588870656946951954 -0.000427213963121175820201319562 -0.002591990632936358885524130713 0 0 0 0 
2408500000.0000000000 0.167283907532692011077557481258 -0.021116377785801890981653983204 -0.000650684640277177095413208008 -0.002680017845705151991603232275 0 0 0 0 
2408666666.6666665077 0.167454749345779391189736884371 -0.022202419117093089712122733204 -0.000918214209377765655517578125 -0.002922907704487442970275878906 0 0 0 0 
2408833333.3333334923 0.167630866169929504394531250000 -0.023267855867743488657017891796 -0.000912854913622140884399414062 -0.002795965177938342094421386719 0 0 0 0 
2409000000.0000000000 0.167973443865776089767294365629 -0.024009054526686668395996093750 -0.001186890527606010003330849756 -0.002801361959427595138549804688 0 0 0 0 
2409166666.6666665077 0.168365225195884704589843750000 -0.025011047720909118652343750000 -0.001319945557042955918553017725 -0.002851874334737658934352255713 0 0 0 0 
2409333333.3333334923 0.168511375784873990157919365629 -0.025963671505451198923131173046 -0.001584161538630723953247070312 -0.002836261177435516877415322412 0 0 0 0 
2409500000.0000000000 0.168752491474151611328125000000 -0.027108691632747650146484375000 -0.001775490120053291103960346753 -0.002669205190613865852355957031 0 0 0 0 
2409666666.6666665077 0.169046893715858487228231865629 -0.027893433347344398498535156250 -0.001744774053804575963261269678 -0.002789651043713092803955078125 0 0 0 0 
2409833333.3333334923 0.169292062520980807205361884371 -0.028787732124328609811803048046 -0.002008169190958141846897744287 -0.002558921696618198914768838037 0 0 0 0 
2410000000.0000000000 0.169585511088371304611044365629 -0.029639581218361861492116560157 -0.002055905293673276901245117188 -0.002550693694502114815952920068 0 0 0 0 
2410166666.6666665077 0.169880464673042297363281250000 -0.030533444136381149291992187500 -0.002185556804761290983912802588 -0.002380762714892625808715820312 0 0 0 0 
2410333333.3333334923 0.169966429471969604492187500000 -0.031339075416326522827148437500 -0.002299451036378740830662392725 -0.002385444240644574165344238281 0 0 0 0 
2410500000.0000000000 0.170063093304634094238281250000 -0.032167032361030578613281250000 -0.002490652259439229965209960938 -0.002224577357992529869079589844 0 0 0 0 
2410666666.6666665077 0.170295745134353609939736884371 -0.033146079629659652709960937500 -0.002649814588949083848240517725 -0.002169617218896747069117880713 0 0 0 0 
2410833333.3333334923 0.170219138264656094650106865629 -0.033816628158092498779296875000 -0.002647192683070898056030273438 -0.002007799688726664023158408057 0 0 0 0 
2411000000.0000000000 0.170276001095771789550781250000 -0.034605119377374649047851562500 -0.002827993594110012054443359375 -0.001871480839326977946637797778 0 0 0 0 
2411166666.6666665077 0.170137166976928710937500000000 -0.035454053431749336933176408593 -0.002851817756891251044032431494 -0.001717561739496886947034526294 0 0 0 0 
2411333333.3333334923 0.170142397284507806975994981258 -0.036175638437271118164062500000 -0.002913944190368055863621377100 -0.001552250818349421024322509766 0 0 0 0 
2411500000.0000000000 0.170026421546936007400674384371 -0.037015970796346657489817033593 -0.003081307513639330863952636719 -0.001380666159093379974365234375 0 0 0 0 
2411666666.6666665077 0.169987350702285794357138115629 -0.037737868726253509521484375000 -0.003130185417830944061279296875 -0.001288997242227196910260844653 0 0 0 0 
2411833333.3333334923 0.169854208827018710037393134371 -0.038350421935319900512695312500 -0.002946968190371990203857421875 -0.001198925659991801001905131763 0 0 0 0 
2412000000.0000000000 0.169678643345832796951455634371 -0.039108194410800926898996721093 -0.003104653907939792113063193213 -0.000897631514817476272583007812 0 0 0 0 
2412166666.6666665077 0.169152840971946688553018134371 -0.039798982441425316547434221093 -0.003031739499419928030726767432 -0.000770651036873459815979003906 0 0 0 0 
2412333333.3333334923 0.169129788875579806228799384371 -0.040610384196043021465261091407 -0.003140171058475970788242959131 -0.000562891713343560695648193359 0 0 0 0 
2412500000.0000000000 0.168751627206802395919638115629 -0.041367914527654647827148437500 -0.003054113825783133940455771338 -0.000482296309201046824455261230 0 0 0 0 
2412666666.6666665077 0.168421074748039301116619981258 -0.042272623628377907489817033593 -0.002943781437352300123927451025 -0.000140425763675011694431304932 0 0 0 0 
2412833333.3333334923 0.167946457862854003906250000000 -0.043011914938688278198242187500 -0.002916415454819798903224326025 -0.000097631644166540354490280151 0 0 0 0 
2413000000.0000000000 0.167530357837677001953125000000 -0.043974228203296661376953125000 -0.002874181838706136183497763525 0.000012016118489555079827104875 0 0 0 0 
2413166666.6666665077 0.166908055543899508377236884371 -0.044755350798368447040598283593 -0.002687025815248488946201943506 0.000122420155094005194589337759 0 0 0 0 
2413333333.3333334923 0.166310638189315795898437500000 -0.045670349150896072387695312500 -0.002619443694129585786106728662 0.000145665035233832895755767822 0 0 0 0 
2413500000.0000000000 0.165914297103881808181924384371 -0.046449132263660430908203125000 -0.002544384449720383124110556494 0.000220763598917983499452313834 0 0 0 0 
2413666666.6666665077 0.165519624948501586914062500000 -0.047402393072843551635742187500 -0.002444749465212225914001464844 0.000314418808557093089253026141 0 0 0 0 
2413833333.3333334923 0.164783060550689697265625000000 -0.048227548599243157123606096093 -0.002337665529921650886535644531 0.000207541161216795390278416766 0 0 0 0 
2414000000.0000000000 0.163920760154724093338174384371 -0.049217320978641510009765625000 -0.002372066490352154211757040869 0.000308751652482896989018040790 0 0 0 0 
2414166666.6666665077 0.163480937480926513671875000000 -0.050040040165185928344726562500 -0.002316314261406660079956054688 0.000332548283040523474842625751 0 0 0 0 
2414333333.3333334923 0.163091197609901400467080634371 -0.050903957337141036987304687500 -0.002126340987160801887512207031 0.000258473184658214504092615948 0 0 0 0 
2414500000.0000000000 0.162848964333534212967080634371 -0.051910169422626502300222028907 -0.002164839068427681922912597656 0.000293514458462595885426121844 0 0 0 0 
2414666666.6666665077 0.162303015589714105804119981258 -0.052725799381732940673828125000 -0.002277137944474815888645791162 0.000188824211363680687829694205 0 0 0 0 
2414833333.3333334923 0.161737129092216491699218750000 -0.053927212953567511821706403907 -0.002127470914274454116821289062 0.000133777211885899305343627930 0 0 0 0 
2415000000.0000000000 0.161334916949272211272869981258 -0.054904468357563018798828125000 -0.002235515974462031884434365381 0.000195258486201055402129572736 0 0 0 0 
2415166666.6666665077 0.160982877016067504882812500000 -0.055932685732841491699218750000 -0.002370013389736413955688476562 0.000200122492969967397764483041 0 0 0 0 
2415333333.3333334923 0.160855934023857088943643134371 -0.057187233120203018188476562500 -0.002540211426094173951389931787 0.000341217382811009883880615234 0 0 0 0 
2415500000.0000000000 0.160426601767540005782919365629 -0.058433286845684051513671875000 -0.002388220746070146994349814307 0.000431866064900532419055384503 0 0 0 0 
2415666666.6666665077 0.160052463412284906585369981258 -0.059605281800031661987304687500 -0.002529813209548593001124716650 0.000513492326717823743820190430 0 0 0 0 
2415833333.3333334923 0.159720793366432189941406250000 -0.061001725494861602783203125000 -0.002521084621548653082606650244 0.000439905328676104599803370343 0 0 0 0 
2416000000.0000000000 0.159350037574768094161825615629 -0.062224637717008590698242187500 -0.002338934456929564909694052588 0.000680350523907691240310668945 0 0 0 0 
2416166666.6666665077 0.159096539020538302322549384371 -0.063590496778488159179687500000 -0.002431377070024609999415732275 0.000720527430530637502670288086 0 0 0 0 
2416333333.3333334923 0.158680498600006103515625000000 -0.064937956631183624267578125000 -0.002510454738512634797337197412 0.000839324900880455970764160156 0 0 0 0 
2416500000.0000000000 0.158292457461357088943643134371 -0.066195540130138397216796875000 -0.002421796321868896918055868994 0.000919797632377594709396362305 0 0 0 0 
2416666666.6666665077 0.157868847250938387771768134371 -0.067421697080135345458984375000 -0.002247087890282272858860634912 0.000948175555095076560974121094 0 0 0 0 
2416833333.3333334923 0.157602727413177490234375000000 -0.068924702703952789306640625000 -0.002308385213837027983424521338 0.001034764340147376060485839844 0 0 0 0 
2417000000.0000000000 0.157037615776062011718750000000 -0.070224300026893615722656250000 -0.002247505821287631988525390625 0.001064580515958368995069194263 0 0 0 0 
2417166666.6666665077 0.156655535101890591720419365629 -0.071275629103183746337890625000 -0.002160893287509679794311523438 0.001135488506406546072718954932 0 0 0 0 
2417333333.3333334923 0.156366854906082208831463731258 -0.072503693401813507080078125000 -0.002295115031301974816563271631 0.001128910225816071033477783203 0 0 0 0 
2417500000.0000000000 0.155986025929450988769531250000 -0.073741570115089416503906250000 -0.002091664820909500122070312500 0.001065435586497188048121786963 0 0 0 0 
2417666666.6666665077 0.155806198716163607498330634371 -0.074713103473186492919921875000 -0.002264937618747353987452841650 0.001249614986591041088104248047 0 0 0 0 
2417833333.3333334923 0.155512899160385104080361884371 -0.075830504298210144042968750000 -0.002187050879001616997959756006 0.001186369452625513076782226562 0 0 0 0 
2418000000.0000000000 0.155182719230651910979901231258 -0.076861478388309478759765625000 -0.002254320541396737098693847656 0.001350248348899186091182089697 0 0 0 0 
2418166666.6666665077 0.154973000288009588043536268742 -0.077776826918125152587890625000 -0.002224974567070602936985634912 0.001313731539994478008867573315 0 0 0 0 
2418333333.3333334923 0.154892399907112093826455634371 -0.078790910542011260986328125000 -0.002383312676101922988891601562 0.001451557036489248058916401440 0 0 0 0 
2418500000.0000000000 0.154625311493873596191406250000 -0.079696699976921081542968750000 -0.002223247662186623053309775244 0.001588466111570596911786723560 0 0 0 0 
2418666666.6666665077 0.154550865292549105545205634371 -0.080619879066944122314453125000 -0.002177091548219323158264160156 0.001676004030741750977159809644 0 0 0 0 
2418833333.3333334923 0.154137998819351196289062500000 -0.081543765962123870849609375000 -0.002126423176378012137172079932 0.001772242248989642100093222510 0 0 0 0 
2419000000.0000000000 0.153959587216377313811932481258 -0.082417160272598266601562500000 -0.002097387332469224929809570312 0.001883421442471445040461874854 0 0 0 0 
2419166666.6666665077 0.153943404555320711990518134371 -0.083115793764591217041015625000 -0.002048990922048687934875488281 0.002025474328547716140747070312 0 0 0 0 
2419333333.3333334923 0.153573572635650607010049384371 -0.083720684051513671875000000000 -0.002086360007524489922764443506 0.002044619293883442878723144531 0 0 0 0 
2419500000.0000000000 0.153273195028305109222088731258 -0.084730938076972961425781250000 -0.002078904537484049797058105469 0.002068117028102279143092490088 0 0 0 0 
2419666666.6666665077 0.153263717889785794357138115629 -0.085464075207710266113281250000 -0.001934175961650907993316650391 0.002378928009420632882359170068 0 0 0 0 
2419833333.3333334923 0.153027519583702087402343750000 -0.085848733782768249511718750000 -0.001919738482683897018432617188 0.002351348521187901930568076025 0 0 0 0 
