# Version 1.00
#
freq[Hz];re:Trc1_S11;im:Trc1_S11;re:Trc2_S21;im:Trc2_S21;
2.400000000000000E+009;1.735247969627380E-001;4.986652731895447E-002;-5.281999474391341E-004;4.370865412056446E-003;
2.400166666666667E+009;1.739717423915863E-001;4.944659769535065E-002;-6.390312337316573E-004;4.342081956565380E-003;
2.400333333333334E+009;1.743740439414978E-001;4.859595745801926E-002;-6.300940294750035E-004;4.269072785973549E-003;
2.400500000000000E+009;1.746401488780975E-001;4.805893823504448E-002;-9.001952712424099E-004;4.079636652022600E-003;
2.400666666666667E+009;1.749444603919983E-001;4.725664108991623E-002;-8.784008678048849E-004;4.276388790458441E-003;
2.400833333333334E+009;1.752231121063232E-001;4.682534560561180E-002;-8.796148467808962E-004;4.281679634004831E-003;
2.401000000000000E+009;1.753551065921783E-001;4.591575264930725E-002;-1.032059662975371E-003;4.288123920559883E-003;
2.401166666666667E+009;1.755127459764481E-001;4.535984620451927E-002;-1.191076124086976E-003;4.427672363817692E-003;
2.401333333333334E+009;1.754985004663467E-001;4.450437799096108E-002;-1.139177125878632E-003;4.673963412642479E-003;
2.401500000000000E+009;1.757371127605438E-001;4.394578933715820E-002;-1.296912087127566E-003;4.654125776141882E-003;
2.401666666666667E+009;1.756078153848648E-001;4.338976740837097E-002;-1.101403031498194E-003;4.792669322341681E-003;
2.401833333333334E+009;1.756402254104614E-001;4.222659766674042E-002;-1.163475215435028E-003;5.006641615182161E-003;
2.402000000000000E+009;1.752101629972458E-001;4.158513620495796E-002;-1.121491077356041E-003;5.157084669917822E-003;
2.402166666666667E+009;1.751007139682770E-001;4.052492603659630E-002;-8.836201741360128E-004;5.609832238405943E-003;
2.402333333333334E+009;1.748220026493073E-001;3.951977565884590E-002;-8.983544539660215E-004;5.541658494621515E-003;
2.402500000000000E+009;1.749347001314163E-001;3.851398825645447E-002;-7.309435750357807E-004;5.757171195000410E-003;
2.402666666666667E+009;1.745269298553467E-001;3.725647553801537E-002;-5.484604625962675E-004;6.014843471348286E-003;
2.402833333333334E+009;1.742000877857208E-001;3.611925616860390E-002;-3.220671496819705E-004;6.078613921999931E-003;
2.403000000000000E+009;1.739228516817093E-001;3.481484949588776E-002;-1.452090946258977E-004;6.326355505734682E-003;
2.403166666666667E+009;1.735084354877472E-001;3.346405550837517E-002;-2.285127447976265E-005;6.299501284956932E-003;
2.403333333333334E+009;1.732224225997925E-001;3.191424533724785E-002;2.911699994001538E-004;6.483471952378750E-003;
2.403500000000000E+009;1.728526800870895E-001;3.035884909331799E-002;5.522797582671046E-004;6.616846192628145E-003;
2.403666666666667E+009;1.723627895116806E-001;2.865340560674667E-002;8.913039928302169E-004;6.492720451205969E-003;
2.403833333333334E+009;1.721491515636444E-001;2.686701528728008E-002;1.140730688348413E-003;6.627887953072786E-003;
2.404000000000000E+009;1.716790199279785E-001;2.530570328235626E-002;1.450938056223095E-003;6.540339905768633E-003;
2.404166666666667E+009;1.713054627180100E-001;2.318289875984192E-002;1.798814511857927E-003;6.516948342323303E-003;
2.404333333333334E+009;1.710453331470490E-001;2.151597477495670E-002;2.007123082876205E-003;6.538932677358389E-003;
2.404500000000000E+009;1.706544905900955E-001;1.932285167276859E-002;2.205758588388562E-003;6.437208037823439E-003;
2.404666666666667E+009;1.704973578453064E-001;1.739231124520302E-002;2.358838217332959E-003;6.332622841000557E-003;
2.404833333333334E+009;1.702543497085571E-001;1.530637964606285E-002;2.519479021430016E-003;6.347352173179388E-003;
2.405000000000000E+009;1.701582670211792E-001;1.337540801614523E-002;2.907255664467812E-003;6.202063988894224E-003;
2.405166666666667E+009;1.701362282037735E-001;1.140611991286278E-002;2.969707129523158E-003;6.012751720845699E-003;
2.405333333333334E+009;1.702415049076080E-001;9.163800626993179E-003;3.245484316721559E-003;6.083667278289795E-003;
2.405500000000000E+009;1.701068431138992E-001;7.260224781930447E-003;3.356737550348043E-003;5.889585241675377E-003;
2.405666666666667E+009;1.702845990657806E-001;5.087836179882288E-003;3.464284818619490E-003;5.721783265471458E-003;
2.405833333333334E+009;1.703583598136902E-001;3.169558010995388E-003;3.679546993225813E-003;5.759423132985830E-003;
2.406000000000000E+009;1.707933843135834E-001;8.942857384681702E-004;3.977772779762745E-003;5.712731275707483E-003;
2.406166666666667E+009;1.709544211626053E-001;-9.663692908361554E-004;4.027303308248520E-003;5.568747874349356E-003;
2.406333333333334E+009;1.716277599334717E-001;-3.097845241427422E-003;4.204425960779190E-003;5.406142678111792E-003;
2.406500000000000E+009;1.718844324350357E-001;-5.129655823111534E-003;4.244775976985693E-003;5.359576083719730E-003;
2.406666666666667E+009;1.723670065402985E-001;-7.051094435155392E-003;4.609151277691126E-003;5.311933811753988E-003;
2.406833333333334E+009;1.728443205356598E-001;-9.084219112992287E-003;4.670994356274605E-003;5.324065219610930E-003;
2.407000000000000E+009;1.736629456281662E-001;-1.096392236649990E-002;4.929791670292616E-003;5.171211436390877E-003;
2.407166666666667E+009;1.744598746299744E-001;-1.264806929975748E-002;5.084159784018993E-003;5.101107060909271E-003;
2.407333333333334E+009;1.749739646911621E-001;-1.461407821625471E-002;5.385282449424267E-003;4.907448776066303E-003;
2.407500000000000E+009;1.757289469242096E-001;-1.626131124794483E-002;5.627993494272232E-003;4.778935573995113E-003;
2.407666666666667E+009;1.765620708465576E-001;-1.783376559615135E-002;5.756569094955921E-003;4.629898816347122E-003;
2.407833333333334E+009;1.771692484617233E-001;-1.952674984931946E-002;5.963061936199665E-003;4.602630157023668E-003;
2.408000000000000E+009;1.779810786247253E-001;-2.114483714103699E-002;6.123502738773823E-003;4.062121268361807E-003;
2.408166666666667E+009;1.787253469228745E-001;-2.261967398226261E-002;6.343055516481400E-003;4.075266420841217E-003;
2.408333333333334E+009;1.795765608549118E-001;-2.387209795415402E-002;6.462660152465105E-003;3.799608908593655E-003;
2.408500000000000E+009;1.800837665796280E-001;-2.533175610005856E-002;6.754037458449602E-003;3.513368777930737E-003;
2.408666666666667E+009;1.807711571455002E-001;-2.664572000503540E-002;6.864924915134907E-003;3.413637867197394E-003;
2.408833333333334E+009;1.810661256313324E-001;-2.774093672633171E-002;7.028858177363873E-003;3.099459689110518E-003;
2.409000000000000E+009;1.815313696861267E-001;-2.862010151147842E-002;7.120532914996147E-003;2.920673694461584E-003;
2.409166666666667E+009;1.819135695695877E-001;-2.957356907427311E-002;7.216051220893860E-003;2.644127933308482E-003;
2.409333333333334E+009;1.824545115232468E-001;-3.038679622113705E-002;7.150446996092796E-003;2.299599582329392E-003;
2.409500000000000E+009;1.828110516071320E-001;-3.128669410943985E-002;7.277565542608500E-003;2.186794299632311E-003;
2.409666666666667E+009;1.828805357217789E-001;-3.176318854093552E-002;7.458885200321674E-003;1.976454863324761E-003;
2.409833333333334E+009;1.830610036849976E-001;-3.226403146982193E-002;7.380209397524595E-003;1.781347324140370E-003;
2.410000000000000E+009;1.834401041269302E-001;-3.262363746762276E-002;7.538846693933010E-003;1.475996221415699E-003;
2.410166666666667E+009;1.835140138864517E-001;-3.295500203967094E-002;7.557643111795187E-003;1.228173146955669E-003;
2.410333333333334E+009;1.834943294525147E-001;-3.334837779402733E-002;7.793205790221691E-003;1.024929108098149E-003;
2.410500000000000E+009;1.835251152515411E-001;-3.374052420258522E-002;7.682834751904011E-003;8.589727221988142E-004;
2.410666666666667E+009;1.834289729595184E-001;-3.404257446527481E-002;7.887062616646290E-003;5.742934299632907E-004;
2.410833333333334E+009;1.832592487335205E-001;-3.404581546783447E-002;7.797546219080687E-003;2.229974779766053E-004;
2.411000000000000E+009;1.829941421747208E-001;-3.428709506988525E-002;7.885087281465530E-003;-4.708593769464642E-005;
2.411166666666667E+009;1.826204955577850E-001;-3.471299633383751E-002;7.968223653733730E-003;-2.127061889041215E-004;
2.411333333333334E+009;1.821842640638351E-001;-3.478545323014259E-002;7.969420403242111E-003;-5.722093628719449E-004;
2.411500000000000E+009;1.814894080162048E-001;-3.530538454651833E-002;7.903113029897213E-003;-7.156468345783651E-004;
2.411666666666667E+009;1.811254173517227E-001;-3.558019548654556E-002;7.912474684417248E-003;-1.092486549168825E-003;
2.411833333333334E+009;1.803019791841507E-001;-3.606381639838219E-002;7.852471433579922E-003;-1.391774741932750E-003;
2.412000000000000E+009;1.795430481433868E-001;-3.637424483895302E-002;7.875828072428703E-003;-1.537546748295426E-003;
2.412166666666667E+009;1.785651594400406E-001;-3.678999841213226E-002;7.820577360689640E-003;-1.807241234928370E-003;
2.412333333333334E+009;1.777651458978653E-001;-3.738371655344963E-002;7.710197940468788E-003;-2.077986951917410E-003;
2.412500000000000E+009;1.767570227384567E-001;-3.792092576622963E-002;7.603506091982126E-003;-2.310947049409151E-003;
2.412666666666667E+009;1.755597144365311E-001;-3.869583830237389E-002;7.552006747573614E-003;-2.496185479685664E-003;
2.412833333333334E+009;1.743395179510117E-001;-3.917991742491722E-002;7.254595402628183E-003;-2.690980443730950E-003;
2.413000000000000E+009;1.731069386005402E-001;-4.007552564144135E-002;7.350686006247997E-003;-3.041171003133059E-003;
2.413166666666667E+009;1.718654334545136E-001;-4.085550829768181E-002;7.264176849275827E-003;-3.138464642688632E-003;
2.413333333333334E+009;1.705082356929779E-001;-4.179519042372704E-002;7.063656114041805E-003;-3.375418484210968E-003;
2.413500000000000E+009;1.691951155662537E-001;-4.272897168993950E-002;6.858060136437416E-003;-3.578432835638523E-003;
2.413666666666667E+009;1.678996384143829E-001;-4.393151402473450E-002;6.949822884052992E-003;-3.754612524062395E-003;
2.413833333333334E+009;1.665959954261780E-001;-4.503288120031357E-002;6.933139637112618E-003;-3.830261062830687E-003;
2.414000000000000E+009;1.652504652738571E-001;-4.633127897977829E-002;6.677351891994476E-003;-3.983989823609591E-003;
2.414166666666667E+009;1.641944348812103E-001;-4.758681729435921E-002;6.536334287375212E-003;-4.313730634748936E-003;
2.414333333333334E+009;1.630022525787354E-001;-4.902758821845055E-002;6.505058612674475E-003;-4.439839161932468E-003;
2.414500000000000E+009;1.619486510753632E-001;-5.038300156593323E-002;6.533327512443066E-003;-4.649180453270674E-003;
2.414666666666667E+009;1.608134210109711E-001;-5.187317728996277E-002;6.495914421975613E-003;-4.837495274841785E-003;
2.414833333333334E+009;1.597257405519486E-001;-5.352492630481720E-002;6.353664677590132E-003;-5.047341808676720E-003;
2.415000000000000E+009;1.587964594364166E-001;-5.526650324463844E-002;6.124612409621477E-003;-5.368821322917938E-003;
2.415166666666667E+009;1.579248160123825E-001;-5.689059197902679E-002;6.143884733319283E-003;-5.507757887244225E-003;
2.415333333333334E+009;1.570856124162674E-001;-5.884680524468422E-002;6.044052075594664E-003;-5.719783715903759E-003;
2.415500000000000E+009;1.564190089702606E-001;-6.053573638200760E-002;5.946426186710596E-003;-6.020886823534966E-003;
2.415666666666667E+009;1.556711643934250E-001;-6.250172108411789E-002;5.727290641516447E-003;-6.080112885683775E-003;
2.415833333333334E+009;1.551920175552368E-001;-6.446489691734314E-002;5.611700005829334E-003;-6.791948340833187E-003;
2.416000000000000E+009;1.544526070356369E-001;-6.642185896635056E-002;5.308468360453844E-003;-6.817365996539593E-003;
2.416166666666667E+009;1.542186439037323E-001;-6.837318837642670E-002;5.112755112349987E-003;-6.980163045227528E-003;
2.416333333333334E+009;1.537610441446304E-001;-7.029288262128830E-002;4.796701017767191E-003;-7.199061568826437E-003;
2.416500000000000E+009;1.534876674413681E-001;-7.232552766799927E-002;4.516676068305969E-003;-7.372525520622730E-003;
2.416666666666667E+009;1.531540155410767E-001;-7.437638938426971E-002;4.315478727221489E-003;-7.442850153893232E-003;
2.416833333333334E+009;1.530571728944778E-001;-7.635255903005600E-002;4.043847788125277E-003;-7.777935825288296E-003;
2.417000000000000E+009;1.526883840560913E-001;-7.828138768672943E-002;3.734493162482977E-003;-8.137530647218227E-003;
2.417166666666667E+009;1.526599526405335E-001;-7.999485731124878E-002;3.539296332746744E-003;-8.146753534674645E-003;
2.417333333333334E+009;1.527204960584641E-001;-8.182592689990997E-002;3.191820578649640E-003;-8.239143528044224E-003;
2.417500000000000E+009;1.526349037885666E-001;-8.368474990129471E-002;2.967722248286009E-003;-8.285374380648136E-003;
2.417666666666667E+009;1.527421772480011E-001;-8.524332195520401E-002;2.592259086668491E-003;-8.492751978337765E-003;
2.417833333333334E+009;1.527912765741348E-001;-8.679647743701935E-002;2.355176256969571E-003;-8.426341228187084E-003;
2.418000000000000E+009;1.528567522764206E-001;-8.847349882125855E-002;1.932331710122526E-003;-8.611386641860008E-003;
2.418166666666667E+009;1.529912501573563E-001;-8.963216096162796E-002;1.673061633482575E-003;-8.738960139453411E-003;
2.418333333333334E+009;1.533286124467850E-001;-9.099303185939789E-002;1.486858003772795E-003;-8.722067810595036E-003;
2.418500000000000E+009;1.533808857202530E-001;-9.201186895370483E-002;1.079791458323598E-003;-8.880966342985630E-003;
2.418666666666667E+009;1.537256836891174E-001;-9.324944764375687E-002;8.206078782677651E-004;-8.813159540295601E-003;
2.418833333333334E+009;1.537041813135147E-001;-9.424443542957306E-002;6.870473152957857E-004;-8.873537182807922E-003;
2.419000000000000E+009;1.539344340562820E-001;-9.486026316881180E-002;7.030591950751841E-005;-8.691335096955299E-003;
2.419166666666667E+009;1.541745215654373E-001;-9.562788158655167E-002;-1.143563858931884E-004;-8.750570937991142E-003;
2.419333333333334E+009;1.540843397378922E-001;-9.605231136083603E-002;-3.582455392461270E-004;-8.825025521218777E-003;
2.419500000000000E+009;1.545559018850327E-001;-9.649063646793366E-002;-8.157668635249138E-004;-8.765247650444508E-003;
2.419666666666667E+009;1.546680182218552E-001;-9.700094163417816E-002;-8.740139892324805E-004;-8.871425874531269E-003;
2.419833333333334E+009;1.547917574644089E-001;-9.705583006143570E-002;-1.299588708207011E-003;-8.822698146104813E-003;
2.420000000000000E+009;1.548321098089218E-001;-9.726829081773758E-002;-1.575513044372201E-003;-8.783638477325440E-003;
2.420166666666667E+009;1.548663973808289E-001;-9.727349877357483E-002;-1.972350524738431E-003;-8.772639557719231E-003;
2.420333333333334E+009;1.549462378025055E-001;-9.728725999593735E-002;-2.257415093481541E-003;-8.748233318328857E-003;
2.420500000000000E+009;1.550318896770477E-001;-9.702135622501373E-002;-2.548824762925506E-003;-8.692583069205284E-003;
2.420666666666667E+009;1.548409163951874E-001;-9.670375287532806E-002;-2.955502830445766E-003;-8.555289357900620E-003;
2.420833333333334E+009;1.547240316867828E-001;-9.668244421482086E-002;-3.283204277977347E-003;-8.535045199096203E-003;
2.421000000000000E+009;1.545572876930237E-001;-9.643691033124924E-002;-3.675125772133470E-003;-8.499105460941792E-003;
2.421166666666667E+009;1.542668193578720E-001;-9.591177105903626E-002;-3.845398547127843E-003;-8.456572890281677E-003;
2.421333333333334E+009;1.541839241981506E-001;-9.575819224119186E-002;-4.223996773362160E-003;-8.304429240524769E-003;
2.421500000000000E+009;1.534569859504700E-001;-9.532129019498825E-002;-4.543649964034557E-003;-8.143524639308453E-003;
2.421666666666667E+009;1.529366672039032E-001;-9.504160284996033E-002;-4.945805296301842E-003;-7.954225875437260E-003;
2.421833333333334E+009;1.523215770721436E-001;-9.480865299701691E-002;-5.349661223590374E-003;-7.675474509596825E-003;
2.422000000000000E+009;1.517817974090576E-001;-9.450553357601166E-002;-5.687448661774397E-003;-7.591794244945049E-003;
2.422166666666667E+009;1.509205698966980E-001;-9.447983652353287E-002;-6.175255868583918E-003;-7.348366081714630E-003;
2.422333333333334E+009;1.498975306749344E-001;-9.414522349834442E-002;-6.300558336079121E-003;-7.020183373242617E-003;
2.422500000000000E+009;1.488227695226669E-001;-9.392901510000229E-002;-6.669353693723679E-003;-6.794926244765520E-003;
2.422666666666667E+009;1.477661430835724E-001;-9.373073279857636E-002;-6.846951786428690E-003;-6.399060133844614E-003;
2.422833333333334E+009;1.465855389833450E-001;-9.381073713302612E-002;-7.127775810658932E-003;-5.964844021946192E-003;
2.423000000000000E+009;1.451206505298615E-001;-9.366409480571747E-002;-7.291980087757111E-003;-5.710414610803127E-003;
2.423166666666667E+009;1.439192146062851E-001;-9.366445988416672E-002;-7.374054752290249E-003;-5.446047056466341E-003;
2.423333333333334E+009;1.425524055957794E-001;-9.362076222896576E-002;-7.658015936613083E-003;-5.037418100982904E-003;
2.423500000000000E+009;1.410168707370758E-001;-9.375669807195664E-002;-7.715992629528046E-003;-4.615228623151779E-003;
2.423666666666667E+009;1.394193768501282E-001;-9.400716423988342E-002;-7.776088081300259E-003;-4.103656392544508E-003;
2.423833333333334E+009;1.380820721387863E-001;-9.419202804565430E-002;-7.870272733271122E-003;-3.891978645697236E-003;
2.424000000000000E+009;1.363081932067871E-001;-9.429039061069489E-002;-7.904333993792534E-003;-3.445513313636184E-003;
2.424166666666667E+009;1.347855478525162E-001;-9.475614130496979E-002;-8.032882586121559E-003;-3.148944815620780E-003;
2.424333333333334E+009;1.333723366260529E-001;-9.531372785568237E-002;-8.013762533664703E-003;-2.666628453880549E-003;
2.424500000000000E+009;1.318166702985764E-001;-9.590785950422287E-002;-7.998322136700153E-003;-2.620350103825331E-003;
2.424666666666667E+009;1.304446458816528E-001;-9.636797010898590E-002;-7.875711657106876E-003;-2.086864551529288E-003;
2.424833333333334E+009;1.288352608680725E-001;-9.727504104375839E-002;-7.710096891969442E-003;-1.855347887612879E-003;
2.425000000000000E+009;1.276497989892960E-001;-9.825791418552399E-002;-7.891175337135792E-003;-1.380776870064437E-003;
2.425166666666667E+009;1.260067224502564E-001;-9.915649145841599E-002;-7.670946419239044E-003;-1.253908849321306E-003;
2.425333333333334E+009;1.249527707695961E-001;-1.000906378030777E-001;-7.778328843414784E-003;-9.827178437262774E-004;
2.425500000000000E+009;1.237289905548096E-001;-1.014061570167542E-001;-7.662132848054171E-003;-6.217945483513176E-004;
2.425666666666667E+009;1.224174574017525E-001;-1.025544479489327E-001;-7.485724985599518E-003;-3.350029001012445E-004;
2.425833333333334E+009;1.214267611503601E-001;-1.038345918059349E-001;-7.440477143973112E-003;-1.907443365780637E-004;
2.426000000000000E+009;1.204259842634201E-001;-1.051985695958138E-001;-7.208399474620819E-003;1.321840827586129E-004;
2.426166666666667E+009;1.196972876787186E-001;-1.067839935421944E-001;-7.074103225022554E-003;3.089185338467360E-004;
2.426333333333334E+009;1.187323331832886E-001;-1.081387177109718E-001;-6.823278032243252E-003;5.934824002906680E-004;
2.426500000000000E+009;1.179451867938042E-001;-1.097140461206436E-001;-6.642448715865612E-003;8.240838069468737E-004;
2.426666666666667E+009;1.173674315214157E-001;-1.110776439309120E-001;-6.446126848459244E-003;1.002403441816568E-003;
2.426833333333334E+009;1.167685687541962E-001;-1.127116009593010E-001;-6.249548867344856E-003;9.771410841494799E-004;
2.427000000000000E+009;1.162053793668747E-001;-1.144054904580116E-001;-6.013182457536459E-003;1.101707341149449E-003;
2.427166666666667E+009;1.158263981342316E-001;-1.159432157874107E-001;-6.058051250874996E-003;1.265074359253049E-003;
2.427333333333334E+009;1.154218763113022E-001;-1.175705939531326E-001;-5.769845563918352E-003;1.206258079037070E-003;
2.427500000000000E+009;1.152229607105255E-001;-1.190773546695709E-001;-5.695081781595945E-003;1.283809659071267E-003;
2.427666666666667E+009;1.151048615574837E-001;-1.206786707043648E-001;-5.544969812035561E-003;1.250229193829000E-003;
