# Version 1.00
#
freq[Hz];re:Trc1_S11;im:Trc1_S11;re:Trc2_S21;im:Trc2_S21;
2.400000000000000E+009;1.733509749174118E-001;4.975531622767448E-002;-4.648285103030503E-004;4.237221553921700E-003;
2.400166666666667E+009;1.739286333322525E-001;4.939288645982742E-002;-5.606577033177018E-004;4.241695161908865E-003;
2.400333333333334E+009;1.743630766868591E-001;4.866597801446915E-002;-6.827194592915475E-004;4.064326174557209E-003;
2.400500000000000E+009;1.747201681137085E-001;4.800641536712647E-002;-6.470358930528164E-004;4.076027311384678E-003;
2.400666666666667E+009;1.749768704175949E-001;4.733619466423988E-002;-7.402383489534259E-004;4.254405386745930E-003;
2.400833333333334E+009;1.754459887742996E-001;4.673562571406364E-002;-1.043369527906179E-003;4.225415643304586E-003;
2.401000000000000E+009;1.755013912916184E-001;4.605681821703911E-002;-1.014399691484869E-003;4.397150129079819E-003;
2.401166666666667E+009;1.756308823823929E-001;4.542137309908867E-002;-1.145788584835827E-003;4.475252702832222E-003;
2.401333333333334E+009;1.755097508430481E-001;4.467980936169624E-002;-1.178708625957370E-003;4.578080959618092E-003;
2.401500000000000E+009;1.759670823812485E-001;4.401458427309990E-002;-1.341920462436974E-003;4.636676050722599E-003;
2.401666666666667E+009;1.756231784820557E-001;4.317574948072434E-002;-1.076696556992829E-003;4.771944135427475E-003;
2.401833333333334E+009;1.755950301885605E-001;4.227698966860771E-002;-1.139976782724261E-003;5.005834624171257E-003;
2.402000000000000E+009;1.752283424139023E-001;4.150380194187164E-002;-1.052305451594293E-003;5.243148189038038E-003;
2.402166666666667E+009;1.750963628292084E-001;4.046930372714996E-002;-9.207259281538427E-004;5.413706880062819E-003;
2.402333333333334E+009;1.748886406421661E-001;3.955782204866409E-002;-8.896239451132715E-004;5.779977887868881E-003;
2.402500000000000E+009;1.749952137470245E-001;3.868909925222397E-002;-6.609275005757809E-004;5.674035288393498E-003;
2.402666666666667E+009;1.745820492506027E-001;3.736526519060135E-002;-6.693262257613242E-004;5.993688479065895E-003;
2.402833333333334E+009;1.741220951080322E-001;3.616292774677277E-002;-3.857584088109434E-004;6.013819947838783E-003;
2.403000000000000E+009;1.738156378269196E-001;3.462749719619751E-002;-1.737611455610022E-004;6.181748583912849E-003;
2.403166666666667E+009;1.736402362585068E-001;3.344659134745598E-002;1.672184007475153E-004;6.251667160540819E-003;
2.403333333333334E+009;1.731771230697632E-001;3.183531761169434E-002;2.408057334832847E-004;6.469713523983955E-003;
2.403500000000000E+009;1.728005558252335E-001;3.049043938517571E-002;5.452886107377708E-004;6.484227254986763E-003;
2.403666666666667E+009;1.723758727312088E-001;2.865714207291603E-002;8.369718561880291E-004;6.456325761973858E-003;
2.403833333333334E+009;1.721820980310440E-001;2.685886994004250E-002;1.016127644106746E-003;6.772054359316826E-003;
2.404000000000000E+009;1.717143207788467E-001;2.516900002956390E-002;1.364151248708367E-003;6.712792906910181E-003;
2.404166666666667E+009;1.712120473384857E-001;2.336195297539234E-002;1.766982139088213E-003;6.573360413312912E-003;
2.404333333333334E+009;1.709717959165573E-001;2.151708863675594E-002;1.916776178404689E-003;6.425489205867052E-003;
2.404500000000000E+009;1.706132590770721E-001;1.929152011871338E-002;2.013857709243894E-003;6.598180159926415E-003;
2.404666666666667E+009;1.705429404973984E-001;1.742568425834179E-002;2.394757000729442E-003;6.334682460874319E-003;
2.404833333333334E+009;1.701463311910629E-001;1.539083570241928E-002;2.491581719368696E-003;6.268067751079798E-003;
2.405000000000000E+009;1.701746433973312E-001;1.332924887537956E-002;2.725731581449509E-003;6.312543526291847E-003;
2.405166666666667E+009;1.700348556041718E-001;1.114198658615351E-002;2.977300668135285E-003;5.976994056254625E-003;
2.405333333333334E+009;1.702317148447037E-001;9.183054789900780E-003;3.191828727722168E-003;5.898696370422840E-003;
2.405500000000000E+009;1.701633334159851E-001;7.221919018775225E-003;3.317236667498946E-003;5.873868707567453E-003;
2.405666666666667E+009;1.701929420232773E-001;5.091475322842598E-003;3.544091712683439E-003;5.793255288153887E-003;
2.405833333333334E+009;1.702961027622223E-001;3.070488572120667E-003;3.748840419575572E-003;5.855236202478409E-003;
2.406000000000000E+009;1.706909835338593E-001;8.385098772123456E-004;3.897753311321139E-003;5.615238100290299E-003;
2.406166666666667E+009;1.709613949060440E-001;-1.045770710334182E-003;4.141537006944418E-003;5.537787452340126E-003;
2.406333333333334E+009;1.715800166130066E-001;-3.080005757510662E-003;4.171179607510567E-003;5.477306433022022E-003;
2.406500000000000E+009;1.718501299619675E-001;-5.201395135372877E-003;4.523684270679951E-003;5.372217856347561E-003;
2.406666666666667E+009;1.723060607910156E-001;-7.027709856629372E-003;4.449223168194294E-003;5.241316277533770E-003;
2.406833333333334E+009;1.729695200920105E-001;-9.075342677533627E-003;4.780702292919159E-003;5.319294985383749E-003;
2.407000000000000E+009;1.735486984252930E-001;-1.086549554020166E-002;4.894171841442585E-003;5.089429672807455E-003;
2.407166666666667E+009;1.743277311325073E-001;-1.257972791790962E-002;5.108468234539032E-003;4.983953200280666E-003;
2.407333333333334E+009;1.750791668891907E-001;-1.447907369583845E-002;5.357186775654554E-003;4.763635806739330E-003;
2.407500000000000E+009;1.758448332548142E-001;-1.631347835063934E-002;5.466430913656950E-003;4.783603362739086E-003;
2.407666666666667E+009;1.765035390853882E-001;-1.788885891437531E-002;5.836852360516787E-003;4.597369115799666E-003;
2.407833333333334E+009;1.771909743547440E-001;-1.963284984230995E-002;5.946835968643427E-003;4.453895147889853E-003;
2.408000000000000E+009;1.780454665422440E-001;-2.122218906879425E-002;6.176051683723927E-003;4.100167192518711E-003;
2.408166666666667E+009;1.787983775138855E-001;-2.248994633555412E-002;6.381744984537363E-003;4.007973242551088E-003;
2.408333333333334E+009;1.794915944337845E-001;-2.406087517738342E-002;6.535089574754238E-003;3.851785557344556E-003;
2.408500000000000E+009;1.801059246063232E-001;-2.536943554878235E-002;6.652845535427332E-003;3.628822043538094E-003;
2.408666666666667E+009;1.806771755218506E-001;-2.663801982998848E-002;6.859533023089171E-003;3.344701370224357E-003;
2.408833333333334E+009;1.811220943927765E-001;-2.765125222504139E-002;6.975151598453522E-003;3.144562942907214E-003;
2.409000000000000E+009;1.816017031669617E-001;-2.860148623585701E-002;7.206347305327654E-003;2.766936551779509E-003;
2.409166666666667E+009;1.820357441902161E-001;-2.960229851305485E-002;7.309907581657171E-003;2.583221765235066E-003;
2.409333333333334E+009;1.826504319906235E-001;-3.056840039789677E-002;7.161010056734085E-003;2.428567735478282E-003;
2.409500000000000E+009;1.826985329389572E-001;-3.118534944951534E-002;7.398006971925497E-003;2.078749472275376E-003;
2.409666666666667E+009;1.829060763120651E-001;-3.166300058364868E-002;7.360719610005617E-003;2.031860640272498E-003;
2.409833333333334E+009;1.831226944923401E-001;-3.212256357073784E-002;7.518879137933254E-003;1.913335989229381E-003;
2.410000000000000E+009;1.832237839698792E-001;-3.262603655457497E-002;7.533818017691374E-003;1.441023079678416E-003;
2.410166666666667E+009;1.834103912115097E-001;-3.297420591115952E-002;7.640916388481855E-003;1.273159286938608E-003;
2.410333333333334E+009;1.834988892078400E-001;-3.321496397256851E-002;7.663158699870110E-003;1.082765636965632E-003;
2.410500000000000E+009;1.835334748029709E-001;-3.348293155431747E-002;7.844007574021816E-003;8.368394919671118E-004;
2.410666666666667E+009;1.834453791379929E-001;-3.381605446338654E-002;7.710089441388845E-003;5.097888642922044E-004;
2.410833333333334E+009;1.833104789257050E-001;-3.404109552502632E-002;7.787550333887339E-003;3.483135951682925E-004;
2.411000000000000E+009;1.827808022499085E-001;-3.446513786911964E-002;7.766963448375464E-003;-3.276755523984321E-005;
2.411166666666667E+009;1.824446767568588E-001;-3.456809744238854E-002;7.917040027678013E-003;-2.717075403779745E-004;
2.411333333333334E+009;1.820913702249527E-001;-3.485485538840294E-002;7.852078415453434E-003;-4.153189074713737E-004;
2.411500000000000E+009;1.815678328275681E-001;-3.531153127551079E-002;7.836104370653629E-003;-6.854955572634935E-004;
2.411666666666667E+009;1.810059249401093E-001;-3.572181239724159E-002;7.888658903539181E-003;-1.041556708514690E-003;
2.411833333333334E+009;1.802297681570053E-001;-3.591776639223099E-002;7.679730188101530E-003;-1.354986685328186E-003;
2.412000000000000E+009;1.796447187662125E-001;-3.636315464973450E-002;7.771669887006283E-003;-1.545567763969302E-003;
2.412166666666667E+009;1.786605566740036E-001;-3.687085583806038E-002;7.746565621346235E-003;-1.817839569412172E-003;
2.412333333333334E+009;1.775256097316742E-001;-3.736649453639984E-002;7.670452352613211E-003;-2.096979646012187E-003;
2.412500000000000E+009;1.766184419393539E-001;-3.785419091582298E-002;7.387894205749035E-003;-2.365327207371593E-003;
2.412666666666667E+009;1.755408942699432E-001;-3.869022801518440E-002;7.491082884371281E-003;-2.518238266929984E-003;
2.412833333333334E+009;1.743703633546829E-001;-3.928888589143753E-002;7.486998569220305E-003;-2.832477213814855E-003;
2.413000000000000E+009;1.732223182916641E-001;-4.002546519041061E-002;7.027736399322748E-003;-3.086799057200551E-003;
2.413166666666667E+009;1.717660725116730E-001;-4.094643890857697E-002;7.208957802504301E-003;-3.164345165714622E-003;
2.413333333333334E+009;1.704341918230057E-001;-4.182529449462891E-002;6.993827875703573E-003;-3.476621583104134E-003;
2.413500000000000E+009;1.693737208843231E-001;-4.289234429597855E-002;6.947374902665615E-003;-3.341711126267910E-003;
2.413666666666667E+009;1.680000275373459E-001;-4.391339793801308E-002;6.889741867780685E-003;-3.877295646816492E-003;
2.413833333333334E+009;1.667204946279526E-001;-4.496179148554802E-002;6.751028820872307E-003;-3.827935783192515E-003;
2.414000000000000E+009;1.653016209602356E-001;-4.630509391427040E-002;6.605707108974457E-003;-4.069621209055185E-003;
2.414166666666667E+009;1.641643345355988E-001;-4.752964526414871E-002;6.591689772903919E-003;-4.261260852217674E-003;
2.414333333333334E+009;1.629281938076019E-001;-4.892725124955177E-002;6.559243891388178E-003;-4.450535867363215E-003;
2.414500000000000E+009;1.619592756032944E-001;-5.042786896228790E-002;6.514344364404678E-003;-4.500511568039656E-003;
2.414666666666667E+009;1.606876105070114E-001;-5.181703716516495E-002;6.365932989865542E-003;-4.838451277464628E-003;
2.414833333333334E+009;1.597841978073120E-001;-5.349013954401016E-002;6.224700715392828E-003;-4.907705821096897E-003;
2.415000000000000E+009;1.588353067636490E-001;-5.508584156632423E-002;6.275240797549486E-003;-5.249632056802511E-003;
2.415166666666667E+009;1.578054279088974E-001;-5.697980895638466E-002;6.107673980295658E-003;-5.485998000949621E-003;
2.415333333333334E+009;1.571676731109619E-001;-5.866653099656105E-002;6.081824190914631E-003;-5.566650535911322E-003;
2.415500000000000E+009;1.563728898763657E-001;-6.053109094500542E-002;5.888960789889097E-003;-5.965546704828739E-003;
2.415666666666667E+009;1.556575894355774E-001;-6.230437010526657E-002;5.713973660022020E-003;-6.405971944332123E-003;
2.415833333333334E+009;1.550685614347458E-001;-6.441332399845123E-002;5.501123610883951E-003;-6.394570693373680E-003;
2.416000000000000E+009;1.544160246849060E-001;-6.638690829277039E-002;5.363577511161566E-003;-6.721809040755034E-003;
2.416166666666667E+009;1.542279422283173E-001;-6.840103119611740E-002;5.051272921264172E-003;-6.964165717363358E-003;
2.416333333333334E+009;1.538337469100952E-001;-7.025430351495743E-002;4.783845972269774E-003;-7.122869603335857E-003;
2.416500000000000E+009;1.534450203180313E-001;-7.239521294832230E-002;4.583556670695543E-003;-7.271470502018929E-003;
2.416666666666667E+009;1.531310230493546E-001;-7.431355863809586E-002;4.346153233200312E-003;-7.651819847524166E-003;
2.416833333333334E+009;1.529306322336197E-001;-7.634280622005463E-002;4.093953408300877E-003;-7.775921840220690E-003;
2.417000000000000E+009;1.526280641555786E-001;-7.816547155380249E-002;3.874263959005475E-003;-7.788781542330980E-003;
2.417166666666667E+009;1.526528894901276E-001;-8.003935217857361E-002;3.473310498520732E-003;-7.994741201400757E-003;
2.417333333333334E+009;1.526905894279480E-001;-8.175078779459000E-002;3.274877788498998E-003;-8.207012899219990E-003;
2.417500000000000E+009;1.526578962802887E-001;-8.372563123703003E-002;2.935996977612376E-003;-8.243116550147533E-003;
2.417666666666667E+009;1.528338789939880E-001;-8.513937145471573E-002;2.562762936577201E-003;-8.484432473778725E-003;
2.417833333333334E+009;1.528196632862091E-001;-8.680249750614166E-002;2.426591003313661E-003;-8.584168739616871E-003;
2.418000000000000E+009;1.528430581092835E-001;-8.834695816040039E-002;2.008559415116906E-003;-8.553750813007355E-003;
2.418166666666667E+009;1.529053598642349E-001;-8.956845849752426E-002;1.627391553483903E-003;-8.804694749414921E-003;
2.418333333333334E+009;1.533288061618805E-001;-9.090568125247955E-002;1.537188654765487E-003;-8.703219704329968E-003;
2.418500000000000E+009;1.534046232700348E-001;-9.201669692993164E-002;9.953590342774987E-004;-8.753451518714428E-003;
2.418666666666667E+009;1.536714732646942E-001;-9.319503605365753E-002;7.566540734842420E-004;-8.811587467789650E-003;
2.418833333333334E+009;1.537361890077591E-001;-9.414964914321899E-002;4.500830254983157E-004;-8.864693343639374E-003;
2.419000000000000E+009;1.539296954870224E-001;-9.495054930448532E-002;1.806216314435005E-004;-8.779145777225494E-003;
2.419166666666667E+009;1.541784256696701E-001;-9.553282707929611E-002;-1.826325751608238E-004;-8.894047699868679E-003;
2.419333333333334E+009;1.541551202535629E-001;-9.594799578189850E-002;-3.260906960349530E-004;-8.851709775626659E-003;
2.419500000000000E+009;1.545457094907761E-001;-9.671301394701004E-002;-7.242838619276881E-004;-8.966566994786263E-003;
2.419666666666667E+009;1.546503603458405E-001;-9.702734649181366E-002;-1.020833733491600E-003;-8.883370086550713E-003;
2.419833333333334E+009;1.547209024429321E-001;-9.713270515203476E-002;-1.353937434032559E-003;-8.796810172498226E-003;
2.420000000000000E+009;1.547982394695282E-001;-9.727336466312408E-002;-1.675859908573329E-003;-8.808885701000691E-003;
2.420166666666667E+009;1.548296362161636E-001;-9.723839163780212E-002;-1.885822042822838E-003;-8.710501715540886E-003;
2.420333333333334E+009;1.549687981605530E-001;-9.736977517604828E-002;-2.218770794570446E-003;-8.699080906808376E-003;
2.420500000000000E+009;1.550488024950028E-001;-9.690696001052856E-002;-2.560075139626861E-003;-8.745863102376461E-003;
2.420666666666667E+009;1.548129618167877E-001;-9.679339081048966E-002;-2.858134685084224E-003;-8.586776442825794E-003;
2.420833333333334E+009;1.547667682170868E-001;-9.661723673343658E-002;-3.095125779509544E-003;-8.593410253524780E-003;
2.421000000000000E+009;1.544107496738434E-001;-9.645786881446838E-002;-3.564113052561879E-003;-8.524472825229168E-003;
2.421166666666667E+009;1.543978601694107E-001;-9.603798389434815E-002;-3.876354079693556E-003;-8.351917378604412E-003;
2.421333333333334E+009;1.541134268045425E-001;-9.577728807926178E-002;-4.373989533632994E-003;-8.158124051988125E-003;
2.421500000000000E+009;1.534708291292191E-001;-9.539344161748886E-002;-4.620129242539406E-003;-8.150557987391949E-003;
2.421666666666667E+009;1.531090885400772E-001;-9.506495296955109E-002;-4.951286129653454E-003;-8.010724559426308E-003;
2.421833333333334E+009;1.524009853601456E-001;-9.484563022851944E-002;-5.427173804491758E-003;-7.841874845325947E-003;
2.422000000000000E+009;1.515775173902512E-001;-9.449987113475800E-002;-5.707269534468651E-003;-7.501320913434029E-003;
2.422166666666667E+009;1.508290767669678E-001;-9.449923038482666E-002;-6.133540533483028E-003;-7.233740296214819E-003;
2.422333333333334E+009;1.500218659639359E-001;-9.416168183088303E-002;-6.311329081654549E-003;-7.024656515568495E-003;
2.422500000000000E+009;1.489008069038391E-001;-9.374799579381943E-002;-6.676313001662493E-003;-6.685948465019465E-003;
2.422666666666667E+009;1.476725935935974E-001;-9.372601658105850E-002;-6.861272733658552E-003;-6.362308282405138E-003;
2.422833333333334E+009;1.465374082326889E-001;-9.369656443595886E-002;-7.064053323119879E-003;-6.162041332572699E-003;
2.423000000000000E+009;1.452029049396515E-001;-9.356603771448135E-002;-7.285452913492918E-003;-5.602160468697548E-003;
2.423166666666667E+009;1.438700109720230E-001;-9.371782094240189E-002;-7.555569056421518E-003;-5.180498119443655E-003;
2.423333333333334E+009;1.426703482866287E-001;-9.364701807498932E-002;-7.698277477174997E-003;-4.896724130958319E-003;
2.423500000000000E+009;1.410558521747589E-001;-9.364158660173416E-002;-7.700126152485609E-003;-4.425389692187309E-003;
2.423666666666667E+009;1.393969506025314E-001;-9.397573769092560E-002;-7.882607169449329E-003;-4.170954693108797E-003;
2.423833333333334E+009;1.379253119230270E-001;-9.416814148426056E-002;-7.943518459796906E-003;-3.794476855546236E-003;
2.424000000000000E+009;1.364787518978119E-001;-9.434761106967926E-002;-8.036597631871700E-003;-3.597781294956803E-003;
2.424166666666667E+009;1.348304301500320E-001;-9.481270611286163E-002;-7.946457713842392E-003;-3.136448329314590E-003;
2.424333333333334E+009;1.333634555339813E-001;-9.512203931808472E-002;-8.042139932513237E-003;-2.690816996619105E-003;
2.424500000000000E+009;1.318998336791992E-001;-9.590762853622437E-002;-8.123800158500671E-003;-2.478311304003000E-003;
2.424666666666667E+009;1.306177675724030E-001;-9.645862877368927E-002;-7.989200763404369E-003;-2.291807439178228E-003;
2.424833333333334E+009;1.289374977350235E-001;-9.729932993650436E-002;-7.874047383666039E-003;-1.837556483224034E-003;
2.425000000000000E+009;1.276522576808929E-001;-9.823187440633774E-002;-7.880341261625290E-003;-1.565388985909522E-003;
2.425166666666667E+009;1.261746436357498E-001;-9.918285161256790E-002;-7.677894551306963E-003;-1.198891433887184E-003;
2.425333333333334E+009;1.249203383922577E-001;-1.001679673790932E-001;-7.663765922188759E-003;-8.607280906289816E-004;
2.425500000000000E+009;1.237854287028313E-001;-1.013998240232468E-001;-7.502404972910881E-003;-6.589532131329179E-004;
2.425666666666667E+009;1.224958151578903E-001;-1.026142314076424E-001;-7.479269057512283E-003;-2.223041228717193E-004;
2.425833333333334E+009;1.214507371187210E-001;-1.039199307560921E-001;-7.284017279744148E-003;-6.820661656092852E-005;
2.426000000000000E+009;1.203466951847076E-001;-1.052873283624649E-001;-7.195653393864632E-003;-3.065153123316122E-006;
2.426166666666667E+009;1.197891756892204E-001;-1.066997349262238E-001;-7.008269894868136E-003;3.412779478821904E-004;
2.426333333333334E+009;1.186794564127922E-001;-1.081626862287521E-001;-6.875324063003063E-003;6.157848984003067E-004;
2.426500000000000E+009;1.179865971207619E-001;-1.096560657024384E-001;-6.762937176972628E-003;6.423186860047281E-004;
2.426666666666667E+009;1.175243183970451E-001;-1.111183911561966E-001;-6.433705799281597E-003;8.505637524649501E-004;
2.426833333333334E+009;1.167881265282631E-001;-1.127907410264015E-001;-6.318833213299513E-003;1.067734090611339E-003;
2.427000000000000E+009;1.162979975342751E-001;-1.145025417208672E-001;-6.140061654150486E-003;1.065379357896745E-003;
2.427166666666667E+009;1.158285513520241E-001;-1.158424392342567E-001;-5.859274417161942E-003;1.158898696303368E-003;
2.427333333333334E+009;1.154954433441162E-001;-1.175861880183220E-001;-5.669050849974155E-003;1.314039924181998E-003;
2.427500000000000E+009;1.152939423918724E-001;-1.191718131303787E-001;-5.589421838521957E-003;1.187660498544574E-003;
2.427666666666667E+009;1.150701791048050E-001;-1.206564754247665E-001;-5.432165693491697E-003;1.217933720909059E-003;
