# Hz S RI R 50
2400000000.0000000000 0.162663623690605191329794365629 0.052657309919595718383789062500 0.000286675698589533621638697491 0.003967206925153732299804687500 0 0 0 0 
2400166666.6666665077 0.162532404065132113357705634371 0.051094926893711090087890625000 0.000357842247467488104670924054 0.003874822985380887985229492188 0 0 0 0 
2400333333.3333334923 0.162438601255416897872763115629 0.049121674150228500366210937500 0.000424538186052814126014709473 0.003773581469431519942042685400 0 0 0 0 
2400500000.0000000000 0.162444785237312289138955634371 0.047315467149019241333007812500 0.000383449718356132507324218750 0.003969875164330005645751953125 0 0 0 0 
2400666666.6666665077 0.162403807044029208084268134371 0.045215696096420288085937500000 0.000485218595713376998901367188 0.003959685564041137695312500000 0 0 0 0 
2400833333.3333334923 0.162395611405372591873330634371 0.043368406593799591064453125000 0.000671245332341641187667846680 0.004049952141940593719482421875 0 0 0 0 
2401000000.0000000000 0.162385120987892206390057481258 0.041277401149272918701171875000 0.000686720712110400199890136719 0.003983823582530021667480468750 0 0 0 0 
2401166666.6666665077 0.162631437182426508147869981258 0.039242524653673171997070312500 0.000798381690401583909988403320 0.004005229100584983825683593750 0 0 0 0 
2401333333.3333334923 0.162709400057792691329794365629 0.037038456648588180541992187500 0.000854900688864290714263916016 0.004089509602636098861694335938 0 0 0 0 
2401500000.0000000000 0.163076266646385192871093750000 0.035031218081712722778320312500 0.001091563375666737990138388525 0.004297860432416200637817382812 0 0 0 0 
2401666666.6666665077 0.163217484951019287109375000000 0.033051006495952613140065778907 0.001319071510806679942487407153 0.004093584604561328887939453125 0 0 0 0 
2401833333.3333334923 0.163412168622016906738281250000 0.031048735603690150869349295704 0.001468328176997601985931396484 0.004204961471259593963623046875 0 0 0 0 
2402000000.0000000000 0.163674414157867403885049384371 0.029024394229054450988769531250 0.001361495116725564002990722656 0.004316512029618024826049804688 0 0 0 0 
2402166666.6666665077 0.164116352796554593185263115629 0.026929754763841629028320312500 0.001543790567666291973711323315 0.004326036665588617324829101562 0 0 0 0 
2402333333.3333334923 0.164419427514076205154580634371 0.025190992280840870248814766796 0.001724261674098670916316367041 0.004302159417420625686645507812 0 0 0 0 
2402500000.0000000000 0.165290489792823791503906250000 0.023268092423677440988560860546 0.002054970245808362960815429688 0.004233965184539557370657636426 0 0 0 0 
2402666666.6666665077 0.165773645043373107910156250000 0.021567728370428088796595389454 0.002361782826483250097987509619 0.004313915036618710431570722363 0 0 0 0 
2402833333.3333334923 0.166154921054840087890625000000 0.019650517031550410879114920704 0.002659120364114642143249511719 0.004129325039684773358816816113 0 0 0 0 
2403000000.0000000000 0.166980504989623995681924384371 0.018044959753751761699636091407 0.002865471411496400833129882812 0.004131392110139132413382245801 0 0 0 0 
2403166666.6666665077 0.167664125561714200118856865629 0.016447873786091811443288435157 0.003102727932855486869812011719 0.004078464582562446594238281250 0 0 0 0 
2403333333.3333334923 0.168309897184372003753338731258 0.014983674511313440150250819727 0.003118206281214952902552939307 0.003868126776069403128383017432 0 0 0 0 
2403500000.0000000000 0.169222488999366788009481865629 0.013508439064025880640973475977 0.003430426819249988035914755713 0.003956789616495370864868164062 0 0 0 0 
2403666666.6666665077 0.169872701168060302734375000000 0.012072494253516200674036795704 0.003627095138654112815856933594 0.003685390576720238165614462744 0 0 0 0 
2403833333.3333334923 0.170753404498100308517294365629 0.010877104476094249380091483204 0.003859380027279258208033896338 0.003533523762598634199855185400 0 0 0 0 
2404000000.0000000000 0.171615198254585293868856865629 0.009475027211010456085205078125 0.004042227286845445632934570312 0.003186746966093779043910361182 0 0 0 0 
2404166666.6666665077 0.172367647290229797363281250000 0.008278148248791694641113281250 0.004311332013458014401907636426 0.002924913540482521057128906250 0 0 0 0 
2404333333.3333334923 0.173142910003662109375000000000 0.007421361748129129409790039062 0.004509868565946817398071289062 0.002776724519208074049708701025 0 0 0 0 
2404500000.0000000000 0.173692464828491210937500000000 0.006336674559861421585083007812 0.004563229624181985855102539062 0.002688859822228550910949707031 0 0 0 0 
2404666666.6666665077 0.174712806940078707595986884371 0.005447714123874902725219726562 0.004733835346996784210205078125 0.002238885732367635206935263525 0 0 0 0 
2404833333.3333334923 0.175521835684776306152343750000 0.004467919934540987014770507812 0.004841189831495285034179687500 0.002243154449388384819030761719 0 0 0 0 
2405000000.0000000000 0.176103919744491604904013115629 0.003864665050059556961059570312 0.004913547076284885406494140625 0.001992775127291678948643349756 0 0 0 0 
2405166666.6666665077 0.176796600222587613204794365629 0.003189718117937446074244833838 0.005020435433834791183471679688 0.001785390311852097944972372900 0 0 0 0 
2405333333.3333334923 0.177533701062202509124432481258 0.002440280513837933974025107275 0.005071268416941165924072265625 0.001229753717780113003374409253 0 0 0 0 
2405500000.0000000000 0.178049445152282687088174384371 0.002105930820107460021972656250 0.005225823260843753814697265625 0.001078023226000369028804160010 0 0 0 0 
2405666666.6666665077 0.178587332367897005935830634371 0.001644078991375863985774374854 0.005112232174724339571481035449 0.000691491819452494382858276367 0 0 0 0 
2405833333.3333334923 0.178934320807456997970419365629 0.001475004712119698958155966650 0.005149180069565773010253906250 0.000461124407593160921901148663 0 0 0 0 
2406000000.0000000000 0.179473206400871304611044365629 0.000998068135231733322143554688 0.005032279994338750839233398438 0.000218147833948023590162554330 0 0 0 0 
2406166666.6666665077 0.179725319147110013107138115629 0.000687561754602938890457153320 0.005155129823833703994750976562 0.000106120372947771102190017700 0 0 0 0 
2406333333.3333334923 0.180294468998908996582031250000 0.000428908504545688574940282001 0.005117124412208796414847089551 -0.000351826398400589823722839355 0 0 0 0 
2406500000.0000000000 0.180446818470954895019531250000 0.000152968685142695903778076172 0.004935858771204948425292968750 -0.000661483965814113616943359375 0 0 0 0 
2406666666.6666665077 0.180399045348167391678018134371 -0.000115001130325254093535007616 0.004746474325656890869140625000 -0.000763973512221127748489379883 0 0 0 0 
2406833333.3333334923 0.180649995803833007812500000000 -0.000350424990756437182426452637 0.004680802579969167709350585938 -0.001007657265290617942810058594 0 0 0 0 
2407000000.0000000000 0.180632710456848089020098768742 -0.000715921865776181221008300781 0.004506816621869803342337323926 -0.001282582641579210975049663013 0 0 0 0 
2407166666.6666665077 0.180728077888488797286825615629 -0.000718676950782537460327148438 0.004417966119945049285888671875 -0.001394039136357606107827211694 0 0 0 0 
2407333333.3333334923 0.180440396070480402190838731258 -0.001185592613182961940765380859 0.004379289224743843078613281250 -0.001756088226102292971370077979 0 0 0 0 
2407500000.0000000000 0.180243790149688692947549384371 -0.001524126972071826891658163916 0.004095003940165042877197265625 -0.001790245994925498962402343750 0 0 0 0 
2407666666.6666665077 0.179980635643005398849325615629 -0.001911697792820633108254457788 0.004043438006192445755004882812 -0.002005337039008737044093466650 0 0 0 0 
2407833333.3333334923 0.179467618465423611739950615629 -0.002344326348975300788879394531 0.003939847461879253387451171875 -0.002063055522739886803867959131 0 0 0 0 
2408000000.0000000000 0.179052516818046597579794365629 -0.002959622768685222105738974463 0.003761728527024387879612588037 -0.002306712558493018150329589844 0 0 0 0 
2408166666.6666665077 0.178632795810699490646200615629 -0.003382190596312284903285361182 0.003624255070462822914123535156 -0.002260750392451881928684853662 0 0 0 0 
2408333333.3333334923 0.178225547075271606445312500000 -0.004018433857709169387817382812 0.003531761933118104934692382812 -0.002487203804776072935817099463 0 0 0 0 
2408500000.0000000000 0.177495986223220797439736884371 -0.004772708751261234283447265625 0.003348629223182796998264931787 -0.002635411685332655906677246094 0 0 0 0 
2408666666.6666665077 0.176913827657699612716513115629 -0.005515856668353080749511718750 0.003036336041986941857578896631 -0.002874155994504690170288085938 0 0 0 0 
2408833333.3333334923 0.176122233271598788162393134371 -0.006454714108258485794067382812 0.002913288772106171087977743994 -0.002844707574695349173304892432 0 0 0 0 
2409000000.0000000000 0.175426781177520807464276231258 -0.007248090114444494247436523438 0.002665051724761724905726767432 -0.002799652982503176169154501807 0 0 0 0 
2409166666.6666665077 0.174762859940528897384481865629 -0.008430420421063899993896484375 0.002635440323501824898960732568 -0.002898515434935688972473144531 0 0 0 0 
2409333333.3333334923 0.174098625779151888748330634371 -0.009570325724780559539794921875 0.002317867474630475044250488281 -0.003158411942422389984130859375 0 0 0 0 
2409500000.0000000000 0.173177480697631808181924384371 -0.010954806581139569718330584180 0.002261996036395430998561240088 -0.002978421514853835105895996094 0 0 0 0 
2409666666.6666665077 0.172439277172088595291299384371 -0.011969748884439470118512538477 0.002033151220530271963832236182 -0.003105177776888012886047363281 0 0 0 0 
2409833333.3333334923 0.171755015850067110916299384371 -0.013325364328920839482317539648 0.001689051394350826957105327075 -0.003083069808781147003173828125 0 0 0 0 
2410000000.0000000000 0.170955210924148587325888115629 -0.014758566394448280334472656250 0.001603087992407381968257285010 -0.002947398228570818901062011719 0 0 0 0 
2410166666.6666665077 0.170354902744293212890625000000 -0.016357956454157829284667968750 0.001488968846388160965563129956 -0.003103695809841156005859375000 0 0 0 0 
2410333333.3333334923 0.169508084654807988922442518742 -0.017856009304523471487025076954 0.001369791571050881905796670068 -0.003069472732022405104396201025 0 0 0 0 
2410500000.0000000000 0.168864190578460693359375000000 -0.019594965502619739877721016796 0.001266394159756601073621440356 -0.003091139718890190124511718750 0 0 0 0 
2410666666.6666665077 0.168340072035789489746093750000 -0.021345952525734901428222656250 0.001066815806552767970441508716 -0.003023000666871666908264160156 0 0 0 0 
2410833333.3333334923 0.167823582887649508377236884371 -0.022958673536777499807337576954 0.000958682678174227476119995117 -0.002930977847427130179164267432 0 0 0 0 
2411000000.0000000000 0.167313247919082613845986884371 -0.024964872747659679758092110546 0.000869900744874030351638793945 -0.002932232804596424102783203125 0 0 0 0 
2411166666.6666665077 0.166915163397789001464843750000 -0.026796728372573849069615548046 0.000656982534565031528472900391 -0.002953042974695562882664345850 0 0 0 0 
2411333333.3333334923 0.166670247912406893631143134371 -0.028803763911128040658971016796 0.000513773935381323099136352539 -0.002745335223153233961818076025 0 0 0 0 
2411500000.0000000000 0.165909439325332613845986884371 -0.030655477195978171611745466407 0.000413457135437056422233581543 -0.002695525763556361198425292969 0 0 0 0 
2411666666.6666665077 0.166075587272643987457598768742 -0.032890360802412033081054687500 0.000427489285357296521037501202 -0.002600202336907387213466025244 0 0 0 0 
2411833333.3333334923 0.165799066424369812011718750000 -0.034564681351184851909597028907 0.000382337864721193909645080566 -0.002588009694591165022609091650 0 0 0 0 
2412000000.0000000000 0.165843144059181213378906250000 -0.036658443510532379150390625000 0.000292266980977729017108363019 -0.002587503753602505163905478369 0 0 0 0 
2412166666.6666665077 0.165757372975349398513955634371 -0.038665905594825751567800153907 0.000207746052183210903972071515 -0.002528168028220533890965127100 0 0 0 0 
2412333333.3333334923 0.165913090109825106521768134371 -0.040547825396060936664621721093 0.000146474267239682403489789420 -0.002459672512486577033996582031 0 0 0 0 
2412500000.0000000000 0.165726974606514004806356865629 -0.042410366237163536762277971093 0.000112789515696931603267946786 -0.002484571421518921852111816406 0 0 0 0 
2412666666.6666665077 0.165981754660606412032919365629 -0.044636011123657226562500000000 0.000100526056485250605784277644 -0.002346075139939785003662109375 0 0 0 0 
2412833333.3333334923 0.166388988494873102386151231258 -0.046368248760700232768972028907 -0.000006254256732063367962837219 -0.002431958680972456932067871094 0 0 0 0 
2413000000.0000000000 0.166595190763473510742187500000 -0.048193946480751037597656250000 -0.000035875986213795840740203857 -0.002402018755674362182617187500 0 0 0 0 
2413166666.6666665077 0.166824907064437893966513115629 -0.049997251480817801738698591407 -0.000176585686858743402078905649 -0.002232094062492250962498330225 0 0 0 0 
2413333333.3333334923 0.167184457182884188553018134371 -0.051668275147676467895507812500 -0.000251358549576252698898315430 -0.002168187405914067788365029443 0 0 0 0 
2413500000.0000000000 0.167599022388458307464276231258 -0.053523566573858261108398437500 -0.000255932100117206573486328125 -0.002133260713890194892883300781 0 0 0 0 
2413666666.6666665077 0.168151870369911193847656250000 -0.055182289332151412963867187500 -0.000259228661889210289150792255 -0.002241253852844237847569131006 0 0 0 0 
2413833333.3333334923 0.168455675244331387618856865629 -0.056544192135334021831472028907 -0.000223434559302404495790758676 -0.002082688268274068832397460938 0 0 0 0 
2414000000.0000000000 0.168730720877647399902343750000 -0.058117765933275222778320312500 -0.000376885611331090276867467059 -0.002052825409919023947474814307 0 0 0 0 
2414166666.6666665077 0.169597283005714388748330634371 -0.059316281229257576679270158593 -0.000364861800335347706645411359 -0.002085227053612471060511923682 0 0 0 0 
2414333333.3333334923 0.170037046074867304046307481258 -0.060748539865016937255859375000 -0.000493051775265485048294067383 -0.002009233226999640898463583838 0 0 0 0 
2414500000.0000000000 0.170614838600158691406250000000 -0.061789043247699737548828125000 -0.000583466317038983106613159180 -0.001685241586528718905207968604 0 0 0 0 
2414666666.6666665077 0.171105310320854187011718750000 -0.062800057232379913330078125000 -0.000517027685418725013732910156 -0.001798553625121712901471782153 0 0 0 0 
2414833333.3333334923 0.171420916914939908126669365629 -0.063930220901966094970703125000 -0.000509141595102846622467041016 -0.001915426342748105959651327979 0 0 0 0 
2415000000.0000000000 0.171954631805419894119424384371 -0.064662024378776550292968750000 -0.000598224287386983633041381836 -0.001953323371708393096923828125 0 0 0 0 
2415166666.6666665077 0.172278106212615994552450615629 -0.065652742981910705566406250000 -0.000652363698463886976242065430 -0.001992041245102881951573037256 0 0 0 0 
2415333333.3333334923 0.172805517911911010742187500000 -0.066407039761543273925781250000 -0.000665841973386704921722412109 -0.001821728423237801031825400244 0 0 0 0 
2415500000.0000000000 0.173116788268089294433593750000 -0.066984273493289947509765625000 -0.000604135333560407161712646484 -0.001773098949342966079711914062 0 0 0 0 
2415666666.6666665077 0.173490077257156399825888115629 -0.067396871745586395263671875000 -0.000662443868350237607955932617 -0.001756060868501662991167378003 0 0 0 0 
2415833333.3333334923 0.173733323812484713455361884371 -0.068075649440288543701171875000 -0.000687559077050536870956420898 -0.001700101653113961002947163159 0 0 0 0 
2416000000.0000000000 0.173739448189735412597656250000 -0.068441078066825866699218750000 -0.000737521273549646139144897461 -0.001783069106750190041185688550 0 0 0 0 
2416166666.6666665077 0.173912629485130310058593750000 -0.068884648382663726806640625000 -0.000830629083793610334396362305 -0.001774730277247726917266845703 0 0 0 0 
2416333333.3333334923 0.173975259065628107268963731258 -0.069058462977409362792968750000 -0.000792657083366066217422485352 -0.001644807402044534900067973560 0 0 0 0 
2416500000.0000000000 0.173965141177177401443643134371 -0.069401577115058898925781250000 -0.000952637055888772010803222656 -0.001617321977391839027404785156 0 0 0 0 
2416666666.6666665077 0.173586115241050692459268134371 -0.069523915648460388183593750000 -0.001011529937386512973188090747 -0.001502686413004993958714150537 0 0 0 0 
2416833333.3333334923 0.173591911792755099197549384371 -0.069872677326202392578125000000 -0.000975793169345706701278686523 -0.001631028135307132980943989331 0 0 0 0 
2417000000.0000000000 0.173002719879150390625000000000 -0.070130601525306701660156250000 -0.001137499697506427981733012622 -0.001574180554598570086835551685 0 0 0 0 
2417166666.6666665077 0.172627970576286288162393134371 -0.070130586624145507812500000000 -0.001127043273299932913539267432 -0.001427573151886462948442768628 0 0 0 0 
2417333333.3333334923 0.172192767262458801269531250000 -0.070296078920364379882812500000 -0.001253106282092631080030131763 -0.001370744081214070103288960034 0 0 0 0 
2417500000.0000000000 0.171441122889518710037393134371 -0.070520520210266113281250000000 -0.001260175253264605998992919922 -0.001475595985539257960078574072 0 0 0 0 
2417666666.6666665077 0.171041876077652005294638115629 -0.070534072816371917724609375000 -0.001382761984132230064989399487 -0.001413705642335117080091166919 0 0 0 0 
2417833333.3333334923 0.170223891735076904296875000000 -0.070773012936115264892578125000 -0.001344381365925074057338095557 -0.001345434226095675988438271631 0 0 0 0 
2418000000.0000000000 0.169225141406059292892294365629 -0.071084596216678619384765625000 -0.001323935459367931105970073169 -0.001238277764059602997423481519 0 0 0 0 
2418166666.6666665077 0.168274983763694790939169365629 -0.071156144142150878906250000000 -0.001375061110593378977534628760 -0.001121779088862240097643208081 0 0 0 0 
2418333333.3333334923 0.167528867721557589431924384371 -0.071456290781497955322265625000 -0.001347414799965918064117431641 -0.001211944851092993996263813550 0 0 0 0 
2418500000.0000000000 0.166298210620880099197549384371 -0.071850620210170745849609375000 -0.001460812520235776901245117188 -0.000990920583717525005340576172 0 0 0 0 
2418666666.6666665077 0.165180832147598294357138115629 -0.072228983044624328613281250000 -0.001271803048439323902130126953 -0.000904475920833647251129150391 0 0 0 0 
2418833333.3333334923 0.163995236158370999435263115629 -0.072654858231544494628906250000 -0.001397225190885365009307861328 -0.000917580386158078908920288086 0 0 0 0 
2419000000.0000000000 0.162677481770515386383380018742 -0.073111273348331451416015625000 -0.001305623911321162960649799878 -0.000806253752671182155609130859 0 0 0 0 
2419166666.6666665077 0.161487638950347900390625000000 -0.073781184852123260498046875000 -0.001427838113158941052080463940 -0.000925264088436961174011230469 0 0 0 0 
2419333333.3333334923 0.159954175353050204178018134371 -0.074215464293956756591796875000 -0.001299304538406431891797709888 -0.000671219138894230127334594727 0 0 0 0 
2419500000.0000000000 0.158802881836891202071981865629 -0.074994392693042755126953125000 -0.001466977410018444061279296875 -0.000627527188044041395187377930 0 0 0 0 
2419666666.6666665077 0.157629027962684603592080634371 -0.075868964195251464843750000000 -0.001494670636020601012586284106 -0.000658994424156844615936279297 0 0 0 0 
2419833333.3333334923 0.156232491135597201248330634371 -0.076562821865081787109375000000 -0.001413371297530829906463623047 -0.000705272308550775051116943359 0 0 0 0 
