# Hz S RI R 50
2400000000.0000000000 0.162697300314903287032919365629 0.052704859524965293193776716407 -0.000025030645701917819678783417 0.003834766335785388946533203125 0 0 0 0 
2400166666.6666665077 0.162702560424804687500000000000 0.050869844853878021240234375000 0.000140643387567251893595018930 0.003934310283511877059936523438 0 0 0 0 
2400333333.3333334923 0.162592679262161310393963731258 0.049149863421916961669921875000 0.000119585114589426693603238516 0.003880656789988278908970498193 0 0 0 0 
2400500000.0000000000 0.162335172295570401290731865629 0.047183074057102203369140625000 0.000203103976673446595668792725 0.003830326953902841047999716650 0 0 0 0 
2400666666.6666665077 0.162357494235038812835369981258 0.045221507549285888671875000000 0.000313867378281429409980773926 0.003950833342969417572021484375 0 0 0 0 
2400833333.3333334923 0.162554860115051297286825615629 0.043407514691352837299387346093 0.000151616608491167399004259653 0.004054137971252202987670898438 0 0 0 0 
2401000000.0000000000 0.162503615021705599685830634371 0.041371013969182968139648437500 0.000413437868701294118731898175 0.004008846823126077651977539062 0 0 0 0 
2401166666.6666665077 0.162704840302467401702557481258 0.039167243987321846698801408593 0.000392192014260217601626795636 0.004014037083834409713745117188 0 0 0 0 
2401333333.3333334923 0.162739500403404208084268134371 0.037109874188899986957590471093 0.000511587713845074176788330078 0.004320162814110518369192792676 0 0 0 0 
2401500000.0000000000 0.162946611642837496658486884371 0.035145793110132217407226562500 0.000828246760647743940353393555 0.004217421170324087142944335938 0 0 0 0 
2401666666.6666665077 0.163332119584083612640057481258 0.033187828958034522319753278907 0.000888206239324063062667846680 0.004264233168214560422415448926 0 0 0 0 
2401833333.3333334923 0.163572028279304504394531250000 0.031017515808343890798548514454 0.001003704848699271895764995044 0.004214522428810597333426191113 0 0 0 0 
2402000000.0000000000 0.163760587573051508147869981258 0.029072919860482219350794608204 0.001208515954203903891919780200 0.004359598271548748016357421875 0 0 0 0 
2402166666.6666665077 0.164093926548957796951455634371 0.026873180642724040639857108204 0.001477453624829649925231933594 0.004202532581984996795654296875 0 0 0 0 
2402333333.3333334923 0.164372116327285794357138115629 0.025041069835424419748326485546 0.001557388226501644091365195166 0.004331331234425306320190429688 0 0 0 0 
2402500000.0000000000 0.165314555168151910979901231258 0.023326570168137550354003906250 0.001807385939173399968388222803 0.004225704353302717208862304688 0 0 0 0 
2402666666.6666665077 0.165649220347404507736044365629 0.021563448011875149118443673046 0.002084658248350023789646767725 0.004347822163254022598266601562 0 0 0 0 
2402833333.3333334923 0.166374474763870211502236884371 0.019711920991539958608607108204 0.002220205962657928900477743994 0.004160387441515923413748456738 0 0 0 0 
2403000000.0000000000 0.167016297578811701018963731258 0.017966073006391528738001639454 0.002508240984752773804905556787 0.004237611778080463409423828125 0 0 0 0 
2403166666.6666665077 0.167822659015655489822549384371 0.016361139714717868459681326954 0.002656067954376339912414550781 0.004077368881553412351126386426 0 0 0 0 
2403333333.3333334923 0.168478071689605712890625000000 0.015007991343736650294293788477 0.002994537353515625000000000000 0.004026590380817651748657226562 0 0 0 0 
2403500000.0000000000 0.169211283326148986816406250000 0.013482660055160520726214024023 0.003233729396015406088588095557 0.003976069390773773193359375000 0 0 0 0 
2403666666.6666665077 0.169937998056411687652911268742 0.012044212780892850703229335352 0.003473599674180150032043457031 0.003691416699439287185668945312 0 0 0 0 
2403833333.3333334923 0.170863404870033291915731865629 0.010800939984619619196881679102 0.003562022233381866975071572412 0.003600459545850753784179687500 0 0 0 0 
2404000000.0000000000 0.171605214476585388183593750000 0.009549805894494056701660156250 0.003965177107602357864379882812 0.003425296396017075018641806494 0 0 0 0 
2404166666.6666665077 0.172348320484161404708700615629 0.008245710283517837524414062500 0.004063881933689117431640625000 0.003187641501426697211024618994 0 0 0 0 
2404333333.3333334923 0.173180773854255704025106865629 0.007354211993515492352957441113 0.004326072521507740020751953125 0.003106034127995371818542480469 0 0 0 0 
2404500000.0000000000 0.173939511179924011230468750000 0.006272487808018922805786132812 0.004319506697356700897216796875 0.002934208605438470840454101562 0 0 0 0 
2404666666.6666665077 0.174790248274803189376669365629 0.005452503450214862823486328125 0.004476247355341911315917968750 0.002584361238405108885524130713 0 0 0 0 
2404833333.3333334923 0.175371482968330411056356865629 0.004549140110611915588378906250 0.004679976496845483779907226562 0.002185676479712129072902060400 0 0 0 0 
2405000000.0000000000 0.176226332783699007888955634371 0.003843700047582387924194335938 0.004799382761120796203613281250 0.002105510560795664787292480469 0 0 0 0 
2405166666.6666665077 0.176919117569923400878906250000 0.003207055618986486954929970850 0.004887345246970654401297284863 0.001858442788943647904637002100 0 0 0 0 
2405333333.3333334923 0.177656367421150207519531250000 0.002484534634277224974391318213 0.005038080271333456039428710938 0.001660594367422163920161581885 0 0 0 0 
2405500000.0000000000 0.178254321217536898513955634371 0.002131190383806825117823935400 0.004993306007236242294311523438 0.001194748794659971974016499097 0 0 0 0 
2405666666.6666665077 0.178840264678001403808593750000 0.001799508463591336987139057690 0.005039073992520570755004882812 0.000958881515543907880783081055 0 0 0 0 
2405833333.3333334923 0.179033562541007995605468750000 0.001434434088878334002253867041 0.005039429757744073867797851562 0.000676544266752898693084716797 0 0 0 0 
2406000000.0000000000 0.179696545004844693282919365629 0.000780030852183699607849121094 0.005062122363597154617309570312 0.000475848617497831583023071289 0 0 0 0 
2406166666.6666665077 0.179821833968162508865518134371 0.000648236426059156656265258789 0.004982631187885999679565429688 0.000123089877888560295104980469 0 0 0 0 
2406333333.3333334923 0.180355012416839599609375000000 0.000343733932822942679554539813 0.004944330547004938125610351562 0.000063687009969726204872131348 0 0 0 0 
2406500000.0000000000 0.180557981133460998535156250000 0.000099377590231597423553466797 0.004809483420103788375854492188 -0.000184065254870802191182813101 0 0 0 0 
2406666666.6666665077 0.180573046207428006271200615629 -0.000117998730274848599307475905 0.004846948198974133405203534863 -0.000493694620672613382339477539 0 0 0 0 
2406833333.3333334923 0.180776640772819491287393134371 -0.000453828542958944981724339618 0.004741940181702375411987304688 -0.000699829484801739454269409180 0 0 0 0 
2407000000.0000000000 0.180793389678001403808593750000 -0.000622921972535550594329833984 0.004736217204481363296508789062 -0.000841416185721755027770996094 0 0 0 0 
2407166666.6666665077 0.180913165211677606780682481258 -0.000865084934048354625701904297 0.004540815018117427825927734375 -0.001172091928310692093492817456 0 0 0 0 
2407333333.3333334923 0.180540874600410489181356865629 -0.001339002861641346974613808740 0.004543674644082784652709960938 -0.001357793575152755000470805591 0 0 0 0 
2407500000.0000000000 0.180237516760826110839843750000 -0.001603888929821551062940288013 0.004256704822182655334472656250 -0.001439709449186920902849506909 0 0 0 0 
2407666666.6666665077 0.180080845952033996582031250000 -0.002114551141858100891113281250 0.004041114356368780136108398438 -0.001796868396922945976257324219 0 0 0 0 
2407833333.3333334923 0.179612100124359103103799384371 -0.002585200592875481085536337744 0.004005409777164459228515625000 -0.001922723953612148978589702075 0 0 0 0 
2408000000.0000000000 0.179167911410331698318643134371 -0.003119147149845958189723349463 0.003744192654266953902003622900 -0.002002210123464465141296386719 0 0 0 0 
2408166666.6666665077 0.178691834211349487304687500000 -0.003485388355329633192775107275 0.003807583125308156013488769531 -0.002109886612743138833286904443 0 0 0 0 
2408333333.3333334923 0.178362965583801297286825615629 -0.004314564634114503860473632812 0.003555135102942585945129394531 -0.002172300824895501136779785156 0 0 0 0 
2408500000.0000000000 0.177525117993354797363281250000 -0.004920595791190862655639648438 0.003519850317388772964477539062 -0.002271281089633702798130654443 0 0 0 0 
2408666666.6666665077 0.177092880010604886154013115629 -0.005671634804457426071166992188 0.003359510097652674154994345557 -0.002543127862736583189723349463 0 0 0 0 
2408833333.3333334923 0.176225677132606506347656250000 -0.006435862276703119277954101562 0.003023446304723619981053017725 -0.002629418624565004868748330225 0 0 0 0 
2409000000.0000000000 0.175496727228164700607138115629 -0.007345187943428754806518554688 0.002860849024727940993068076025 -0.002813886385411024093627929688 0 0 0 0 
2409166666.6666665077 0.174690961837768610198651231258 -0.008532863110303878784179687500 0.002618912607431412176844931494 -0.002699144883081316947937011719 0 0 0 0 
2409333333.3333334923 0.174138247966766412933026231258 -0.009712919592857360839843750000 0.002493419684469699859619140625 -0.002855275291949511008021689307 0 0 0 0 
2409500000.0000000000 0.173242017626762390136718750000 -0.010970940813422199594517891796 0.002346903784200549125671386719 -0.002744413679465651945826865088 0 0 0 0 
2409666666.6666665077 0.172399640083312988281250000000 -0.012133304029703140258789062500 0.002152749570086597962620400537 -0.002902920125052332878112792969 0 0 0 0 
2409833333.3333334923 0.171765312552452087402343750000 -0.013577356934547420846959298046 0.002017819322645664215087890625 -0.003025157377123833136317587744 0 0 0 0 
2410000000.0000000000 0.171018570661544799804687500000 -0.014969119802117349452008632227 0.001958421664312481880187988281 -0.002955508651211857795715332031 0 0 0 0 
2410166666.6666665077 0.170364707708358792404013115629 -0.016350341960787769662877266796 0.001803510589525104002711630713 -0.002827980089932680130004882812 0 0 0 0 
2410333333.3333334923 0.169468805193901089767294365629 -0.018017359077930450439453125000 0.001598065020516514994977641528 -0.002908022608608006997349404443 0 0 0 0 
2410500000.0000000000 0.168947011232376098632812500000 -0.019574604928493499755859375000 0.001475248835049570040461874854 -0.002901973668485879898071289062 0 0 0 0 
2410666666.6666665077 0.168369397521019009689169365629 -0.021545797586441040039062500000 0.001472933916375041007995605469 -0.002840438159182668165919638525 0 0 0 0 
2410833333.3333334923 0.167837888002395602127236884371 -0.023120107129216190683385079296 0.001186483073979615948320698315 -0.002818912500515580177307128906 0 0 0 0 
2411000000.0000000000 0.167191460728645296951455634371 -0.024879207834601398813267891796 0.001138050924055278084398579175 -0.002716618822887539863586425781 0 0 0 0 
2411166666.6666665077 0.166836902499198913574218750000 -0.026917530223727229726771170704 0.000908693007659167051315307617 -0.002736600348725914955139160156 0 0 0 0 
2411333333.3333334923 0.166495755314826993087606865629 -0.028736831620335578918457031250 0.000856882077641785144805908203 -0.002715631388127803802490234375 0 0 0 0 
2411500000.0000000000 0.165967419743537902832031250000 -0.030913092195987701416015625000 0.000768219586461782455444335938 -0.002570547163486481146571493994 0 0 0 0 
2411666666.6666665077 0.166078567504882812500000000000 -0.032853797078132629394531250000 0.000845572678372263908386230469 -0.002616635989397764205932617188 0 0 0 0 
2411833333.3333334923 0.165686517953872708419638115629 -0.034735593944787979125976562500 0.000631999457255005836486816406 -0.002708968473598361015319824219 0 0 0 0 
2412000000.0000000000 0.165855258703231811523437500000 -0.036634311079978942871093750000 0.000579912448301911354064941406 -0.002540901303291320800781250000 0 0 0 0 
2412166666.6666665077 0.165667608380317687988281250000 -0.038662955164909362792968750000 0.000521690002642571926116943359 -0.002376407384872436957118368994 0 0 0 0 
2412333333.3333334923 0.165993764996528597732705634371 -0.040628250688314437866210937500 0.000458159542176872491836547852 -0.002293667523190379142761230469 0 0 0 0 
2412500000.0000000000 0.165728136897087097167968750000 -0.042585901916027069091796875000 0.000398524163756519610255640851 -0.002314158016815782027003622900 0 0 0 0 
2412666666.6666665077 0.165991500020027188400106865629 -0.044583152979612350463867187500 0.000345729582477361018031519757 -0.002416302915662527084350585938 0 0 0 0 
2412833333.3333334923 0.166430443525314303299111884371 -0.046391043812036507343332658593 0.000238411870668642195776262827 -0.002538619097322226004359579932 0 0 0 0 
2413000000.0000000000 0.166609719395637512207031250000 -0.048306155949831008911132812500 0.000195238913875073194503784180 -0.002493402687832713127136230469 0 0 0 0 
2413166666.6666665077 0.166864141821861294845419365629 -0.049975875765085220336914062500 0.000250429555308073813289088116 -0.002200230257585645155665732275 0 0 0 0 
2413333333.3333334923 0.167267113924026489257812500000 -0.051780842244625091552734375000 0.000097422351245768368244171143 -0.002279789652675389809849404443 0 0 0 0 
2413500000.0000000000 0.167625039815902709960937500000 -0.053440883755683898925781250000 0.000003395943394934874959290028 -0.002331059658899902863743447412 0 0 0 0 
2413666666.6666665077 0.168064668774604797363281250000 -0.055105686187744140625000000000 0.000106549436168279498815536499 -0.002365461550652980804443359375 0 0 0 0 
2413833333.3333334923 0.168547615408897399902343750000 -0.056564103811979286884348283593 0.000028434113119146790018285445 -0.002212404739111661911010742188 0 0 0 0 
2414000000.0000000000 0.168906345963478088378906250000 -0.058200765401124947284738908593 -0.000112029272713698500960749493 -0.002177785849198698997497558594 0 0 0 0 
2414166666.6666665077 0.169521674513816805740518134371 -0.059472471475601203227956403907 -0.000160087263793684487968999042 -0.002258406020700931982753134619 0 0 0 0 
2414333333.3333334923 0.169937804341316195388955634371 -0.060725148767232901836354841407 -0.000141815020469948703616541730 -0.002079259837046266035792685400 0 0 0 0 
2414500000.0000000000 0.170803755521774291992187500000 -0.061876706779003143310546875000 -0.000116845585580449605554026471 -0.002195836044847964806797646631 0 0 0 0 
2414666666.6666665077 0.171068698167800903320312500000 -0.062981881201267242431640625000 -0.000352876435499638319015502930 -0.002008028561249374909641884912 0 0 0 0 
2414833333.3333334923 0.171530753374099703689736884371 -0.064124599099159240722656250000 -0.000390645582228899002075195312 -0.002041794825345277786254882812 0 0 0 0 
2415000000.0000000000 0.171937555074691800216513115629 -0.064825557172298431396484375000 -0.000357466400600969791412353516 -0.002181425923481584028956747900 0 0 0 0 
2415166666.6666665077 0.172393009066581698318643134371 -0.065621174871921539306640625000 -0.000395006558392196893692016602 -0.002151962835341691970825195312 0 0 0 0 
2415333333.3333334923 0.172877490520477294921875000000 -0.066453389823436737060546875000 -0.000385160150472074801295679913 -0.002068670466542243957519531250 0 0 0 0 
2415500000.0000000000 0.173084273934364291092080634371 -0.067000806331634521484375000000 -0.000567093025892972946166992188 -0.002076694509014486832859658350 0 0 0 0 
2415666666.6666665077 0.173418805003166198730468750000 -0.067484669387340545654296875000 -0.000726061698514968156814575195 -0.001929772901348770098445273291 0 0 0 0 
2415833333.3333334923 0.173746347427368191818075615629 -0.067990057170391082763671875000 -0.000787557801231741905212402344 -0.002090476220473647117614746094 0 0 0 0 
2416000000.0000000000 0.173815727233886690994424384371 -0.068506188690662384033203125000 -0.000738560454919934272766113281 -0.001822601770982146046282124097 0 0 0 0 
2416166666.6666665077 0.173981919884681701660156250000 -0.068903684616088867187500000000 -0.000754202948883175849914550781 -0.002042244421318172974827431787 0 0 0 0 
2416333333.3333334923 0.173846900463104303558026231258 -0.069197706878185272216796875000 -0.000857641745824366807937622070 -0.001852607121691107966779399341 0 0 0 0 
2416500000.0000000000 0.173833176493644686599893134371 -0.069481849670410156250000000000 -0.001118815853260457949397421729 -0.001743487780913711027858115088 0 0 0 0 
2416666666.6666665077 0.173564940690994290450888115629 -0.069624707102775573730468750000 -0.001002850593067706064936972510 -0.001775167067535222010371542822 0 0 0 0 
2416833333.3333334923 0.173580706119537409026776231258 -0.069954104721546173095703125000 -0.001045096782036126093623495947 -0.001941298018209635994554829175 0 0 0 0 
2417000000.0000000000 0.173114016652107211013955634371 -0.070236966013908386230468750000 -0.001056851819157599969151162256 -0.001763415406458080031751323169 0 0 0 0 
2417166666.6666665077 0.172681793570518493652343750000 -0.070307545363903045654296875000 -0.001008003135211765982984233325 -0.001601328141987323977826762622 0 0 0 0 
2417333333.3333334923 0.172156900167465209960937500000 -0.070242203772068023681640625000 -0.001089764875359833023668598706 -0.001511881011538207964656210791 0 0 0 0 
2417500000.0000000000 0.171437323093414306640625000000 -0.070656627416610717773437500000 -0.001229284447617829062818217700 -0.001620588358491658947588276440 0 0 0 0 
2417666666.6666665077 0.171002790331840487381143134371 -0.070684283971786499023437500000 -0.001324200769886374907252646338 -0.001573340501636266925214457935 0 0 0 0 
2417833333.3333334923 0.170113697648048400878906250000 -0.070842266082763671875000000000 -0.001283862628042697906494140625 -0.001619756920263170979143452222 0 0 0 0 
2418000000.0000000000 0.169123962521553011795205634371 -0.071154393255710601806640625000 -0.001402846653945744037628173828 -0.001290628104470670006395649487 0 0 0 0 
2418166666.6666665077 0.168314337730407687088174384371 -0.071204043924808502197265625000 -0.001527858432382344982744526440 -0.001258949283510446982142783057 0 0 0 0 
2418333333.3333334923 0.167538613080978393554687500000 -0.071540184319019317626953125000 -0.001474150572903454086901020581 -0.001342777395620941898943256909 0 0 0 0 
2418500000.0000000000 0.166240513324737604339276231258 -0.071814700961112976074218750000 -0.001469712005928158976911235278 -0.001188377616927027919171977466 0 0 0 0 
2418666666.6666665077 0.165218278765678405761718750000 -0.072311580181121826171875000000 -0.001510068192146718935725546729 -0.001069262158125638961791992188 0 0 0 0 
2418833333.3333334923 0.163951814174652099609375000000 -0.072719454765319824218750000000 -0.001490402733907103972194052588 -0.001072059618309139988542866284 0 0 0 0 
2419000000.0000000000 0.162684470415115411956463731258 -0.073234930634498596191406250000 -0.001493044779635966040967631763 -0.001020330004394053979160927881 0 0 0 0 
2419166666.6666665077 0.161427915096282986739950615629 -0.073657914996147155761718750000 -0.001406015013344585895538330078 -0.000960218661930412054061889648 0 0 0 0 
2419333333.3333334923 0.159928187727928189376669365629 -0.074153400957584381103515625000 -0.001525226049125194983241415869 -0.000791725760791450738906860352 0 0 0 0 
2419500000.0000000000 0.158854424953460693359375000000 -0.075050570070743560791015625000 -0.001539774471893907027003622900 -0.000798191875219345092773437500 0 0 0 0 
2419666666.6666665077 0.157724127173423794845419365629 -0.075832188129425048828125000000 -0.001447067013941705010057758862 -0.000824667047709226608276367188 0 0 0 0 
2419833333.3333334923 0.156318739056587191482705634371 -0.076701059937477111816406250000 -0.001382121001370250961901020581 -0.000711667875293642282485961914 0 0 0 0 
