# Version 1.00
#
freq[Hz];re:Trc1_S11;im:Trc1_S11;re:Trc2_S21;im:Trc2_S21;
2.400000000000000E+009;1.607990711927414E-001;5.707967281341553E-002;2.112590475007892E-003;2.593821380287409E-003;
2.400166666666667E+009;1.608235687017441E-001;5.553005263209343E-002;2.090257592499256E-003;2.508268458768725E-003;
2.400333333333334E+009;1.609256416559219E-001;5.359531939029694E-002;2.210034988820553E-003;2.583569381386042E-003;
2.400500000000000E+009;1.611762493848801E-001;5.179566144943237E-002;2.354002557694912E-003;2.422736724838615E-003;
2.400666666666667E+009;1.611210405826569E-001;4.983748123049736E-002;2.506570424884558E-003;2.684934064745903E-003;
2.400833333333334E+009;1.615438461303711E-001;4.826717823743820E-002;2.265359973534942E-003;2.540604677051306E-003;
2.401000000000000E+009;1.616626232862473E-001;4.628970474004746E-002;2.666054759174585E-003;2.600993262603879E-003;
2.401166666666667E+009;1.618420481681824E-001;4.437114298343658E-002;2.790254540741444E-003;2.511042635887861E-003;
2.401333333333334E+009;1.620761305093765E-001;4.242962226271629E-002;3.004468046128750E-003;2.576563041657209E-003;
2.401500000000000E+009;1.624491214752197E-001;4.055519774556160E-002;3.078784560784698E-003;2.419191179797053E-003;
2.401666666666667E+009;1.628675907850266E-001;3.868643194437027E-002;3.260322846472263E-003;2.381713129580021E-003;
2.401833333333334E+009;1.632608175277710E-001;3.683317452669144E-002;3.368551842868328E-003;2.231985796242952E-003;
2.402000000000000E+009;1.636190563440323E-001;3.514938056468964E-002;3.459040774032474E-003;1.969802659004927E-003;
2.402166666666667E+009;1.639664620161057E-001;3.332205861806870E-002;3.610741812735796E-003;2.034781035035849E-003;
2.402333333333334E+009;1.645421981811523E-001;3.145892545580864E-002;3.612950677052140E-003;2.018194878473878E-003;
2.402500000000000E+009;1.653509587049484E-001;2.999293059110642E-002;3.688460448756814E-003;1.889840816147625E-003;
2.402666666666667E+009;1.657950133085251E-001;2.845461852848530E-002;3.962350543588400E-003;1.578160794451833E-003;
2.402833333333334E+009;1.664462983608246E-001;2.696324512362480E-002;3.840955207124353E-003;1.468236441724002E-003;
2.403000000000000E+009;1.671427190303803E-001;2.550839073956013E-002;3.879834199324250E-003;1.411478617228568E-003;
2.403166666666667E+009;1.677821725606918E-001;2.411766164004803E-002;4.030967131257057E-003;1.245785388164222E-003;
2.403333333333334E+009;1.686496287584305E-001;2.269459143280983E-002;4.057992715388537E-003;1.141473883762956E-003;
2.403500000000000E+009;1.690661013126373E-001;2.144334092736244E-002;4.243237897753716E-003;7.977919885888696E-004;
2.403666666666667E+009;1.700165569782257E-001;2.007884345948696E-002;4.130058921873570E-003;6.868825876154006E-004;
2.403833333333334E+009;1.708789169788361E-001;1.905956864356995E-002;4.325716756284237E-003;6.497828871943057E-004;
2.404000000000000E+009;1.715301722288132E-001;1.797236874699593E-002;4.136760253459215E-003;3.635101020336151E-004;
2.404166666666667E+009;1.722649484872818E-001;1.681368611752987E-002;4.179519135504961E-003;2.429446176392958E-004;
2.404333333333334E+009;1.728532165288925E-001;1.609579659998417E-002;4.000264685600996E-003;1.144155157817295E-005;
2.404500000000000E+009;1.735382527112961E-001;1.510945800691843E-002;4.010804928839207E-003;-1.675785897532478E-004;
2.404666666666667E+009;1.740521788597107E-001;1.431818120181561E-002;4.106896929442883E-003;-2.649104571901262E-004;
2.404833333333334E+009;1.746885478496552E-001;1.359864976257086E-002;3.937419038265944E-003;-4.911298747174442E-004;
2.405000000000000E+009;1.754576861858368E-001;1.285609323531389E-002;3.870289772748947E-003;-4.485300160013139E-004;
2.405166666666667E+009;1.758584827184677E-001;1.243361830711365E-002;3.884559264406562E-003;-6.684613181278110E-004;
2.405333333333334E+009;1.765294373035431E-001;1.152054499834776E-002;3.734139492735267E-003;-7.940300856716931E-004;
2.405500000000000E+009;1.769528836011887E-001;1.121932733803988E-002;3.769681556150317E-003;-6.806432502344251E-004;
2.405666666666667E+009;1.774017065763474E-001;1.075166277587414E-002;3.529784269630909E-003;-6.854030652903020E-004;
2.405833333333334E+009;1.776610612869263E-001;1.040661241859198E-002;3.618704620748758E-003;-7.183558191172779E-004;
2.406000000000000E+009;1.779324263334274E-001;9.763333015143871E-003;3.488328075036407E-003;-8.318175678141415E-004;
2.406166666666667E+009;1.780950427055359E-001;9.663832373917103E-003;3.386725205928087E-003;-9.343382553197444E-004;
2.406333333333334E+009;1.783440858125687E-001;9.139494970440865E-003;3.339985385537148E-003;-9.735648636706173E-004;
2.406500000000000E+009;1.783926784992218E-001;8.740456774830818E-003;3.417234867811203E-003;-1.173868309706450E-003;
2.406666666666667E+009;1.782822310924530E-001;8.400851860642433E-003;3.360187867656350E-003;-1.209588022902608E-003;
2.406833333333334E+009;1.784553527832031E-001;7.979404181241989E-003;3.529158653691411E-003;-1.257328083738685E-003;
2.407000000000000E+009;1.784677654504776E-001;7.381098810583353E-003;3.265060484409332E-003;-1.091445446945727E-003;
2.407166666666667E+009;1.783831417560577E-001;7.172144018113613E-003;3.413486294448376E-003;-1.472238567657769E-003;
2.407333333333334E+009;1.779891848564148E-001;6.364949047565460E-003;3.295456059277058E-003;-1.344653544947505E-003;
2.407500000000000E+009;1.778061240911484E-001;6.080495659261942E-003;3.293635556474328E-003;-1.523641636595130E-003;
2.407666666666667E+009;1.775744706392288E-001;5.502326413989067E-003;3.412021556869149E-003;-1.443865010514855E-003;
2.407833333333334E+009;1.771100908517838E-001;4.749773535877466E-003;3.278941614553332E-003;-1.418001600541174E-003;
2.408000000000000E+009;1.767770051956177E-001;4.002392757683992E-003;3.432771889492869E-003;-1.687224721536040E-003;
2.408166666666667E+009;1.762222349643707E-001;3.414622275158763E-003;3.304561832919717E-003;-1.499397563748062E-003;
2.408333333333334E+009;1.759495139122009E-001;2.559501212090254E-003;3.089649835601449E-003;-1.925854827277362E-003;
2.408500000000000E+009;1.753908842802048E-001;1.431757234968245E-003;3.217468736693263E-003;-1.798345474526286E-003;
2.408666666666667E+009;1.749100536108017E-001;3.666576812975109E-004;3.082425333559513E-003;-1.981307985261083E-003;
2.408833333333334E+009;1.742383688688278E-001;-6.027670460753143E-004;3.209196496754885E-003;-1.921873190440238E-003;
2.409000000000000E+009;1.736034601926804E-001;-1.656905049458146E-003;3.084633266553283E-003;-2.051357645541430E-003;
2.409166666666667E+009;1.730888634920120E-001;-2.923442982137203E-003;3.074094653129578E-003;-2.121766097843647E-003;
2.409333333333334E+009;1.725794374942780E-001;-4.276227205991745E-003;3.067618235945702E-003;-2.082544844597578E-003;
2.409500000000000E+009;1.719740182161331E-001;-5.773541051894426E-003;3.021749202162027E-003;-2.165239071473479E-003;
2.409666666666667E+009;1.713866889476776E-001;-7.193068508058786E-003;2.940234029665589E-003;-2.370268106460571E-003;
2.409833333333334E+009;1.708199977874756E-001;-8.628224022686482E-003;2.893350785598159E-003;-2.424640348181129E-003;
2.410000000000000E+009;1.704181432723999E-001;-1.021902635693550E-002;2.886602189391851E-003;-2.444072160869837E-003;
2.410166666666667E+009;1.698740273714066E-001;-1.167048700153828E-002;2.961304737254977E-003;-2.361739985644817E-003;
2.410333333333334E+009;1.694417148828507E-001;-1.344112213701010E-002;2.792808925732970E-003;-2.532229525968432E-003;
2.410500000000000E+009;1.690749526023865E-001;-1.512451563030481E-002;2.982505830004811E-003;-2.663996769115329E-003;
2.410666666666667E+009;1.687031835317612E-001;-1.706323586404324E-002;2.953682793304324E-003;-2.714927075430751E-003;
2.410833333333334E+009;1.684301048517227E-001;-1.861508190631867E-002;2.847866388037801E-003;-2.844937611371279E-003;
2.411000000000000E+009;1.681866943836212E-001;-2.054376527667046E-002;2.796158427372575E-003;-3.025276120752096E-003;
2.411166666666667E+009;1.680400818586350E-001;-2.238455787301064E-002;3.028373466804624E-003;-2.857917686924338E-003;
2.411333333333334E+009;1.678146272897720E-001;-2.427240833640099E-002;2.820227295160294E-003;-3.141464432701469E-003;
2.411500000000000E+009;1.677453964948654E-001;-2.621918171644211E-002;2.785785123705864E-003;-3.313732333481312E-003;
2.411666666666667E+009;1.678884476423264E-001;-2.823836915194988E-002;2.679001307114959E-003;-3.391356207430363E-003;
2.411833333333334E+009;1.679076254367828E-001;-2.992830425500870E-002;2.700155368074775E-003;-3.621416166424751E-003;
2.412000000000000E+009;1.681378036737442E-001;-3.196555748581886E-002;2.577235456556082E-003;-3.824705723673105E-003;
2.412166666666667E+009;1.682358980178833E-001;-3.355548158288002E-002;2.478763228282332E-003;-3.825642867013812E-003;
2.412333333333334E+009;1.684032976627350E-001;-3.542620316147804E-002;2.347933128476143E-003;-4.091138020157814E-003;
2.412500000000000E+009;1.688923388719559E-001;-3.724774345755577E-002;2.252020174637437E-003;-4.330609925091267E-003;
2.412666666666667E+009;1.692209094762802E-001;-3.921868279576302E-002;2.193890511989594E-003;-4.423445556312800E-003;
2.412833333333334E+009;1.695696562528610E-001;-4.085224121809006E-002;1.981464214622974E-003;-4.567817319184542E-003;
2.413000000000000E+009;1.699581146240234E-001;-4.266463220119476E-002;1.811094232834876E-003;-4.669437184929848E-003;
2.413166666666667E+009;1.704571545124054E-001;-4.411611706018448E-002;1.737276441417635E-003;-4.999916069209576E-003;
2.413333333333334E+009;1.708584427833557E-001;-4.591527581214905E-002;1.450751326046884E-003;-5.022398661822081E-003;
2.413500000000000E+009;1.713514029979706E-001;-4.740491509437561E-002;1.197474659420550E-003;-5.072017665952444E-003;
2.413666666666667E+009;1.719117313623428E-001;-4.879180714488030E-002;1.024395925924182E-003;-5.271014291793108E-003;
2.413833333333334E+009;1.723103821277618E-001;-5.019189789891243E-002;7.949926657602191E-004;-5.142637528479099E-003;
2.414000000000000E+009;1.727890670299530E-001;-5.153125151991844E-002;6.982474005781114E-004;-5.139277316629887E-003;
2.414166666666667E+009;1.733801215887070E-001;-5.256068706512451E-002;3.201024665031582E-004;-5.318145733326674E-003;
2.414333333333334E+009;1.739049255847931E-001;-5.371996760368347E-002;9.599343320587650E-005;-5.343431606888771E-003;
2.414500000000000E+009;1.744822859764099E-001;-5.482120066881180E-002;-8.340505155501887E-005;-5.247685592621565E-003;
2.414666666666667E+009;1.748500168323517E-001;-5.577090010046959E-002;-2.950758789665997E-004;-5.156228318810463E-003;
2.414833333333334E+009;1.751823276281357E-001;-5.663687735795975E-002;-4.963086103089154E-004;-5.235052667558193E-003;
2.415000000000000E+009;1.756008267402649E-001;-5.729017406702042E-002;-8.150435169227421E-004;-5.264590028673410E-003;
2.415166666666667E+009;1.759653389453888E-001;-5.812209099531174E-002;-9.248363785445690E-004;-5.023708101361990E-003;
2.415333333333334E+009;1.763160824775696E-001;-5.885022506117821E-002;-1.262913923710585E-003;-4.924033768475056E-003;
2.415500000000000E+009;1.763795763254166E-001;-5.925445258617401E-002;-1.422979519702494E-003;-4.942408762872219E-003;
2.415666666666667E+009;1.766835749149323E-001;-5.964701622724533E-002;-1.547362306155264E-003;-4.949013702571392E-003;
2.415833333333334E+009;1.768951267004013E-001;-6.011626869440079E-002;-1.653862767852843E-003;-4.644151777029038E-003;
2.416000000000000E+009;1.766338050365448E-001;-6.070783361792564E-002;-1.914330990985036E-003;-4.619965795427561E-003;
2.416166666666667E+009;1.767555624246597E-001;-6.082849204540253E-002;-2.149311592802405E-003;-4.424807149916887E-003;
2.416333333333334E+009;1.766383647918701E-001;-6.117039546370506E-002;-2.186311874538660E-003;-4.277242347598076E-003;
2.416500000000000E+009;1.763684749603272E-001;-6.148912757635117E-002;-2.478897571563721E-003;-4.269562195986509E-003;
2.416666666666667E+009;1.760834306478500E-001;-6.161785498261452E-002;-2.605739980936050E-003;-4.110927227884531E-003;
2.416833333333334E+009;1.758361905813217E-001;-6.199036166071892E-002;-2.665416803210974E-003;-3.893174231052399E-003;
2.417000000000000E+009;1.751122921705246E-001;-6.224068626761437E-002;-2.807307289913297E-003;-3.914971835911274E-003;
2.417166666666667E+009;1.745999306440353E-001;-6.225634366273880E-002;-2.837149892002344E-003;-3.792739706113935E-003;
2.417333333333334E+009;1.741992533206940E-001;-6.241459026932716E-002;-2.885306254029274E-003;-3.766502486541867E-003;
2.417500000000000E+009;1.733121871948242E-001;-6.289694458246231E-002;-2.967413514852524E-003;-3.556574927642942E-003;
2.417666666666667E+009;1.727053523063660E-001;-6.286268681287766E-002;-3.018543822690845E-003;-3.328298684209585E-003;
2.417833333333334E+009;1.718045324087143E-001;-6.314288824796677E-002;-3.137183375656605E-003;-3.246242878958583E-003;
2.418000000000000E+009;1.709812432527542E-001;-6.356316804885864E-002;-3.208079840987921E-003;-3.184969304129481E-003;
2.418166666666667E+009;1.699024438858032E-001;-6.378834694623947E-002;-3.233433933928609E-003;-3.135340055450797E-003;
2.418333333333334E+009;1.691209673881531E-001;-6.427820026874542E-002;-3.208129433915019E-003;-2.956670476123691E-003;
2.418500000000000E+009;1.679314076900482E-001;-6.471099704504013E-002;-3.344928380101919E-003;-2.971831476315856E-003;
2.418666666666667E+009;1.669238954782486E-001;-6.505890190601349E-002;-3.445710288360715E-003;-2.749273553490639E-003;
2.418833333333334E+009;1.655410230159760E-001;-6.576644629240036E-002;-3.389301942661405E-003;-2.750747371464968E-003;
2.419000000000000E+009;1.644329577684403E-001;-6.638342887163162E-002;-3.498754929751158E-003;-2.678408054634929E-003;
2.419166666666667E+009;1.632519066333771E-001;-6.714025139808655E-002;-3.516829805448651E-003;-2.362750237807632E-003;
2.419333333333334E+009;1.618008166551590E-001;-6.751425564289093E-002;-3.617866663262248E-003;-2.422814024612308E-003;
2.419500000000000E+009;1.606605947017670E-001;-6.869485229253769E-002;-3.550658468157053E-003;-2.283241599798203E-003;
2.419666666666667E+009;1.596539169549942E-001;-6.950961798429489E-002;-3.726254217326641E-003;-2.252482576295734E-003;
2.419833333333334E+009;1.583611667156220E-001;-7.045605778694153E-002;-3.657741704955697E-003;-2.093557966873050E-003;
2.420000000000000E+009;1.573041528463364E-001;-7.150357961654663E-002;-3.773030126467347E-003;-2.016958780586720E-003;
2.420166666666667E+009;1.560867875814438E-001;-7.269930839538574E-002;-3.744118381291628E-003;-1.880230847746134E-003;
2.420333333333334E+009;1.550866216421127E-001;-7.398180663585663E-002;-3.914468921720982E-003;-1.853226334787905E-003;
2.420500000000000E+009;1.540662199258804E-001;-7.497047632932663E-002;-3.879007883369923E-003;-1.592087675817311E-003;
2.420666666666667E+009;1.530607938766480E-001;-7.636585831642151E-002;-4.063849337399006E-003;-1.511382521130145E-003;
2.420833333333334E+009;1.520266234874725E-001;-7.788127660751343E-002;-3.829887835308909E-003;-1.485466258600354E-003;
2.421000000000000E+009;1.511440575122833E-001;-7.934268563985825E-002;-4.025152884423733E-003;-1.314038294367492E-003;
2.421166666666667E+009;1.504509598016739E-001;-8.070519566535950E-002;-4.023169633001089E-003;-1.101427711546421E-003;
2.421333333333334E+009;1.498602628707886E-001;-8.228260278701782E-002;-4.092031624168158E-003;-1.040952396579087E-003;
2.421500000000000E+009;1.489597260951996E-001;-8.389338850975037E-002;-4.109386354684830E-003;-8.648672373965383E-004;
2.421666666666667E+009;1.485710442066193E-001;-8.561892062425613E-002;-4.189298953860998E-003;-8.234546403400600E-004;
2.421833333333334E+009;1.480571776628494E-001;-8.705313503742218E-002;-3.995223902165890E-003;-5.752255674451590E-004;
2.422000000000000E+009;1.475837826728821E-001;-8.894776552915573E-002;-4.084134474396706E-003;-4.734365211334080E-004;
2.422166666666667E+009;1.472952365875244E-001;-9.079822152853012E-002;-4.088158719241619E-003;-2.927977475337684E-004;
2.422333333333334E+009;1.470302641391754E-001;-9.223578870296478E-002;-3.944278229027987E-003;-2.569271018728614E-004;
2.422500000000000E+009;1.468644440174103E-001;-9.392898529767990E-002;-4.098566249012947E-003;-4.692779839388095E-005;
2.422666666666667E+009;1.465877592563629E-001;-9.563880413770676E-002;-3.845142200589180E-003;-1.197959136334248E-005;
2.422833333333334E+009;1.468208432197571E-001;-9.751313179731369E-002;-3.988863900303841E-003;6.358764221658930E-005;
2.423000000000000E+009;1.466979682445526E-001;-9.904132038354874E-002;-4.013252444565296E-003;1.766983477864415E-004;
2.423166666666667E+009;1.469504237174988E-001;-1.006105095148087E-001;-3.751045791432262E-003;3.256276540923864E-004;
2.423333333333334E+009;1.471076607704163E-001;-1.022241935133934E-001;-3.876443020999432E-003;3.736672806553543E-004;
2.423500000000000E+009;1.473402827978134E-001;-1.038003861904144E-001;-3.836822230368853E-003;6.326402653940022E-004;
2.423666666666667E+009;1.472970694303513E-001;-1.053255572915077E-001;-3.697836305946112E-003;6.092900293879211E-004;
2.423833333333334E+009;1.478939801454544E-001;-1.069805473089218E-001;-3.858106909319758E-003;8.255895227193832E-004;
2.424000000000000E+009;1.481144130229950E-001;-1.082116514444351E-001;-3.881754586473107E-003;8.167983614839613E-004;
2.424166666666667E+009;1.484478116035461E-001;-1.094642207026482E-001;-3.650543745607138E-003;1.044702716171742E-003;
2.424333333333334E+009;1.488800942897797E-001;-1.106899008154869E-001;-3.649532096460462E-003;9.371974738314748E-004;
2.424500000000000E+009;1.493193358182907E-001;-1.120533570647240E-001;-3.709115087985992E-003;1.322025083936751E-003;
2.424666666666667E+009;1.498129963874817E-001;-1.128443256020546E-001;-3.608569037169218E-003;1.302227494306862E-003;
2.424833333333334E+009;1.498323231935501E-001;-1.139267012476921E-001;-3.505508415400982E-003;1.416228129528463E-003;
2.425000000000000E+009;1.503498554229736E-001;-1.149409189820290E-001;-3.387403441593051E-003;1.618611393496394E-003;
2.425166666666667E+009;1.505424529314041E-001;-1.157555058598518E-001;-3.458306193351746E-003;1.720873522572219E-003;
2.425333333333334E+009;1.509639471769333E-001;-1.166418567299843E-001;-3.283814759925008E-003;1.675121719017625E-003;
2.425500000000000E+009;1.512885838747025E-001;-1.173511296510696E-001;-3.313034772872925E-003;2.012653741985560E-003;
2.425666666666667E+009;1.513727754354477E-001;-1.179897934198380E-001;-3.219741862267256E-003;1.996916253119707E-003;
2.425833333333334E+009;1.517206579446793E-001;-1.185803636908531E-001;-2.998640295118094E-003;2.262102207168937E-003;
2.426000000000000E+009;1.518315374851227E-001;-1.191167458891869E-001;-2.872706390917301E-003;2.372260205447674E-003;
2.426166666666667E+009;1.520779430866242E-001;-1.195231154561043E-001;-2.775416942313314E-003;2.280177315697074E-003;
2.426333333333334E+009;1.520132273435593E-001;-1.198841854929924E-001;-2.677750773727894E-003;2.383321989327669E-003;
2.426500000000000E+009;1.519618928432465E-001;-1.202535703778267E-001;-2.504275878891349E-003;2.533326856791973E-003;
2.426666666666667E+009;1.519732624292374E-001;-1.203723400831223E-001;-2.324909670278430E-003;2.372594317421317E-003;
2.426833333333334E+009;1.516962200403214E-001;-1.206197515130043E-001;-2.252822043374181E-003;2.428683219477534E-003;
2.427000000000000E+009;1.513641923666000E-001;-1.209820434451103E-001;-2.180756069719791E-003;2.487601013854146E-003;
2.427166666666667E+009;1.509009450674057E-001;-1.208869069814682E-001;-2.081596991047263E-003;2.582157030701637E-003;
2.427333333333334E+009;1.505134701728821E-001;-1.210484132170677E-001;-1.939780195243657E-003;2.587896073237062E-003;
2.427500000000000E+009;1.499544978141785E-001;-1.212173700332642E-001;-1.990503864362836E-003;2.354408847168088E-003;
2.427666666666667E+009;1.493069827556610E-001;-1.213672235608101E-001;-1.744890585541725E-003;2.448614686727524E-003;
