# Version 1.00
#
freq[Hz];re:Trc1_S11;im:Trc1_S11;re:Trc2_S21;im:Trc2_S21;
2.400000000000000E+009;1.607784926891327E-001;5.695806443691254E-002;1.926100929267705E-003;2.615869976580143E-003;
2.400166666666667E+009;1.608069837093353E-001;5.553579330444336E-002;2.007516101002693E-003;2.504632109776139E-003;
2.400333333333334E+009;1.608041673898697E-001;5.360601097345352E-002;2.047059359028935E-003;2.502579474821687E-003;
2.400500000000000E+009;1.610154509544373E-001;5.195572227239609E-002;2.098938915878534E-003;2.690082881599665E-003;
2.400666666666667E+009;1.610710471868515E-001;4.994810000061989E-002;2.393358387053013E-003;2.808111021295190E-003;
2.400833333333334E+009;1.614278107881546E-001;4.824805259704590E-002;2.418104792013764E-003;2.754973480477929E-003;
2.401000000000000E+009;1.614904254674912E-001;4.627246409654617E-002;2.591317286714912E-003;2.596428617835045E-003;
2.401166666666667E+009;1.617143303155899E-001;4.432807862758637E-002;2.690525259822607E-003;2.734593115746975E-003;
2.401333333333334E+009;1.618433743715286E-001;4.247930645942688E-002;2.967188600450754E-003;2.575412159785628E-003;
2.401500000000000E+009;1.624508649110794E-001;4.045756161212921E-002;2.967406995594502E-003;2.467530081048608E-003;
2.401666666666667E+009;1.627890616655350E-001;3.874075040221214E-002;3.122742986306548E-003;2.375395037233830E-003;
2.401833333333334E+009;1.632715016603470E-001;3.668107464909554E-002;3.220801940187812E-003;2.234351821243763E-003;
2.402000000000000E+009;1.634842008352280E-001;3.508606180548668E-002;3.510658629238606E-003;2.290227683261037E-003;
2.402166666666667E+009;1.639764159917831E-001;3.322871774435043E-002;3.586483187973499E-003;2.249349607154727E-003;
2.402333333333334E+009;1.645248979330063E-001;3.166870027780533E-002;3.568928455933929E-003;2.052420983090997E-003;
2.402500000000000E+009;1.653093546628952E-001;3.006289899349213E-002;3.789132926613092E-003;1.925186137668788E-003;
2.402666666666667E+009;1.658707261085510E-001;2.840061299502850E-002;3.791152033954859E-003;1.688246615231037E-003;
2.402833333333334E+009;1.663346886634827E-001;2.685123868286610E-002;3.969412762671709E-003;1.717898529022932E-003;
2.403000000000000E+009;1.671544611454010E-001;2.533871307969093E-002;4.096329677850008E-003;1.429145922884345E-003;
2.403166666666667E+009;1.680211871862412E-001;2.395622059702873E-002;4.184998571872711E-003;1.349308528006077E-003;
2.403333333333334E+009;1.685395836830139E-001;2.279451116919518E-002;4.172089509665966E-003;9.858435951173306E-004;
2.403500000000000E+009;1.693078130483627E-001;2.139225788414478E-002;4.272946156561375E-003;7.785366615280509E-004;
2.403666666666667E+009;1.698348671197891E-001;2.020622417330742E-002;4.160301294177771E-003;7.804470951668918E-004;
2.403833333333334E+009;1.708710640668869E-001;1.897252351045609E-002;4.214182496070862E-003;5.612276145257056E-004;
2.404000000000000E+009;1.715141236782074E-001;1.791230775415897E-002;4.204110708087683E-003;3.867368795908988E-004;
2.404166666666667E+009;1.722052991390228E-001;1.689238846302033E-002;4.173614550381899E-003;2.920428523793817E-004;
2.404333333333334E+009;1.727924793958664E-001;1.600131206214428E-002;4.156421869993210E-003;1.964484981726855E-004;
2.404500000000000E+009;1.735012978315353E-001;1.505124941468239E-002;4.207907710224390E-003;5.126094765728340E-005;
2.404666666666667E+009;1.742199957370758E-001;1.423381268978119E-002;3.992761950939894E-003;-3.041171585209668E-004;
2.404833333333334E+009;1.747789531946182E-001;1.357670314610004E-002;4.088262561708689E-003;-4.442819044925273E-004;
2.405000000000000E+009;1.754112988710403E-001;1.283942349255085E-002;3.969314508140087E-003;-3.607217222452164E-004;
2.405166666666667E+009;1.759790927171707E-001;1.238033454865217E-002;3.770691109821200E-003;-5.582953453995287E-004;
2.405333333333334E+009;1.764321476221085E-001;1.158954296261072E-002;3.759128507226706E-003;-6.415236275643110E-004;
2.405500000000000E+009;1.768074631690979E-001;1.113985385745764E-002;3.574112895876169E-003;-8.160680881701410E-004;
2.405666666666667E+009;1.772944033145905E-001;1.072122901678085E-002;3.711918136104941E-003;-8.689520764164627E-004;
2.405833333333334E+009;1.775285005569458E-001;1.032602787017822E-002;3.547874744981527E-003;-8.459554519504309E-004;
2.406000000000000E+009;1.778407096862793E-001;9.788847528398037E-003;3.744812449440360E-003;-9.941643802449107E-004;
2.406166666666667E+009;1.779977679252625E-001;9.554522112011910E-003;3.501522354781628E-003;-7.899797637946904E-004;
2.406333333333334E+009;1.784071773290634E-001;9.197954088449478E-003;3.477331250905991E-003;-1.161425025202334E-003;
2.406500000000000E+009;1.784124672412872E-001;8.673097006976605E-003;3.333854489028454E-003;-1.163287670351565E-003;
2.406666666666667E+009;1.783170104026794E-001;8.531308732926846E-003;3.375151660293341E-003;-1.165607827715576E-003;
2.406833333333334E+009;1.783796101808548E-001;8.027845993638039E-003;3.466009860858321E-003;-1.304202945902944E-003;
2.407000000000000E+009;1.783792972564697E-001;7.494998164474964E-003;3.388264449313283E-003;-1.293238135986030E-003;
2.407166666666667E+009;1.784089654684067E-001;7.131445221602917E-003;3.417499130591750E-003;-1.261681434698403E-003;
2.407333333333334E+009;1.780540645122528E-001;6.544167641550303E-003;3.266948508098722E-003;-1.383103895932436E-003;
2.407500000000000E+009;1.777648776769638E-001;6.011675111949444E-003;3.461263841018081E-003;-1.470697228796780E-003;
2.407666666666667E+009;1.775075048208237E-001;5.490339361131191E-003;3.475315403193235E-003;-1.530860783532262E-003;
2.407833333333334E+009;1.770876646041870E-001;4.745670594274998E-003;3.338826820254326E-003;-1.733618672005832E-003;
2.408000000000000E+009;1.767200082540512E-001;3.944386728107929E-003;3.421737113967538E-003;-1.554507645778358E-003;
2.408166666666667E+009;1.762371361255646E-001;3.214066149666905E-003;3.339930903166533E-003;-1.750633353367448E-003;
2.408333333333334E+009;1.758758723735809E-001;2.451433101668954E-003;3.115694969892502E-003;-1.803548890165985E-003;
2.408500000000000E+009;1.753284335136414E-001;1.568158855661750E-003;3.268411848694086E-003;-1.907317433506250E-003;
2.408666666666667E+009;1.748274117708206E-001;3.559046308510006E-004;3.316141199320555E-003;-1.927641802467406E-003;
2.408833333333334E+009;1.741244196891785E-001;-6.238371133804321E-004;3.298219991847873E-003;-1.950539415702224E-003;
2.409000000000000E+009;1.735952049493790E-001;-1.821214333176613E-003;3.097453620284796E-003;-2.216762630268931E-003;
2.409166666666667E+009;1.730195730924606E-001;-3.004070604220033E-003;3.027190221473575E-003;-2.134962007403374E-003;
2.409333333333334E+009;1.725184619426727E-001;-4.362709820270538E-003;2.931253286078572E-003;-2.302288776263595E-003;
2.409500000000000E+009;1.719733178615570E-001;-5.903268698602915E-003;3.090023528784514E-003;-2.323099412024021E-003;
2.409666666666667E+009;1.713161319494247E-001;-7.112284656614065E-003;2.871348289772868E-003;-2.315103774890304E-003;
2.409833333333334E+009;1.706113964319229E-001;-8.571274578571320E-003;2.958768047392368E-003;-2.440340351313353E-003;
2.410000000000000E+009;1.702856570482254E-001;-1.016000285744667E-002;3.006722312420607E-003;-2.516266889870167E-003;
2.410166666666667E+009;1.698475182056427E-001;-1.180747151374817E-002;2.959832781925798E-003;-2.565756207332015E-003;
2.410333333333334E+009;1.693953424692154E-001;-1.337858289480209E-002;2.977483905851841E-003;-2.493558684363961E-003;
2.410500000000000E+009;1.689820885658264E-001;-1.520947087556124E-002;3.084985772147775E-003;-2.603227505460382E-003;
2.410666666666667E+009;1.685348749160767E-001;-1.712381280958653E-002;3.040257608518004E-003;-2.874528523534536E-003;
2.410833333333334E+009;1.682651489973068E-001;-1.860827952623367E-002;2.937587676569820E-003;-2.869184361770749E-003;
2.411000000000000E+009;1.680851876735687E-001;-2.051168680191040E-002;2.958431607112289E-003;-2.921489533036947E-003;
2.411166666666667E+009;1.679676622152329E-001;-2.243177779018879E-002;2.970493864268065E-003;-2.917730715125799E-003;
2.411333333333334E+009;1.676828563213348E-001;-2.420262247323990E-002;2.859053434804082E-003;-2.977640833705664E-003;
2.411500000000000E+009;1.676468402147293E-001;-2.623165957629681E-002;2.843708731234074E-003;-3.362683113664389E-003;
2.411666666666667E+009;1.678384095430374E-001;-2.805959247052670E-002;2.699076896533370E-003;-3.499013138934970E-003;
2.411833333333334E+009;1.679145395755768E-001;-2.997131831943989E-002;2.876050304621458E-003;-3.589976811781526E-003;
2.412000000000000E+009;1.680859774351120E-001;-3.188248351216316E-002;2.765102311968803E-003;-3.735650330781937E-003;
2.412166666666667E+009;1.681542843580246E-001;-3.388074785470963E-002;2.646825974807143E-003;-3.968871664255858E-003;
2.412333333333334E+009;1.685479730367661E-001;-3.540778532624245E-002;2.498446265235543E-003;-4.034277051687241E-003;
2.412500000000000E+009;1.685761958360672E-001;-3.720625862479210E-002;2.615171018987894E-003;-4.343651700764895E-003;
2.412666666666667E+009;1.691832244396210E-001;-3.927164524793625E-002;2.156780334189534E-003;-4.518175031989813E-003;
2.412833333333334E+009;1.695397049188614E-001;-4.098669812083244E-002;2.070920541882515E-003;-4.687433596700430E-003;
2.413000000000000E+009;1.699582040309906E-001;-4.262157902121544E-002;1.840077922679484E-003;-4.759471863508225E-003;
2.413166666666667E+009;1.703447848558426E-001;-4.411466047167778E-002;1.740821520797908E-003;-4.753030370920897E-003;
2.413333333333334E+009;1.705829501152039E-001;-4.589914903044701E-002;1.390662975609303E-003;-5.008321721106768E-003;
2.413500000000000E+009;1.712145954370499E-001;-4.730905219912529E-002;1.211503520607948E-003;-5.155719816684723E-003;
2.413666666666667E+009;1.719822138547897E-001;-4.886596649885178E-002;9.820570703595877E-004;-5.121546331793070E-003;
2.413833333333334E+009;1.721545457839966E-001;-5.014328286051750E-002;8.178681018762291E-004;-5.269120912998915E-003;
2.414000000000000E+009;1.727391928434372E-001;-5.145875364542007E-002;4.475214518606663E-004;-5.224054679274559E-003;
2.414166666666667E+009;1.731822937726975E-001;-5.262361466884613E-002;3.269618318881840E-004;-5.239312071353197E-003;
2.414333333333334E+009;1.737710386514664E-001;-5.367746949195862E-002;2.003872941713780E-004;-5.353719461709261E-003;
2.414500000000000E+009;1.743807196617127E-001;-5.474754422903061E-002;-1.744648470776156E-004;-5.187265574932098E-003;
2.414666666666667E+009;1.747481226921082E-001;-5.571988597512245E-002;-2.787636767607182E-004;-5.249683745205402E-003;
2.414833333333334E+009;1.751013994216919E-001;-5.662204697728157E-002;-6.482580211013556E-004;-5.364298820495606E-003;
2.415000000000000E+009;1.754820495843887E-001;-5.730242282152176E-002;-7.889562984928489E-004;-5.201539490371943E-003;
2.415166666666667E+009;1.758998334407806E-001;-5.795698612928391E-002;-1.014801324345172E-003;-5.132782272994518E-003;
2.415333333333334E+009;1.761659532785416E-001;-5.871866643428803E-002;-1.388571690768004E-003;-5.051607266068459E-003;
2.415500000000000E+009;1.764652878046036E-001;-5.917991697788239E-002;-1.661215093918145E-003;-4.956337623298168E-003;
2.415666666666667E+009;1.766420304775238E-001;-5.957783758640289E-002;-1.599341398105025E-003;-4.860454704612494E-003;
2.415833333333334E+009;1.769126504659653E-001;-6.007295101881027E-002;-1.786706736311317E-003;-4.674033261835575E-003;
2.416000000000000E+009;1.767213195562363E-001;-6.059305369853973E-002;-1.987838651984930E-003;-4.619230981916189E-003;
2.416166666666667E+009;1.768266558647156E-001;-6.088304519653320E-002;-2.271859906613827E-003;-4.428555723279715E-003;
2.416333333333334E+009;1.767532378435135E-001;-6.103626638650894E-002;-2.258009510114789E-003;-4.416805692017078E-003;
2.416500000000000E+009;1.765029877424240E-001;-6.142135709524155E-002;-2.433725167065859E-003;-4.176578484475613E-003;
2.416666666666667E+009;1.762128174304962E-001;-6.158366426825523E-002;-2.595036756247282E-003;-4.104518331587315E-003;
2.416833333333334E+009;1.759233921766281E-001;-6.191152334213257E-002;-2.708869054913521E-003;-4.050985909998417E-003;
2.417000000000000E+009;1.751498132944107E-001;-6.216517090797424E-002;-2.692519687116146E-003;-3.996024373918772E-003;
2.417166666666667E+009;1.748169064521790E-001;-6.219770759344101E-002;-2.853600075468421E-003;-3.837957745417953E-003;
2.417333333333334E+009;1.742074638605118E-001;-6.240288540720940E-002;-2.906479174271226E-003;-3.563940990716219E-003;
2.417500000000000E+009;1.734386533498764E-001;-6.283641606569290E-002;-2.976518124341965E-003;-3.589344210922718E-003;
2.417666666666667E+009;1.727675646543503E-001;-6.298179179430008E-002;-3.100057132542133E-003;-3.536465344950557E-003;
2.417833333333334E+009;1.718989461660385E-001;-6.317780911922455E-002;-3.057115245610476E-003;-3.301884979009628E-003;
2.418000000000000E+009;1.709119528532028E-001;-6.356934458017349E-002;-3.218295751139522E-003;-3.006385872140527E-003;
2.418166666666667E+009;1.699873358011246E-001;-6.376448273658752E-002;-3.262136597186327E-003;-3.027527127414942E-003;
2.418333333333334E+009;1.690349429845810E-001;-6.434272229671478E-002;-3.294836962595582E-003;-2.863231115043163E-003;
2.418500000000000E+009;1.678877025842667E-001;-6.462887674570084E-002;-3.275084774941206E-003;-2.937832847237587E-003;
2.418666666666667E+009;1.668773442506790E-001;-6.519819051027298E-002;-3.420800203457475E-003;-2.808555029332638E-003;
2.418833333333334E+009;1.655937135219574E-001;-6.581898778676987E-002;-3.391656326130033E-003;-2.751663327217102E-003;
2.419000000000000E+009;1.643833220005035E-001;-6.633459776639938E-002;-3.502816893160343E-003;-2.567063318565488E-003;
2.419166666666667E+009;1.632157117128372E-001;-6.708702445030212E-002;-3.625883022323251E-003;-2.426074817776680E-003;
2.419333333333334E+009;1.618149429559708E-001;-6.766620278358460E-002;-3.579791868105531E-003;-2.452044747769833E-003;
2.419500000000000E+009;1.607476621866226E-001;-6.869598478078842E-002;-3.565176390111446E-003;-2.312677912414074E-003;
2.419666666666667E+009;1.596226245164871E-001;-6.973261386156082E-002;-3.816701006144285E-003;-2.145858248695731E-003;
2.419833333333334E+009;1.583184599876404E-001;-7.054109126329422E-002;-3.739956067875028E-003;-2.127714920789003E-003;
2.420000000000000E+009;1.573472619056702E-001;-7.146091014146805E-002;-3.812618553638458E-003;-2.013055374845862E-003;
2.420166666666667E+009;1.560533195734024E-001;-7.279252260923386E-002;-3.828294342383742E-003;-1.813065726310015E-003;
2.420333333333334E+009;1.550990194082260E-001;-7.391862571239471E-002;-3.953688777983189E-003;-1.621972420252860E-003;
2.420500000000000E+009;1.540647596120834E-001;-7.511450350284576E-002;-3.869895590469241E-003;-1.695485087111592E-003;
2.420666666666667E+009;1.530061662197113E-001;-7.640426605939865E-002;-4.072263371199369E-003;-1.437523635104299E-003;
2.420833333333334E+009;1.520966738462448E-001;-7.788332551717758E-002;-3.962053917348385E-003;-1.251624431461096E-003;
2.421000000000000E+009;1.510923504829407E-001;-7.931580394506455E-002;-3.951205871999264E-003;-1.233591814525425E-003;
2.421166666666667E+009;1.504661738872528E-001;-8.079793304204941E-002;-4.085395485162735E-003;-1.050092279911041E-003;
2.421333333333334E+009;1.498089879751205E-001;-8.240638673305512E-002;-4.040773492306471E-003;-9.167749085463584E-004;
2.421500000000000E+009;1.489557325839996E-001;-8.388853073120117E-002;-3.974505234509707E-003;-8.631214150227606E-004;
2.421666666666667E+009;1.483310163021088E-001;-8.555697649717331E-002;-4.115078598260880E-003;-6.427278276532888E-004;
2.421833333333334E+009;1.479527503252029E-001;-8.706747740507126E-002;-4.150907974690199E-003;-4.818959569092840E-004;
2.422000000000000E+009;1.477030962705612E-001;-8.881889283657074E-002;-4.155050031840801E-003;-3.789449983742088E-004;
2.422166666666667E+009;1.471754163503647E-001;-9.074778109788895E-002;-4.085010848939419E-003;-3.981394402217120E-004;
2.422333333333334E+009;1.471023857593536E-001;-9.238500148057938E-002;-4.116747993975878E-003;-2.277747989865020E-004;
2.422500000000000E+009;1.467476934194565E-001;-9.395903348922730E-002;-4.036064725369215E-003;-1.723178684187587E-005;
2.422666666666667E+009;1.467011868953705E-001;-9.571760892868042E-002;-3.953299019485712E-003;-1.674225131864660E-005;
2.422833333333334E+009;1.466548293828964E-001;-9.737072885036469E-002;-4.054373130202293E-003;1.804491912480444E-004;
2.423000000000000E+009;1.467090696096420E-001;-9.915848821401596E-002;-3.832403104752302E-003;1.987050636671484E-004;
2.423166666666667E+009;1.468363255262375E-001;-1.006989479064941E-001;-3.852241206914187E-003;4.222012357786298E-004;
2.423333333333334E+009;1.470410674810410E-001;-1.020900830626488E-001;-3.930020146071911E-003;4.143999831285328E-004;
2.423500000000000E+009;1.473854333162308E-001;-1.038074269890785E-001;-3.962863236665726E-003;5.697738961316645E-004;
2.423666666666667E+009;1.473417580127716E-001;-1.053985357284546E-001;-3.858770709484816E-003;7.039002375677228E-004;
2.423833333333334E+009;1.478950232267380E-001;-1.069153100252152E-001;-3.874717047438026E-003;7.844056817702949E-004;
2.424000000000000E+009;1.480267494916916E-001;-1.082155108451843E-001;-3.841632511466742E-003;7.972370367497206E-004;
2.424166666666667E+009;1.484080553054810E-001;-1.094826385378838E-001;-3.725023241713643E-003;9.121050243265927E-004;
2.424333333333334E+009;1.488846987485886E-001;-1.106730177998543E-001;-3.751549636945128E-003;1.151079544797540E-003;
2.424500000000000E+009;1.492440253496170E-001;-1.117897331714630E-001;-3.523156279698014E-003;1.182612264528871E-003;
2.424666666666667E+009;1.496713012456894E-001;-1.128009855747223E-001;-3.563909558579326E-003;1.363957067951560E-003;
2.424833333333334E+009;1.499638110399246E-001;-1.139895170927048E-001;-3.651066217571497E-003;1.550712506286800E-003;
2.425000000000000E+009;1.504575908184052E-001;-1.149548962712288E-001;-3.418863983824849E-003;1.696001272648573E-003;
2.425166666666667E+009;1.505964994430542E-001;-1.158033534884453E-001;-3.465184476226568E-003;1.561549026519060E-003;
2.425333333333334E+009;1.510289162397385E-001;-1.166507229208946E-001;-3.436738159507513E-003;1.745539600960910E-003;
2.425500000000000E+009;1.513323634862900E-001;-1.174284145236015E-001;-3.195933531969786E-003;1.841280260123313E-003;
2.425666666666667E+009;1.514856368303299E-001;-1.178571283817291E-001;-3.094373270869255E-003;2.060488564893603E-003;
2.425833333333334E+009;1.517829746007919E-001;-1.185701638460159E-001;-3.055343171581626E-003;2.069470938295126E-003;
2.426000000000000E+009;1.518099009990692E-001;-1.191312372684479E-001;-2.834379673004150E-003;2.095155883580446E-003;
2.426166666666667E+009;1.521488577127457E-001;-1.195547878742218E-001;-2.802571048960090E-003;2.202827017754316E-003;
2.426333333333334E+009;1.519822627305985E-001;-1.199321225285530E-001;-2.639947459101677E-003;2.185925142839551E-003;
2.426500000000000E+009;1.519941836595535E-001;-1.202192455530167E-001;-2.396144205704331E-003;2.351016271859407E-003;
2.426666666666667E+009;1.520289480686188E-001;-1.203372627496719E-001;-2.456367947161198E-003;2.349827205762267E-003;
2.426833333333334E+009;1.516533195972443E-001;-1.206633970141411E-001;-2.239724155515432E-003;2.571211662143469E-003;
2.427000000000000E+009;1.513543725013733E-001;-1.209324747323990E-001;-2.200539456680417E-003;2.498022047802806E-003;
2.427166666666667E+009;1.510653197765350E-001;-1.209384649991989E-001;-2.061869483441114E-003;2.541982568800449E-003;
2.427333333333334E+009;1.505125761032105E-001;-1.210082843899727E-001;-2.005565445870161E-003;2.483412623405457E-003;
2.427500000000000E+009;1.501087993383408E-001;-1.212313324213028E-001;-1.984417671337724E-003;2.532853977754712E-003;
2.427666666666667E+009;1.493458896875382E-001;-1.214612126350403E-001;-1.932460581883788E-003;2.472915686666966E-003;
