# Version 1.00
#
freq[Hz];re:Trc1_S11;im:Trc1_S11;re:Trc2_S21;im:Trc2_S21;
2.400000000000000E+009;1.689311563968658E-001;4.600104689598084E-002;-2.798791741952300E-003;5.056570516899228E-004;
2.400166666666667E+009;1.698783785104752E-001;4.492404311895371E-002;-2.754634013399482E-003;4.208697064314038E-004;
2.400333333333334E+009;1.708536893129349E-001;4.404543340206146E-002;-2.705050865188241E-003;3.640876093413681E-004;
2.400500000000000E+009;1.716653853654862E-001;4.287116602063179E-002;-2.806118223816156E-003;2.154085523216054E-004;
2.400666666666667E+009;1.725732088088989E-001;4.204137250781059E-002;-2.588555216789246E-003;2.070804184768349E-004;
2.400833333333334E+009;1.737274080514908E-001;4.126058146357536E-002;-2.835119143128395E-003;2.322764194104821E-004;
2.401000000000000E+009;1.745471507310867E-001;4.033720493316650E-002;-2.834325190633535E-003;1.276025141123682E-004;
2.401166666666667E+009;1.753661036491394E-001;3.956058993935585E-002;-2.833738923072815E-003;1.657080283621326E-004;
2.401333333333334E+009;1.759647578001022E-001;3.895637392997742E-002;-2.957919379696250E-003;1.032803047564812E-004;
2.401500000000000E+009;1.767938435077667E-001;3.816596046090126E-002;-3.178449813276529E-003;3.620719944592565E-004;
2.401666666666667E+009;1.774148195981979E-001;3.773324936628342E-002;-3.301239805296063E-003;3.285977290943265E-004;
2.401833333333334E+009;1.779397279024124E-001;3.702930361032486E-002;-3.382297698408365E-003;3.193535376340151E-004;
2.402000000000000E+009;1.783139407634735E-001;3.652710467576981E-002;-3.646407974883914E-003;5.069981561973691E-004;
2.402166666666667E+009;1.789669990539551E-001;3.566950932145119E-002;-3.698222804814577E-003;4.952754243277013E-004;
2.402333333333334E+009;1.791901141405106E-001;3.514992073178291E-002;-3.759305225685239E-003;7.780393352732062E-004;
2.402500000000000E+009;1.797480434179306E-001;3.462141752243042E-002;-3.735560225322843E-003;8.556739776395261E-004;
2.402666666666667E+009;1.796327978372574E-001;3.400205820798874E-002;-3.915850538760424E-003;1.124899717979133E-003;
2.402833333333334E+009;1.797916740179062E-001;3.335049748420715E-002;-3.925397526472807E-003;1.084636198356748E-003;
2.403000000000000E+009;1.800481081008911E-001;3.266218304634094E-002;-3.867996390908957E-003;1.520761055871844E-003;
2.403166666666667E+009;1.799347698688507E-001;3.181837126612663E-002;-4.004599526524544E-003;1.542251091450453E-003;
2.403333333333334E+009;1.798335015773773E-001;3.104742057621479E-002;-4.032213240861893E-003;1.804377883672714E-003;
2.403500000000000E+009;1.793710291385651E-001;2.990457415580750E-002;-4.266560077667236E-003;2.132341964170337E-003;
2.403666666666667E+009;1.797546446323395E-001;2.929804846644402E-002;-3.866334911435843E-003;2.594743389636278E-003;
2.403833333333334E+009;1.781645268201828E-001;2.794087491929531E-002;-4.566146060824394E-003;3.049724036827683E-003;
2.404000000000000E+009;1.784335821866989E-001;2.634707465767860E-002;-4.343470558524132E-003;3.029158106073737E-003;
2.404166666666667E+009;1.791177839040756E-001;2.581276372075081E-002;-3.455612808465958E-003;3.005341161042452E-003;
2.404333333333334E+009;1.783117353916168E-001;2.461523748934269E-002;-3.319164505228400E-003;3.166295355185866E-003;
2.404500000000000E+009;1.770063489675522E-001;2.270984835922718E-002;-4.027293529361486E-003;3.504113527014852E-003;
2.404666666666667E+009;1.772932559251785E-001;2.172290161252022E-002;-3.304139245301485E-003;3.565703285858035E-003;
2.404833333333334E+009;1.763340979814529E-001;2.051416970789433E-002;-3.055867506191135E-003;4.126673098653555E-003;
2.405000000000000E+009;1.757421195507050E-001;1.899668946862221E-002;-2.937656361609697E-003;4.364195279777050E-003;
2.405166666666667E+009;1.758455932140350E-001;1.662004552781582E-002;-3.038889961317182E-003;3.797645447775722E-003;
2.405333333333334E+009;1.753505170345306E-001;1.549768168479204E-002;-2.639947459101677E-003;4.206850193440914E-003;
2.405500000000000E+009;1.744895875453949E-001;1.432896219193935E-002;-2.169541548937559E-003;4.758111666887999E-003;
2.405666666666667E+009;1.737735271453857E-001;1.209835242480040E-002;-2.199444221332669E-003;4.913568496704102E-003;
2.405833333333334E+009;1.733344644308090E-001;1.129273511469364E-002;-1.366640557534993E-003;5.241462029516697E-003;
2.406000000000000E+009;1.732907891273499E-001;9.252118878066540E-003;-9.882642189040780E-004;5.083521828055382E-003;
2.406166666666667E+009;1.728407293558121E-001;6.675723008811474E-003;-1.350564998574555E-003;4.840998910367489E-003;
2.406333333333334E+009;1.739220619201660E-001;4.733600653707981E-003;-8.129462949000299E-004;4.193085711449385E-003;
2.406500000000000E+009;1.735909283161163E-001;2.265361370518804E-003;-8.517261012457311E-004;3.996865823864937E-003;
2.406666666666667E+009;1.729545444250107E-001;1.011817832477391E-003;-2.106877800542861E-004;4.630494862794876E-003;
2.406833333333334E+009;1.729774177074432E-001;-1.221442944370210E-003;-8.147796324919909E-005;4.587777890264988E-003;
2.407000000000000E+009;1.728170365095139E-001;-3.300923621281982E-003;3.118643944617361E-004;4.558290820568800E-003;
2.407166666666667E+009;1.731518805027008E-001;-5.360195878893137E-003;4.257402906659991E-004;4.447528626769781E-003;
2.407333333333334E+009;1.730775237083435E-001;-7.607001811265945E-003;5.645513301715255E-004;4.250765778124332E-003;
2.407500000000000E+009;1.734653711318970E-001;-9.608021005988121E-003;5.018034717068076E-004;4.211890511214733E-003;
2.407666666666667E+009;1.736166626214981E-001;-1.173679623752832E-002;8.634829428046942E-004;4.337893333286047E-003;
2.407833333333334E+009;1.738867908716202E-001;-1.399815268814564E-002;1.053120009601116E-003;3.954200539737940E-003;
2.408000000000000E+009;1.742298603057861E-001;-1.608232408761978E-002;1.185960369184613E-003;3.875460475683212E-003;
2.408166666666667E+009;1.744940280914307E-001;-1.802227646112442E-002;1.240930170752108E-003;3.764238208532333E-003;
2.408333333333334E+009;1.751268059015274E-001;-2.012383751571178E-002;1.299514318816364E-003;3.731266828253865E-003;
2.408500000000000E+009;1.753847151994705E-001;-2.203927002847195E-002;1.516501768492162E-003;3.413105616346002E-003;
2.408666666666667E+009;1.757652461528778E-001;-2.402432821691036E-002;1.523788785561919E-003;3.349980339407921E-003;
2.408833333333334E+009;1.760217845439911E-001;-2.577495202422142E-002;1.705543021671474E-003;3.187925787642598E-003;
2.409000000000000E+009;1.763966679573059E-001;-2.743511646986008E-002;1.623255317099392E-003;2.928715432062745E-003;
2.409166666666667E+009;1.768492013216019E-001;-2.894374169409275E-002;1.669198041781783E-003;2.977411029860377E-003;
2.409333333333334E+009;1.773364245891571E-001;-3.046631254255772E-002;1.703332178294659E-003;2.829090692102909E-003;
2.409500000000000E+009;1.775781065225601E-001;-3.194250166416168E-002;1.755298464559019E-003;2.633433556184173E-003;
2.409666666666667E+009;1.780193746089935E-001;-3.309322148561478E-002;1.642118324525654E-003;2.604739973321557E-003;
2.409833333333334E+009;1.782879382371903E-001;-3.411942720413208E-002;1.705027767457068E-003;2.492278348654509E-003;
2.410000000000000E+009;1.789015680551529E-001;-3.515267372131348E-002;1.794983982108533E-003;2.413130830973387E-003;
2.410166666666667E+009;1.793281883001328E-001;-3.596051037311554E-002;1.665405696257949E-003;2.345304936170578E-003;
2.410333333333334E+009;1.796125769615173E-001;-3.686487674713135E-002;1.764002023264766E-003;2.273522084578872E-003;
2.410500000000000E+009;1.802022159099579E-001;-3.756712749600411E-002;1.816295436583459E-003;2.081866143271327E-003;
2.410666666666667E+009;1.805745214223862E-001;-3.840480744838715E-002;1.699855085462332E-003;2.214835723862052E-003;
2.410833333333334E+009;1.808922737836838E-001;-3.887635469436646E-002;1.720036962069571E-003;2.085855230689049E-003;
2.411000000000000E+009;1.810438781976700E-001;-3.939617425203323E-002;1.792669529095292E-003;2.087826840579510E-003;
2.411166666666667E+009;1.812630146741867E-001;-4.006223753094673E-002;1.675099367275834E-003;2.194734290242195E-003;
2.411333333333334E+009;1.815866231918335E-001;-4.047111794352531E-002;1.651760190725327E-003;2.107074949890375E-003;
2.411500000000000E+009;1.815506964921951E-001;-4.107929766178131E-002;1.921389251947403E-003;2.091923030093312E-003;
2.411666666666667E+009;1.816692948341370E-001;-4.137824103236198E-002;1.732950913719833E-003;2.021498046815395E-003;
2.411833333333334E+009;1.816446185112000E-001;-4.167694225907326E-002;1.772303599864245E-003;1.977014821022749E-003;
2.412000000000000E+009;1.813504993915558E-001;-4.198252782225609E-002;1.826384104788303E-003;2.068196656182408E-003;
2.412166666666667E+009;1.811957359313965E-001;-4.245059192180634E-002;1.836034003645182E-003;2.050968119874597E-003;
2.412333333333334E+009;1.809532195329666E-001;-4.269552975893021E-002;1.739183207973838E-003;1.944023068062961E-003;
2.412500000000000E+009;1.803241372108460E-001;-4.306363686919212E-002;1.706637558527291E-003;1.926693017594516E-003;
2.412666666666667E+009;1.798089742660523E-001;-4.355653747916222E-002;1.994420541450381E-003;1.912607462145388E-003;
2.412833333333334E+009;1.791770309209824E-001;-4.386743530631065E-002;2.042880048975349E-003;2.082276856526732E-003;
2.413000000000000E+009;1.783903241157532E-001;-4.412687942385674E-002;1.987301511690021E-003;1.971865538507700E-003;
2.413166666666667E+009;1.776000112295151E-001;-4.469274729490280E-002;2.123293932527304E-003;1.956845866516233E-003;
2.413333333333334E+009;1.765270382165909E-001;-4.520099237561226E-002;2.242137445136905E-003;2.065313281491399E-003;
2.413500000000000E+009;1.757228672504425E-001;-4.558825865387917E-002;2.343648113310337E-003;1.933716004714370E-003;
2.413666666666667E+009;1.748128533363342E-001;-4.607181996107101E-002;2.368609886616468E-003;1.946315518580377E-003;
2.413833333333334E+009;1.735268980264664E-001;-4.667006060481072E-002;2.412149682641029E-003;1.936457236297429E-003;
2.414000000000000E+009;1.724721640348434E-001;-4.744230955839157E-002;2.523412462323904E-003;1.615773187950254E-003;
2.414166666666667E+009;1.713813841342926E-001;-4.811795055866242E-002;2.517037559300661E-003;1.822536229155958E-003;
2.414333333333334E+009;1.701936572790146E-001;-4.886252433061600E-002;2.803696319460869E-003;1.746133202686906E-003;
2.414500000000000E+009;1.690229028463364E-001;-4.949789866805077E-002;2.751415362581611E-003;1.681268797256053E-003;
2.414666666666667E+009;1.677844077348709E-001;-5.047737434506416E-002;2.855786820873618E-003;1.688629039563239E-003;
2.414833333333334E+009;1.664913743734360E-001;-5.159784853458405E-002;2.903836546465755E-003;1.554859220050275E-003;
2.415000000000000E+009;1.653095185756683E-001;-5.263614654541016E-002;2.949764020740986E-003;1.441958709619939E-003;
2.415166666666667E+009;1.640604138374329E-001;-5.376827344298363E-002;3.071627346798778E-003;1.442895852960646E-003;
2.415333333333334E+009;1.630260646343231E-001;-5.521687492728233E-002;3.286211052909493E-003;1.260201213881373E-003;
2.415500000000000E+009;1.619292795658112E-001;-5.650115758180618E-002;3.205184126272798E-003;1.251801615580916E-003;
2.415666666666667E+009;1.608532220125198E-001;-5.788776651024818E-002;3.311939304694533E-003;1.087050070054829E-003;
2.415833333333334E+009;1.597652882337570E-001;-5.949503555893898E-002;3.216543467715383E-003;1.070469734258950E-003;
2.416000000000000E+009;1.585534811019898E-001;-6.117302551865578E-002;3.366114804521203E-003;9.274056646972895E-004;
2.416166666666667E+009;1.577400714159012E-001;-6.277978420257568E-002;3.471455303952098E-003;8.578169508837163E-004;
2.416333333333334E+009;1.566461771726608E-001;-6.449124962091446E-002;3.677507163956761E-003;6.950782262720168E-004;
2.416500000000000E+009;1.557757109403610E-001;-6.638500839471817E-002;3.598088864237070E-003;6.275234627537429E-004;
2.416666666666667E+009;1.547820568084717E-001;-6.814311444759369E-002;3.801552811637521E-003;4.014763981103897E-004;
2.416833333333334E+009;1.540894508361816E-001;-7.031298428773880E-002;3.808144945651293E-003;2.785247634164989E-004;
2.417000000000000E+009;1.531021893024445E-001;-7.212158292531967E-002;3.939062356948853E-003;1.020151612465270E-004;
2.417166666666667E+009;1.524729281663895E-001;-7.399284839630127E-002;3.916881512850523E-003;4.401446858537383E-005;
2.417333333333334E+009;1.518950611352921E-001;-7.584790140390396E-002;3.796743461862207E-003;-2.778141060844064E-004;
2.417500000000000E+009;1.513950228691101E-001;-7.791781425476074E-002;3.847849788144231E-003;-4.259233537595719E-004;
2.417666666666667E+009;1.510116010904312E-001;-7.958576083183289E-002;3.903561038896442E-003;-5.875980132259429E-004;
2.417833333333334E+009;1.505170911550522E-001;-8.142353594303131E-002;3.786037676036358E-003;-8.908328018151224E-004;
2.418000000000000E+009;1.499849557876587E-001;-8.332465589046478E-002;3.833087161183357E-003;-9.758223895914853E-004;
2.418166666666667E+009;1.496875882148743E-001;-8.492381870746613E-002;3.686877898871899E-003;-1.046777935698628E-003;
2.418333333333334E+009;1.498074829578400E-001;-8.677025884389877E-002;3.756732447072864E-003;-1.453599077649415E-003;
2.418500000000000E+009;1.494846940040588E-001;-8.832090348005295E-002;3.520043101161718E-003;-1.594360102899373E-003;
2.418666666666667E+009;1.494559049606323E-001;-8.976141363382340E-002;3.467468544840813E-003;-1.634151674807072E-003;
2.418833333333334E+009;1.493293493986130E-001;-9.126072376966476E-002;3.429960226640105E-003;-1.721787266433239E-003;
2.419000000000000E+009;1.492600142955780E-001;-9.263119846582413E-002;3.243605839088559E-003;-1.944444607943296E-003;
2.419166666666667E+009;1.494684517383575E-001;-9.370650351047516E-002;3.179962281137705E-003;-2.020471729338169E-003;
2.419333333333334E+009;1.494092345237732E-001;-9.465934336185455E-002;2.977995667606592E-003;-2.141159493476152E-003;
2.419500000000000E+009;1.495395898818970E-001;-9.591479599475861E-002;2.731339307501912E-003;-2.179919043555856E-003;
2.419666666666667E+009;1.499727815389633E-001;-9.684574604034424E-002;2.490984741598368E-003;-2.371811307966709E-003;
2.419833333333334E+009;1.500635296106339E-001;-9.750417619943619E-002;2.560853725299239E-003;-2.357614925131202E-003;
2.420000000000000E+009;1.504417955875397E-001;-9.845323860645294E-002;2.488147467374802E-003;-2.283738460391760E-003;
2.420166666666667E+009;1.506777256727219E-001;-9.881734848022461E-002;2.267359988763928E-003;-2.440076554194093E-003;
2.420333333333334E+009;1.509910374879837E-001;-9.936589002609253E-002;2.148695290088654E-003;-2.451154170557857E-003;
2.420500000000000E+009;1.514053791761398E-001;-9.959739446640015E-002;2.153851324692369E-003;-2.599619328975678E-003;
2.420666666666667E+009;1.515794247388840E-001;-9.994225203990936E-002;1.870509586296976E-003;-2.479456132277846E-003;
2.420833333333334E+009;1.516944468021393E-001;-1.001788601279259E-001;1.895152614451945E-003;-2.436510520055890E-003;
2.421000000000000E+009;1.520289778709412E-001;-1.001501828432083E-001;1.714504440315068E-003;-2.365125576034188E-003;
2.421166666666667E+009;1.522518992424011E-001;-1.002950072288513E-001;1.723733847029507E-003;-2.289918949827552E-003;
2.421333333333334E+009;1.525271236896515E-001;-1.002860143780708E-001;1.688066055066884E-003;-2.436963608488441E-003;
2.421500000000000E+009;1.524293273687363E-001;-1.001382693648338E-001;1.647382043302059E-003;-2.459766576066613E-003;
2.421666666666667E+009;1.524893492460251E-001;-1.000063270330429E-001;1.637644483707845E-003;-2.311904681846499E-003;
2.421833333333334E+009;1.525176465511322E-001;-9.976836293935776E-002;1.576485810801387E-003;-2.450040308758616E-003;
2.422000000000000E+009;1.523942351341248E-001;-9.972967952489853E-002;1.472173025831580E-003;-2.447366481646895E-003;
2.422166666666667E+009;1.520646810531616E-001;-9.979323297739029E-002;1.569430693052709E-003;-2.530281431972981E-003;
2.422333333333334E+009;1.517922729253769E-001;-9.929665923118591E-002;1.389467157423496E-003;-2.458591712638736E-003;
2.422500000000000E+009;1.512478888034821E-001;-9.886636584997177E-002;1.392390928231180E-003;-2.603937406092882E-003;
2.422666666666667E+009;1.505541503429413E-001;-9.870708733797073E-002;1.341609866358340E-003;-2.803837880492210E-003;
2.422833333333334E+009;1.500886380672455E-001;-9.837146103382111E-002;1.504897838458419E-003;-2.784686395898461E-003;
2.423000000000000E+009;1.490766853094101E-001;-9.810213744640350E-002;1.343518611975014E-003;-2.842470072209835E-003;
2.423166666666667E+009;1.483365744352341E-001;-9.783069044351578E-002;1.246660831384361E-003;-3.045306308194995E-003;
2.423333333333334E+009;1.473356485366821E-001;-9.732703864574432E-002;1.148053677752614E-003;-2.936286851763725E-003;
2.423500000000000E+009;1.462756544351578E-001;-9.723874181509018E-002;9.293440962210298E-004;-3.012775909155607E-003;
2.423666666666667E+009;1.449726819992065E-001;-9.701073914766312E-002;9.406892932020128E-004;-3.117284737527371E-003;
2.423833333333334E+009;1.438493728637695E-001;-9.671074897050858E-002;8.749010739848018E-004;-3.007600316777825E-003;
2.424000000000000E+009;1.426055729389191E-001;-9.635895490646362E-002;4.684437590185553E-004;-3.163986839354038E-003;
2.424166666666667E+009;1.410382986068726E-001;-9.629738330841065E-002;5.986216128803790E-004;-3.197212936356664E-003;
2.424333333333334E+009;1.397563070058823E-001;-9.602583944797516E-002;5.461039836518467E-004;-3.013621317222714E-003;
2.424500000000000E+009;1.384181082248688E-001;-9.617014229297638E-002;3.569934633560479E-004;-3.179671010002494E-003;
2.424666666666667E+009;1.371175348758698E-001;-9.614696353673935E-002;1.969161239685491E-004;-3.228699322789908E-003;
2.424833333333334E+009;1.354089230298996E-001;-9.632055461406708E-002;1.299054019909818E-005;-3.131113015115261E-003;
2.425000000000000E+009;1.341493278741837E-001;-9.665447473526001E-002;-4.523044844972901E-005;-3.142279572784901E-003;
2.425166666666667E+009;1.325073987245560E-001;-9.702855348587036E-002;-1.421234919689596E-004;-3.249657107517123E-003;
2.425333333333334E+009;1.310835331678391E-001;-9.756036847829819E-002;-2.150850486941636E-004;-3.175007877871394E-003;
2.425500000000000E+009;1.297603398561478E-001;-9.839621186256409E-002;-5.085833254270256E-004;-3.181837033480406E-003;
2.425666666666667E+009;1.281867772340775E-001;-9.909288585186005E-002;-5.930751212872565E-004;-3.041497198864818E-003;
2.425833333333334E+009;1.267860680818558E-001;-9.991908073425293E-002;-9.182245121337473E-004;-3.066403558477759E-003;
2.426000000000000E+009;1.254461854696274E-001;-1.009068563580513E-001;-8.509973413310945E-004;-2.996626542881131E-003;
2.426166666666667E+009;1.242102608084679E-001;-1.020681858062744E-001;-8.711460977792740E-004;-2.939252182841301E-003;
2.426333333333334E+009;1.227542906999588E-001;-1.031939238309860E-001;-9.856118122115731E-004;-2.838496118783951E-003;
2.426500000000000E+009;1.215386539697647E-001;-1.044781655073166E-001;-1.096567837521434E-003;-2.708785003051162E-003;
2.426666666666667E+009;1.204181313514710E-001;-1.057034507393837E-001;-1.082619768567383E-003;-2.640033140778542E-003;
2.426833333333334E+009;1.192417368292809E-001;-1.072401478886604E-001;-1.056402921676636E-003;-2.544515533372760E-003;
2.427000000000000E+009;1.181913763284683E-001;-1.089127361774445E-001;-1.059388159774244E-003;-2.357201417908073E-003;
2.427166666666667E+009;1.170973181724548E-001;-1.103489100933075E-001;-1.119619118981063E-003;-2.411012537777424E-003;
2.427333333333334E+009;1.161909326910973E-001;-1.120239794254303E-001;-1.046733465045691E-003;-2.266307594254613E-003;
2.427500000000000E+009;1.156127974390984E-001;-1.137314662337303E-001;-1.118473825044930E-003;-2.233604667708278E-003;
2.427666666666667E+009;1.147270724177361E-001;-1.154306232929230E-001;-1.034029992297292E-003;-2.070412971079350E-003;
2.427833333333334E+009;1.140228286385536E-001;-1.171328723430634E-001;-8.170099463313818E-004;-2.137685427442193E-003;
