# Hz S RI R 50
2400000000.0000000000 0.155275985598564203460369981258 0.061546597629785537719726562500 -0.002540318761020898818969726562 0.001836697920225561098811484229 0 0 0 0 
2400166666.6666665077 0.155392512679100008865518134371 0.059603560715913772583007812500 -0.002349352696910500960109091650 0.002007726579904555840733193506 0 0 0 0 
2400333333.3333334923 0.155151337385177612304687500000 0.057460121810436248779296875000 -0.002358357887715100808384560693 0.002156414790078998045680380713 0 0 0 0 
2400500000.0000000000 0.155243709683418301681356865629 0.055246599018573760986328125000 -0.002321376232430338859558105469 0.002181772608309984207153320312 0 0 0 0 
2400666666.6666665077 0.155312746763229397872763115629 0.053123068064451217651367187500 -0.002015965757891536192653036963 0.002301796339452267126796103369 0 0 0 0 
2400833333.3333334923 0.155688121914863586425781250000 0.051046993583440780639648437500 -0.001998871564865111871006631006 0.002317539649084209962132119287 0 0 0 0 
2401000000.0000000000 0.155881002545356805999432481258 0.048852767795324332500417341407 -0.001676306594163178963902138818 0.002458805916830896897556923975 0 0 0 0 
2401166666.6666665077 0.156277090311050387283486884371 0.046443916857242577289621721093 -0.001725887064822017929674458081 0.002478850074112414880039834131 0 0 0 0 
2401333333.3333334923 0.156640753149986294845419365629 0.044252954423427581787109375000 -0.001569182961247860951664589990 0.002433469519019126892089843750 0 0 0 0 
2401500000.0000000000 0.157269030809402493575888115629 0.042305674403905868530273437500 -0.001497963792644440910936665112 0.002635328564792871908900595557 0 0 0 0 
2401666666.6666665077 0.157893180847167996505575615629 0.040179461240768432617187500000 -0.001231115427799523093579936450 0.002457978669553995132446289062 0 0 0 0 
2401833333.3333334923 0.158512428402900695800781250000 0.037895698100328452373464216407 -0.001220349804498255035997700269 0.002512143924832344055175781250 0 0 0 0 
2402000000.0000000000 0.158890932798385592361611884371 0.036044023931026458740234375000 -0.000918419042136520147323608398 0.002392530208453536033630371094 0 0 0 0 
2402166666.6666665077 0.159812837839126586914062500000 0.033846970647573471069335937500 -0.000980868819169700145721435547 0.002526734722778201103210449219 0 0 0 0 
2402333333.3333334923 0.160456806421279907226562500000 0.032157540321350097656250000000 -0.000679949123878031969070434570 0.002316923113539814949035644531 0 0 0 0 
2402500000.0000000000 0.161703810095787103850994981258 0.030316809192299839365025704296 -0.000462692987639456987380981445 0.002492012456059455871582031250 0 0 0 0 
2402666666.6666665077 0.162644997239112909515057481258 0.028489524498581889760950858204 -0.000351995287928730303615015851 0.002204158343374729156494140625 0 0 0 0 
2402833333.3333334923 0.163611203432083102127236884371 0.027057280763983729970911795704 -0.000224776435061357888296404428 0.002298190258443355993983603369 0 0 0 0 
2403000000.0000000000 0.164612323045730590820312500000 0.025433266535401340829869454296 -0.000081703175965230911970138550 0.002203759970143436951878213037 0 0 0 0 
2403166666.6666665077 0.165517568588256808181924384371 0.023890003561973568307896798046 0.000019942683138651769945417710 0.002107943873852490945103310693 0 0 0 0 
2403333333.3333334923 0.166570782661437988281250000000 0.022826308384537700307825858204 -0.000033956945117097347974777222 0.001956665655598043961765908350 0 0 0 0 
2403500000.0000000000 0.167705148458480807205361884371 0.021650457754731178283691406250 0.000008134447853080928325653076 0.002018990227952599959132529150 0 0 0 0 
2403666666.6666665077 0.168812051415443392654580634371 0.020270213484764099121093750000 0.000115035712951794293805798941 0.001847840729169547991511679541 0 0 0 0 
2403833333.3333334923 0.169977590441703796386718750000 0.019291397184133529663085937500 0.000219085835851728889063158578 0.001574131892994045994402241284 0 0 0 0 
2404000000.0000000000 0.171080380678176907638388115629 0.018352879211306568491002266796 0.000208922399906441596433362418 0.001443226006813346905949257959 0 0 0 0 
2404166666.6666665077 0.172237962484359713455361884371 0.017355259507894519460657889454 0.000193794039660133394315996713 0.001486117718741297938703227466 0 0 0 0 
2404333333.3333334923 0.173258870840072604080361884371 0.016780899837613109243372733204 0.000378614116925746202468872070 0.001475674100220202965977334131 0 0 0 0 
2404500000.0000000000 0.174043282866477994064169365629 0.015723943710327148437500000000 0.000170890736626461202472132550 0.001366920419968665079829550635 0 0 0 0 
2404666666.6666665077 0.175166100263595608810263115629 0.015208369120955470693568045704 0.000287883623968809788853245868 0.001073514460586010976078652490 0 0 0 0 
2404833333.3333334923 0.176136329770088195800781250000 0.014819428324699400120745274023 0.000097240052127745002508163452 0.000951126217842102050781250000 0 0 0 0 
2405000000.0000000000 0.176899030804634094238281250000 0.014290759339928630483607108204 0.000249851844273507595062255859 0.001232334179803729057312011719 0 0 0 0 
2405166666.6666665077 0.177918285131454495529013115629 0.013944321312010289973248866602 0.000168903527082875398084363394 0.001160085434094070954563759912 0 0 0 0 
2405333333.3333334923 0.178643912076950100997763115629 0.013463861308991910761823085352 0.000301128515275195186764317645 0.001070789527148007912876748193 0 0 0 0 
2405500000.0000000000 0.179307222366333007812500000000 0.013278708793222900735875313671 0.000392596004530787522166651593 0.001027654390782118060468364185 0 0 0 0 
2405666666.6666665077 0.179812654852867098709268134371 0.012989860959351059305211251171 0.000160952607984654605388641357 0.000942151295021176338195800781 0 0 0 0 
2405833333.3333334923 0.180242881178855895996093750000 0.012930574826896190643310546875 0.000257965526543557589680272235 0.000758930749725550413131713867 0 0 0 0 
2406000000.0000000000 0.180716753005981500823651231258 0.012564336881041530263880545704 0.000249440490733832120895385742 0.000997105031274259090423583984 0 0 0 0 
2406166666.6666665077 0.180827349424362210372763115629 0.012651790864765640604039376171 0.000266525923507288098335266113 0.000684822502080351114273071289 0 0 0 0 
2406333333.3333334923 0.181142508983612088302450615629 0.012402529828250409907330897852 0.000278901774436235373646336688 0.000742300995625555515289306641 0 0 0 0 
2406500000.0000000000 0.181219667196273803710937500000 0.012256552465260030573834804102 0.000153102606418542591020306998 0.000711590982973575592041015625 0 0 0 0 
2406666666.6666665077 0.180986583232879610916299384371 0.012194237671792510641077811329 0.000006396937806130154058337212 0.000778031011577695608139038086 0 0 0 0 
2406833333.3333334923 0.181212618947029113769531250000 0.011986162513494489842424961523 0.000093599788669962435960769653 0.000797400134615600109100341797 0 0 0 0 
2407000000.0000000000 0.180937618017196710784588731258 0.011669329367578029632568359375 0.000131964494357816902085980826 0.000800995330791920423507690430 0 0 0 0 
2407166666.6666665077 0.180784240365028409103231865629 0.011492761783301830291748046875 0.000246104609686881303787231445 0.000703493773471564054489135742 0 0 0 0 
2407333333.3333334923 0.180326476693153409103231865629 0.010985435917973520106305507227 0.000166418976732529699802398682 0.000681099831126630306243896484 0 0 0 0 
2407500000.0000000000 0.180064663290977505782919365629 0.010552802123129369563092616602 0.000127454404719173908233642578 0.000733746681362390518188476562 0 0 0 0 
2407666666.6666665077 0.179434493184089688400106865629 0.010274267755448819941510585352 0.000236748368479311493322095328 0.000746117671951651573181152344 0 0 0 0 
2407833333.3333334923 0.178809210658073397537393134371 0.009657120332121849060058593750 0.000252733676461502909660339355 0.000712581968400627374649047852 0 0 0 0 
2408000000.0000000000 0.178302720189094487945880018742 0.008947830647230148315429687500 0.000189454251085408004835405893 0.000741973170079290866851806641 0 0 0 0 
2408166666.6666665077 0.177644699811935397049111884371 0.008430042304098606109619140625 0.000190535734873265000894823618 0.000625886721536517143249511719 0 0 0 0 
2408333333.3333334923 0.177062481641769409179687500000 0.007453640457242727279663085938 0.000127127786981873187139788217 0.000689926499035209417343139648 0 0 0 0 
2408500000.0000000000 0.176161453127860995193643134371 0.006431720219552516937255859375 0.000214420448173768791273394174 0.000606163695920258760452270508 0 0 0 0 
2408666666.6666665077 0.175392121076583890060263115629 0.005492118652909994125366210938 0.000203622083063237396165570670 0.000519783119671046733856201172 0 0 0 0 
2408833333.3333334923 0.174492627382278386871661268742 0.004338259808719158172607421875 0.000137189170345663997247973032 0.000709059531800448894500732422 0 0 0 0 
2409000000.0000000000 0.173698499798774691482705634371 0.003259506775066256956813193213 0.000191866594832390601008814679 0.000530174467712640762329101562 0 0 0 0 
2409166666.6666665077 0.172929838299751309493856865629 0.001944178482517600059509277344 0.000080050471296999603509902954 0.000426213082391768693923950195 0 0 0 0 
2409333333.3333334923 0.172308892011642511565838731258 0.000434380781371146386295872821 0.000047356941649923101067543030 0.000551636505406349897384643555 0 0 0 0 
2409500000.0000000000 0.171364486217498807052450615629 -0.001188804511912167072296142578 0.000173718843143433305338182993 0.000560713175218552350997924805 0 0 0 0 
2409666666.6666665077 0.170494481921196011642294365629 -0.002685595303773880004882812500 0.000064158797613345086574554443 0.000509507954120635986328125000 0 0 0 0 
2409833333.3333334923 0.169897884130477905273437500000 -0.004340942483395338058471679688 -0.000053876789024798199534416199 0.000300543499179184382587987079 0 0 0 0 
2410000000.0000000000 0.169238865375518798828125000000 -0.006050352007150650024414062500 0.000026374755179858769884313277 0.000347407505614682977825719012 0 0 0 0 
2410166666.6666665077 0.168502986431121798416299384371 -0.007818904705345630645751953125 0.000064945896156132221221923828 0.000275345897534862214892786847 0 0 0 0 
2410333333.3333334923 0.168032750487327603439169365629 -0.009825466200709342956542968750 -0.000066245891503058373928070068 0.000255705905146896784931737079 0 0 0 0 
2410500000.0000000000 0.167743742465972900390625000000 -0.011715682223439220083216483204 -0.000081132086052093654870986938 0.000318023317959159612655639648 0 0 0 0 
2410666666.6666665077 0.166996821761131286621093750000 -0.013876679353415969503382498829 -0.000191998289665207293912610464 0.000257064413744956309169215070 0 0 0 0 
2410833333.3333334923 0.166743069887161310393963731258 -0.015588328242301939183245274023 -0.000223989976802840801790514536 0.000163752949447371092721661978 0 0 0 0 
2411000000.0000000000 0.166548296809196499923544365629 -0.017807442694902420043945312500 -0.000194307009223848608419141226 0.000110260363726411001242776189 0 0 0 0 
2411166666.6666665077 0.166336059570312500000000000000 -0.019899375736713409423828125000 -0.000261262379353865981101989746 0.000153398534166626605108538217 0 0 0 0 
2411333333.3333334923 0.166157260537147494217080634371 -0.021782891824841499328613281250 -0.000173737309523858102873125620 0.000222345232032239409998217172 0 0 0 0 
2411500000.0000000000 0.166083812713623102386151231258 -0.024159802123904231679896170704 -0.000365247018635272979736328125 0.000270318705588579177856445312 0 0 0 0 
2411666666.6666665077 0.166401669383049011230468750000 -0.026186972856521609914759451954 -0.000454022490885108709335327148 0.000213396881008520695284166879 0 0 0 0 
2411833333.3333334923 0.166498407721519497970419365629 -0.028149593621492389333704764454 -0.000418156210798770189285278320 0.000182972289621829986572265625 0 0 0 0 
2412000000.0000000000 0.166854128241539001464843750000 -0.030260672792792320251464843750 -0.000539756380021572113037109375 0.000248574477154761607020777570 0 0 0 0 
2412166666.6666665077 0.167081862688064602950888115629 -0.032373104244470603252370466407 -0.000521708512678742408752441406 0.000266615999862551689147949219 0 0 0 0 
2412333333.3333334923 0.167788609862327603439169365629 -0.034196879714727401733398437500 -0.000607614812906831502914428711 0.000313901342451572418212890625 0 0 0 0 
2412500000.0000000000 0.167944103479385403732138115629 -0.036285240203142173076589216407 -0.000640667451079934835433959961 0.000298870407277718186378479004 0 0 0 0 
2412666666.6666665077 0.168533533811569213867187500000 -0.038187436759471893310546875000 -0.000675921619404107332229614258 0.000529696117155253887176513672 0 0 0 0 
2412833333.3333334923 0.169150203466415405273437500000 -0.040066745132207870483398437500 -0.000754593347664922475814819336 0.000447877886472269892692565918 0 0 0 0 
2413000000.0000000000 0.169788986444473294357138115629 -0.041770860552787780761718750000 -0.000713443732820451259613037109 0.000549305172171443700790405273 0 0 0 0 
2413166666.6666665077 0.170422315597534207443075615629 -0.043440483510494232177734375000 -0.000837820756714791059494018555 0.000531038909684866666793823242 0 0 0 0 
2413333333.3333334923 0.170990392565727206131143134371 -0.045059502124786376953125000000 -0.000700661505106836557388305664 0.000646562722977250814437866211 0 0 0 0 
2413500000.0000000000 0.171830981969833401779013115629 -0.046662706881761550903320312500 -0.000773297215346246957778930664 0.000968139211181551218032836914 0 0 0 0 
2413666666.6666665077 0.172702744603156987945880018742 -0.048171397298574447631835937500 -0.000729374703951179981231689453 0.000752943626139312982559204102 0 0 0 0 
2413833333.3333334923 0.173303902149200411697549384371 -0.049659881740808486938476562500 -0.000720177311450242996215820312 0.000935645832214504480361938477 0 0 0 0 
2414000000.0000000000 0.173834115266799899002236884371 -0.050929017364978790283203125000 -0.000851737975608557462692260742 0.001006927341222763061523437500 0 0 0 0 
2414166666.6666665077 0.174726277589798001388388115629 -0.051833432167768478393554687500 -0.000862368557136505842208862305 0.000917278230190277099609375000 0 0 0 0 
2414333333.3333334923 0.175399571657180786132812500000 -0.052857279777526862407643903907 -0.000872810545843094587326049805 0.001118437503464519977569580078 0 0 0 0 
2414500000.0000000000 0.176201805472373990157919365629 -0.053992580622434623027761091407 -0.000747873680666089057922363281 0.001252257730811833901646279443 0 0 0 0 
2414666666.6666665077 0.176720753312110900878906250000 -0.054753173142671592021901716407 -0.000742235512007027864456176758 0.001238068798556924083112407153 0 0 0 0 
2414833333.3333334923 0.177286788821220397949218750000 -0.055607400834560387348215471093 -0.000686504703480750322341918945 0.001276142080314456982853554834 0 0 0 0 
2415000000.0000000000 0.177769720554351806640625000000 -0.056276820600032813335378278907 -0.000699399155564606189727783203 0.001346576143987477042554545825 0 0 0 0 
2415166666.6666665077 0.178238287568092401702557481258 -0.056821338832378387451171875000 -0.000646816042717546224594116211 0.001399414846673608043073344653 0 0 0 0 
2415333333.3333334923 0.178652778267860412597656250000 -0.057341959327459342266042341407 -0.000637496937997639179229736328 0.001503728213720024065730429541 0 0 0 0 
2415500000.0000000000 0.178981736302375793457031250000 -0.057749774307012557983398437500 -0.000561618304345756769180297852 0.001435269834473728916765522534 0 0 0 0 
2415666666.6666665077 0.179254248738288907150106865629 -0.057988755404949188232421875000 -0.000579268205910921096801757812 0.001538019510917365984675742041 0 0 0 0 
2415833333.3333334923 0.179443493485450689117755018742 -0.058463025838136672973632812500 -0.000412347726523876190185546875 0.001567866071127355098724365234 0 0 0 0 
2416000000.0000000000 0.179311886429786709884481865629 -0.058640185743570327758789062500 -0.000343520892783999388844090594 0.001813219394534826061846088940 0 0 0 0 
2416166666.6666665077 0.179512172937393188476562500000 -0.058758545666933059692382812500 -0.000299282954074442386627197266 0.001785068423487246036529541016 0 0 0 0 
2416333333.3333334923 0.179418265819549588302450615629 -0.058751847594976432109792341407 -0.000249466538662090897560119629 0.001813533250242471911786723560 0 0 0 0 
2416500000.0000000000 0.179008543491363497635049384371 -0.059017285704612731933593750000 -0.000321660860208794474601745605 0.001739311846904457049128867041 0 0 0 0 
2416666666.6666665077 0.178707793354988098144531250000 -0.058954305946826941753347028907 -0.000145327780046500292703351431 0.001896930276416241905809711987 0 0 0 0 
2416833333.3333334923 0.178337618708610506912393134371 -0.059191331267356872558593750000 -0.000153883971506729694917955942 0.002002280671149491830113076318 0 0 0 0 
2417000000.0000000000 0.177685260772705105880575615629 -0.059295881539583213115651716407 -0.000043405470933066681027412415 0.001951445243321358940721821362 0 0 0 0 
2417166666.6666665077 0.177007004618644686599893134371 -0.059317503124475479125976562500 -0.000004484234978008316829800606 0.002063684165477753119227743994 0 0 0 0 
2417333333.3333334923 0.176338434219360407073651231258 -0.059394147247076041484792341407 -0.000043141622882103547453880310 0.002041692612692714171168661963 0 0 0 0 
2417500000.0000000000 0.175446555018424987792968750000 -0.059663381427526467060129533593 0.000112968307803385000355304857 0.002103839302435516877415322412 0 0 0 0 
2417666666.6666665077 0.174662888050079401214276231258 -0.059798076748847961425781250000 0.000380432407837361097335815430 0.001984107075259089903590536963 0 0 0 0 
2417833333.3333334923 0.173521518707275390625000000000 -0.059872120618820190429687500000 0.000270425574854016304016113281 0.002100525656715035004856728662 0 0 0 0 
2418000000.0000000000 0.172353729605674688141192518742 -0.060393925756216049194335937500 0.000446091726189479177624302997 0.002079874509945511817932128906 0 0 0 0 
2418166666.6666665077 0.171321004629135104080361884371 -0.060443095862865447998046875000 0.000490622944198548793792724609 0.002125900005921721892115927588 0 0 0 0 
2418333333.3333334923 0.170347079634666387359942518742 -0.060857258737087249755859375000 0.000548397190868854522705078125 0.002037759637460113005397177588 0 0 0 0 
2418500000.0000000000 0.168957695364952087402343750000 -0.061273489147424697875976562500 0.000620558741502463817596435547 0.002224380150437355041503906250 0 0 0 0 
2418666666.6666665077 0.167694598436355590820312500000 -0.061942562460899353027343750000 0.000631241302471607923507690430 0.002141193253919481797459267725 0 0 0 0 
2418833333.3333334923 0.166232958436012295821981865629 -0.062592014670372009277343750000 0.000708129606209695339202880859 0.002188647398725152015686035156 0 0 0 0 
2419000000.0000000000 0.164757609367370605468750000000 -0.063370391726493835449218750000 0.000755547429434955120086669922 0.002160236472263931794407509912 0 0 0 0 
2419166666.6666665077 0.163555115461349487304687500000 -0.063944853842258453369140625000 0.000959107768721878528594970703 0.002034213161095976829528808594 0 0 0 0 
2419333333.3333334923 0.162080794572830200195312500000 -0.064753554761409759521484375000 0.000925676315091550350189208984 0.002183120464906096892115927588 0 0 0 0 
2419500000.0000000000 0.160782456398010309417401231258 -0.065873727202415466308593750000 0.001059025526046752929687500000 0.002175183966755867004394531250 0 0 0 0 
2419666666.6666665077 0.159531027078628512283486884371 -0.066983468830585479736328125000 0.001216079224832355976104736328 0.002144174650311470031738281250 0 0 0 0 
2419833333.3333334923 0.158175930380821200271768134371 -0.067998275160789489746093750000 0.001413892605341970920562744141 0.002067751018330454826354980469 0 0 0 0 
2420000000.0000000000 0.157125875353813199142294365629 -0.069253914058208465576171875000 0.001476685982197522900224995190 0.002043029293417931036708212744 0 0 0 0 
