# Version 1.00
#
freq[Hz];re:Trc1_S11;im:Trc1_S11;re:Trc2_S21;im:Trc2_S21;
2.400000000000000E+009;1.578892767429352E-001;1.120780333876610E-001;-1.060107257217169E-003;3.060686576645821E-004;
2.400166666666667E+009;1.573280096054077E-001;1.098793819546700E-001;-1.013554283417761E-003;4.151885223109275E-004;
2.400333333333334E+009;1.571400612592697E-001;1.076733767986298E-001;-7.259022095240653E-004;4.973146133124828E-004;
2.400500000000000E+009;1.565311849117279E-001;1.050618067383766E-001;-6.017753621563315E-004;5.558626144193113E-004;
2.400666666666667E+009;1.563502401113510E-001;1.029513552784920E-001;-3.784006694331765E-004;5.421287496574223E-004;
2.400833333333334E+009;1.558851748704910E-001;9.986734390258789E-002;-3.348555474076420E-004;4.120653320569545E-004;
2.401000000000000E+009;1.558115929365158E-001;9.675686806440353E-002;-3.189065610058606E-004;3.622314252424985E-004;
2.401166666666667E+009;1.556134372949600E-001;9.419648349285126E-002;-2.951520436909050E-004;3.017657145392150E-004;
2.401333333333334E+009;1.555477827787399E-001;9.127438813447952E-002;-2.109614579239860E-004;2.222525072284043E-004;
2.401500000000000E+009;1.554542928934097E-001;8.830084651708603E-002;-2.884047571569681E-004;1.998641819227487E-004;
2.401666666666667E+009;1.555508375167847E-001;8.510571718215942E-002;-4.294317332096398E-004;1.474767050240189E-004;
2.401833333333334E+009;1.556609421968460E-001;8.220637589693070E-002;-5.535032250918448E-004;2.064954787783790E-005;
2.402000000000000E+009;1.562012881040573E-001;7.917853444814682E-002;-4.438285541255027E-004;9.744782437337562E-005;
2.402166666666667E+009;1.565259695053101E-001;7.640133053064346E-002;-7.049519335851073E-004;2.197516587330028E-004;
2.402333333333334E+009;1.574336290359497E-001;7.336037606000900E-002;-5.204337649047375E-004;1.976139901671559E-004;
2.402500000000000E+009;1.582864969968796E-001;7.042326778173447E-002;-5.137617699801922E-004;3.513007541187108E-004;
2.402666666666667E+009;1.590930074453354E-001;6.774279475212097E-002;-6.254015606828034E-004;5.991485668346286E-004;
2.402833333333334E+009;1.603959649801254E-001;6.495675444602966E-002;-5.601250450126827E-004;5.002341349609196E-004;
2.403000000000000E+009;1.616156548261643E-001;6.216508522629738E-002;-4.950686707161367E-004;6.322841509245336E-004;
2.403166666666667E+009;1.631740629673004E-001;5.984543636441231E-002;-5.077059031464160E-004;6.278667133301497E-004;
2.403333333333334E+009;1.646017432212830E-001;5.713731423020363E-002;-4.426103259902448E-004;8.223659242503345E-004;
2.403500000000000E+009;1.661920696496964E-001;5.462960898876190E-002;-3.255868505220860E-004;9.730582241900265E-004;
2.403666666666667E+009;1.680513173341751E-001;5.232759565114975E-002;-2.842190733645111E-004;9.791088523343206E-004;
2.403833333333334E+009;1.696677058935165E-001;5.011136084794998E-002;-7.387185178231448E-005;1.062028226442635E-003;
2.404000000000000E+009;1.712245345115662E-001;4.803264141082764E-002;7.995522173587233E-005;1.023460994474590E-003;
2.404166666666667E+009;1.733279526233673E-001;4.618573561310768E-002;2.874812344089150E-004;1.139017869718373E-003;
2.404333333333334E+009;1.749344021081924E-001;4.415599256753922E-002;3.769839240703732E-004;1.031616819091141E-003;
2.404500000000000E+009;1.767586022615433E-001;4.238345474004746E-002;4.922625957988203E-004;9.295640047639608E-004;
2.404666666666667E+009;1.784957051277161E-001;4.091668501496315E-002;5.239038146100938E-004;1.033762004226446E-003;
2.404833333333334E+009;1.804865300655365E-001;3.955113515257835E-002;6.766715669073165E-004;9.023862658068538E-004;
2.405000000000000E+009;1.820222437381744E-001;3.850280120968819E-002;7.232733187265694E-004;6.791444029659033E-004;
2.405166666666667E+009;1.839239299297333E-001;3.772603347897530E-002;7.814659620635212E-004;4.798099107574672E-004;
2.405333333333334E+009;1.854741126298904E-001;3.709566220641136E-002;8.345600217580795E-004;5.986005417071283E-004;
2.405500000000000E+009;1.873632818460465E-001;3.638228774070740E-002;1.062952796928585E-003;4.490769060794264E-004;
2.405666666666667E+009;1.886773854494095E-001;3.586963191628456E-002;9.440300636924803E-004;3.534463176038116E-004;
2.405833333333334E+009;1.903517842292786E-001;3.549097105860710E-002;8.954023360274732E-004;9.643597149988636E-005;
2.406000000000000E+009;1.915939599275589E-001;3.521907702088356E-002;9.578925091773272E-004;1.431656855857000E-004;
2.406166666666667E+009;1.930073946714401E-001;3.499583899974823E-002;1.031881663948298E-003;-7.011782872723416E-005;
2.406333333333334E+009;1.943025290966034E-001;3.513717278838158E-002;9.545205975882709E-004;-9.287770808441564E-005;
2.406500000000000E+009;1.954988390207291E-001;3.505910560488701E-002;9.120522881858051E-004;-7.165306305978447E-005;
2.406666666666667E+009;1.964059472084045E-001;3.516775369644165E-002;1.010913634672761E-003;-2.673920826055110E-004;
2.406833333333334E+009;1.973028331995010E-001;3.547834977507591E-002;8.777517941780388E-004;-2.588382922112942E-004;
2.407000000000000E+009;1.980117261409760E-001;3.582435473799706E-002;7.717318949289620E-004;-3.557149029802531E-004;
2.407166666666667E+009;1.986664831638336E-001;3.583122044801712E-002;7.543553947471082E-004;-3.600855707190931E-004;
2.407333333333334E+009;1.988546103239059E-001;3.620953857898712E-002;7.652125204913318E-004;-4.717213450931013E-004;
2.407500000000000E+009;1.990665048360825E-001;3.649659082293510E-002;5.617535789497197E-004;-5.263196653686464E-004;
2.407666666666667E+009;1.994321495294571E-001;3.678749501705170E-002;6.053796969354153E-004;-4.756528651341796E-004;
2.407833333333334E+009;1.990955024957657E-001;3.701832517981529E-002;6.165200029499829E-004;-4.913495504297316E-004;
2.408000000000000E+009;1.992483884096146E-001;3.722658008337021E-002;6.262339884415269E-004;-6.613478180952370E-004;
2.408166666666667E+009;1.987862437963486E-001;3.728773817420006E-002;6.019329885020852E-004;-5.177597631700337E-004;
2.408333333333334E+009;1.985231190919876E-001;3.720664232969284E-002;5.831233575008810E-004;-4.722029552794993E-004;
2.408500000000000E+009;1.980032324790955E-001;3.738817572593689E-002;4.931701114401221E-004;-6.462244782596827E-004;
2.408666666666667E+009;1.973574906587601E-001;3.720997646450996E-002;4.676453245338053E-004;-7.021097699180245E-004;
2.408833333333334E+009;1.966985017061234E-001;3.692825511097908E-002;3.185558307450265E-004;-7.124991971068084E-004;
2.409000000000000E+009;1.957772374153137E-001;3.645382449030876E-002;3.386433527339250E-004;-6.183985969983041E-004;
2.409166666666667E+009;1.948807835578919E-001;3.585342317819595E-002;2.345368848182261E-004;-7.026590174064040E-004;
2.409333333333334E+009;1.937943994998932E-001;3.542060032486916E-002;2.519336994737387E-004;-3.705795970745385E-004;
2.409500000000000E+009;1.926069259643555E-001;3.451900929212570E-002;2.028731396421790E-004;-5.064557772129774E-004;
2.409666666666667E+009;1.914714127779007E-001;3.345638513565064E-002;3.302881959825754E-004;-4.004165530204773E-004;
2.409833333333334E+009;1.902864426374435E-001;3.235274180769920E-002;1.252198126167059E-004;-3.970194957219064E-004;
2.410000000000000E+009;1.890155524015427E-001;3.110948391258717E-002;2.109845227096230E-004;-4.264856979716569E-004;
2.410166666666667E+009;1.877205669879913E-001;2.954026497900486E-002;5.379877984523773E-004;-4.138094955123961E-004;
2.410333333333334E+009;1.866502612829208E-001;2.819545753300190E-002;3.737757797352970E-004;-3.496784775052220E-004;
2.410500000000000E+009;1.852512955665588E-001;2.655970305204392E-002;6.472847890108824E-004;-4.090506408829242E-004;
2.410666666666667E+009;1.841175407171249E-001;2.434392645955086E-002;6.161894998513162E-004;-5.677438457496464E-004;
2.410833333333334E+009;1.830707341432571E-001;2.248199656605721E-002;7.416466833092272E-004;-6.475035916082561E-004;
2.411000000000000E+009;1.821406483650208E-001;2.034032717347145E-002;8.125287131406367E-004;-6.782674463465810E-004;
2.411166666666667E+009;1.809812486171722E-001;1.832913979887962E-002;7.422632770612836E-004;-7.431393605656922E-004;
2.411333333333334E+009;1.803089678287506E-001;1.563562266528606E-002;6.677471101284027E-004;-1.048803678713739E-003;
2.411500000000000E+009;1.794558167457581E-001;1.349966973066330E-002;7.803631597198546E-004;-1.208547619171441E-003;
2.411666666666667E+009;1.788475513458252E-001;1.103902515023947E-002;5.477515514940023E-004;-1.409955089911819E-003;
2.411833333333334E+009;1.781658530235291E-001;8.453887887299061E-003;5.675939028151333E-004;-1.297187525779009E-003;
2.412000000000000E+009;1.780439168214798E-001;5.798879545181990E-003;3.608008846640587E-004;-1.454389654099941E-003;
2.412166666666667E+009;1.777714639902115E-001;3.460035659372807E-003;3.566144150681794E-004;-1.590459141880274E-003;
2.412333333333334E+009;1.776428222656250E-001;8.695914875715971E-004;1.787832152331248E-004;-1.680026645772159E-003;
2.412500000000000E+009;1.780066788196564E-001;-1.791022950783372E-003;-3.937644214602187E-005;-1.800671685487032E-003;
2.412666666666667E+009;1.780862361192703E-001;-4.426510538905859E-003;-1.233850780408830E-004;-1.776396878995001E-003;
2.412833333333334E+009;1.787096410989761E-001;-7.210933137685061E-003;-3.787746827583760E-004;-1.955110346898437E-003;
2.413000000000000E+009;1.791260689496994E-001;-9.764368645846844E-003;-3.156391321681440E-004;-1.938157831318677E-003;
2.413166666666667E+009;1.798061132431030E-001;-1.230934541672468E-002;-6.139382603578270E-004;-1.740972627885640E-003;
2.413333333333334E+009;1.806941330432892E-001;-1.489537023007870E-002;-7.143898983485997E-004;-1.794246025383472E-003;
2.413500000000000E+009;1.814772188663483E-001;-1.748184487223625E-002;-8.009724551811814E-004;-1.670547062531114E-003;
2.413666666666667E+009;1.826534271240234E-001;-2.009549550712109E-002;-9.639869094826281E-004;-1.443803310394287E-003;
2.413833333333334E+009;1.836931109428406E-001;-2.244706265628338E-002;-1.051336759701371E-003;-1.533921691589057E-003;
2.414000000000000E+009;1.845239251852036E-001;-2.460955828428268E-002;-1.104558352380991E-003;-1.286696875467897E-003;
2.414166666666667E+009;1.859420239925385E-001;-2.687655203044415E-002;-1.311016967520118E-003;-1.425164402462542E-003;
2.414333333333334E+009;1.871227622032166E-001;-2.899567782878876E-002;-1.333708176389337E-003;-1.306574908085167E-003;
2.414500000000000E+009;1.884192377328873E-001;-3.095843084156513E-002;-1.281121862120926E-003;-1.176407444290817E-003;
2.414666666666667E+009;1.897683888673782E-001;-3.260646760463715E-002;-1.276320894248784E-003;-1.059434609487653E-003;
2.414833333333334E+009;1.909278333187103E-001;-3.431932628154755E-002;-1.403189613483846E-003;-1.059389091096818E-003;
2.415000000000000E+009;1.922816932201386E-001;-3.597191348671913E-002;-1.523698330856860E-003;-1.008765655569732E-003;
2.415166666666667E+009;1.937286257743835E-001;-3.732149675488472E-002;-1.348920399323106E-003;-1.011647516861558E-003;
2.415333333333334E+009;1.952585577964783E-001;-3.856471925973892E-002;-1.448312774300575E-003;-1.040027360431850E-003;
2.415500000000000E+009;1.963180750608444E-001;-3.939559683203697E-002;-1.433389028534293E-003;-8.607761701568961E-004;
2.415666666666667E+009;1.978130638599396E-001;-4.038815200328827E-002;-1.398544409312308E-003;-9.040152654051781E-004;
2.415833333333334E+009;1.989185214042664E-001;-4.133239760994911E-002;-1.643661409616470E-003;-6.859682616777718E-004;
2.416000000000000E+009;1.999715119600296E-001;-4.195610433816910E-002;-1.755052129738033E-003;-6.350780022330582E-004;
2.416166666666667E+009;2.010564506053925E-001;-4.261907935142517E-002;-1.688909949734807E-003;-6.745589198544622E-004;
2.416333333333334E+009;2.020100057125092E-001;-4.300265759229660E-002;-1.724672387354076E-003;-4.823154595214874E-004;
2.416500000000000E+009;2.028081268072128E-001;-4.328363016247749E-002;-1.900684321299195E-003;-4.594886268023402E-004;
2.416666666666667E+009;2.036140859127045E-001;-4.359899088740349E-002;-1.996238483116031E-003;-3.621611394919455E-004;
2.416833333333334E+009;2.040222436189652E-001;-4.352012649178505E-002;-1.976724481210113E-003;-3.161499334964901E-004;
2.417000000000000E+009;2.045925855636597E-001;-4.378500953316689E-002;-1.982735935598612E-003;-2.025721914833412E-005;
2.417166666666667E+009;2.044921666383743E-001;-4.358933866024017E-002;-1.979798311367631E-003;-5.249935566098429E-005;
2.417333333333334E+009;2.047407627105713E-001;-4.327098652720451E-002;-1.979044172912836E-003;-3.130789536953671E-006;
2.417500000000000E+009;2.048093229532242E-001;-4.319518804550171E-002;-1.851189997978509E-003;1.071169026545249E-004;
2.417666666666667E+009;2.045589089393616E-001;-4.281104356050491E-002;-1.931735780090094E-003;2.189474180340767E-004;
2.417833333333334E+009;2.045138478279114E-001;-4.241487756371498E-002;-1.691548968665302E-003;4.007106181234121E-004;
2.418000000000000E+009;2.041792124509811E-001;-4.193443432450295E-002;-1.703510642983019E-003;4.001425695605576E-004;
2.418166666666667E+009;2.034900337457657E-001;-4.154841601848602E-002;-1.601537107490003E-003;4.139172961004078E-004;
2.418333333333334E+009;2.030508667230606E-001;-4.118064418435097E-002;-1.651279162615538E-003;4.294272803235799E-004;
2.418500000000000E+009;2.021163702011108E-001;-4.095244035124779E-002;-1.492811832576990E-003;5.131896468810737E-004;
2.418666666666667E+009;2.014187723398209E-001;-4.059603437781334E-002;-1.458696555346251E-003;5.479761748574674E-004;
2.418833333333334E+009;2.001801133155823E-001;-4.044996947050095E-002;-1.546891871839762E-003;3.612367436289787E-004;
2.419000000000000E+009;1.990287899971008E-001;-4.033102095127106E-002;-1.439259154722095E-003;5.388178979046643E-004;
2.419166666666667E+009;1.979132592678070E-001;-4.030024260282517E-002;-1.422960660420358E-003;3.475085541140288E-004;
2.419333333333334E+009;1.964994966983795E-001;-4.056115448474884E-002;-1.341062015853822E-003;5.760810454376042E-004;
2.419500000000000E+009;1.949328929185867E-001;-4.064690694212914E-002;-1.491074683144689E-003;4.202465061098337E-004;
2.419666666666667E+009;1.932867169380188E-001;-4.105646535754204E-002;-1.551325200125575E-003;4.182489938102663E-004;
2.419833333333334E+009;1.915812194347382E-001;-4.134234413504601E-002;-1.635100808925927E-003;4.125612904317677E-004;
2.420000000000000E+009;1.900007277727127E-001;-4.210380464792252E-002;-1.684934017248452E-003;4.789731756318361E-004;
2.420166666666667E+009;1.882391422986984E-001;-4.275340586900711E-002;-1.642551505938172E-003;5.254690768197179E-004;
2.420333333333334E+009;1.864436417818070E-001;-4.362531006336212E-002;-1.814141753129661E-003;6.926715141162276E-004;
2.420500000000000E+009;1.845645457506180E-001;-4.476631060242653E-002;-1.812754548154771E-003;6.509799277409911E-004;
2.420666666666667E+009;1.827793568372726E-001;-4.570351168513298E-002;-1.872765249572694E-003;7.413586718030274E-004;
2.420833333333334E+009;1.809181571006775E-001;-4.699588194489479E-002;-1.985673792660236E-003;9.256526245735586E-004;
2.421000000000000E+009;1.791006773710251E-001;-4.844018816947937E-002;-1.710268435999751E-003;1.142594846896827E-003;
2.421166666666667E+009;1.774656474590302E-001;-5.001822113990784E-002;-1.803094753995538E-003;1.154827652499080E-003;
2.421333333333334E+009;1.755612343549728E-001;-5.157503113150597E-002;-1.666332595050335E-003;1.301966491155326E-003;
2.421500000000000E+009;1.739481240510941E-001;-5.344914644956589E-002;-1.550963497720659E-003;1.238923636265099E-003;
2.421666666666667E+009;1.722302287817001E-001;-5.527336895465851E-002;-1.501217950135469E-003;1.414426136761904E-003;
2.421833333333334E+009;1.709005981683731E-001;-5.701908096671104E-002;-1.363362418487668E-003;1.491153030656278E-003;
2.422000000000000E+009;1.693130880594254E-001;-5.917757749557495E-002;-1.550696440972388E-003;1.394025399349630E-003;
2.422166666666667E+009;1.681974232196808E-001;-6.133872643113136E-002;-1.340128248557448E-003;1.536809722892940E-003;
2.422333333333334E+009;1.668675094842911E-001;-6.347180902957916E-002;-1.404415001161397E-003;1.384294009767473E-003;
2.422500000000000E+009;1.659006327390671E-001;-6.546761095523834E-002;-1.406845403835177E-003;1.478933962062001E-003;
2.422666666666667E+009;1.649480164051056E-001;-6.767278909683228E-002;-1.398025429807603E-003;1.609266153536737E-003;
2.422833333333334E+009;1.641811132431030E-001;-6.996861100196838E-002;-1.459884340874851E-003;1.678371336311102E-003;
2.423000000000000E+009;1.634729057550430E-001;-7.225949317216873E-002;-1.547556254081428E-003;1.662003458477557E-003;
2.423166666666667E+009;1.627620458602905E-001;-7.450652867555618E-002;-1.577575574629009E-003;1.872595050372183E-003;
2.423333333333334E+009;1.623700857162476E-001;-7.679814100265503E-002;-1.454497221857309E-003;1.966358162462711E-003;
2.423500000000000E+009;1.620243042707443E-001;-7.891844213008881E-002;-1.442908076569438E-003;2.076002769172192E-003;
2.423666666666667E+009;1.620528548955917E-001;-8.108095079660416E-002;-1.476595527492464E-003;2.284553833305836E-003;
2.423833333333334E+009;1.618437767028809E-001;-8.313750475645065E-002;-1.356672379188240E-003;2.290334552526474E-003;
2.424000000000000E+009;1.618490219116211E-001;-8.524208515882492E-002;-1.267240848392248E-003;2.470446052029729E-003;
2.424166666666667E+009;1.619434356689453E-001;-8.711005747318268E-002;-1.149324933066964E-003;2.685354556888342E-003;
2.424333333333334E+009;1.622020900249481E-001;-8.903786540031433E-002;-8.601946174167097E-004;2.706658560782671E-003;
2.424500000000000E+009;1.624760329723358E-001;-9.114377200603485E-002;-8.006579009816051E-004;2.960740821436048E-003;
2.424666666666667E+009;1.628444343805313E-001;-9.275817871093750E-002;-6.627772818319500E-004;2.921728882938623E-003;
2.424833333333334E+009;1.635160893201828E-001;-9.441401064395905E-002;-4.208763130009174E-004;3.111328696832061E-003;
2.425000000000000E+009;1.639952361583710E-001;-9.591291844844818E-002;-2.190577797591686E-004;3.059576032683253E-003;
2.425166666666667E+009;1.644982695579529E-001;-9.720029681921005E-002;-6.193183071445674E-005;2.923538442701101E-003;
2.425333333333334E+009;1.650145053863525E-001;-9.859737008810043E-002;2.329253220523242E-005;3.045428544282913E-003;
2.425500000000000E+009;1.657323837280273E-001;-9.981331229209900E-002;1.633995998417959E-004;2.982759615406394E-003;
2.425666666666667E+009;1.663403511047363E-001;-1.006863266229630E-001;3.589764528442174E-004;3.073842031881213E-003;
2.425833333333334E+009;1.668984293937683E-001;-1.019011512398720E-001;5.044373683631420E-004;3.043493954464793E-003;
2.426000000000000E+009;1.676634401082993E-001;-1.024284511804581E-001;6.095945136621594E-004;3.065923694521189E-003;
2.426166666666667E+009;1.682547479867935E-001;-1.031680181622505E-001;8.160576689988375E-004;2.877135062590241E-003;
2.426333333333334E+009;1.688138693571091E-001;-1.037472561001778E-001;9.909196523949504E-004;2.924852538853884E-003;
2.426500000000000E+009;1.694885045289993E-001;-1.042308732867241E-001;1.022127922624350E-003;2.785023767501116E-003;
2.426666666666667E+009;1.699638366699219E-001;-1.046790331602097E-001;1.169922179542482E-003;2.712942194193602E-003;
2.426833333333334E+009;1.705905199050903E-001;-1.050499454140663E-001;1.348596182651818E-003;2.629968570545316E-003;
2.427000000000000E+009;1.708550006151199E-001;-1.052623540163040E-001;1.537306583486497E-003;2.573781181126833E-003;
2.427166666666667E+009;1.713409125804901E-001;-1.054308116436005E-001;1.534380251541734E-003;2.548118820413947E-003;
2.427333333333334E+009;1.716124713420868E-001;-1.055300459265709E-001;1.654848689213395E-003;2.447449369356036E-003;
2.427500000000000E+009;1.716175377368927E-001;-1.056662723422051E-001;1.695206039585173E-003;2.510397695004940E-003;
2.427666666666667E+009;1.717431843280792E-001;-1.057109758257866E-001;1.805291627533734E-003;2.438404131680727E-003;
2.427833333333334E+009;1.716828346252441E-001;-1.057137176394463E-001;1.989692216739059E-003;2.287393435835838E-003;
