# Hz S RI R 50
2400000000.0000000000 0.168859198689460809905682481258 0.047048255801200866699218750000 -0.002586808986961842016932822119 -0.002399756805971264839172363281 0 0 0 0 
2400166666.6666665077 0.169967427849769592285156250000 0.046080585569143302226979841407 -0.002604452194646000862121582031 -0.002370502799749373955967568506 0 0 0 0 
2400333333.3333334923 0.170761749148368807693643134371 0.044849872589111328125000000000 -0.002715363400056958198547363281 -0.002360488986596465110778808594 0 0 0 0 
2400500000.0000000000 0.171636715531349209884481865629 0.043809119611978530883789062500 -0.002727556042373179955723427881 -0.002396781230345367951634072412 0 0 0 0 
2400666666.6666665077 0.172568753361701993087606865629 0.042967133224010467529296875000 -0.002905860077589749856236123193 -0.002547852462157607078552246094 0 0 0 0 
2400833333.3333334923 0.173477515578269986251669365629 0.042254857718944549560546875000 -0.003215553006157279014587402344 -0.002351343398913741111755371094 0 0 0 0 
2401000000.0000000000 0.174025237560272189041299384371 0.041441433131694786762277971093 -0.003212878946214913888218545068 -0.002572262426838279204127646338 0 0 0 0 
2401166666.6666665077 0.174925148487091092208700615629 0.040575895458459847187082658593 -0.003433048725128173828125000000 -0.002429683692753314971923828125 0 0 0 0 
2401333333.3333334923 0.175531402230262811858807481258 0.039837259799242019653320312500 -0.003522455692291260199305868994 -0.002432879060506821112391806494 0 0 0 0 
2401500000.0000000000 0.176361069083213806152343750000 0.039420876652002341533620466407 -0.003806406399235128922703408350 -0.002447276376187800927403115381 0 0 0 0 
2401666666.6666665077 0.176918372511863708496093750000 0.038729012012481689453125000000 -0.003891693428158760070800781250 -0.002296889666467905044555664062 0 0 0 0 
2401833333.3333334923 0.177276641130447387695312500000 0.038050144910812377929687500000 -0.004115403164178133010864257812 -0.002187491627410054206848144531 0 0 0 0 
2402000000.0000000000 0.177746057510376004318075615629 0.037371180951595313335378278907 -0.004553127568215131759643554688 -0.002007344504818319840672158350 0 0 0 0 
2402166666.6666665077 0.178084999322891207595986884371 0.036675140261650092388112653907 -0.004737693350762128829956054688 -0.001955538988113402886631631006 0 0 0 0 
2402333333.3333334923 0.178473517298698397537393134371 0.036001656204462051391601562500 -0.004794446751475334167480468750 -0.001820782083086669011356972803 0 0 0 0 
2402500000.0000000000 0.178851500153541592696981865629 0.035442352294921881938893903907 -0.004845763090997934341430664062 -0.001492711598984896919847797925 0 0 0 0 
2402666666.6666665077 0.178840711712837191482705634371 0.034795634448528289794921875000 -0.004998428281396627426147460938 -0.001529687317088245911839150537 0 0 0 0 
2402833333.3333334923 0.179118767380714388748330634371 0.034220866858959197998046875000 -0.005355672910809516906738281250 -0.001266243867576122067095112378 0 0 0 0 
2403000000.0000000000 0.179187104105949401855468750000 0.033343788236379623413085937500 -0.005579021759331226348876953125 -0.000986080733127892017364501953 0 0 0 0 
2403166666.6666665077 0.179155647754669189453125000000 0.032465249300003051757812500000 -0.005660515278577805432791425488 -0.000700559176038950681686401367 0 0 0 0 
2403333333.3333334923 0.179100424051284790039062500000 0.031575094908475882793386091407 -0.005521941930055618286132812500 -0.000682363752275705337524414062 0 0 0 0 
2403500000.0000000000 0.178696051239967401702557481258 0.030741218477487560617467110546 -0.005897271446883677568917558887 -0.000225576921366155201762598859 0 0 0 0 
2403666666.6666665077 0.178564220666885403732138115629 0.029525239020586010324498360546 -0.005740622989833354949951171875 0.000049549351388122893195559843 0 0 0 0 
2403833333.3333334923 0.178267583250999506194744981258 0.028500199317932128906250000000 -0.005888363812118768692016601562 0.000228540768148377510622301645 0 0 0 0 
2404000000.0000000000 0.177998155355453491210937500000 0.027455015107989311218261718750 -0.006023013498634099960327148438 0.000630339374765753746032714844 0 0 0 0 
2404166666.6666665077 0.177548080682754488845986884371 0.026273295283317569387415701954 -0.005848370026797056198120117188 0.000931337010115385055541992188 0 0 0 0 
2404333333.3333334923 0.177149802446365411956463731258 0.024929691106081008911132812500 -0.005937771871685981750488281250 0.001166344853118062019348144531 0 0 0 0 
2404500000.0000000000 0.176567405462264986892861884371 0.023412831127643588674525076954 -0.005969555117189884185791015625 0.001335155451670289039611816406 0 0 0 0 
2404666666.6666665077 0.176255911588668795486611884371 0.022139431908726688730260079296 -0.006057903636246919631958007812 0.001680444460362195968627929688 0 0 0 0 
2404833333.3333334923 0.175800949335098294357138115629 0.020595548674464229238489920704 -0.005975859705358743667602539062 0.001927666249684990102883364038 0 0 0 0 
2405000000.0000000000 0.175382226705551202972088731258 0.019254015758633610116978829296 -0.005703865084797143936157226562 0.002261960413306951956508017432 0 0 0 0 
2405166666.6666665077 0.174745321273803710937500000000 0.017386846244335181499440778907 -0.005763028282672166824340820312 0.002449120627716184096095419775 0 0 0 0 
2405333333.3333334923 0.174494415521621704101562500000 0.015738949179649349557896798046 -0.005565047264099121093750000000 0.002785295480862259864807128906 0 0 0 0 
2405500000.0000000000 0.174065843224525507171307481258 0.014231666922569280106514177930 -0.005471169017255306243896484375 0.003002552082762122154235839844 0 0 0 0 
2405666666.6666665077 0.173813998699188204666299384371 0.012500639073550699406633945898 -0.005291504319757223129272460938 0.003347314894199370904209756006 0 0 0 0 
2405833333.3333334923 0.173228323459625188629473768742 0.010699694044888019561767578125 -0.005241703242063522338867187500 0.003736669663339852853062295068 0 0 0 0 
2406000000.0000000000 0.173121809959411593338174384371 0.008684239350259304046630859375 -0.005044606514275074005126953125 0.003684815485030413107631064307 0 0 0 0 
2406166666.6666665077 0.172778427600860595703125000000 0.007003723643720149993896484375 -0.004986226093024015426635742188 0.003877445589751005172729492188 0 0 0 0 
2406333333.3333334923 0.172801122069358797928018134371 0.005042518023401498794555664062 -0.004931749776005744934082031250 0.004175169859081506729125976562 0 0 0 0 
2406500000.0000000000 0.172698423266410799881143134371 0.002952195005491375923156738281 -0.004601874388754367828369140625 0.004374030977487564086914062500 0 0 0 0 
2406666666.6666665077 0.172461315989494295974893134371 0.000962877180427312850952148438 -0.004367533139884471893310546875 0.004521925933659076690673828125 0 0 0 0 
2406833333.3333334923 0.172645688056945800781250000000 -0.001074963482096791050554585034 -0.004156375769525766372680664062 0.004717881791293621063232421875 0 0 0 0 
2407000000.0000000000 0.172828286886215209960937500000 -0.003074762877076863808872841943 -0.004011052194982767105102539062 0.004950271919369697570800781250 0 0 0 0 
2407166666.6666665077 0.173170521855354309082031250000 -0.005156956613063812255859375000 -0.003760475432500243186950683594 0.005126674193888902664184570312 0 0 0 0 
2407333333.3333334923 0.173239961266517611404580634371 -0.007404854986816644668579101562 -0.003491596085950731797459267725 0.005303390789777041348929120801 0 0 0 0 
2407500000.0000000000 0.173544228076934786697549384371 -0.009265805594623088836669921875 -0.003150274744257330894470214844 0.005535356700420379638671875000 0 0 0 0 
2407666666.6666665077 0.174023061990737887283486884371 -0.011257307603955270594586757227 -0.002908280584961175918579101562 0.005603107623755931854248046875 0 0 0 0 
2407833333.3333334923 0.174206912517547607421875000000 -0.013505158014595510310162929102 -0.002849770942702889008762978662 0.005567807704210281372070312500 0 0 0 0 
2408000000.0000000000 0.174650475382804898361044365629 -0.015658283606171611440638358204 -0.002502298215404152870178222656 0.005729139316827058792114257812 0 0 0 0 
2408166666.6666665077 0.174995973706245394607705634371 -0.017452443018555641174316406250 -0.002202883362770081000087118994 0.005712998099625110626220703125 0 0 0 0 
2408333333.3333334923 0.175604164600372286697549384371 -0.019495582208037379873255545704 -0.001864788238890469074249267578 0.005713434424251317977905273438 0 0 0 0 
2408500000.0000000000 0.176019534468650790115518134371 -0.021427674219012260437011718750 -0.001715146237984300093409872900 0.005751379765570163726806640625 0 0 0 0 
2408666666.6666665077 0.176379084587097195724325615629 -0.023248957470059398305872733204 -0.001567384228110312981846474756 0.005822918843477964401245117188 0 0 0 0 
2408833333.3333334923 0.176703885197639493087606865629 -0.024923956021666530263880545704 -0.001344942138530313968658447266 0.005749443080276250839233398438 0 0 0 0 
2409000000.0000000000 0.177193388342857388595419365629 -0.026600167155265811574915701954 -0.001164542976766824939130473560 0.005691556259989739331717206738 0 0 0 0 
2409166666.6666665077 0.177624791860580388824786268742 -0.028046470135450359689732735546 -0.001053177518770098903058696216 0.005703429225832223892211914062 0 0 0 0 
2409333333.3333334923 0.178142473101615905761718750000 -0.029505012556910518300989920704 -0.000769080012105405330657958984 0.005808591376990079879760742188 0 0 0 0 
2409500000.0000000000 0.178569912910461398025674384371 -0.030966876074671748769739920704 -0.000428998406277969479560852051 0.005799621343612670898437500000 0 0 0 0 
2409666666.6666665077 0.178985700011253412444744981258 -0.031959913671016693115234375000 -0.000349917798303067684173583984 0.005807648878544569015502929688 0 0 0 0 
2409833333.3333334923 0.179346099495887811858807481258 -0.032939899712800979614257812500 -0.000312020478304475600093287335 0.005727816838771104812622070312 0 0 0 0 
2410000000.0000000000 0.180019497871398898025674384371 -0.033955916762351989746093750000 -0.000177898153197020292282104492 0.005823624320328235626220703125 0 0 0 0 
2410166666.6666665077 0.180406600236892700195312500000 -0.034928344190120697021484375000 0.000035612712963484227657318115 0.005866874009370803833007812500 0 0 0 0 
2410333333.3333334923 0.180568993091583307464276231258 -0.035712223500013351440429687500 0.000326422654325142502784729004 0.005798606202006340026855468750 0 0 0 0 
2410500000.0000000000 0.181061863899231012542401231258 -0.036372803151607513427734375000 0.000593374657910317182540893555 0.005744367372244597348684980176 0 0 0 0 
2410666666.6666665077 0.181395217776298495193643134371 -0.037197686731815338134765625000 0.000630414113402366638183593750 0.005700906738638877868652343750 0 0 0 0 
2410833333.3333334923 0.181913033127784701248330634371 -0.037749465554952621459960937500 0.000837046827655285596847534180 0.005657495930790901184082031250 0 0 0 0 
2411000000.0000000000 0.182048246264457702636718750000 -0.038215607404708862304687500000 0.000877615588251501321792602539 0.005708988290280103683471679688 0 0 0 0 
2411166666.6666665077 0.182302609086036709884481865629 -0.038700897246599197387695312500 0.001018139650113881067988730322 0.005652718245983123779296875000 0 0 0 0 
2411333333.3333334923 0.182140856981277493575888115629 -0.039264284074306488037109375000 0.001317091402597724957707070459 0.005589966196566820144653320312 0 0 0 0 
2411500000.0000000000 0.182373240590095492263955634371 -0.039912082254886627197265625000 0.001636576023884118036982870947 0.005592360626906157407278730176 0 0 0 0 
2411666666.6666665077 0.182397782802581787109375000000 -0.040169484913349151611328125000 0.001793143688701092980028461987 0.005524524021893739700317382812 0 0 0 0 
2411833333.3333334923 0.182301700115203912933026231258 -0.040413405746221542358398437500 0.001907025696709752082824707031 0.005392550025135278701782226562 0 0 0 0 
2412000000.0000000000 0.182172641158103887359942518742 -0.040924988687038421630859375000 0.002246869029477239088771201025 0.005624068900942802429199218750 0 0 0 0 
2412166666.6666665077 0.181474685668945312500000000000 -0.041195474565029137348215471093 0.002300164196640253067016601562 0.005507353227585554122924804688 0 0 0 0 
2412333333.3333334923 0.181404650211334200760049384371 -0.041489381343126296997070312500 0.002533116145059465928318642725 0.005270172841846942901611328125 0 0 0 0 
2412500000.0000000000 0.180682078003883389571981865629 -0.041795242577791207050363908593 0.002844114787876605987548828125 0.005261033307760953903198242188 0 0 0 0 
2412666666.6666665077 0.180115178227424593826455634371 -0.042263805866241462017018903907 0.002931755036115645928623818506 0.005284179467707872390747070312 0 0 0 0 
2412833333.3333334923 0.179277017712593106368856865629 -0.042798392474651336669921875000 0.003234718926250935034510947119 0.005135618150234222412109375000 0 0 0 0 
2413000000.0000000000 0.178742393851280212402343750000 -0.043037358671426773071289062500 0.003504053223878144784214638818 0.004903665743768215179443359375 0 0 0 0 
2413166666.6666665077 0.177676528692245511154013115629 -0.043491769582033157348632812500 0.003596321446821093992946005713 0.004819167777895927429199218750 0 0 0 0 
2413333333.3333334923 0.176780849695205688476562500000 -0.044076628983020782470703125000 0.003607696387916802926304482568 0.004648267757147550582885742188 0 0 0 0 
2413500000.0000000000 0.175840720534324701507244981258 -0.044467769563198089599609375000 0.003892534645274281935450888525 0.004523404408246278762817382812 0 0 0 0 
2413666666.6666665077 0.174802020192146301269531250000 -0.045116718858480446552317033593 0.004090534057468175888061523438 0.004195624496787787351126386426 0 0 0 0 
2413833333.3333334923 0.173556089401245089431924384371 -0.045615311712026603008229841407 0.004197894129902124404907226562 0.004139181226491928100585937500 0 0 0 0 
2414000000.0000000000 0.172285228967666598220986884371 -0.046426497399806983257253278907 0.004416197072714567184448242188 0.003864860860630869865417480469 0 0 0 0 
2414166666.6666665077 0.171272903680801391601562500000 -0.047052126377820968627929687500 0.004480022937059403333182050488 0.003650643629953265190124511719 0 0 0 0 
2414333333.3333334923 0.170030295848846407791299384371 -0.047951236367225646972656250000 0.004719184711575508117675781250 0.003436056897044181823730468750 0 0 0 0 
2414500000.0000000000 0.169088631868362399002236884371 -0.048770006746053702617604841407 0.004577640909701585769653320312 0.003363795811310410933253622900 0 0 0 0 
2414666666.6666665077 0.167665913701057406326455634371 -0.049652002751827239990234375000 0.004709062166512013349051191113 0.003094773273915051980259560693 0 0 0 0 
2414833333.3333334923 0.166339263319969205001669365629 -0.050940621644258499145507812500 0.004682057071477174758911132812 0.002844315487891436056849814307 0 0 0 0 
2415000000.0000000000 0.165127471089363098144531250000 -0.052035242319107062602956403907 0.004763632081449031829833984375 0.002669320208951830863952636719 0 0 0 0 
2415166666.6666665077 0.163910239934921292404013115629 -0.053435165435075759887695312500 0.004798878449946641921997070312 0.002617183839902282194850302588 0 0 0 0 
2415333333.3333334923 0.162789627909660311599893134371 -0.054752185940742492675781250000 0.004852181300520896911621093750 0.002605724148452281951904296875 0 0 0 0 
2415500000.0000000000 0.161731079220771789550781250000 -0.056075755506753921508789062500 0.004964788444340229034423828125 0.002222226699814199967625283350 0 0 0 0 
2415666666.6666665077 0.160509422421455411056356865629 -0.057611610740423202514648437500 0.005059726536273956298828125000 0.002225807635113596916198730469 0 0 0 0 
2415833333.3333334923 0.159494832158088711837606865629 -0.059392552822828292846679687500 0.005164870526641607284545898438 0.002195117296651006178614951025 0 0 0 0 
2416000000.0000000000 0.158247902989387512207031250000 -0.061098679900169372558593750000 0.005134407430887222290039062500 0.001843163627199829058406210791 0 0 0 0 
2416166666.6666665077 0.157575398683548001388388115629 -0.062850929796695709228515625000 0.005352470092475414276123046875 0.001685481169261038086534809644 0 0 0 0 
2416333333.3333334923 0.156492039561271695236044365629 -0.064562126994132995605468750000 0.005246793385595083236694335938 0.001594031113199890093562460791 0 0 0 0 
2416500000.0000000000 0.155476465821266202071981865629 -0.066632524132728576660156250000 0.005298318807035684585571289062 0.001483346917666495063184428638 0 0 0 0 
2416666666.6666665077 0.154619306325912503341513115629 -0.068447753787040710449218750000 0.005323911551386117935180664062 0.001241151941940187974217080225 0 0 0 0 
2416833333.3333334923 0.153969168663024902343750000000 -0.070438399910926818847656250000 0.005406017880886793136596679688 0.001102109788917005062103271484 0 0 0 0 
2417000000.0000000000 0.153036028146743802169638115629 -0.072340846061706542968750000000 0.005572240334004163742065429688 0.000945354986470192670822143555 0 0 0 0 
2417166666.6666665077 0.152320235967636108398437500000 -0.074215143918991088867187500000 0.005641134455800057324881269238 0.000631302187684923410415649414 0 0 0 0 
2417333333.3333334923 0.151830926537513705154580634371 -0.076129831373691558837890625000 0.005728717427700757980346679688 0.000484685820993035977512913837 0 0 0 0 
2417500000.0000000000 0.151274606585502596756143134371 -0.078098833560943603515625000000 0.005637139547616243362426757812 0.000318457401590421795845031738 0 0 0 0 
2417666666.6666665077 0.150925844907760592361611884371 -0.079864680767059326171875000000 0.005694804247468709945678710938 0.000148151986650191301673334943 0 0 0 0 
2417833333.3333334923 0.150413528084754888336505018742 -0.081656023859977722167968750000 0.005747104529291391372680664062 -0.000051514150982256978750228882 0 0 0 0 
2418000000.0000000000 0.150100514292717007736044365629 -0.083644092082977294921875000000 0.005628074984997510910034179688 -0.000141233133035711889893132343 0 0 0 0 
2418166666.6666665077 0.149937376379966708084268134371 -0.085128486156463623046875000000 0.005580675322562456130981445312 -0.000570112781133502721786499023 0 0 0 0 
2418333333.3333334923 0.149944081902503995040731865629 -0.086959972977638244628906250000 0.005507844965904951095581054688 -0.000711112341377884149551391602 0 0 0 0 
2418500000.0000000000 0.149796590209007290939169365629 -0.088533118367195129394531250000 0.005479443818330764770507812500 -0.001073380117304622910143208081 0 0 0 0 
2418666666.6666665077 0.149780035018920898437500000000 -0.089989088475704193115234375000 0.005501244217157363891601562500 -0.001198450569063425064086914062 0 0 0 0 
2418833333.3333334923 0.149694904685020502288494981258 -0.091463848948478698730468750000 0.005457494407892227172851562500 -0.001397948479279875972150493091 0 0 0 0 
2419000000.0000000000 0.149680659174919100662393134371 -0.092788793146610260009765625000 0.005378946196287870407104492188 -0.001587737933732569000841450269 0 0 0 0 
2419166666.6666665077 0.149858757853507995605468750000 -0.093960195779800415039062500000 0.005235439632087945938110351562 -0.001890678075142204978345561450 0 0 0 0 
2419333333.3333334923 0.149980530142784090896768134371 -0.094880387187004089355468750000 0.005155177321285009384155273438 -0.001950049423612653992296528394 0 0 0 0 
2419500000.0000000000 0.150241523981094388107138115629 -0.095997370779514312744140625000 0.005068067461252213391775800488 -0.002186471363529562950134277344 0 0 0 0 
2419666666.6666665077 0.150528967380523709396200615629 -0.096938915550708770751953125000 0.004934477154165506362915039062 -0.002350772731006145910975790869 0 0 0 0 
2419833333.3333334923 0.150709703564643887618856865629 -0.097639292478561401367187500000 0.004794060718268156051635742188 -0.002482692943885921998264931787 0 0 0 0 
