# Hz S RI R 
2400000000.0000000000 0.155653402209281893631143134371 0.110924877226352705528178432814 -0.002414230490103363990783691406 0.005224119871854782104492187500 0 0 0 0 
2400166666.6666665077 0.155284777283668490310830634371 0.108585543930530603606854356258 -0.002491049468517303900477743994 0.005569400731474161148071289062 0 0 0 0 
2400333333.3333334923 0.154876753687858609298544365629 0.106419846415519700477680942186 -0.002258365275338292121887207031 0.005756114609539508819580078125 0 0 0 0 
2400500000.0000000000 0.154613643884658813476562500000 0.103757649660110501388388115629 -0.002081845887005329132080078125 0.005891953129321336746215820312 0 0 0 0 
2400666666.6666665077 0.154367133975028991699218750000 0.101204194128513294548277201557 -0.001952493563294410922406840747 0.005956723354756832122802734375 0 0 0 0 
2400833333.3333334923 0.153973311185836791992187500000 0.098250836133956909179687500000 -0.001753081101924180984497070312 0.006255442742258310317993164062 0 0 0 0 
2401000000.0000000000 0.154707089066505404373330634371 0.095800869166851043701171875000 -0.002302750013768672943115234375 0.004681419115513563156127929688 0 0 0 0 
2401166666.6666665077 0.154165446758270291427450615629 0.092218942940235137939453125000 -0.002247724449262022972106933594 0.006552135106176137924194335938 0 0 0 0 
2401333333.3333334923 0.153208017349243191818075615629 0.089747995138168334960937500000 0.000503869086969643831253051758 0.006645563058555126190185546875 0 0 0 0 
2401500000.0000000000 0.154155001044273404220419365629 0.086533389985561370849609375000 -0.001074356376193464019178080981 0.006829770747572183609008789062 0 0 0 0 
2401666666.6666665077 0.153829023241996792892294365629 0.083073727786540985107421875000 -0.000134447749587707194402971811 0.007839098572731018066406250000 0 0 0 0 
2401833333.3333334923 0.154359802603721590896768134371 0.080435469746589660644531250000 -0.000083904829807579517364501953 0.007460412569344043731689453125 0 0 0 0 
2402000000.0000000000 0.155656278133392306228799384371 0.077920831739902496337890625000 -0.000816840911284089088439941406 0.005614438094198703765869140625 0 0 0 0 
2402166666.6666665077 0.155440315604209899902343750000 0.074948139488697052001953125000 0.000799183151684701442718505859 0.006813157815486192703247070312 0 0 0 0 
2402333333.3333334923 0.156340867280960110763388115629 0.071656927466392517089843750000 0.000309590890537947416305541992 0.007741676643490791320800781250 0 0 0 0 
2402500000.0000000000 0.157059445977210998535156250000 0.069446638226509094238281250000 0.001979157561436295943019247900 0.006853497121483088407034589551 0 0 0 0 
2402666666.6666665077 0.158351495862007113357705634371 0.066646941006183624267578125000 0.001390422810800373987910605322 0.006506037898361682891845703125 0 0 0 0 
2402833333.3333334923 0.159614950418472290039062500000 0.063814207911491394042968750000 0.001626598415896296934840536963 0.006634939461946487426757812500 0 0 0 0 
2403000000.0000000000 0.161082565784454401214276231258 0.061338059604167938232421875000 0.002075213007628918127772665869 0.006520469672977924346923828125 0 0 0 0 
2403166666.6666665077 0.162650465965270996093750000000 0.058987442404031746601145158593 0.002350121969357132911682128906 0.006349557079374790191650390625 0 0 0 0 
2403333333.3333334923 0.164181083440780611892861884371 0.056484337896108627319335937500 0.002599187195301055908203125000 0.006028377916663885116577148438 0 0 0 0 
2403500000.0000000000 0.165899887681007413009481865629 0.054378885775804519653320312500 0.002817030297592281861546181787 0.006006499752402305603027343750 0 0 0 0 
2403666666.6666665077 0.167637094855308504959268134371 0.051778964698314666748046875000 0.003072648076340556144714355469 0.005650300998240709304809570312 0 0 0 0 
2403833333.3333334923 0.169623568654060391525106865629 0.049806401133537292480468750000 0.003060566494241356849670410156 0.005367400590330362319946289062 0 0 0 0 
2404000000.0000000000 0.171125277876853887359942518742 0.048114158213138580322265625000 0.003331114538013935089111328125 0.005275298841297627362723066113 0 0 0 0 
2404166666.6666665077 0.172854304313659695724325615629 0.046266201883554458618164062500 0.003492350690066813988926552881 0.004979041870683431625366210938 0 0 0 0 
2404333333.3333334923 0.174579963088035611251669365629 0.044622913002967827533762346093 0.003565992461517453193664550781 0.004831450991332530975341796875 0 0 0 0 
2404500000.0000000000 0.176509827375411987304687500000 0.043138939887285232543945312500 0.003864741418510674996616982568 0.004810995422303676605224609375 0 0 0 0 
2404666666.6666665077 0.178382605314254788497763115629 0.041622322052717208862304687500 0.003933435771614313125610351562 0.004645962733775377273559570312 0 0 0 0 
2404833333.3333334923 0.180257365107536288162393134371 0.040470212697982788085937500000 0.003914706874638795852661132812 0.004486840218305587768554687500 0 0 0 0 
2405000000.0000000000 0.181905567646026611328125000000 0.039932344108819961547851562500 0.004030943848192691802978515625 0.004372566007077693939208984375 0 0 0 0 
2405166666.6666665077 0.183556839823722811599893134371 0.039028953760862350463867187500 0.004210985731333494186401367188 0.004246738273650407791137695312 0 0 0 0 
2405333333.3333334923 0.185210078954696710784588731258 0.038474444299936301494557966407 0.004419539123773574829101562500 0.004035933408886194229125976562 0 0 0 0 
2405500000.0000000000 0.187004536390304593185263115629 0.037962011992931372905690778907 0.004357467871159315109252929688 0.003946461249142885208129882812 0 0 0 0 
2405666666.6666665077 0.188488513231277493575888115629 0.037589892745018012309987653907 0.004670864436775445938110351562 0.003671554150059818787815713037 0 0 0 0 
2405833333.3333334923 0.190086081624031094650106865629 0.037441547960042946552317033593 0.004720143973827362060546875000 0.003499882761389017105102539062 0 0 0 0 
2406000000.0000000000 0.191123828291893005371093750000 0.037208892405033111572265625000 0.004907108377665281295776367188 0.003298699390143156051635742188 0 0 0 0 
2406166666.6666665077 0.192485958337783813476562500000 0.037115678191184997558593750000 0.005112802144140005111694335938 0.003048448590561747984645224463 0 0 0 0 
2406333333.3333334923 0.193680003285407992263955634371 0.037287741899490363384206403907 0.005093741696327924728393554688 0.002790713682770729064941406250 0 0 0 0 
2406500000.0000000000 0.194689810276031494140625000000 0.037515997886657721782643903907 0.005132786463946104049682617188 0.002551903016865253014805459131 0 0 0 0 
2406666666.6666665077 0.195531874895095797439736884371 0.037652701139450073242187500000 0.005286459345370531082153320312 0.002490260172635316848754882812 0 0 0 0 
2406833333.3333334923 0.196470990777015713790731865629 0.037852540612220757221262346093 0.005173482466489076614379882812 0.002007794100791215896606445312 0 0 0 0 
2407000000.0000000000 0.196853116154670687576455634371 0.038277536630630493164062500000 0.005172967910766602429861737988 0.001758970320224761962890625000 0 0 0 0 
2407166666.6666665077 0.197537630796432495117187500000 0.038464136421680450439453125000 0.005145522300153970718383789062 0.001722130458801985003827739185 0 0 0 0 
2407333333.3333334923 0.197599127888679504394531250000 0.038847897201776511455495466407 0.005075069144368171691894531250 0.001440189196728169918060302734 0 0 0 0 
2407500000.0000000000 0.197779536247253390213174384371 0.039221961051225662231445312500 0.005118423141539096832275390625 0.001243862789124249978306435693 0 0 0 0 
2407666666.6666665077 0.197927549481391906738281250000 0.039372570812702178955078125000 0.005091525614261627197265625000 0.001167702255770564079284667969 0 0 0 0 
2407833333.3333334923 0.197575390338897705078125000000 0.039662718772888176654856096093 0.005063273012638092041015625000 0.000956980045884847640991210938 0 0 0 0 
2408000000.0000000000 0.197633579373359707931356865629 0.039843559265136718750000000000 0.004895759746432304382324218750 0.000722656899597495794296264648 0 0 0 0 
2408166666.6666665077 0.197113543748855590820312500000 0.039729878306388861919362653907 0.004908154252916575345511152051 0.000629958522040396928787231445 0 0 0 0 
2408333333.3333334923 0.196777388453483609298544365629 0.039618518203496932983398437500 0.004843108355998992919921875000 0.000509424018673598766326904297 0 0 0 0 
2408500000.0000000000 0.196138530969619806487713731258 0.039674714207649230957031250000 0.004781296476721763610839843750 0.000388037471566349322169703351 0 0 0 0 
2408666666.6666665077 0.195569768548011807540731865629 0.039490237832069396972656250000 0.004684492480009794235229492188 0.000306744186673313379287719727 0 0 0 0 
2408833333.3333334923 0.194832488894462613204794365629 0.039061430841684341430664062500 0.004699648823589087399954511426 0.000276637641945853775173741473 0 0 0 0 
2409000000.0000000000 0.193785533308982904632244981258 0.038474693894386291503906250000 0.004637105390429496765136718750 0.000091412010078784078359603882 0 0 0 0 
2409166666.6666665077 0.192741215229034396072549384371 0.038002088665962219238281250000 0.004437682684510946273803710938 -0.000136136703076772391796112061 0 0 0 0 
2409333333.3333334923 0.191787227988243103027343750000 0.037215795367956161499023437500 0.004512793384492397308349609375 -0.000103865066193975494660516057 0 0 0 0 
2409500000.0000000000 0.190497413277626009842080634371 0.036234688013792037963867187500 0.004354860633611679077148437500 -0.000203256247914396199301043100 0 0 0 0 
2409666666.6666665077 0.189548730850219698806924384371 0.035137247294187552715261091407 0.004311151336878538131713867188 -0.000226974254474043900340479718 0 0 0 0 
2409833333.3333334923 0.188284292817115811446981865629 0.033823542296886437152902971093 0.004231962375342845916748046875 -0.000365935818990692496299743652 0 0 0 0 
2410000000.0000000000 0.187119603157043512542401231258 0.032448142766952521587331403907 0.004156968556344509124755859375 -0.000281066342722624486118870868 0 0 0 0 
2410166666.6666665077 0.185867428779602106292401231258 0.030907506123185161245325858204 0.004217407666146755218505859375 -0.000222589034819975495338439941 0 0 0 0 
2410333333.3333334923 0.184657722711563110351562500000 0.029250955209136009216308593750 0.004073977470397949218750000000 -0.000386457104468718225329798566 0 0 0 0 
2410500000.0000000000 0.183451697230339105804119981258 0.027484737336635589599609375000 0.004257857333868741989135742188 -0.000356089964043348973423558368 0 0 0 0 
2410666666.6666665077 0.182336479425430297851562500000 0.025213336572051048278808593750 0.004027429036796092987060546875 -0.000560986401978880167007446289 0 0 0 0 
2410833333.3333334923 0.181406870484352111816406250000 0.023210629820823669433593750000 0.004243927076458930969238281250 -0.000595089513808488845825195312 0 0 0 0 
2411000000.0000000000 0.180482327938079806228799384371 0.021171396598219871520996093750 0.004126921761780977249145507812 -0.000555337581317871809005737305 0 0 0 0 
2411166666.6666665077 0.179617777466773986816406250000 0.018962781876325610769251639454 0.004172494634985923767089843750 -0.000732308835722506046295166016 0 0 0 0 
2411333333.3333334923 0.178864374756813104827557481258 0.016541078686714168893834298046 0.004252831917256116867065429688 -0.000811905018053948879241943359 0 0 0 0 
2411500000.0000000000 0.178087890148162786285723768742 0.014127885922789570199986641796 0.004193254746496677398681640625 -0.000771122577134519815444946289 0 0 0 0 
2411666666.6666665077 0.177690893411636408050213731258 0.011762029491364959371546561329 0.004215411376208066940307617188 -0.000964015023782849311828613281 0 0 0 0 
2411833333.3333334923 0.177308589220046997070312500000 0.008971918374300003051757812500 0.004209551960229873657226562500 -0.001021768781356513933894492041 0 0 0 0 
2412000000.0000000000 0.177240014076232910156250000000 0.006424537394195795059204101562 0.004248209297657012939453125000 -0.001055137487128376960754394531 0 0 0 0 
2412166666.6666665077 0.177217975258827209472656250000 0.004026428796350955963134765625 0.004191927611827850341796875000 -0.001244697603397070927860879053 0 0 0 0 
2412333333.3333334923 0.177268832921981811523437500000 0.001218128483742475943324423682 0.004245663993060588836669921875 -0.001296591479331254959106445312 0 0 0 0 
2412500000.0000000000 0.177627623081207303146200615629 -0.001284572179429233074188232422 0.004151075612753629684448242188 -0.001394765684381126923802041162 0 0 0 0 
2412666666.6666665077 0.177981302142143305022869981258 -0.003998848143965005874633789062 0.004150887019932270050048828125 -0.001475240685977041938184428638 0 0 0 0 
2412833333.3333334923 0.178580120205879211425781250000 -0.006645875982940196990966796875 0.004334777127951383590698242188 -0.001634093467146158001543354565 0 0 0 0 
2413000000.0000000000 0.179332897067070007324218750000 -0.009276830591261386871337890625 0.004412965383380652341360761426 -0.001746768015436827919603657300 0 0 0 0 
2413166666.6666665077 0.180053323507308987716513115629 -0.011761310510337349283238594921 0.004406065680086612701416015625 -0.001966178882867097854614257812 0 0 0 0 
2413333333.3333334923 0.181085973978042602539062500000 -0.014330663718283179891566092579 0.004422586876899003982543945312 -0.002135246293619275093078613281 0 0 0 0 
2413500000.0000000000 0.181944787502288790603799384371 -0.016798621043562889099121093750 0.004288294818252325057983398438 -0.002304895548149942918064736475 0 0 0 0 
2413666666.6666665077 0.183148652315139798263388115629 -0.019276939332485198974609375000 0.004264598246663808822631835938 -0.002469471190124750137329101562 0 0 0 0 
2413833333.3333334923 0.184421122074127197265625000000 -0.021508954465389251708984375000 0.004177038557827472686767578125 -0.002906101057305932044982910156 0 0 0 0 
2414000000.0000000000 0.185558378696441705901776231258 -0.023718329146504398691197579296 0.004135577008128166198730468750 -0.003064933232963085174560546875 0 0 0 0 
2414166666.6666665077 0.187008067965507507324218750000 -0.025907332077622410165806954296 0.003969635348767042160034179688 -0.003244196996092795892002724756 0 0 0 0 
2414333333.3333334923 0.188139364123344393631143134371 -0.028049277141690250741978829296 0.003812760114669799804687500000 -0.003433970501646399931666708838 0 0 0 0 
2414500000.0000000000 0.189547330141067504882812500000 -0.029706520959734920156458670704 0.003678810084238647980930947412 -0.003523723920807241959812783350 0 0 0 0 
2414666666.6666665077 0.190999880433082608321981865629 -0.031498476862907409667968750000 0.003343239193782209916355752100 -0.003805460641160606904270791162 0 0 0 0 
2414833333.3333334923 0.192268759012222290039062500000 -0.033029437065124511718750000000 0.003145914990454912185668945312 -0.003858517389744520187377929688 0 0 0 0 
2415000000.0000000000 0.193743854761123712737713731258 -0.034577880054712302471120466407 0.003103526076301931901219033350 -0.003878274001181126074550009619 0 0 0 0 
2415166666.6666665077 0.195367768406868008712606865629 -0.035890992730855941772460937500 0.002979300217702984809875488281 -0.003896798240020871162414550781 0 0 0 0 
2415333333.3333334923 0.196570396423339788238848768742 -0.037052348256111151958425153907 0.002804781077429652214050292969 -0.004100855905562639236450195312 0 0 0 0 
2415500000.0000000000 0.197880089282989501953125000000 -0.037766467779874801635742187500 0.002631716895848513083217001807 -0.004197180271148681640625000000 0 0 0 0 
2415666666.6666665077 0.199237644672393798828125000000 -0.038894906640052802349050153907 0.002555673709139227867126464844 -0.004174757748842239379882812500 0 0 0 0 
2415833333.3333334923 0.200414687395095797439736884371 -0.039656750857830047607421875000 0.002533524762839078903198242188 -0.004380560480058193206787109375 0 0 0 0 
2416000000.0000000000 0.201657146215438787262286268742 -0.040311649441719062114675153907 0.002296393271535634994506835938 -0.004306611139327287673950195312 0 0 0 0 
2416166666.6666665077 0.202555537223815890213174384371 -0.040918488055467612529714216407 0.002261266577988862991333007812 -0.004489702172577381134033203125 0 0 0 0 
2416333333.3333334923 0.203510195016860989669638115629 -0.041275985538959503173828125000 0.002023353474214673042297363281 -0.004516955465078353881835937500 0 0 0 0 
2416500000.0000000000 0.204236507415771512130575615629 -0.041615623980760567401926408593 0.001783433486707508997676230322 -0.004624419379979372024536132812 0 0 0 0 
2416666666.6666665077 0.204863697290420504470986884371 -0.041948769241571433330495466407 0.001640619826503098011016845703 -0.004668819718062877655029296875 0 0 0 0 
2416833333.3333334923 0.205310583114623995681924384371 -0.041870359331369400024414062500 0.001514019328169525103328085791 -0.004848992452025414380545331738 0 0 0 0 
2417000000.0000000000 0.205742835998535211761151231258 -0.041977830231189727783203125000 0.001256794552318752028821635669 -0.004933572374284267425537109375 0 0 0 0 
2417166666.6666665077 0.205677211284637506683026231258 -0.041878454387187957763671875000 0.001015260815620421929600381006 -0.004815498366951941576485918262 0 0 0 0 
2417333333.3333334923 0.205833941698074313064736884371 -0.041703034192323691631276716407 0.000626431952696293592453002930 -0.004946549888700246810913085938 0 0 0 0 
2417500000.0000000000 0.205766201019287109375000000000 -0.041478935629129409790039062500 0.000580394873395562171936035156 -0.004742220044136047363281250000 0 0 0 0 
2417666666.6666665077 0.205326020717620905120526231258 -0.041242733597755432128906250000 0.000328905618516728281974792480 -0.004637296777218580245971679688 0 0 0 0 
2417833333.3333334923 0.205156847834587097167968750000 -0.040816362947225570678710937500 0.000162823373102582991123199463 -0.004661918617784976959228515625 0 0 0 0 
2418000000.0000000000 0.204682856798171997070312500000 -0.040467698127031333232839216407 0.000146473917993716895580291748 -0.004523765761405229568481445312 0 0 0 0 
2418166666.6666665077 0.204093277454376192947549384371 -0.040192641317844390869140625000 -0.000024663710064487528393064805 -0.004409774672240018844604492188 0 0 0 0 
2418333333.3333334923 0.203232407569885309417401231258 -0.039907637983560562133789062500 -0.000261261069681495373875218524 -0.004475543275475502014160156250 0 0 0 0 
2418500000.0000000000 0.202388420701026888748330634371 -0.039812158793210983276367187500 -0.000198662804905325201436719351 -0.004335192497819662094116210938 0 0 0 0 
2418666666.6666665077 0.201602205634117098709268134371 -0.039453689008951187133789062500 -0.000330676324665546417236328125 -0.004170288331806659698486328125 0 0 0 0 
2418833333.3333334923 0.200193166732788113693075615629 -0.039358302950859069824218750000 -0.000404198217438533902168273926 -0.004154809284955263137817382812 0 0 0 0 
2419000000.0000000000 0.199119359254837008377236884371 -0.039359066635370261455495466407 -0.000388239655876532196998596191 -0.004033396951854228973388671875 0 0 0 0 
2419166666.6666665077 0.197836130857467706878338731258 -0.039505109190940856933593750000 -0.000495385960675776004791259766 -0.004155968781560659408569335938 0 0 0 0 
2419333333.3333334923 0.196383506059646606445312500000 -0.039542455226182937622070312500 -0.000580757914576679468154907227 -0.004102385602891445159912109375 0 0 0 0 
2419500000.0000000000 0.194834187626838711837606865629 -0.040053684264421463012695312500 -0.000662074889987707138061523438 -0.004046965856105089187622070312 0 0 0 0 
2419666666.6666665077 0.193199515342712402343750000000 -0.040509488433599472045898437500 -0.000898694037459790706634521484 -0.004010109230875968933105468750 0 0 0 0 
2419833333.3333334923 0.191378518939018305022869981258 -0.041062332689762122417409528907 -0.000913078722078353166580200195 -0.003911340609192848205566406250 0 0 0 0 
2420000000.0000000000 0.189748689532279996017294365629 -0.041882745921611792827565778907 -0.001081873080693184895756386865 -0.003927416633814573287963867188 0 0 0 0 
