# Version 1.00
#
freq[Hz];re:Trc1_S11;im:Trc1_S11;re:Trc2_S21;im:Trc2_S21;
2.400000000000000E+009;1.583631634712219E-001;6.247178092598915E-002;-1.618420006707311E-003;1.635743974475190E-004;
2.400166666666667E+009;1.581999957561493E-001;6.094790622591972E-002;-1.555041526444256E-003;3.846635081572458E-005;
2.400333333333334E+009;1.581144928932190E-001;5.894644185900688E-002;-1.589467981830239E-003;3.158026083838195E-004;
2.400500000000000E+009;1.580004096031189E-001;5.706757307052612E-002;-1.402590190991759E-003;-1.002250337478472E-005;
2.400666666666667E+009;1.579288542270660E-001;5.514742061495781E-002;-1.278526382520795E-003;2.826271520461887E-004;
2.400833333333334E+009;1.580545902252197E-001;5.291574075818062E-002;-1.287916558794677E-003;1.924718671943992E-004;
2.401000000000000E+009;1.580830365419388E-001;5.100648850202560E-002;-1.323544420301914E-003;1.011574422591366E-004;
2.401166666666667E+009;1.581575125455856E-001;4.895714297890663E-002;-1.147481845691800E-003;3.511438262648881E-004;
2.401333333333334E+009;1.583157330751419E-001;4.692384228110313E-002;-1.111643970943987E-003;2.287661336595193E-004;
2.401500000000000E+009;1.587350368499756E-001;4.465270042419434E-002;-9.573337738402188E-004;1.617881207494065E-004;
2.401666666666667E+009;1.588656157255173E-001;4.277990758419037E-002;-9.868707275018096E-004;2.650200622156262E-004;
2.401833333333334E+009;1.592316031455994E-001;4.057762026786804E-002;-8.808085694909096E-004;1.755366392899305E-004;
2.402000000000000E+009;1.595717668533325E-001;3.875352069735527E-002;-9.854580275714397E-004;1.950740115717053E-004;
2.402166666666667E+009;1.602720320224762E-001;3.668453544378281E-002;-7.496847538277507E-004;3.094129206147045E-004;
2.402333333333334E+009;1.605031937360764E-001;3.473027050495148E-002;-6.457039853557944E-004;1.111536257667467E-004;
2.402500000000000E+009;1.613125950098038E-001;3.302067518234253E-002;-7.586341234855354E-004;6.386503810063005E-005;
2.402666666666667E+009;1.621044129133225E-001;3.121473267674446E-002;-7.431943085975945E-004;-1.138456500484608E-004;
2.402833333333334E+009;1.627986282110214E-001;2.936579100787640E-002;-6.314938655123115E-004;4.628454189514741E-005;
2.403000000000000E+009;1.636541336774826E-001;2.782529778778553E-002;-5.410572630353272E-004;5.801101724500768E-005;
2.403166666666667E+009;1.644508242607117E-001;2.620759420096874E-002;-5.717086605727673E-004;2.421237331873272E-005;
2.403333333333334E+009;1.652903854846954E-001;2.467644773423672E-002;-6.555136060342193E-004;-2.237153239548206E-004;
2.403500000000000E+009;1.661743968725205E-001;2.330579981207848E-002;-5.648421938531101E-004;-2.675092255230993E-004;
2.403666666666667E+009;1.671147346496582E-001;2.201122418045998E-002;-6.775221554562450E-004;-1.164440182037652E-004;
2.403833333333334E+009;1.681534796953201E-001;2.060967683792114E-002;-6.314314086921513E-004;-3.645769611466676E-004;
2.404000000000000E+009;1.690566539764404E-001;1.943858899176121E-002;-5.957272369414568E-004;-3.994081926066428E-004;
2.404166666666667E+009;1.702034324407578E-001;1.828236691653729E-002;-6.782729760743678E-004;-3.529403766151518E-004;
2.404333333333334E+009;1.709658652544022E-001;1.733298413455486E-002;-7.569877197965980E-004;-3.670878359116614E-004;
2.404500000000000E+009;1.719476133584976E-001;1.624326035380364E-002;-5.970669444650412E-004;-3.242707753088325E-004;
2.404666666666667E+009;1.730008870363236E-001;1.550153177231550E-002;-7.504845270887017E-004;-4.532415478024632E-004;
2.404833333333334E+009;1.737838387489319E-001;1.468207966536284E-002;-8.702354389242828E-004;-5.586500046774745E-004;
2.405000000000000E+009;1.747589111328125E-001;1.396522298455238E-002;-8.652868564240634E-004;-5.462256958708167E-004;
2.405166666666667E+009;1.754623502492905E-001;1.327652763575316E-002;-9.581565973348916E-004;-5.863226833753288E-004;
2.405333333333334E+009;1.764682680368424E-001;1.284061465412378E-002;-1.075878739356995E-003;-6.183574441820383E-004;
2.405500000000000E+009;1.771355718374252E-001;1.230110228061676E-002;-9.894112590700388E-004;-6.518927402794361E-004;
2.405666666666667E+009;1.778468638658524E-001;1.184639055281878E-002;-1.272356370463967E-003;-7.775220437906683E-004;
2.405833333333334E+009;1.782260239124298E-001;1.143979560583830E-002;-1.239293371327221E-003;-6.212398293428123E-004;
2.406000000000000E+009;1.789776384830475E-001;1.099363248795271E-002;-1.183324726298451E-003;-5.928514874540269E-004;
2.406166666666667E+009;1.793777048587799E-001;1.082280464470387E-002;-1.476912526413798E-003;-5.802133819088340E-004;
2.406333333333334E+009;1.799525618553162E-001;1.051665190607309E-002;-1.507419627159834E-003;-5.870031309314072E-004;
2.406500000000000E+009;1.802020370960236E-001;1.009138021618128E-002;-1.479670638218522E-003;-4.415610164869577E-004;
2.406666666666667E+009;1.802064329385757E-001;9.990093298256397E-003;-1.571948989294469E-003;-5.169687210582197E-004;
2.406833333333334E+009;1.805579662322998E-001;9.611907415091991E-003;-1.624853117391467E-003;-3.352113126311451E-004;
2.407000000000000E+009;1.807559430599213E-001;9.276094846427441E-003;-1.715916558168829E-003;-2.968676853924990E-004;
2.407166666666667E+009;1.807783842086792E-001;8.962603285908699E-003;-1.794539508409798E-003;-3.069612721446902E-004;
2.407333333333334E+009;1.805495619773865E-001;8.563259616494179E-003;-1.825034851208329E-003;-1.952234306372702E-004;
2.407500000000000E+009;1.803646981716156E-001;8.375578559935093E-003;-1.815438969060779E-003;-2.506789132894483E-005;
2.407666666666667E+009;1.802038699388504E-001;7.876160554587841E-003;-1.881526201032102E-003;1.697298866929486E-004;
2.407833333333334E+009;1.798936277627945E-001;7.194398436695337E-003;-1.842138357460499E-003;1.985188864637166E-004;
2.408000000000000E+009;1.795754432678223E-001;6.468203384429216E-003;-2.002410124987364E-003;5.291892739478499E-005;
2.408166666666667E+009;1.790813654661179E-001;6.128769833594561E-003;-1.746311667375267E-003;2.675613213796169E-004;
2.408333333333334E+009;1.787493228912354E-001;5.316509865224361E-003;-1.756424084305763E-003;2.890500181820244E-004;
2.408500000000000E+009;1.781294196844101E-001;4.597366787493229E-003;-1.912842621095479E-003;2.924645377788693E-004;
2.408666666666667E+009;1.774185895919800E-001;3.569483524188399E-003;-1.815943396650255E-003;4.630868497770280E-004;
2.408833333333334E+009;1.768922805786133E-001;2.737037604674697E-003;-1.769302180036902E-003;4.646778979804367E-004;
2.409000000000000E+009;1.761704087257385E-001;1.711693359538913E-003;-1.603594399057329E-003;5.374157917685807E-004;
2.409166666666667E+009;1.755422055721283E-001;4.900026833638549E-004;-1.695528044365346E-003;5.402395618148148E-004;
2.409333333333334E+009;1.747816205024719E-001;-6.196983158588409E-004;-1.566463964991272E-003;6.194903398863971E-004;
2.409500000000000E+009;1.740604490041733E-001;-2.033197320997715E-003;-1.535701914690435E-003;7.127540884539485E-004;
2.409666666666667E+009;1.733516603708267E-001;-3.271874971687794E-003;-1.524141873233020E-003;6.210932042449713E-004;
2.409833333333334E+009;1.727059185504913E-001;-4.643191117793322E-003;-1.439234009012580E-003;6.904851761646569E-004;
2.410000000000000E+009;1.720459610223770E-001;-6.246283184736967E-003;-1.599376788362861E-003;7.161293760873377E-004;
2.410166666666667E+009;1.714372038841248E-001;-7.609198335558176E-003;-1.584876794368029E-003;7.591260364279151E-004;
2.410333333333334E+009;1.707591712474823E-001;-9.247991256415844E-003;-1.398291089572012E-003;7.114291656762362E-004;
2.410500000000000E+009;1.702696830034256E-001;-1.101064030081034E-002;-1.410299562849104E-003;8.523774449713528E-004;
2.410666666666667E+009;1.696842908859253E-001;-1.284394413232803E-002;-1.304614474065602E-003;7.688446203246713E-004;
2.410833333333334E+009;1.693577617406845E-001;-1.458419859409332E-002;-1.493320218287408E-003;7.341969758272171E-004;
2.411000000000000E+009;1.689005494117737E-001;-1.624501310288906E-002;-1.524602877907455E-003;8.608578937128186E-004;
2.411166666666667E+009;1.685694307088852E-001;-1.838414371013641E-002;-1.342132338322699E-003;8.353838347829878E-004;
2.411333333333334E+009;1.682613939046860E-001;-2.030523493885994E-002;-1.468272064812481E-003;9.313818882219493E-004;
2.411500000000000E+009;1.681632846593857E-001;-2.213061973452568E-002;-1.641574199311435E-003;8.280673646368086E-004;
2.411666666666667E+009;1.681540161371231E-001;-2.422510273754597E-002;-1.553325331769884E-003;9.350111358799040E-004;
2.411833333333334E+009;1.680432856082916E-001;-2.613715268671513E-002;-1.370546058751643E-003;8.996307151392102E-004;
2.412000000000000E+009;1.681091189384460E-001;-2.804522775113583E-002;-1.398962107487023E-003;9.793738136067987E-004;
2.412166666666667E+009;1.682889163494110E-001;-3.006532043218613E-002;-1.623966614715755E-003;1.167280715890229E-003;
2.412333333333334E+009;1.686094105243683E-001;-3.187967464327812E-002;-1.493049087002873E-003;1.031142659485340E-003;
2.412500000000000E+009;1.686050742864609E-001;-3.378439694643021E-002;-1.565976999700069E-003;1.131665310822427E-003;
2.412666666666667E+009;1.690742671489716E-001;-3.578438609838486E-002;-1.673511811532080E-003;1.226503285579383E-003;
2.412833333333334E+009;1.695259362459183E-001;-3.772437572479248E-002;-1.510743051767349E-003;1.287878374569118E-003;
2.413000000000000E+009;1.697558760643005E-001;-3.938367217779160E-002;-1.583478995598853E-003;1.479727448895574E-003;
2.413166666666667E+009;1.700665503740311E-001;-4.125462472438812E-002;-1.735801226459444E-003;1.462764688767493E-003;
2.413333333333334E+009;1.705538779497147E-001;-4.289155080914497E-002;-1.632080529816449E-003;1.408757292665541E-003;
2.413500000000000E+009;1.711765676736832E-001;-4.457773268222809E-002;-1.646057935431600E-003;1.390763674862683E-003;
2.413666666666667E+009;1.717993170022965E-001;-4.617169871926308E-002;-1.579457428306341E-003;1.693108235485852E-003;
2.413833333333334E+009;1.721421778202057E-001;-4.759446159005165E-002;-1.592364511452615E-003;1.756511162966490E-003;
2.414000000000000E+009;1.726303994655609E-001;-4.900484159588814E-002;-1.468105823732913E-003;1.865770784206688E-003;
2.414166666666667E+009;1.732941865921021E-001;-5.037047341465950E-002;-1.533097587525845E-003;1.978998305276036E-003;
2.414333333333334E+009;1.738514453172684E-001;-5.178118497133255E-002;-1.395505620166659E-003;2.016302896663547E-003;
2.414500000000000E+009;1.745445877313614E-001;-5.286965146660805E-002;-1.341692986898124E-003;2.069894457235932E-003;
2.414666666666667E+009;1.750197857618332E-001;-5.386373400688171E-002;-1.163223874755204E-003;2.213142812252045E-003;
2.414833333333334E+009;1.754959523677826E-001;-5.478052422404289E-002;-1.205400330945849E-003;2.128392225131393E-003;
2.415000000000000E+009;1.759056299924851E-001;-5.579147860407829E-002;-1.132878358475864E-003;2.413880312815309E-003;
2.415166666666667E+009;1.763028949499130E-001;-5.659104511141777E-002;-9.993186686187983E-004;2.386065432801843E-003;
2.415333333333334E+009;1.767828464508057E-001;-5.736044794321060E-002;-9.070276282727718E-004;2.457585418596864E-003;
2.415500000000000E+009;1.770884245634079E-001;-5.787410959601402E-002;-7.985497359186411E-004;2.597694983705878E-003;
2.415666666666667E+009;1.773667186498642E-001;-5.839233100414276E-002;-7.232937496155500E-004;2.677871845662594E-003;
2.415833333333334E+009;1.776237040758133E-001;-5.907284095883369E-002;-5.681875045411289E-004;2.692912705242634E-003;
2.416000000000000E+009;1.775376349687576E-001;-5.950196459889412E-002;-5.909783067181706E-004;2.648689085617662E-003;
2.416166666666667E+009;1.779051721096039E-001;-5.973780155181885E-002;-4.713835369329900E-004;2.709776628762484E-003;
2.416333333333334E+009;1.776715964078903E-001;-6.010064110159874E-002;-4.622748529072851E-004;2.737294416874647E-003;
2.416500000000000E+009;1.776379942893982E-001;-6.039507314562798E-002;-2.137417177436873E-004;2.879978390410543E-003;
2.416666666666667E+009;1.774631589651108E-001;-6.061854586005211E-002;-1.736662379698828E-004;2.959625795483589E-003;
2.416833333333334E+009;1.772966086864471E-001;-6.098027527332306E-002;-4.392968912725337E-005;2.944063395261765E-003;
2.417000000000000E+009;1.768155843019486E-001;-6.122677028179169E-002;5.706535011995584E-005;3.056520596146584E-003;
2.417166666666667E+009;1.763457506895065E-001;-6.126046925783157E-002;1.786030916264281E-004;3.070543287321925E-003;
2.417333333333334E+009;1.759749799966812E-001;-6.150492653250694E-002;3.721610119100660E-004;3.082795767113566E-003;
2.417500000000000E+009;1.751794219017029E-001;-6.192071735858917E-002;4.210541083011776E-004;2.923964755609632E-003;
2.417666666666667E+009;1.746449619531632E-001;-6.192226707935333E-002;5.917515372857451E-004;2.997899660840631E-003;
2.417833333333334E+009;1.737338453531265E-001;-6.218425557017326E-002;7.543035899288952E-004;2.961218589916825E-003;
2.418000000000000E+009;1.728459000587463E-001;-6.262984871864319E-002;8.363585220649838E-004;2.876087324693799E-003;
2.418166666666667E+009;1.719661802053452E-001;-6.282842159271240E-002;8.967241155914962E-004;2.960339887067676E-003;
2.418333333333334E+009;1.711635738611221E-001;-6.330356746912003E-002;1.080984598957002E-003;2.877558348700404E-003;
2.418500000000000E+009;1.700109839439392E-001;-6.365003436803818E-002;1.280419062823057E-003;2.817787695676088E-003;
2.418666666666667E+009;1.690483093261719E-001;-6.415475904941559E-002;1.399897038936615E-003;2.671727677807212E-003;
2.418833333333334E+009;1.676796674728394E-001;-6.478855013847351E-002;1.538655371405184E-003;2.771524246782064E-003;
2.419000000000000E+009;1.665458977222443E-001;-6.527701765298843E-002;1.613414264284074E-003;2.615264384075999E-003;
2.419166666666667E+009;1.654013544321060E-001;-6.599862128496170E-002;1.703784451819956E-003;2.592740813270211E-003;
2.419333333333334E+009;1.640099436044693E-001;-6.644975394010544E-002;1.756916171871126E-003;2.475586021319032E-003;
2.419500000000000E+009;1.629074364900589E-001;-6.767548620700836E-002;1.910015591420233E-003;2.389116911217570E-003;
2.419666666666667E+009;1.618407815694809E-001;-6.847429275512695E-002;2.067280700430274E-003;2.351616742089391E-003;
2.419833333333334E+009;1.604985594749451E-001;-6.936989724636078E-002;2.022607252001762E-003;2.249304438009858E-003;
2.420000000000000E+009;1.595009416341782E-001;-7.037151604890823E-002;2.160944975912571E-003;2.044327557086945E-003;
2.420166666666667E+009;1.584238559007645E-001;-7.148470729589462E-002;2.385757165029645E-003;2.122218487784267E-003;
2.420333333333334E+009;1.572079211473465E-001;-7.266661524772644E-002;2.264062175527215E-003;1.867656596004963E-003;
2.420500000000000E+009;1.562840044498444E-001;-7.381399720907211E-002;2.392154652625322E-003;1.742065767757595E-003;
2.420666666666667E+009;1.549838930368424E-001;-7.507128268480301E-002;2.544520888477564E-003;1.699974061921239E-003;
2.420833333333334E+009;1.542954295873642E-001;-7.658068090677261E-002;2.554786391556263E-003;1.613256172277033E-003;
2.421000000000000E+009;1.534837186336517E-001;-7.810619473457336E-002;2.615153789520264E-003;1.423673937097192E-003;
2.421166666666667E+009;1.526941508054733E-001;-7.954496145248413E-002;2.628963440656662E-003;1.247613574378192E-003;
2.421333333333334E+009;1.520049721002579E-001;-8.122648298740387E-002;2.573864301666617E-003;1.186047098599374E-003;
2.421500000000000E+009;1.513222008943558E-001;-8.263266086578369E-002;2.655260032042861E-003;9.054080001078546E-004;
2.421666666666667E+009;1.508791446685791E-001;-8.434918522834778E-002;2.810202771797776E-003;7.671745843254030E-004;
2.421833333333334E+009;1.502828001976013E-001;-8.593143522739410E-002;2.641192404553294E-003;8.126948960125446E-004;
2.422000000000000E+009;1.499838232994080E-001;-8.758801221847534E-002;2.694411901757121E-003;6.230358267202973E-004;
2.422166666666667E+009;1.494784355163574E-001;-8.951053023338318E-002;2.581927925348282E-003;4.851248813793063E-004;
2.422333333333334E+009;1.495425999164581E-001;-9.119290113449097E-002;2.748765284195542E-003;3.631954023148865E-004;
2.422500000000000E+009;1.491606384515762E-001;-9.271875768899918E-002;2.656603930518031E-003;7.594927592435852E-005;
2.422666666666667E+009;1.490373611450195E-001;-9.438391774892807E-002;2.498402260243893E-003;1.627205056138337E-004;
2.422833333333334E+009;1.493736356496811E-001;-9.630815684795380E-002;2.562679816037417E-003;1.092514212359674E-004;
2.423000000000000E+009;1.494350433349609E-001;-9.782011806964874E-002;2.413666807115078E-003;4.193931818008423E-005;
2.423166666666667E+009;1.497057527303696E-001;-9.950884431600571E-002;2.328924601897597E-003;-1.328452926827595E-004;
2.423333333333334E+009;1.499075591564179E-001;-1.007659062743187E-001;2.223260933533311E-003;-2.027105947490782E-004;
2.423500000000000E+009;1.502947211265564E-001;-1.025962010025978E-001;2.228377852588892E-003;-3.219825739506632E-004;
2.423666666666667E+009;1.505855023860931E-001;-1.042092964053154E-001;2.008327981457114E-003;-2.197206049459055E-004;
2.423833333333334E+009;1.511024087667465E-001;-1.055702939629555E-001;2.126555191352963E-003;-3.676479391288012E-004;
2.424000000000000E+009;1.513883173465729E-001;-1.069392487406731E-001;1.998458057641983E-003;-4.880959459114820E-004;
2.424166666666667E+009;1.517294943332672E-001;-1.083452031016350E-001;1.974385697394610E-003;-4.208904574625194E-004;
2.424333333333334E+009;1.522257775068283E-001;-1.093405112624168E-001;1.835178700275719E-003;-3.991208795923740E-004;
2.424500000000000E+009;1.527776867151260E-001;-1.104973480105400E-001;1.857209717854857E-003;-5.204603075981140E-004;
2.424666666666667E+009;1.533650457859039E-001;-1.114200651645660E-001;1.747486414387822E-003;-5.295978044159710E-004;
2.424833333333334E+009;1.536504179239273E-001;-1.125665977597237E-001;1.783952931873500E-003;-5.885667051188648E-004;
2.425000000000000E+009;1.541049629449844E-001;-1.135062426328659E-001;1.628904603421688E-003;-5.251454422250390E-004;
2.425166666666667E+009;1.544904112815857E-001;-1.143529117107391E-001;1.659628353081644E-003;-5.805478431284428E-004;
2.425333333333334E+009;1.549917310476303E-001;-1.149203777313232E-001;1.492157811298966E-003;-6.222754018381238E-004;
2.425500000000000E+009;1.554471105337143E-001;-1.156891658902168E-001;1.411824021488428E-003;-5.822510574944317E-004;
2.425666666666667E+009;1.555344015359879E-001;-1.162390038371086E-001;1.325527089647949E-003;-6.203471566550434E-004;
2.425833333333334E+009;1.559567898511887E-001;-1.168650090694428E-001;1.421615364961326E-003;-6.064997287467122E-004;
2.426000000000000E+009;1.560806632041931E-001;-1.173614412546158E-001;1.447883434593678E-003;-5.006683641113341E-004;
2.426166666666667E+009;1.564653813838959E-001;-1.176298335194588E-001;1.404518960043788E-003;-5.715253646485508E-004;
2.426333333333334E+009;1.564602851867676E-001;-1.180111914873123E-001;1.417380874045193E-003;-4.812960105482489E-004;
2.426500000000000E+009;1.564504504203796E-001;-1.181932166218758E-001;1.381652313284576E-003;-5.610430962406099E-004;
2.426666666666667E+009;1.564271003007889E-001;-1.184080392122269E-001;1.481379149481654E-003;-6.444919272325933E-004;
2.426833333333334E+009;1.561734229326248E-001;-1.185916215181351E-001;1.470679068006575E-003;-6.365855806507170E-004;
2.427000000000000E+009;1.559078991413117E-001;-1.187829822301865E-001;1.322817755863071E-003;-6.329740863293409E-004;
2.427166666666667E+009;1.555337458848953E-001;-1.187620013952255E-001;1.349822618067265E-003;-6.935246638022363E-004;
2.427333333333334E+009;1.550278514623642E-001;-1.189274042844772E-001;1.418875763192773E-003;-6.892148521728814E-004;
2.427500000000000E+009;1.545966714620590E-001;-1.190046817064285E-001;1.256472547538579E-003;-6.127431406639516E-004;
2.427666666666667E+009;1.539232730865479E-001;-1.191445440053940E-001;1.403840607963502E-003;-8.121596183627844E-004;
