# Version 1.00
#
freq[Hz];re:Trc1_S11;im:Trc1_S11;re:Trc2_S21;im:Trc2_S21;
2.400000000000000E+009;1.548836082220078E-001;1.067028343677521E-001;-4.064483102411032E-003;-8.594460086897016E-004;
2.400166666666667E+009;1.546587496995926E-001;1.042065992951393E-001;-4.175806418061256E-003;-1.055178116075695E-003;
2.400333333333334E+009;1.546744257211685E-001;1.019698828458786E-001;-4.181423690170050E-003;-8.952080970630050E-004;
2.400500000000000E+009;1.546090841293335E-001;9.925451129674912E-002;-4.238971043378115E-003;-7.427279488183558E-004;
2.400666666666667E+009;1.545745283365250E-001;9.680037945508957E-002;-4.344651941210032E-003;-6.702842656522989E-004;
2.400833333333334E+009;1.545351743698120E-001;9.390180557966232E-002;-4.273051396012306E-003;-5.900901160202920E-004;
2.401000000000000E+009;1.548407226800919E-001;9.092567861080170E-002;-4.436212126165628E-003;-3.474896075204015E-004;
2.401166666666667E+009;1.550184935331345E-001;8.817691355943680E-002;-4.457332659512758E-003;-3.365922020748258E-004;
2.401333333333334E+009;1.550794392824173E-001;8.527621626853943E-002;-4.213982727378607E-003;-2.037777740042657E-004;
2.401500000000000E+009;1.556845158338547E-001;8.244290947914124E-002;-4.275223240256310E-003;-1.809816421882715E-005;
2.401666666666667E+009;1.558562368154526E-001;7.961513847112656E-002;-4.366198088973761E-003;3.859729622490704E-005;
2.401833333333334E+009;1.563566178083420E-001;7.692557573318481E-002;-4.417893942445517E-003;1.981622772291303E-004;
2.402000000000000E+009;1.571505963802338E-001;7.409540563821793E-002;-4.590435419231653E-003;1.711626682663336E-004;
2.402166666666667E+009;1.579640358686447E-001;7.156354933977127E-002;-4.363891202956438E-003;3.409965720493347E-004;
2.402333333333334E+009;1.588647663593292E-001;6.878657639026642E-002;-4.344472661614418E-003;3.631302388384938E-004;
2.402500000000000E+009;1.599909067153931E-001;6.651294976472855E-002;-4.524993244558573E-003;5.975159583613277E-004;
2.402666666666667E+009;1.612096130847931E-001;6.406405568122864E-002;-4.638790152966976E-003;7.315127877518535E-004;
2.402833333333334E+009;1.623738110065460E-001;6.166329607367516E-002;-4.508904647082090E-003;8.977450779639185E-004;
2.403000000000000E+009;1.638929098844528E-001;5.941355973482132E-002;-4.611294250935316E-003;1.020737225189805E-003;
2.403166666666667E+009;1.655860543251038E-001;5.722513422369957E-002;-4.490434192121029E-003;1.233792165294290E-003;
2.403333333333334E+009;1.670669317245483E-001;5.489262193441391E-002;-4.702647682279348E-003;1.291225082240999E-003;
2.403500000000000E+009;1.686542481184006E-001;5.278607830405235E-002;-4.478110000491142E-003;1.655363477766514E-003;
2.403666666666667E+009;1.705710291862488E-001;5.090161040425301E-002;-4.541698377579451E-003;1.884823897853494E-003;
2.403833333333334E+009;1.721744984388351E-001;4.927702620625496E-002;-4.416462965309620E-003;2.017692197114229E-003;
2.404000000000000E+009;1.738081127405167E-001;4.741858318448067E-002;-4.339061211794615E-003;2.349389484152198E-003;
2.404166666666667E+009;1.755132079124451E-001;4.594342410564423E-002;-4.174855072051287E-003;2.580621512606740E-003;
2.404333333333334E+009;1.771281212568283E-001;4.448727145791054E-002;-4.166350699961186E-003;2.818001899868250E-003;
2.404500000000000E+009;1.788486242294312E-001;4.315283522009850E-002;-3.765873843804002E-003;2.794957719743252E-003;
2.404666666666667E+009;1.806101053953171E-001;4.206081479787827E-002;-3.793314332142472E-003;3.009155392646790E-003;
2.404833333333334E+009;1.821698993444443E-001;4.086826741695404E-002;-3.676793770864606E-003;3.191743046045303E-003;
2.405000000000000E+009;1.835321187973023E-001;4.019230231642723E-002;-3.459853585809469E-003;3.288263222202659E-003;
2.405166666666667E+009;1.850773394107819E-001;3.956521674990654E-002;-3.256877418607473E-003;3.275535535067320E-003;
2.405333333333334E+009;1.864856630563736E-001;3.904234617948532E-002;-3.120020730420947E-003;3.315869718790054E-003;
2.405500000000000E+009;1.878996193408966E-001;3.869600221514702E-002;-2.730216365307570E-003;3.499439451843500E-003;
2.405666666666667E+009;1.892542541027069E-001;3.815909475088120E-002;-2.700858283787966E-003;3.513395553454757E-003;
2.405833333333334E+009;1.905423551797867E-001;3.800344094634056E-002;-2.630443312227726E-003;3.508299356326461E-003;
2.406000000000000E+009;1.915243417024612E-001;3.785510733723640E-002;-2.333327895030379E-003;3.705662908032537E-003;
2.406166666666667E+009;1.924421787261963E-001;3.797404840588570E-002;-2.216532127931714E-003;3.793594427406788E-003;
2.406333333333334E+009;1.932782977819443E-001;3.782851994037628E-002;-2.070641145110130E-003;3.723301691934466E-003;
2.406500000000000E+009;1.942794471979141E-001;3.796437010169029E-002;-2.103841397911310E-003;3.806513966992497E-003;
2.406666666666667E+009;1.949094384908676E-001;3.800818696618080E-002;-1.722622080706060E-003;3.845837665721774E-003;
2.406833333333334E+009;1.953785568475723E-001;3.809096291661263E-002;-1.634919666685164E-003;3.907488193362951E-003;
2.407000000000000E+009;1.957903504371643E-001;3.825037553906441E-002;-1.429096097126603E-003;3.769398899748921E-003;
2.407166666666667E+009;1.962131857872009E-001;3.802237287163734E-002;-1.385149778798223E-003;3.876046743243933E-003;
2.407333333333334E+009;1.960535645484924E-001;3.826089575886726E-002;-1.236717100255191E-003;3.762096399441361E-003;
2.407500000000000E+009;1.959396600723267E-001;3.846103698015213E-002;-9.810680057853460E-004;3.708202624693513E-003;
2.407666666666667E+009;1.960535943508148E-001;3.834578767418861E-002;-1.028113183565438E-003;3.722655586898327E-003;
2.407833333333334E+009;1.956409364938736E-001;3.829455375671387E-002;-8.590014185756445E-004;3.608004655689001E-003;
2.408000000000000E+009;1.955886036157608E-001;3.820802643895149E-002;-7.223196444101632E-004;3.537755692377687E-003;
2.408166666666667E+009;1.949364691972733E-001;3.783340752124786E-002;-5.447333096526563E-004;3.701173467561603E-003;
2.408333333333334E+009;1.945641338825226E-001;3.739651665091515E-002;-3.915348497685045E-004;3.445287467911840E-003;
2.408500000000000E+009;1.937836259603500E-001;3.728520870208740E-002;-3.567589155863971E-004;3.302333643659949E-003;
2.408666666666667E+009;1.932885348796845E-001;3.666531294584274E-002;-3.612579894252121E-004;3.313058754429221E-003;
2.408833333333334E+009;1.925921440124512E-001;3.583679348230362E-002;-2.490815531928092E-004;3.164156572893262E-003;
2.409000000000000E+009;1.917777806520462E-001;3.498449549078941E-002;-1.852942659752443E-004;3.139467211440206E-003;
2.409166666666667E+009;1.909056007862091E-001;3.387190401554108E-002;-2.054933866020292E-004;2.971315523609519E-003;
2.409333333333334E+009;1.899704784154892E-001;3.295325860381126E-002;-2.034932695096359E-004;3.011181252077222E-003;
2.409500000000000E+009;1.887264996767044E-001;3.163059055805206E-002;-1.111950768972747E-004;3.112020669505000E-003;
2.409666666666667E+009;1.877610236406326E-001;3.014339320361614E-002;-1.770688977558166E-004;2.936933655291796E-003;
2.409833333333334E+009;1.868376284837723E-001;2.871727012097836E-002;-6.591418059542775E-005;3.093296894803643E-003;
2.410000000000000E+009;1.858502924442291E-001;2.703554555773735E-002;-8.858611545292661E-005;2.809294965118170E-003;
2.410166666666667E+009;1.847588568925858E-001;2.507437765598297E-002;-7.946752157295123E-005;2.877101767808199E-003;
2.410333333333334E+009;1.838585734367371E-001;2.338076569139957E-002;-7.726555486442521E-005;2.891536569222808E-003;
2.410500000000000E+009;1.829168349504471E-001;2.124846354126930E-002;-1.959387191163842E-005;2.921711886301637E-003;
2.410666666666667E+009;1.819458305835724E-001;1.912598125636578E-002;1.210075133712962E-004;2.928618574514985E-003;
2.410833333333334E+009;1.814582347869873E-001;1.690726168453693E-002;1.523092796560377E-004;2.902868436649442E-003;
2.411000000000000E+009;1.806323826313019E-001;1.471680123358965E-002;2.522949944250286E-004;2.913083648309112E-003;
2.411166666666667E+009;1.798795759677887E-001;1.247071567922831E-002;2.972857910208404E-004;2.882608678191900E-003;
2.411333333333334E+009;1.792569458484650E-001;9.965491481125355E-003;5.322888027876616E-004;2.820500638335943E-003;
2.411500000000000E+009;1.788792461156845E-001;7.468581665307283E-003;4.660857375711203E-004;2.796621993184090E-003;
2.411666666666667E+009;1.788033843040466E-001;5.269442684948444E-003;4.937466001138091E-004;2.841290086507797E-003;
2.411833333333334E+009;1.783308237791061E-001;2.712029963731766E-003;6.686828564852476E-004;2.795879496261478E-003;
2.412000000000000E+009;1.786412000656128E-001;2.021334012169973E-006;6.521618925035000E-004;2.905176486819983E-003;
2.412166666666667E+009;1.785854399204254E-001;-2.325147390365601E-003;6.010229699313641E-004;2.746083308011293E-003;
2.412333333333334E+009;1.788253039121628E-001;-4.788564518094063E-003;6.104359054006636E-004;2.616230165585876E-003;
2.412500000000000E+009;1.793638169765472E-001;-7.146913092583418E-003;7.275227108038962E-004;2.534480532631278E-003;
2.412666666666667E+009;1.797097176313400E-001;-9.868457913398743E-003;6.384939770214260E-004;2.547392854467034E-003;
2.412833333333334E+009;1.806149333715439E-001;-1.218202058225870E-002;6.003192975185812E-004;2.460587071254849E-003;
2.413000000000000E+009;1.811589002609253E-001;-1.467391382902861E-002;6.360893021337688E-004;2.524474635720253E-003;
2.413166666666667E+009;1.820387095212936E-001;-1.682041212916374E-002;5.965213058516383E-004;2.521835034713149E-003;
2.413333333333334E+009;1.830880194902420E-001;-1.914526708424091E-002;5.098959081806243E-004;2.562849083915353E-003;
2.413500000000000E+009;1.839376389980316E-001;-2.140696533024311E-002;4.266442556399852E-004;2.556145889684558E-003;
2.413666666666667E+009;1.852587312459946E-001;-2.376141585409641E-002;5.390786100178957E-004;2.843556925654411E-003;
2.413833333333334E+009;1.862570196390152E-001;-2.580073103308678E-002;6.868017371743918E-004;2.777151763439179E-003;
2.414000000000000E+009;1.874183863401413E-001;-2.771354839205742E-002;5.994701059535146E-004;2.913016593083739E-003;
2.414166666666667E+009;1.885557174682617E-001;-2.951446734368801E-002;7.661267882212997E-004;2.989022526890039E-003;
2.414333333333334E+009;1.897883415222168E-001;-3.143377974629402E-002;8.571545477025211E-004;3.022147808223963E-003;
2.414500000000000E+009;1.909350454807282E-001;-3.294285386800766E-002;1.064594951458275E-003;2.954486524686217E-003;
2.414666666666667E+009;1.921429336071014E-001;-3.444493189454079E-002;1.257361494936049E-003;3.054543631151319E-003;
2.414833333333334E+009;1.933005154132843E-001;-3.582300618290901E-002;1.487198285758495E-003;3.077546367421746E-003;
2.415000000000000E+009;1.944845914840698E-001;-3.716124594211578E-002;1.576257403939962E-003;2.910197246819735E-003;
2.415166666666667E+009;1.956016421318054E-001;-3.831430897116661E-002;1.681514200754464E-003;2.851173514500260E-003;
2.415333333333334E+009;1.968097984790802E-001;-3.906830772757530E-002;1.819141209125519E-003;2.818097127601504E-003;
2.415500000000000E+009;1.979413330554962E-001;-3.986769542098045E-002;1.865984522737563E-003;2.659675665199757E-003;
2.415666666666667E+009;1.989690661430359E-001;-4.075979068875313E-002;1.946838689036667E-003;2.532823476940393E-003;
2.415833333333334E+009;1.998755186796188E-001;-4.127267375588417E-002;2.019935753196478E-003;2.553794533014298E-003;
2.416000000000000E+009;2.005899846553803E-001;-4.181590676307678E-002;2.220211783424020E-003;2.494122600182891E-003;
2.416166666666667E+009;2.012473642826080E-001;-4.229249805212021E-002;2.247057622298598E-003;2.387492218986154E-003;
2.416333333333334E+009;2.019309848546982E-001;-4.263756424188614E-002;2.284366171807051E-003;2.329091541469097E-003;
2.416500000000000E+009;2.024749517440796E-001;-4.289849847555161E-002;2.274077618494630E-003;2.180875977501273E-003;
2.416666666666667E+009;2.027168869972229E-001;-4.313446208834648E-002;2.188755432143807E-003;2.336968202143908E-003;
2.416833333333334E+009;2.027603834867477E-001;-4.309645295143127E-002;2.225618809461594E-003;2.272952813655138E-003;
2.417000000000000E+009;2.029380202293396E-001;-4.332754388451576E-002;2.209240803495050E-003;2.202335279434919E-003;
2.417166666666667E+009;2.026537507772446E-001;-4.314739629626274E-002;2.368739806115627E-003;2.249769866466522E-003;
2.417333333333334E+009;2.025542259216309E-001;-4.300260171294212E-002;2.439756179228425E-003;1.990243094041944E-003;
2.417500000000000E+009;2.022460997104645E-001;-4.286562278866768E-002;2.522409427911043E-003;2.152132336050272E-003;
2.417666666666667E+009;2.017074525356293E-001;-4.282514378428459E-002;2.494985936209559E-003;1.971937483176589E-003;
2.417833333333334E+009;2.012728154659271E-001;-4.247058928012848E-002;2.578420564532280E-003;1.895514898933470E-003;
2.418000000000000E+009;2.006308436393738E-001;-4.225669056177139E-002;2.591769676655531E-003;2.028746996074915E-003;
2.418166666666667E+009;1.999104171991348E-001;-4.227398708462715E-002;2.758682239800692E-003;1.830545370467007E-003;
2.418333333333334E+009;1.989382356405258E-001;-4.203897342085838E-002;2.893818076699972E-003;1.833714661188424E-003;
2.418500000000000E+009;1.978826820850372E-001;-4.208951070904732E-002;3.057358320802450E-003;1.719239051453769E-003;
2.418666666666667E+009;1.969050616025925E-001;-4.202358424663544E-002;3.042452735826373E-003;1.722996355965734E-003;
2.418833333333334E+009;1.956242918968201E-001;-4.220483824610710E-002;3.155582351610065E-003;1.571055385284126E-003;
2.419000000000000E+009;1.941933035850525E-001;-4.240355268120766E-002;3.251950722187758E-003;1.418549800291657E-003;
2.419166666666667E+009;1.930764615535736E-001;-4.265142604708672E-002;3.379141911864281E-003;1.424267655238509E-003;
2.419333333333334E+009;1.915799230337143E-001;-4.309577867388725E-002;3.517326200380921E-003;1.145676709711552E-003;
2.419500000000000E+009;1.901436448097229E-001;-4.367435723543167E-002;3.503688611090183E-003;1.003245008178055E-003;
2.419666666666667E+009;1.884382367134094E-001;-4.458668828010559E-002;3.431950695812702E-003;9.337145602330566E-004;
2.419833333333334E+009;1.867565661668778E-001;-4.508649185299873E-002;3.473289776593447E-003;6.966558285057545E-004;
2.420000000000000E+009;1.852144896984100E-001;-4.584604129195213E-002;3.679240820929408E-003;7.002960774116218E-004;
2.420166666666667E+009;1.836592704057694E-001;-4.696321114897728E-002;3.531749360263348E-003;5.811703740619123E-004;
2.420333333333334E+009;1.820061206817627E-001;-4.814889281988144E-002;3.643785603344441E-003;2.985318715218455E-004;
2.420500000000000E+009;1.802910715341568E-001;-4.950218647718430E-002;3.574256086722016E-003;2.895445795729756E-004;
2.420666666666667E+009;1.786425113677979E-001;-5.055254325270653E-002;3.680670168250799E-003;8.506084850523621E-005;
2.420833333333334E+009;1.770613491535187E-001;-5.206137150526047E-002;3.614952554926276E-003;2.396183481323533E-005;
2.421000000000000E+009;1.755597591400147E-001;-5.370796099305153E-002;3.676632884889841E-003;-5.148699347046204E-005;
2.421166666666667E+009;1.740763634443283E-001;-5.526934191584587E-002;3.595664165914059E-003;-2.654757990967482E-004;
2.421333333333334E+009;1.724770367145538E-001;-5.677523463964462E-002;3.661531023681164E-003;-6.095761782489717E-004;
2.421500000000000E+009;1.712748855352402E-001;-5.891627818346024E-002;3.540334990248084E-003;-7.092293235473335E-004;
2.421666666666667E+009;1.698652654886246E-001;-6.054138392210007E-002;3.451807657256723E-003;-8.010405581444502E-004;
2.421833333333334E+009;1.686502844095230E-001;-6.258909404277802E-002;3.518957411870360E-003;-8.773678564466536E-004;
2.422000000000000E+009;1.676753908395767E-001;-6.443876773118973E-002;3.503394778817892E-003;-1.016515307128429E-003;
2.422166666666667E+009;1.667523831129074E-001;-6.658548861742020E-002;3.265749197453260E-003;-1.235495088621974E-003;
2.422333333333334E+009;1.656471788883209E-001;-6.853848695755005E-002;3.284961450845003E-003;-1.297069597057998E-003;
2.422500000000000E+009;1.648803502321243E-001;-7.061865925788879E-002;3.185072913765907E-003;-1.485571847297251E-003;
2.422666666666667E+009;1.643557846546173E-001;-7.256150990724564E-002;3.079177346080542E-003;-1.559877418912947E-003;
2.422833333333334E+009;1.638839244842529E-001;-7.461309432983398E-002;2.799499314278364E-003;-1.792046474292874E-003;
2.423000000000000E+009;1.632368266582489E-001;-7.685361802577972E-002;2.752649132162333E-003;-1.879142131656408E-003;
2.423166666666667E+009;1.629309654235840E-001;-7.880692929029465E-002;2.604068722575903E-003;-2.051151124760509E-003;
2.423333333333334E+009;1.627075821161270E-001;-8.083117753267288E-002;2.448907820507884E-003;-2.050161827355623E-003;
2.423500000000000E+009;1.627537459135056E-001;-8.267977088689804E-002;2.418897347524762E-003;-1.954138278961182E-003;
2.423666666666667E+009;1.627191007137299E-001;-8.455258607864380E-002;2.089802175760269E-003;-2.010238822549582E-003;
2.423833333333334E+009;1.626323014497757E-001;-8.643210679292679E-002;2.035361481830478E-003;-2.050700364634395E-003;
2.424000000000000E+009;1.627492606639862E-001;-8.819062262773514E-002;2.093076938763261E-003;-2.167852828279138E-003;
2.424166666666667E+009;1.628833115100861E-001;-8.960156887769699E-002;1.783265382982791E-003;-2.138148294761777E-003;
2.424333333333334E+009;1.631396710872650E-001;-9.133831411600113E-002;1.819237601011992E-003;-2.104984363541007E-003;
2.424500000000000E+009;1.635038703680039E-001;-9.307411313056946E-002;1.606366131454706E-003;-2.102706348523498E-003;
2.424666666666667E+009;1.637432724237442E-001;-9.432583302259445E-002;1.480175647884607E-003;-2.047925256192684E-003;
2.424833333333334E+009;1.643020063638687E-001;-9.561830013990402E-002;1.430745003744960E-003;-2.087158616632223E-003;
2.425000000000000E+009;1.648047864437103E-001;-9.690863639116287E-002;1.397166401147842E-003;-2.030621748417616E-003;
2.425166666666667E+009;1.651068925857544E-001;-9.785532206296921E-002;1.516790245659649E-003;-2.057301579043269E-003;
2.425333333333334E+009;1.653470098972321E-001;-9.890165179967880E-002;1.217109034769237E-003;-2.143331337720156E-003;
2.425500000000000E+009;1.658957451581955E-001;-9.976270794868469E-002;1.307213795371354E-003;-2.053284551948309E-003;
2.425666666666667E+009;1.663538366556168E-001;-1.005302220582962E-001;1.014684210531414E-003;-1.916480483487248E-003;
2.425833333333334E+009;1.666163355112076E-001;-1.013551205396652E-001;9.811432100832462E-004;-1.968798693269491E-003;
2.426000000000000E+009;1.671015769243240E-001;-1.018609404563904E-001;8.340563508681953E-004;-1.917658140882850E-003;
2.426166666666667E+009;1.674718707799912E-001;-1.022785231471062E-001;8.574684034101665E-004;-1.968558644875884E-003;
2.426333333333334E+009;1.676035225391388E-001;-1.028271540999413E-001;8.072424679994583E-004;-1.863489276729524E-003;
2.426500000000000E+009;1.679936647415161E-001;-1.031522229313850E-001;7.486328831873834E-004;-1.927021890878677E-003;
2.426666666666667E+009;1.681992262601852E-001;-1.033617407083511E-001;7.525567780248821E-004;-1.788113964721561E-003;
2.426833333333334E+009;1.685062646865845E-001;-1.035972833633423E-001;5.533119547180831E-004;-1.747167902067304E-003;
2.427000000000000E+009;1.683400273323059E-001;-1.038329303264618E-001;4.687170148827136E-004;-1.745637157000601E-003;
2.427166666666667E+009;1.683904677629471E-001;-1.038215383887291E-001;5.153943784534931E-004;-1.711104880087078E-003;
2.427333333333334E+009;1.683779209852219E-001;-1.040474772453308E-001;4.758822033181787E-004;-1.649805926717818E-003;
2.427500000000000E+009;1.680854260921478E-001;-1.041401624679565E-001;4.171214823145419E-004;-1.544366008602083E-003;
2.427666666666667E+009;1.677095741033554E-001;-1.042887791991234E-001;4.192238266114146E-004;-1.411220291629434E-003;
2.427833333333334E+009;1.673631519079208E-001;-1.043423116207123E-001;4.294647369533777E-004;-1.478088088333607E-003;
