# Hz S RI R 
2400000000.0000000000 0.155057087540626498123330634371 0.106276422739028902908486884371 0.002249732846394180817845009912 -0.006014944519847632321829511426 0 0 0 0 
2400166666.6666665077 0.154918491840362604339276231258 0.103936307132244096229634067186 0.002083240542560815811157226562 -0.005991774611175060272216796875 0 0 0 0 
2400333333.3333334923 0.154969424009323092361611884371 0.101644508540630298942808451557 0.001938164234161376953125000000 -0.005905092228204011917114257812 0 0 0 0 
2400500000.0000000000 0.154969185590743990799111884371 0.098989441990852355957031250000 0.001743760774843394973157573169 -0.006139462813735008239746093750 0 0 0 0 
2400666666.6666665077 0.155048534274101312835369981258 0.096511416137218475341796875000 0.001757851103320718028424907153 -0.006167158484458923339843750000 0 0 0 0 
2400833333.3333334923 0.155198365449905395507812500000 0.093592531979084014892578125000 0.001365335192531347057939838940 -0.006155148148536682128906250000 0 0 0 0 
2401000000.0000000000 0.155337765812873812576455634371 0.090770058333873748779296875000 0.001367854885756970102425600366 -0.006330487783998250961303710938 0 0 0 0 
2401166666.6666665077 0.155996695160865811446981865629 0.087588943541049957275390625000 0.000253515143413096720546168195 -0.006378162652254104614257812500 0 0 0 0 
2401333333.3333334923 0.155863419175148010253906250000 0.085612200200557708740234375000 0.001172900665551424026489257812 -0.006856416817754507064819335938 0 0 0 0 
2401500000.0000000000 0.156419828534126309493856865629 0.082310095429420471191406250000 0.000549277581740170717239379883 -0.006567460019141435623168945312 0 0 0 0 
2401666666.6666665077 0.156788617372512789627236884371 0.079365968704223632812500000000 0.000451646803412586504786890851 -0.006707750726491212844848632812 0 0 0 0 
2401833333.3333334923 0.157345175743102999588174384371 0.076642774045467376708984375000 0.000073160117608495056629180908 -0.006643278989940881729125976562 0 0 0 0 
2402000000.0000000000 0.158321514725685091873330634371 0.074092254042625427246093750000 -0.000146385078551247688844957895 -0.006750126369297504425048828125 0 0 0 0 
2402166666.6666665077 0.159070730209350613693075615629 0.071555800735950469970703125000 -0.000669800443574786186218261719 -0.006651025265455245971679687500 0 0 0 0 
2402333333.3333334923 0.159988239407539395431356865629 0.068740285933017730712890625000 -0.001132296747528017000911093604 -0.006802252959460020065307617188 0 0 0 0 
2402500000.0000000000 0.161238461732864407638388115629 0.066262319684028625488281250000 -0.001331055071204900958417582935 -0.006679551675915718078613281250 0 0 0 0 
2402666666.6666665077 0.162415117025375393966513115629 0.063786029815673828125000000000 -0.001832378911785780949833535303 -0.006514601875096560391897870801 0 0 0 0 
2402833333.3333334923 0.163684695959091186523437500000 0.061699919402599341655690778907 -0.002101688878610730171203613281 -0.006382549647241830825805664062 0 0 0 0 
2403000000.0000000000 0.165215149521827697753906250000 0.059167254716157913208007812500 -0.002564610214903951124904013525 -0.005993520841002464294433593750 0 0 0 0 
2403166666.6666665077 0.166709735989570589920205634371 0.057221829891204827045481096093 -0.002777710789814590974095009912 -0.005782936234027147293090820312 0 0 0 0 
2403333333.3333334923 0.168163418769836398025674384371 0.055026032030582427978515625000 -0.003001834033057094053981161963 -0.005423437338322401046752929688 0 0 0 0 
2403500000.0000000000 0.169954583048820495605468750000 0.052929069846868521953542341407 -0.003333693370223044915440224756 -0.005300677847117185592651367188 0 0 0 0 
2403666666.6666665077 0.171660095453262301345986884371 0.051105048507452011108398437500 -0.003502217587083578109741210938 -0.004946703091263771057128906250 0 0 0 0 
2403833333.3333334923 0.173173353075981112381143134371 0.049307197332382202148437500000 -0.003753668162971735000610351562 -0.004530888982117176055908203125 0 0 0 0 
2404000000.0000000000 0.174747467041015597244424384371 0.047743443399667739868164062500 -0.003804846899583936171290732275 -0.004062106832861900329589843750 0 0 0 0 
2404166666.6666665077 0.176536276936531094650106865629 0.046176984906196587299387346093 -0.003647139761596918106079101562 -0.003724215319380164146423339844 0 0 0 0 
2404333333.3333334923 0.177982315421104403396768134371 0.044783186167478561401367187500 -0.003712077392265201048610068213 -0.003444346366450190977809286963 0 0 0 0 
2404500000.0000000000 0.179773971438407897949218750000 0.043299254029989242553710937500 -0.003611189778894186019897460938 -0.003245851723477243943455361475 0 0 0 0 
2404666666.6666665077 0.181110590696334811111611884371 0.042272429913282387470285783593 -0.003491367213428020910975790869 -0.002982777543365954919102334131 0 0 0 0 
2404833333.3333334923 0.182853922247886713225994981258 0.041333422064781188964843750000 -0.003398338332772254943847656250 -0.002789211692288517951965332031 0 0 0 0 
2405000000.0000000000 0.183995097875595092773437500000 0.040629144757986068725585937500 -0.003339041024446486993076943506 -0.002585194306448101997375488281 0 0 0 0 
2405166666.6666665077 0.185640856623649597167968750000 0.039962321519851691509206403907 -0.003193963784724473953247070312 -0.002426261547952889962437295068 0 0 0 0 
2405333333.3333334923 0.186929389834403991699218750000 0.039603907614946372295339216407 -0.003322384553030132813694619287 -0.002138459356501698927638388525 0 0 0 0 
2405500000.0000000000 0.188348695635795593261718750000 0.038977619260549552226979841407 -0.003008419647812842889073037256 -0.002270827302709221839904785156 0 0 0 0 
2405666666.6666665077 0.189412564039230402190838731258 0.038784667849540710449218750000 -0.002997241215780376954319619287 -0.002128198975697160200831747900 0 0 0 0 
2405833333.3333334923 0.190875947475433405120526231258 0.038453698158264160156250000000 -0.002938874065876007080078125000 -0.002005045302212237878086709131 0 0 0 0 
2406000000.0000000000 0.191789224743843106368856865629 0.038245659321546561504323591407 -0.002739061368629335923435830225 -0.001926223863847553946851420825 0 0 0 0 
2406166666.6666665077 0.192734986543655395507812500000 0.038053885102272026752512346093 -0.002646342618390918211696005713 -0.001921029645018279986140585791 0 0 0 0 
2406333333.3333334923 0.193531394004821805099325615629 0.038089152425527572631835937500 -0.002748357132077217102050781250 -0.001825765823014080958125449072 0 0 0 0 
2406500000.0000000000 0.194197893142700195312500000000 0.038123231381177902221679687500 -0.002529526827856897874119423975 -0.002100238576531409783604287256 0 0 0 0 
2406666666.6666665077 0.195004642009735107421875000000 0.038014311343431472778320312500 -0.001790148206055163903477334131 -0.001195033430121839046478271484 0 0 0 0 
2406833333.3333334923 0.195496186614036587814169365629 0.038110893219709403301198591407 -0.002585178939625620841979980469 -0.000759315502364188432693481445 0 0 0 0 
2407000000.0000000000 0.195802494883537292480468750000 0.038240212947130203247070312500 -0.002673642244189978079554892432 -0.001469484996050596020342182690 0 0 0 0 
2407166666.6666665077 0.196039244532585088531817518742 0.037949688732624047016184221093 -0.001893948181532322926762246240 -0.001951357582584023909327841650 0 0 0 0 
2407333333.3333334923 0.196015194058418301681356865629 0.038171868771314620971679687500 -0.001991450786590576171875000000 -0.001219030586071311993839882959 0 0 0 0 
2407500000.0000000000 0.195798292756080599685830634371 0.038388438522815697406809221093 -0.002140092663466929955723427881 -0.001694720820523798899409628760 0 0 0 0 
2407666666.6666665077 0.195947051048278808593750000000 0.038120269775390631938893903907 -0.001763129723258316950557089697 -0.001345970667898654937744140625 0 0 0 0 
2407833333.3333334923 0.195326700806617709060830634371 0.037862751632928848266601562500 -0.001917187240906059958814311450 -0.001553452457301319079158163916 0 0 0 0 
2408000000.0000000000 0.195272520184516906738281250000 0.037904590368270867084543596093 -0.002395827556028962135314941406 -0.001875166664831340096117329175 0 0 0 0 
2408166666.6666665077 0.194763913750648498535156250000 0.037421714514493942260742187500 -0.001910755992867052988765097510 -0.001761389081366359970690083081 0 0 0 0 
2408333333.3333334923 0.194151476025581387618856865629 0.036924671381711959838867187500 -0.001739930943585932037950825269 -0.001961546950042248205897665869 0 0 0 0 
2408500000.0000000000 0.193487480282783508300781250000 0.036397349089384078979492187500 -0.001773997442796825928928994287 -0.002105100313201547102687216650 0 0 0 0 
2408666666.6666665077 0.192921534180641202071981865629 0.035911973565816879272460937500 -0.001724041067063808007481240381 -0.002185578923672438101527548682 0 0 0 0 
2408833333.3333334923 0.192100197076797513107138115629 0.035006921738386147235910783593 -0.001873390399850904941558837891 -0.002288090530782938003540039062 0 0 0 0 
2409000000.0000000000 0.191226869821548489669638115629 0.034086611121892929077148437500 -0.001986690564081072807312011719 -0.002332531381398438973667763818 0 0 0 0 
2409166666.6666665077 0.190411612391471890548544365629 0.033098038285970687866210937500 -0.002097981050610541863682412256 -0.002570901066064835028407431494 0 0 0 0 
2409333333.3333334923 0.189380899071693392654580634371 0.032039742916822426532785783593 -0.002092671114951372146606445312 -0.002749563194811344146728515625 0 0 0 0 
2409500000.0000000000 0.188250705599784906585369981258 0.030617240816354751586914062500 -0.002210827311500906944274902344 -0.002742917276918888092041015625 0 0 0 0 
2409666666.6666665077 0.187302052974700899978799384371 0.029245836660265919076939766796 -0.002530960133299231962916708838 -0.002766493475064634843113564600 0 0 0 0 
2409833333.3333334923 0.186389952898025512695312500000 0.027657231315970420837402343750 -0.002653599949553608894348144531 -0.002824150025844573974609375000 0 0 0 0 
2410000000.0000000000 0.185291007161140386383380018742 0.026132259517908099782923514454 -0.002734114415943623022792197119 -0.002943400526419281959533691406 0 0 0 0 
2410166666.6666665077 0.184251129627227810958700615629 0.024116940796375281597097028907 -0.002929361304268240928649902344 -0.002990243025124073028564453125 0 0 0 0 
2410333333.3333334923 0.183364212512969998458700615629 0.022382494062185290945032889454 -0.002997642150148748917820595850 -0.002928835339844226837158203125 0 0 0 0 
2410500000.0000000000 0.182443022727966308593750000000 0.020485749468207359313964843750 -0.003220813814550638198852539062 -0.003070086007937788963317871094 0 0 0 0 
2410666666.6666665077 0.181708633899688692947549384371 0.018275212496519088745117187500 -0.003404737683013081984279013525 -0.002997294068336486816406250000 0 0 0 0 
2410833333.3333334923 0.181032210588455200195312500000 0.015981389209628108633021170704 -0.003604621393606067137477255713 -0.002857790328562260107753134619 0 0 0 0 
2411000000.0000000000 0.180124297738075311858807481258 0.013760038651525970804234688671 -0.003649290651082992987391806494 -0.002918388694524765014648437500 0 0 0 0 
2411166666.6666665077 0.179521784186363192459268134371 0.011551458388566970825195312500 -0.003948748111724854382986737988 -0.002951547503471374945399618994 0 0 0 0 
2411333333.3333334923 0.179050028324127197265625000000 0.009132306091487407684326171875 -0.004093657247722148895263671875 -0.002912866417318582968470908057 0 0 0 0 
2411500000.0000000000 0.178755402565002413650674384371 0.006665189750492572784423828125 -0.004444356076419354352469159863 -0.002711440436542034149169921875 0 0 0 0 
2411666666.6666665077 0.178572282195091303069744981258 0.004387792665511369705200195312 -0.004571999423205853375906659863 -0.002816208405420184135437011719 0 0 0 0 
2411833333.3333334923 0.178244352340698186676348768742 0.002005505375564097924473427881 -0.004858779720962047576904296875 -0.002713134512305260138270712744 0 0 0 0 
2412000000.0000000000 0.178476110100746210296307481258 -0.000703968980815261602401733398 -0.005020651035010814666748046875 -0.002487483900040388107299804688 0 0 0 0 
2412166666.6666665077 0.178589716553688104827557481258 -0.002854077145457268194911337744 -0.005189481656998395919799804688 -0.002433774759992957115173339844 0 0 0 0 
2412333333.3333334923 0.178765282034873990157919365629 -0.005396736785769462585449218750 -0.005567586980760098371023847363 -0.002354024443775414986851357568 0 0 0 0 
2412500000.0000000000 0.179072648286819513518963731258 -0.007835482247173786163330078125 -0.005670807790011168393606855176 -0.002066698390990496115443564307 0 0 0 0 
2412666666.6666665077 0.179626911878585787674111884371 -0.010248063132166860753069492773 -0.006116984412074089050292968750 -0.001939921639859675927403115381 0 0 0 0 
2412833333.3333334923 0.180235937237739590743856865629 -0.012475606985390189779261405079 -0.006343262735754252347464277051 -0.001761517953127623038050986182 0 0 0 0 
2413000000.0000000000 0.181076437234878512283486884371 -0.014935806393623350316057774023 -0.006471523549407721433157636426 -0.001473839045502244992497109521 0 0 0 0 
2413166666.6666665077 0.181836485862731905838174384371 -0.016955912113189700735071951954 -0.006738966796547175321097089551 -0.001110917190089822032331157153 0 0 0 0 
2413333333.3333334923 0.183070525527000399490518134371 -0.019227501004934310913085937500 -0.006970534566789866361136152051 -0.000700556673109531402587890625 0 0 0 0 
2413500000.0000000000 0.183778092265129089355468750000 -0.021572148427367210388183593750 -0.006987800356000661849975585938 -0.000333941337885335087776184082 0 0 0 0 
2413666666.6666665077 0.185055345296859713455361884371 -0.023560287430882450449010079296 -0.007138763088732957839965820312 0.000189608967048116001203814096 0 0 0 0 
2413833333.3333334923 0.186097994446754511077557481258 -0.025461111217737201345423514454 -0.007331659086048603057861328125 0.000490557169541716575622558594 0 0 0 0 
2414000000.0000000000 0.187104091048240689376669365629 -0.027337418869137760507603829296 -0.007366992533206939697265625000 0.001007919898256659941432333838 0 0 0 0 
2414166666.6666665077 0.188415184617042513748330634371 -0.029043594375252720224400704296 -0.007423911709338426589965820312 0.001563787925988435962079692310 0 0 0 0 
2414333333.3333334923 0.189638853073120089431924384371 -0.030956856906414028512974923046 -0.007128673605620861053466796875 0.001952158519998193004010844653 0 0 0 0 
2414500000.0000000000 0.190801516175270108321981865629 -0.032470270991325378417968750000 -0.006970153190195561322684003613 0.002406113315373659133911132812 0 0 0 0 
2414666666.6666665077 0.191959500312805203536825615629 -0.033835638314485549926757812500 -0.006836876273155212402343750000 0.002766664372757076783421181787 0 0 0 0 
2414833333.3333334923 0.193175852298736600021200615629 -0.035154696553945541381835937500 -0.006651963572949171066284179688 0.003189075272530316872837685693 0 0 0 0 
2415000000.0000000000 0.194106683135032709319744981258 -0.036420773714780807495117187500 -0.006510809529572725296020507812 0.003555329982191323800327920068 0 0 0 0 
2415166666.6666665077 0.195499107241630609710369981258 -0.037490017712116241455078125000 -0.006138542201370000839233398438 0.003781914710998535156250000000 0 0 0 0 
2415333333.3333334923 0.196584522724151611328125000000 -0.038449231535196297382395158593 -0.005838681478053331375122070312 0.004047416616231203079223632812 0 0 0 0 
2415500000.0000000000 0.197686553001403808593750000000 -0.039057545363903052593190778907 -0.005676577333360910415649414062 0.004413635469973087310791015625 0 0 0 0 
2415666666.6666665077 0.198722183704376192947549384371 -0.039837121963500976562500000000 -0.005331866908818483352661132812 0.004518189467489719390869140625 0 0 0 0 
2415833333.3333334923 0.199554190039634704589843750000 -0.040509838610887527465820312500 -0.004999154713004828366751386426 0.004780103452503681182861328125 0 0 0 0 
2416000000.0000000000 0.200310856103897094726562500000 -0.040948204696178443218190778907 -0.004775539971888065338134765625 0.004969520494341850280761718750 0 0 0 0 
2416166666.6666665077 0.200934708118438692947549384371 -0.041661962866783142089843750000 -0.004525212571024894714355468750 0.005097981076687574386596679688 0 0 0 0 
2416333333.3333334923 0.201586291193962097167968750000 -0.041987229138612747192382812500 -0.004217231180518865585327148438 0.005293541587889195355887128613 0 0 0 0 
2416500000.0000000000 0.202094003558158902267294365629 -0.042178533971309661865234375000 -0.003802150022238492965698242188 0.005585982464253901567940996387 0 0 0 0 
2416666666.6666665077 0.202252537012100191970986884371 -0.042610365897417068481445312500 -0.003506573382765055136439658057 0.005678502377122640609741210938 0 0 0 0 
2416833333.3333334923 0.202435195446014404296875000000 -0.042467329651117331767995466407 -0.003355146851390600204467773438 0.005729423835873603820800781250 0 0 0 0 
2417000000.0000000000 0.202562823891639709472656250000 -0.042649436742067337036132812500 -0.002886445028707385063171386719 0.005872198846191167831420898438 0 0 0 0 
2417166666.6666665077 0.202210381627082796951455634371 -0.042603399604558951641042341407 -0.002448437036946415901184082031 0.006003121379762887954711914062 0 0 0 0 
2417333333.3333334923 0.201955407857894897460937500000 -0.042402859777212142944335937500 -0.002118509262800217108485556494 0.005884516984224320325369550488 0 0 0 0 
2417500000.0000000000 0.201621264219284113128338731258 -0.042545735836029052734375000000 -0.001734126359224319891688681494 0.005880540236830711364746093750 0 0 0 0 
2417666666.6666665077 0.201109126210212707519531250000 -0.042493160814046859741210937500 -0.001625891891308129050611186450 0.005890218075364828109741210938 0 0 0 0 
2417833333.3333334923 0.200576066970825195312500000000 -0.042309012264013290405273437500 -0.001267020590603352026698447119 0.005629529710859060287475585938 0 0 0 0 
2418000000.0000000000 0.199876114726066589355468750000 -0.042050141841173171997070312500 -0.001079279347322881004930805737 0.005578937474638223648071289062 0 0 0 0 
2418166666.6666665077 0.199034422636032104492187500000 -0.041990891098976142192800153907 -0.000676561030559241771697998047 0.005491063464432954788208007812 0 0 0 0 
2418333333.3333334923 0.198076218366622897049111884371 -0.041915427893400192260742187500 -0.000373532762750983184010106219 0.005340050905942916870117187500 0 0 0 0 
2418500000.0000000000 0.197038426995277404785156250000 -0.041976887732744216918945312500 -0.000307537178741768002510070801 0.005215348210185766220092773438 0 0 0 0 
2418666666.6666665077 0.196064203977584811111611884371 -0.041997287422418587421457658593 -0.000002833646476574358953859053 0.005111216567456722259521484375 0 0 0 0 
2418833333.3333334923 0.194746032357215909103231865629 -0.042171530425548553466796875000 0.000142038261401466998174944467 0.004729300271719694137573242188 0 0 0 0 
2419000000.0000000000 0.193449661135673495193643134371 -0.042361106723546981811523437500 0.000288112176349386627047938214 0.004705057945102453231811523438 0 0 0 0 
2419166666.6666665077 0.192140579223632812500000000000 -0.042672578245401382446289062500 0.000386362138669937903254908429 0.004454044159501791000366210938 0 0 0 0 
2419333333.3333334923 0.190766900777816800216513115629 -0.043186333030462271953542341407 0.000325316155795007889896947040 0.004259702749550343427176191113 0 0 0 0 
2419500000.0000000000 0.189292162656784113128338731258 -0.043781206011772162700612653907 0.000471639272291213274002075195 0.004129615612328053388113691113 0 0 0 0 
2419666666.6666665077 0.187712579965591402908486884371 -0.044481489807367331767995466407 0.000565538066439330577850341797 0.004034453537315130233764648438 0 0 0 0 
2419833333.3333334923 0.186053484678268404861611884371 -0.045080885291099548339843750000 0.000507457763887941837310791016 0.003753891913220285935642861475 0 0 0 0 
