# Version 1.00
#
freq[Hz];re:Trc1_S11;im:Trc1_S11;re:Trc2_S21;im:Trc2_S21;
2.400000000000000E+009;1.620870381593704E-001;5.299939587712288E-002;3.388727200217545E-004;-6.240081973373890E-003;
2.400166666666667E+009;1.618531197309494E-001;5.134994536638260E-002;-3.175584424752742E-005;-6.238811183720827E-003;
2.400333333333334E+009;1.616469472646713E-001;4.931487515568733E-002;-2.250685502076522E-004;-6.362807005643845E-003;
2.400500000000000E+009;1.618525981903076E-001;4.743050411343575E-002;-3.511216200422496E-004;-6.255624815821648E-003;
2.400666666666667E+009;1.616455167531967E-001;4.534650221467018E-002;-4.414770519360900E-004;-6.421214900910854E-003;
2.400833333333334E+009;1.617902964353561E-001;4.323058575391769E-002;-9.117726003751159E-004;-6.531167309731245E-003;
2.401000000000000E+009;1.618060171604157E-001;4.106925427913666E-002;-9.990780381485820E-004;-6.500756833702326E-003;
2.401166666666667E+009;1.619438827037811E-001;3.883789107203484E-002;-1.301507814787328E-003;-6.565596908330917E-003;
2.401333333333334E+009;1.620271354913712E-001;3.671308979392052E-002;-1.587565522640944E-003;-6.707886233925819E-003;
2.401500000000000E+009;1.621732562780380E-001;3.471945598721504E-002;-1.763206324540079E-003;-6.716396193951368E-003;
2.401666666666667E+009;1.623128950595856E-001;3.265636414289475E-002;-2.130688400939107E-003;-6.706905085593462E-003;
2.401833333333334E+009;1.628879159688950E-001;3.046984970569611E-002;-2.295718062669039E-003;-6.564205978065729E-003;
2.402000000000000E+009;1.629612892866135E-001;2.844043821096420E-002;-2.544367220252752E-003;-6.467808503657579E-003;
2.402166666666667E+009;1.632703840732575E-001;2.632105350494385E-002;-3.053729189559817E-003;-6.538399495184422E-003;
2.402333333333334E+009;1.638496369123459E-001;2.438250556588173E-002;-3.258719341829419E-003;-6.578028667718172E-003;
2.402500000000000E+009;1.647642850875855E-001;2.245830930769444E-002;-3.790957620367408E-003;-6.396967917680740E-003;
2.402666666666667E+009;1.652091592550278E-001;2.060266956686974E-002;-3.830230562016368E-003;-6.323439069092274E-003;
2.402833333333334E+009;1.660401374101639E-001;1.912877708673477E-002;-4.305694252252579E-003;-6.199623458087444E-003;
2.403000000000000E+009;1.666021198034287E-001;1.738335378468037E-002;-4.456169903278351E-003;-6.156096234917641E-003;
2.403166666666667E+009;1.673177629709244E-001;1.558014750480652E-002;-4.855582956224680E-003;-5.707998760044575E-003;
2.403333333333334E+009;1.680843830108643E-001;1.417959760874510E-002;-5.138231441378593E-003;-5.553935188800097E-003;
2.403500000000000E+009;1.689320057630539E-001;1.273004431277514E-002;-5.493230652064085E-003;-5.421295762062073E-003;
2.403666666666667E+009;1.698479056358337E-001;1.124890148639679E-002;-5.737020634114742E-003;-5.190745461732149E-003;
2.403833333333334E+009;1.707931905984879E-001;9.876467287540436E-003;-6.064890418201685E-003;-4.939924459904432E-003;
2.404000000000000E+009;1.716494113206863E-001;8.749107830226421E-003;-6.270861718803644E-003;-5.017996300011873E-003;
2.404166666666667E+009;1.725582778453827E-001;7.507382426410914E-003;-6.579607259482145E-003;-4.541100468486548E-003;
2.404333333333334E+009;1.734101474285126E-001;6.699586752802134E-003;-6.883203051984310E-003;-4.410400986671448E-003;
2.404500000000000E+009;1.740121543407440E-001;5.782180931419134E-003;-6.962599232792854E-003;-3.682334441691637E-003;
2.404666666666667E+009;1.750572323799133E-001;4.882869310677052E-003;-7.111228536814451E-003;-3.614116460084915E-003;
2.404833333333334E+009;1.758817881345749E-001;4.134846385568380E-003;-7.355255540460348E-003;-3.039176808670163E-003;
2.405000000000000E+009;1.765499711036682E-001;3.430528100579977E-003;-7.580444216728210E-003;-2.774096559733152E-003;
2.405166666666667E+009;1.772038042545319E-001;2.789146034047008E-003;-7.688668556511402E-003;-2.288186922669411E-003;
2.405333333333334E+009;1.780345290899277E-001;2.166860271245241E-003;-7.646018173545599E-003;-2.061042934656143E-003;
2.405500000000000E+009;1.787142157554627E-001;1.980377594009042E-003;-7.911477237939835E-003;-1.479957369156182E-003;
2.405666666666667E+009;1.792801469564438E-001;1.562385587021709E-003;-7.862930186092854E-003;-1.180292805656791E-003;
2.405833333333334E+009;1.796236932277679E-001;1.356411725282669E-003;-7.794954814016819E-003;-9.206302347593010E-004;
2.406000000000000E+009;1.801437735557556E-001;1.131712691858411E-003;-7.765144575387240E-003;-4.554197366815060E-004;
2.406166666666667E+009;1.803165525197983E-001;8.791571017354727E-004;-7.914865389466286E-003;-1.469580020057038E-004;
2.406333333333334E+009;1.808952689170837E-001;6.612762226723135E-004;-7.691534236073494E-003;2.711343695409596E-004;
2.406500000000000E+009;1.809457391500473E-001;4.062419175170362E-004;-7.682207971811295E-003;6.044119363650680E-004;
2.406666666666667E+009;1.809575706720352E-001;1.886881800601259E-004;-7.585793267935515E-003;8.830900187604129E-004;
2.406833333333334E+009;1.811361610889435E-001;-2.527617107261904E-005;-7.446185685694218E-003;1.116751576773822E-003;
2.407000000000000E+009;1.811777353286743E-001;-1.651282800594345E-004;-7.294617127627134E-003;1.535878633148968E-003;
2.407166666666667E+009;1.811615675687790E-001;-3.293385088909417E-004;-7.324879989027977E-003;1.940465648658574E-003;
2.407333333333334E+009;1.807718575000763E-001;-6.957008154131472E-004;-7.163250818848610E-003;2.165732905268669E-003;
2.407500000000000E+009;1.804942190647125E-001;-9.640112984925509E-004;-6.996247917413712E-003;2.533512189984322E-003;
2.407666666666667E+009;1.800753623247147E-001;-1.054448424838483E-003;-6.685632746666670E-003;2.640177728608251E-003;
2.407833333333334E+009;1.795849204063416E-001;-1.756580197252333E-003;-6.625317502766848E-003;2.911758841946721E-003;
2.408000000000000E+009;1.792839169502258E-001;-2.102829981595278E-003;-6.283877883106470E-003;3.024757141247392E-003;
2.408166666666667E+009;1.785679757595062E-001;-2.446113154292107E-003;-6.114475894719362E-003;3.296725451946259E-003;
2.408333333333334E+009;1.782236546278000E-001;-3.104444826021791E-003;-5.995915737003088E-003;3.423472167924047E-003;
2.408500000000000E+009;1.774738729000092E-001;-3.763558575883508E-003;-5.818003788590431E-003;3.855257760733366E-003;
2.408666666666667E+009;1.766774207353592E-001;-4.598932806402445E-003;-5.498001817613840E-003;3.953606821596623E-003;
2.408833333333334E+009;1.759314835071564E-001;-5.447355564683676E-003;-5.368524231016636E-003;4.341303370893002E-003;
2.409000000000000E+009;1.750667691230774E-001;-6.418515462428331E-003;-5.262078717350960E-003;4.304501693695784E-003;
2.409166666666667E+009;1.743486076593399E-001;-7.427250966429710E-003;-4.880152642726898E-003;4.417922347784042E-003;
2.409333333333334E+009;1.736175715923309E-001;-8.693690411746502E-003;-4.629908129572868E-003;4.516805987805128E-003;
2.409500000000000E+009;1.725651621818543E-001;-9.957860223948956E-003;-4.341155290603638E-003;4.683464299887419E-003;
2.409666666666667E+009;1.718905121088028E-001;-1.124783139675856E-002;-4.265634343028069E-003;4.814864601939917E-003;
2.409833333333334E+009;1.710419058799744E-001;-1.243362482637167E-002;-4.050471819937229E-003;4.708624910563231E-003;
2.410000000000000E+009;1.703662127256393E-001;-1.397409010678530E-002;-3.902707947418094E-003;4.845894407480955E-003;
2.410166666666667E+009;1.696452647447586E-001;-1.555391214787960E-002;-3.724461887031794E-003;4.954091273248196E-003;
2.410333333333334E+009;1.687965542078018E-001;-1.727245375514031E-002;-3.439601045101881E-003;4.873914178460836E-003;
2.410500000000000E+009;1.681744307279587E-001;-1.883511245250702E-002;-3.194419201463461E-003;4.943771753460169E-003;
2.410666666666667E+009;1.674816459417343E-001;-2.090288884937763E-002;-3.073184983804822E-003;4.915711935609579E-003;
2.410833333333334E+009;1.670617759227753E-001;-2.252963371574879E-002;-2.945689018815756E-003;5.042422562837601E-003;
2.411000000000000E+009;1.663518697023392E-001;-2.447582595050335E-002;-2.836706349626184E-003;5.045002792030573E-003;
2.411166666666667E+009;1.660666763782501E-001;-2.648028358817101E-002;-2.519756322726607E-003;4.979588557034731E-003;
2.411333333333334E+009;1.658079326152802E-001;-2.828080020844936E-002;-2.564711496233940E-003;5.097891669720411E-003;
2.411500000000000E+009;1.654593646526337E-001;-3.050652705132961E-002;-2.208885969594121E-003;5.183241795748472E-003;
2.411666666666667E+009;1.653322279453278E-001;-3.241242095828056E-002;-2.185853431001306E-003;5.088750738650560E-003;
2.411833333333334E+009;1.651194393634796E-001;-3.439798206090927E-002;-2.058036392554641E-003;5.223031621426344E-003;
2.412000000000000E+009;1.652428358793259E-001;-3.658299520611763E-002;-1.904238131828606E-003;5.223289132118225E-003;
2.412166666666667E+009;1.650809198617935E-001;-3.865657374262810E-002;-1.896464033052325E-003;5.387688521295786E-003;
2.412333333333334E+009;1.654646843671799E-001;-4.070795699954033E-002;-1.625261735171080E-003;5.415316205471754E-003;
2.412500000000000E+009;1.652688831090927E-001;-4.246858879923821E-002;-1.613790867850184E-003;5.525421816855669E-003;
2.412666666666667E+009;1.657272726297379E-001;-4.464517533779144E-002;-1.440905733034015E-003;5.568332504481077E-003;
2.412833333333334E+009;1.660828441381455E-001;-4.668245464563370E-002;-1.169683295302093E-003;5.544688552618027E-003;
2.413000000000000E+009;1.664003580808640E-001;-4.858018830418587E-002;-1.193422591313720E-003;5.767193157225847E-003;
2.413166666666667E+009;1.666881293058395E-001;-5.041935294866562E-002;-7.923353114165366E-004;5.687081255018711E-003;
2.413333333333334E+009;1.670271903276444E-001;-5.213411897420883E-002;-5.313404253683984E-004;5.580041557550430E-003;
2.413500000000000E+009;1.676345169544220E-001;-5.392990261316299E-002;-4.170525935478509E-004;6.016442552208901E-003;
2.413666666666667E+009;1.684251129627228E-001;-5.559497699141502E-002;-1.962046517292038E-004;5.834222771227360E-003;
2.413833333333334E+009;1.687410771846771E-001;-5.705013871192932E-002;1.958559150807560E-004;5.875479429960251E-003;
2.414000000000000E+009;1.692247539758682E-001;-5.862791091203690E-002;3.644734388217330E-004;5.870121065527201E-003;
2.414166666666667E+009;1.698396205902100E-001;-5.980634689331055E-002;5.760524072684348E-004;5.849660374224186E-003;
2.414333333333334E+009;1.703188717365265E-001;-6.114117056131363E-002;8.996581309475005E-004;5.833324044942856E-003;
2.414500000000000E+009;1.712251305580139E-001;-6.227802485227585E-002;1.064909272827208E-003;5.845680367201567E-003;
2.414666666666667E+009;1.716082692146301E-001;-6.339232623577118E-002;1.214834046550095E-003;5.627832841128111E-003;
2.414833333333334E+009;1.720855683088303E-001;-6.445354968309403E-002;1.380594563670456E-003;5.740827880799770E-003;
2.415000000000000E+009;1.724820584058762E-001;-6.529723107814789E-002;1.651809085160494E-003;5.617875140160322E-003;
2.415166666666667E+009;1.730521321296692E-001;-6.609103083610535E-002;1.933244406245649E-003;5.636997055262327E-003;
2.415333333333334E+009;1.736338287591934E-001;-6.688763946294785E-002;2.118580276146531E-003;5.607811734080315E-003;
2.415500000000000E+009;1.739280223846436E-001;-6.740788370370865E-002;2.233924111351371E-003;5.292713642120361E-003;
2.415666666666667E+009;1.741428375244141E-001;-6.788598746061325E-002;2.481179777532816E-003;5.276516545563936E-003;
2.415833333333334E+009;1.745867282152176E-001;-6.829749047756195E-002;2.688942709937692E-003;5.093184765428305E-003;
2.416000000000000E+009;1.744751781225205E-001;-6.880851089954376E-002;3.042682306841016E-003;4.984889645129442E-003;
2.416166666666667E+009;1.748055517673492E-001;-6.914040446281433E-002;3.034640336409211E-003;4.969069268554449E-003;
2.416333333333334E+009;1.746480017900467E-001;-6.929302960634232E-002;3.342384705320001E-003;4.754764493554831E-003;
2.416500000000000E+009;1.745388507843018E-001;-6.943982094526291E-002;3.512778086587787E-003;4.602055530995131E-003;
2.416666666666667E+009;1.744247376918793E-001;-6.973198056221008E-002;3.761717583984137E-003;4.464398603886366E-003;
2.416833333333334E+009;1.742465049028397E-001;-6.999942660331726E-002;3.832295071333647E-003;4.155288450419903E-003;
2.417000000000000E+009;1.735946834087372E-001;-7.005679607391357E-002;4.027540795505047E-003;3.961426671594381E-003;
2.417166666666667E+009;1.732965558767319E-001;-6.994440406560898E-002;4.094755277037621E-003;3.912707790732384E-003;
2.417333333333334E+009;1.727476567029953E-001;-7.011807709932327E-002;4.217601846903563E-003;3.681642236188054E-003;
2.417500000000000E+009;1.720634996891022E-001;-7.027235627174377E-002;4.407165572047234E-003;3.423606511205435E-003;
2.417666666666667E+009;1.714181900024414E-001;-7.023902982473373E-002;4.418963566422463E-003;3.236006246879697E-003;
2.417833333333334E+009;1.705152988433838E-001;-7.044361531734467E-002;4.411625210195780E-003;3.167959162965417E-003;
2.418000000000000E+009;1.695209741592407E-001;-7.064377516508102E-002;4.657422658056021E-003;2.861282322555780E-003;
2.418166666666667E+009;1.683912128210068E-001;-7.072761654853821E-002;4.700666293501854E-003;2.803017618134618E-003;
2.418333333333334E+009;1.675891131162643E-001;-7.108638435602188E-002;4.612069576978684E-003;2.515740925446153E-003;
2.418500000000000E+009;1.663873046636581E-001;-7.121665775775909E-002;4.765536170452833E-003;2.340307924896479E-003;
2.418666666666667E+009;1.652289628982544E-001;-7.167270034551621E-002;4.790380131453276E-003;2.109812805429101E-003;
2.418833333333334E+009;1.638498008251190E-001;-7.211488485336304E-002;4.824100062251091E-003;2.126985928043723E-003;
2.419000000000000E+009;1.625029742717743E-001;-7.256969809532166E-002;4.883259069174528E-003;1.748653477989137E-003;
2.419166666666667E+009;1.613018959760666E-001;-7.307564467191696E-002;4.717031959444284E-003;1.696496619842947E-003;
2.419333333333334E+009;1.597159653902054E-001;-7.353433221578598E-002;4.840036388486624E-003;1.548129366710782E-003;
2.419500000000000E+009;1.586090028285980E-001;-7.437498122453690E-002;4.727741703391075E-003;1.406130264513195E-003;
2.419666666666667E+009;1.573077738285065E-001;-7.534656673669815E-002;5.029312334954739E-003;1.183608314022422E-003;
2.419833333333334E+009;1.557938456535339E-001;-7.596381753683090E-002;4.816267173737288E-003;1.042898395098746E-003;
2.420000000000000E+009;1.545531153678894E-001;-7.707371562719345E-002;4.950580187141895E-003;8.935878286138177E-004;
2.420166666666667E+009;1.533734053373337E-001;-7.800713181495667E-002;4.877771250903606E-003;6.673524621874094E-004;
2.420333333333334E+009;1.520929336547852E-001;-7.918842881917954E-002;4.814864136278629E-003;5.390392616391182E-004;
2.420500000000000E+009;1.509637981653214E-001;-8.036279678344727E-002;4.857284482568502E-003;4.918436752632260E-004;
2.420666666666667E+009;1.496874094009399E-001;-8.165961503982544E-002;5.062086042016745E-003;1.341144961770624E-004;
2.420833333333334E+009;1.488072574138641E-001;-8.303493261337280E-002;4.977470263838768E-003;3.417135667405091E-005;
2.421000000000000E+009;1.474898159503937E-001;-8.468058705329895E-002;4.990476649254561E-003;-9.905240585794672E-005;
2.421166666666667E+009;1.467382311820984E-001;-8.615135401487351E-002;4.889023490250111E-003;-3.542017366271466E-004;
2.421333333333334E+009;1.459717303514481E-001;-8.787998557090759E-002;4.925141576677561E-003;-3.722636320162565E-004;
2.421500000000000E+009;1.448506116867065E-001;-8.930087089538574E-002;4.903980996459723E-003;-6.451751105487347E-004;
2.421666666666667E+009;1.442957967519760E-001;-9.103832393884659E-002;4.807556048035622E-003;-7.238045218400657E-004;
2.421833333333334E+009;1.438727080821991E-001;-9.285792708396912E-002;4.854440689086914E-003;-9.841434657573700E-004;
2.422000000000000E+009;1.432492434978485E-001;-9.452658146619797E-002;4.758340306580067E-003;-1.113423029892147E-003;
2.422166666666667E+009;1.427145153284073E-001;-9.647053480148315E-002;4.552633967250586E-003;-1.372592756524682E-003;
2.422333333333334E+009;1.425991505384445E-001;-9.821223467588425E-002;4.634280689060688E-003;-1.564259524457157E-003;
2.422500000000000E+009;1.421609073877335E-001;-9.977152943611145E-002;4.539460875093937E-003;-1.547080581076443E-003;
2.422666666666667E+009;1.419587284326553E-001;-1.017502173781395E-001;4.358483944088221E-003;-1.807387219741941E-003;
2.422833333333334E+009;1.419461220502853E-001;-1.036654785275459E-001;4.157032817602158E-003;-1.926437369547784E-003;
2.423000000000000E+009;1.420466750860214E-001;-1.053996086120606E-001;4.302972462028265E-003;-2.135404618456960E-003;
2.423166666666667E+009;1.420798301696777E-001;-1.070455089211464E-001;4.042716231197119E-003;-2.166554098948836E-003;
2.423333333333334E+009;1.422853469848633E-001;-1.086321249604225E-001;3.954545129090548E-003;-2.275009872391820E-003;
2.423500000000000E+009;1.426085382699966E-001;-1.103932783007622E-001;3.811955917626619E-003;-2.408561296761036E-003;
2.423666666666667E+009;1.427907645702362E-001;-1.121320500969887E-001;3.963927738368511E-003;-2.467173850163817E-003;
2.423833333333334E+009;1.431842297315598E-001;-1.135403737425804E-001;3.726928727701306E-003;-2.656367840245366E-003;
2.424000000000000E+009;1.436937004327774E-001;-1.148782297968864E-001;3.603599965572357E-003;-2.709608292207122E-003;
2.424166666666667E+009;1.440177559852600E-001;-1.162742972373962E-001;3.540107747539878E-003;-2.921927720308304E-003;
2.424333333333334E+009;1.445446610450745E-001;-1.175734475255013E-001;3.251054324209690E-003;-3.046835074201226E-003;
2.424500000000000E+009;1.450751423835754E-001;-1.188218891620636E-001;3.266004379838705E-003;-3.043630160391331E-003;
2.424666666666667E+009;1.456930935382843E-001;-1.197104007005692E-001;3.012654371559620E-003;-3.083677496761084E-003;
2.424833333333334E+009;1.459085345268250E-001;-1.208712682127953E-001;2.972496673464775E-003;-3.254539333283901E-003;
2.425000000000000E+009;1.466381400823593E-001;-1.218222975730896E-001;2.720555523410440E-003;-3.320690942928195E-003;
2.425166666666667E+009;1.469026058912277E-001;-1.226740181446075E-001;2.744012512266636E-003;-3.447811817750335E-003;
2.425333333333334E+009;1.473735272884369E-001;-1.232804730534554E-001;2.326448215171695E-003;-3.691853024065495E-003;
2.425500000000000E+009;1.479137390851975E-001;-1.239696368575096E-001;2.395582385361195E-003;-3.682592418044806E-003;
2.425666666666667E+009;1.481308937072754E-001;-1.244895011186600E-001;2.226256532594562E-003;-3.862528363242745E-003;
2.425833333333334E+009;1.486251801252365E-001;-1.249586716294289E-001;1.938493573106825E-003;-3.950933460146189E-003;
2.426000000000000E+009;1.487631201744080E-001;-1.254263669252396E-001;1.836137729696930E-003;-3.888681530952454E-003;
2.426166666666667E+009;1.491778343915939E-001;-1.257319003343582E-001;1.501428894698620E-003;-3.960537258535624E-003;
2.426333333333334E+009;1.492106914520264E-001;-1.258578747510910E-001;1.394194900058210E-003;-4.073373507708311E-003;
2.426500000000000E+009;1.492586880922318E-001;-1.260696500539780E-001;1.167750684544444E-003;-4.089739173650742E-003;
2.426666666666667E+009;1.493968665599823E-001;-1.260180771350861E-001;1.076678046956658E-003;-4.051353782415390E-003;
2.426833333333334E+009;1.491386294364929E-001;-1.261037886142731E-001;8.177239797078073E-004;-3.941162955015898E-003;
2.427000000000000E+009;1.489286869764328E-001;-1.261647343635559E-001;6.601590430364013E-004;-4.031128250062466E-003;
2.427166666666667E+009;1.486406922340393E-001;-1.260152012109757E-001;4.764630284626037E-004;-3.971722908318043E-003;
2.427333333333334E+009;1.481574773788452E-001;-1.259286701679230E-001;3.983640635851771E-004;-3.929845523089171E-003;
2.427500000000000E+009;1.477253586053848E-001;-1.258406192064285E-001;6.396785465767607E-005;-3.894421970471740E-003;
2.427666666666667E+009;1.470081359148026E-001;-1.257828325033188E-001;5.611724191112444E-005;-3.783994121477008E-003;
