# Version 1.00
#
freq[Hz];re:Trc1_S11;im:Trc1_S11;re:Trc2_S21;im:Trc2_S21;
2.400000000000000E+009;1.679242700338364E-001;4.096565768122673E-002;1.881454139947891E-003;-1.283157384023070E-003;
2.400166666666667E+009;1.686105728149414E-001;4.015008360147476E-002;1.797968405298889E-003;-1.363522489555180E-003;
2.400333333333334E+009;1.691460162401199E-001;3.906822949647903E-002;1.913543557748199E-003;-1.260381657630205E-003;
2.400500000000000E+009;1.695167720317841E-001;3.833067044615746E-002;1.756711280904710E-003;-1.276124850846827E-003;
2.400666666666667E+009;1.700046360492706E-001;3.741554915904999E-002;1.826464431360364E-003;-1.147884875535965E-003;
2.400833333333334E+009;1.701882928609848E-001;3.667624667286873E-002;1.913021435029805E-003;-1.027023303322494E-003;
2.401000000000000E+009;1.704564988613129E-001;3.583751618862152E-002;2.115783281624317E-003;-1.034284941852093E-003;
2.401166666666667E+009;1.707466095685959E-001;3.491852432489395E-002;2.177918329834938E-003;-8.732971618883312E-004;
2.401333333333334E+009;1.707364767789841E-001;3.419772535562515E-002;2.339491154998541E-003;-1.034414512105286E-003;
2.401500000000000E+009;1.711772084236145E-001;3.322831541299820E-002;2.629125025123358E-003;-1.171765616163611E-003;
2.401666666666667E+009;1.711837798357010E-001;3.234348073601723E-002;2.621214371174574E-003;-1.154375495389104E-003;
2.401833333333334E+009;1.713462024927139E-001;3.155701234936714E-002;2.891740761697292E-003;-1.186845358461142E-003;
2.402000000000000E+009;1.712579429149628E-001;3.075633570551872E-002;3.078738693147898E-003;-1.504207495599985E-003;
2.402166666666667E+009;1.712646186351776E-001;2.962927520275116E-002;3.153545083478093E-003;-1.542426995001733E-003;
2.402333333333334E+009;1.712314039468765E-001;2.873948588967323E-002;3.255304414778948E-003;-1.975772203877568E-003;
2.402500000000000E+009;1.714178174734116E-001;2.786745131015778E-002;3.507677000015974E-003;-2.216578228399158E-003;
2.402666666666667E+009;1.713146269321442E-001;2.700942568480969E-002;3.268246306106448E-003;-2.473975531756878E-003;
2.402833333333334E+009;1.713209152221680E-001;2.594253979623318E-002;3.343569580465555E-003;-2.597225597128272E-003;
2.403000000000000E+009;1.710684448480606E-001;2.469880320131779E-002;3.118612803518772E-003;-3.026204649358988E-003;
2.403166666666667E+009;1.712737828493118E-001;2.376380003988743E-002;3.075630869716406E-003;-3.306882223114371E-003;
2.403333333333334E+009;1.711132377386093E-001;2.244621329009533E-002;3.018984803929925E-003;-3.700501751154661E-003;
2.403500000000000E+009;1.709887087345123E-001;2.140499092638493E-002;2.856043633073568E-003;-3.715770086273551E-003;
2.403666666666667E+009;1.708573997020721E-001;2.016026154160500E-002;2.509692218154669E-003;-4.032279830425978E-003;
2.403833333333334E+009;1.709512770175934E-001;1.888847723603249E-002;2.290191128849983E-003;-4.269993863999844E-003;
2.404000000000000E+009;1.708989590406418E-001;1.772950775921345E-002;1.903279917314649E-003;-4.328851122409105E-003;
2.404166666666667E+009;1.707345694303513E-001;1.629963330924511E-002;1.702954061329365E-003;-4.248223733156920E-003;
2.404333333333334E+009;1.704769134521484E-001;1.493725366890431E-002;1.468549249693751E-003;-4.321456421166658E-003;
2.404500000000000E+009;1.703650802373886E-001;1.342041324824095E-002;1.394956023432314E-003;-4.519558511674404E-003;
2.404666666666667E+009;1.703157275915146E-001;1.214148383587599E-002;1.065696123987436E-003;-4.438546951860189E-003;
2.404833333333334E+009;1.703461557626724E-001;1.079026795923710E-002;8.688688394613564E-004;-4.361257422715426E-003;
2.405000000000000E+009;1.703250110149384E-001;9.124774485826492E-003;8.460973040200770E-004;-4.550277255475521E-003;
2.405166666666667E+009;1.701298505067825E-001;7.584146689623594E-003;5.151918157935143E-004;-4.374408628791571E-003;
2.405333333333334E+009;1.702162325382233E-001;5.897860974073410E-003;4.838387831114233E-004;-4.573151469230652E-003;
2.405500000000000E+009;1.702069491147995E-001;4.449102561920881E-003;1.881778880488128E-004;-4.452784545719624E-003;
2.405666666666667E+009;1.701702326536179E-001;2.910788170993328E-003;-6.305974238784984E-005;-4.587655887007713E-003;
2.405833333333334E+009;1.700451374053955E-001;1.355599379166961E-003;-2.166365447919816E-004;-4.442196339368820E-003;
2.406000000000000E+009;1.699752211570740E-001;-3.107969241682440E-004;-6.329826428554952E-004;-4.357277415692806E-003;
2.406166666666667E+009;1.696982234716415E-001;-1.800749101676047E-003;-7.051072898320854E-004;-4.217564594000578E-003;
2.406333333333334E+009;1.699134260416031E-001;-3.397536929696798E-003;-1.006058417260647E-003;-4.194928333163261E-003;
2.406500000000000E+009;1.697959154844284E-001;-5.043372977524996E-003;-1.018803566694260E-003;-4.036836791783571E-003;
2.406666666666667E+009;1.694443970918655E-001;-6.554058752954006E-003;-1.203760504722595E-003;-3.933974076062441E-003;
2.406833333333334E+009;1.694274842739105E-001;-8.059985935688019E-003;-1.196161378175020E-003;-3.892350010573864E-003;
2.407000000000000E+009;1.692818254232407E-001;-9.553117677569389E-003;-1.340844901278615E-003;-3.724520560353994E-003;
2.407166666666667E+009;1.692273616790772E-001;-1.081476639956236E-002;-1.493993215262890E-003;-3.437105566263199E-003;
2.407333333333334E+009;1.689739078283310E-001;-1.238707266747952E-002;-1.499880920164287E-003;-3.415392246097326E-003;
2.407500000000000E+009;1.688309311866760E-001;-1.365120522677898E-002;-1.533980015665293E-003;-3.164255758747459E-003;
2.407666666666667E+009;1.686450988054276E-001;-1.469554286450148E-002;-1.474700635299087E-003;-3.281937446445227E-003;
2.407833333333334E+009;1.684089004993439E-001;-1.607028394937515E-002;-1.531976391561329E-003;-3.203901927918196E-003;
2.408000000000000E+009;1.683366149663925E-001;-1.727243699133396E-002;-1.688908552750945E-003;-3.055269597098231E-003;
2.408166666666667E+009;1.682104319334030E-001;-1.795443892478943E-002;-1.778994454070926E-003;-3.121923189610243E-003;
2.408333333333334E+009;1.684304326772690E-001;-1.902707293629646E-002;-1.895253430120647E-003;-2.931179478764534E-003;
2.408500000000000E+009;1.682700812816620E-001;-1.996490918099880E-002;-1.875482150353491E-003;-2.958064200356603E-003;
2.408666666666667E+009;1.682849228382111E-001;-2.088616788387299E-002;-1.934745465405285E-003;-2.951852977275848E-003;
2.408833333333334E+009;1.682987362146378E-001;-2.179065905511379E-002;-2.021631458774209E-003;-2.743544057011604E-003;
2.409000000000000E+009;1.684376150369644E-001;-2.256128191947937E-002;-2.103400882333517E-003;-2.481239847838879E-003;
2.409166666666667E+009;1.686849892139435E-001;-2.348678186535835E-002;-2.037353580817580E-003;-2.470519160851836E-003;
2.409333333333334E+009;1.689933091402054E-001;-2.437453530728817E-002;-2.040966879576445E-003;-2.395751653239131E-003;
2.409500000000000E+009;1.690341830253601E-001;-2.544425055384636E-002;-2.078754128888249E-003;-2.427218249067664E-003;
2.409666666666667E+009;1.690330952405930E-001;-2.611086703836918E-002;-2.225303556770086E-003;-2.273789839819074E-003;
2.409833333333334E+009;1.691141724586487E-001;-2.687984146177769E-002;-1.949270488694310E-003;-2.187301637604833E-003;
2.410000000000000E+009;1.691691577434540E-001;-2.780031412839890E-002;-1.937008812092245E-003;-2.065833890810609E-003;
2.410166666666667E+009;1.692731380462647E-001;-2.884432673454285E-002;-2.111744135618210E-003;-2.164741046726704E-003;
2.410333333333334E+009;1.693697869777679E-001;-2.972999773919582E-002;-1.920072594657540E-003;-2.009616233408451E-003;
2.410500000000000E+009;1.691443473100662E-001;-3.045793995261192E-002;-1.986620482057333E-003;-1.986717805266380E-003;
2.410666666666667E+009;1.692437231540680E-001;-3.162845596671104E-002;-1.966227311640978E-003;-2.012018114328384E-003;
2.410833333333334E+009;1.691950410604477E-001;-3.240542486310005E-002;-1.877387869171798E-003;-2.036116551607847E-003;
2.411000000000000E+009;1.690390706062317E-001;-3.321709856390953E-002;-2.047177171334624E-003;-2.003884175792337E-003;
2.411166666666667E+009;1.689492464065552E-001;-3.420611470937729E-002;-1.930658123455942E-003;-2.208673628047109E-003;
2.411333333333334E+009;1.687103360891342E-001;-3.505369275808334E-002;-2.169926417991519E-003;-2.309223171323538E-003;
2.411500000000000E+009;1.684323251247406E-001;-3.620225936174393E-002;-2.105403225868940E-003;-2.112022833898664E-003;
2.411666666666667E+009;1.682476848363876E-001;-3.680344671010971E-002;-2.211340470239520E-003;-2.047571586444974E-003;
2.411833333333334E+009;1.679051220417023E-001;-3.780759125947952E-002;-2.329885726794601E-003;-2.194385277107358E-003;
2.412000000000000E+009;1.677946448326111E-001;-3.882793709635735E-002;-2.379033016040921E-003;-2.209255704656243E-003;
2.412166666666667E+009;1.672479808330536E-001;-3.971306234598160E-002;-2.398824319243431E-003;-2.175573958083987E-003;
2.412333333333334E+009;1.670813113451004E-001;-4.049969837069511E-002;-2.690633526071906E-003;-2.013819059357047E-003;
2.412500000000000E+009;1.667203456163406E-001;-4.155214875936508E-002;-2.756458939984441E-003;-1.823827740736306E-003;
2.412666666666667E+009;1.664621084928513E-001;-4.254591092467308E-002;-2.838769694790244E-003;-1.834434806369245E-003;
2.412833333333334E+009;1.660858541727066E-001;-4.341303929686546E-002;-2.985180122777820E-003;-1.562623539939523E-003;
2.413000000000000E+009;1.654301583766937E-001;-4.452027380466461E-002;-3.036267589777708E-003;-1.620778464712203E-003;
2.413166666666667E+009;1.649416536092758E-001;-4.548830911517143E-002;-2.820628928020597E-003;-1.581109594553709E-003;
2.413333333333334E+009;1.644630879163742E-001;-4.649976268410683E-002;-2.739056712016463E-003;-1.348462421447039E-003;
2.413500000000000E+009;1.641530543565750E-001;-4.751232638955116E-002;-2.968240529298782E-003;-1.212206203490496E-003;
2.413666666666667E+009;1.637159436941147E-001;-4.866107553243637E-002;-2.991401823237538E-003;-1.129223150201142E-003;
2.413833333333334E+009;1.631033122539520E-001;-4.961672797799110E-002;-2.868545707315207E-003;-1.162178930826485E-003;
2.414000000000000E+009;1.624667197465897E-001;-5.053261294960976E-002;-2.779878675937653E-003;-9.854665258899331E-004;
2.414166666666667E+009;1.622930616140366E-001;-5.133114010095596E-002;-2.870259806513786E-003;-9.725351119413972E-004;
2.414333333333334E+009;1.617265045642853E-001;-5.228801071643829E-002;-2.950447378680110E-003;-1.206525252200663E-003;
2.414500000000000E+009;1.618866920471191E-001;-5.331691727042198E-002;-2.783435862511396E-003;-8.533421787433326E-004;
2.414666666666667E+009;1.613109558820725E-001;-5.424883216619492E-002;-2.881129970774055E-003;-1.155098201707006E-003;
2.414833333333334E+009;1.609884053468704E-001;-5.519561469554901E-002;-2.883926033973694E-003;-1.029283273965120E-003;
2.415000000000000E+009;1.607333719730377E-001;-5.634759739041328E-002;-2.747452817857266E-003;-1.159013831056655E-003;
2.415166666666667E+009;1.605968624353409E-001;-5.749661102890968E-002;-3.108776174485683E-003;-1.237878925167024E-003;
2.415333333333334E+009;1.605392545461655E-001;-5.860038474202156E-002;-3.277076873928309E-003;-9.795565856620669E-004;
2.415500000000000E+009;1.604711413383484E-001;-5.964021012187004E-002;-3.317462746053934E-003;-1.035992754623294E-003;
2.415666666666667E+009;1.601756811141968E-001;-6.080174073576927E-002;-3.332803025841713E-003;-1.028763013891876E-003;
2.415833333333334E+009;1.600139588117600E-001;-6.209439039230347E-002;-3.523676889017224E-003;-8.829931612126529E-004;
2.416000000000000E+009;1.597707420587540E-001;-6.341950595378876E-002;-3.671287326142192E-003;-7.549393340013921E-004;
2.416166666666667E+009;1.598133444786072E-001;-6.456042081117630E-002;-3.838794073089957E-003;-6.034909165464342E-004;
2.416333333333334E+009;1.594740003347397E-001;-6.577345728874207E-002;-3.908195998519659E-003;-2.777994668576866E-004;
2.416500000000000E+009;1.591517627239227E-001;-6.710928678512573E-002;-4.079558886587620E-003;-9.775781654752791E-005;
2.416666666666667E+009;1.587818413972855E-001;-6.814083456993103E-002;-4.080714192241430E-003;1.441552594769746E-004;
2.416833333333334E+009;1.584850549697876E-001;-6.940661370754242E-002;-4.092150833457708E-003;2.844246337190270E-004;
2.417000000000000E+009;1.581423729658127E-001;-7.067900151014328E-002;-3.958237357437611E-003;6.339065730571747E-004;
2.417166666666667E+009;1.577920764684677E-001;-7.151657342910767E-002;-3.948335070163012E-003;9.137451997958124E-004;
2.417333333333334E+009;1.576161086559296E-001;-7.254014164209366E-002;-3.796793287619948E-003;9.475308470427990E-004;
2.417500000000000E+009;1.570994257926941E-001;-7.365325093269348E-002;-3.585661528632045E-003;1.258475589565933E-003;
2.417666666666667E+009;1.569185107946396E-001;-7.445585727691650E-002;-3.617564449086785E-003;1.365424133837223E-003;
2.417833333333334E+009;1.566480398178101E-001;-7.532832026481628E-002;-3.396786516532302E-003;1.489528105594218E-003;
2.418000000000000E+009;1.563126444816589E-001;-7.622478157281876E-002;-3.126889932900667E-003;1.522039878182113E-003;
2.418166666666667E+009;1.559580713510513E-001;-7.688947021961212E-002;-2.904008608311415E-003;1.719823805615306E-003;
2.418333333333334E+009;1.560699343681335E-001;-7.776693999767304E-002;-2.672902075573802E-003;1.611619256436825E-003;
2.418500000000000E+009;1.555932611227036E-001;-7.852950692176819E-002;-2.608745126053691E-003;1.742798252962530E-003;
2.418666666666667E+009;1.553493589162827E-001;-7.938773185014725E-002;-2.516377950087190E-003;1.693427097052336E-003;
2.418833333333334E+009;1.549092978239059E-001;-8.018962293863297E-002;-2.419902477413416E-003;1.714812126010656E-003;
2.419000000000000E+009;1.547514200210571E-001;-8.089878410100937E-002;-2.264016307890415E-003;1.582252909429371E-003;
2.419166666666667E+009;1.543900519609451E-001;-8.147614449262619E-002;-2.402992220595479E-003;1.398049294948578E-003;
2.419333333333334E+009;1.539625525474548E-001;-8.200973272323608E-002;-2.304611029103398E-003;1.323728472925723E-003;
2.419500000000000E+009;1.535161882638931E-001;-8.293510228395462E-002;-2.325100358575583E-003;1.363464398309588E-003;
2.419666666666667E+009;1.533810496330261E-001;-8.354049921035767E-002;-2.350205089896917E-003;1.343286479823291E-003;
2.419833333333334E+009;1.529314815998077E-001;-8.394487202167511E-002;-2.259827451780438E-003;1.462936517782509E-003;
2.420000000000000E+009;1.526152789592743E-001;-8.443600684404373E-002;-2.514188876375556E-003;1.467981724999845E-003;
2.420166666666667E+009;1.522034406661987E-001;-8.503179252147675E-002;-2.414067275822163E-003;1.488362671807408E-003;
2.420333333333334E+009;1.519807875156403E-001;-8.566313982009888E-002;-2.242996124550700E-003;1.431199256330729E-003;
2.420500000000000E+009;1.517109274864197E-001;-8.602817356586456E-002;-2.373634837567806E-003;1.392400474287570E-003;
2.420666666666667E+009;1.510917097330093E-001;-8.655312657356262E-002;-2.537660999223590E-003;1.731507130898535E-003;
2.420833333333334E+009;1.507788598537445E-001;-8.725710213184357E-002;-2.481336239725351E-003;1.927231438457966E-003;
2.421000000000000E+009;1.502316147089005E-001;-8.792970329523087E-002;-2.489151898771524E-003;1.878268551081419E-003;
2.421166666666667E+009;1.500710695981979E-001;-8.846244961023331E-002;-2.315542893484235E-003;2.077285433188081E-003;
2.421333333333334E+009;1.494543999433518E-001;-8.935835957527161E-002;-2.485743723809719E-003;2.169563435018063E-003;
2.421500000000000E+009;1.488167047500610E-001;-8.981127291917801E-002;-2.333601005375385E-003;2.136606723070145E-003;
2.421666666666667E+009;1.483020782470703E-001;-9.053945541381836E-002;-2.130552660673857E-003;2.355168573558331E-003;
2.421833333333334E+009;1.476055234670639E-001;-9.134291112422943E-002;-2.034670207649469E-003;2.361655468121171E-003;
2.422000000000000E+009;1.471722126007080E-001;-9.194328635931015E-002;-1.943228067830205E-003;2.540133660659194E-003;
2.422166666666667E+009;1.466729044914246E-001;-9.293679147958756E-002;-2.018861006945372E-003;2.636820310726762E-003;
2.422333333333334E+009;1.460398733615875E-001;-9.346850216388702E-002;-1.806943211704493E-003;2.616194309666753E-003;
2.422500000000000E+009;1.454159617424011E-001;-9.425818175077438E-002;-1.695913728326559E-003;2.622548956423998E-003;
2.422666666666667E+009;1.446564346551895E-001;-9.514618664979935E-002;-1.614475506357849E-003;2.798934699967504E-003;
2.422833333333334E+009;1.441085636615753E-001;-9.592956304550171E-002;-1.455225516110659E-003;2.619160339236260E-003;
2.423000000000000E+009;1.433561146259308E-001;-9.677297621965408E-002;-1.390448538586497E-003;2.532619750127196E-003;
2.423166666666667E+009;1.426360160112381E-001;-9.766539931297302E-002;-1.358932117000222E-003;2.627788111567497E-003;
2.423333333333334E+009;1.423129141330719E-001;-9.840813279151917E-002;-1.181670231744647E-003;2.585669280961156E-003;
2.423500000000000E+009;1.415243893861771E-001;-9.967761486768723E-002;-1.051029656082392E-003;2.489620354026556E-003;
2.423666666666667E+009;1.407302021980286E-001;-1.004383042454720E-001;-1.056293374858797E-003;2.449549036100507E-003;
2.423833333333334E+009;1.402025222778320E-001;-1.014954894781113E-001;-9.780263062566519E-004;2.323779975995421E-003;
2.424000000000000E+009;1.394638717174530E-001;-1.021476686000824E-001;-9.755117353051901E-004;2.286083297803998E-003;
2.424166666666667E+009;1.387257277965546E-001;-1.032454892992973E-001;-9.828530019149184E-004;2.340171718969941E-003;
2.424333333333334E+009;1.380943953990936E-001;-1.042590141296387E-001;-9.346751030534506E-004;2.332118805497885E-003;
2.424500000000000E+009;1.375449746847153E-001;-1.052053272724152E-001;-9.220540523529053E-004;2.121609402820468E-003;
2.424666666666667E+009;1.370082199573517E-001;-1.059334054589272E-001;-9.396611712872982E-004;2.273104153573513E-003;
2.424833333333334E+009;1.364190876483917E-001;-1.069827079772949E-001;-9.610057459212840E-004;2.230072859674692E-003;
2.425000000000000E+009;1.358534991741180E-001;-1.080227419734001E-001;-9.100052411668003E-004;2.390582114458084E-003;
2.425166666666667E+009;1.351198554039002E-001;-1.090524494647980E-001;-1.208436442539096E-003;2.363679232075810E-003;
2.425333333333334E+009;1.346532553434372E-001;-1.098794341087341E-001;-1.137516926974058E-003;2.387856366112828E-003;
2.425500000000000E+009;1.343913674354553E-001;-1.109545007348061E-001;-1.075250678695738E-003;2.437341492623091E-003;
2.425666666666667E+009;1.336086541414261E-001;-1.119560524821281E-001;-1.187162357382476E-003;2.538600936532021E-003;
2.425833333333334E+009;1.332577019929886E-001;-1.128417551517487E-001;-1.334659173153341E-003;2.428903710097075E-003;
2.426000000000000E+009;1.328082531690598E-001;-1.139780730009079E-001;-1.260788412764669E-003;2.578259445726872E-003;
2.426166666666667E+009;1.325598955154419E-001;-1.148993074893951E-001;-1.324125798419118E-003;2.843060065060854E-003;
2.426333333333334E+009;1.320583373308182E-001;-1.158751100301743E-001;-1.217562239617109E-003;2.930968999862671E-003;
2.426500000000000E+009;1.317251026630402E-001;-1.167291477322578E-001;-1.133824116550386E-003;3.060119459405541E-003;
2.426666666666667E+009;1.315739154815674E-001;-1.175234541296959E-001;-1.133285695686936E-003;3.138649277389050E-003;
2.426833333333334E+009;1.310077458620071E-001;-1.184362471103668E-001;-9.967063087970018E-004;3.413971979171038E-003;
2.427000000000000E+009;1.306432485580444E-001;-1.193511188030243E-001;-7.904222002252936E-004;3.596109803766012E-003;
2.427166666666667E+009;1.303043961524963E-001;-1.199856325984001E-001;-7.469559786841273E-004;3.545713145285845E-003;
2.427333333333334E+009;1.299324482679367E-001;-1.209157034754753E-001;-4.336497222539038E-004;3.801165847107768E-003;
2.427500000000000E+009;1.297743767499924E-001;-1.215890049934387E-001;-2.270408149342984E-004;3.877586917951703E-003;
2.427666666666667E+009;1.294864267110825E-001;-1.223639920353890E-001;-1.918195266625844E-005;3.778341226279736E-003;
