# Hz S RI R 
2400000000.0000000000 0.173517614603042602539062500000 0.049358259886503219604492187500 0.002257028361782432036158896338 0.006985442247241736325735761426 0 0 0 0 
2400166666.6666665077 0.174070209264755304534588731258 0.048817325383424758911132812500 0.002440877258777617974522256006 0.006839776877313852310180664062 0 0 0 0 
2400333333.3333334923 0.174549967050552395919638115629 0.047894306480884552001953125000 0.002656303346157073974609375000 0.006750146858394145965576171875 0 0 0 0 
2400500000.0000000000 0.175103530287742586990518134371 0.047461129724979400634765625000 0.002870747121050953865051269531 0.006601110566407442092895507812 0 0 0 0 
2400666666.6666665077 0.175403788685798700530682481258 0.046652011573314666748046875000 0.003004784462973475889918661963 0.006680606864392757415771484375 0 0 0 0 
2400833333.3333334923 0.175610706210136413574218750000 0.046110611408948898315429687500 0.003289869753643869920017861475 0.006356294266879559430594159863 0 0 0 0 
2401000000.0000000000 0.175975233316421508789062500000 0.045454494655132286762277971093 0.003250368870794773101806640625 0.006236760877072811126708984375 0 0 0 0 
2401166666.6666665077 0.176109388470649691482705634371 0.044730871915817260742187500000 0.003507698420435190200805664062 0.006033476442098618421072675488 0 0 0 0 
2401333333.3333334923 0.176140546798706110198651231258 0.044090777635574340820312500000 0.003785283071920276121852255713 0.005913256201893091201782226562 0 0 0 0 
2401500000.0000000000 0.176415041089057894607705634371 0.043369080871343612670898437500 0.003809900023043156103846884619 0.005838668439537286758422851562 0 0 0 0 
2401666666.6666665077 0.176286682486534090896768134371 0.042792681604623801494557966407 0.003932499326765537261962890625 0.005760588683187961578369140625 0 0 0 0 
2401833333.3333334923 0.176350980997085599044638115629 0.042061757296323783184011091407 0.004397739190608263015747070312 0.005478273611515760421752929688 0 0 0 0 
2402000000.0000000000 0.176116496324539212325888115629 0.041004046797752380371093750000 0.004400985781103372573852539062 0.005460355896502733230590820312 0 0 0 0 
2402166666.6666665077 0.175964072346687289138955634371 0.040203426033258438110351562500 0.004546720068901777267456054688 0.005323113407939673337454511426 0 0 0 0 
2402333333.3333334923 0.175547659397125188629473768742 0.039339516311883933330495466407 0.004776760935783386230468750000 0.005095180124044418334960937500 0 0 0 0 
2402500000.0000000000 0.175583645701408386230468750000 0.038311615586280822753906250000 0.004717388190329074859619140625 0.004991668276488780975341796875 0 0 0 0 
2402666666.6666665077 0.175380200147628811935263115629 0.037270195782184600830078125000 0.005029179621487855911254882812 0.004713123198598623275756835938 0 0 0 0 
2402833333.3333334923 0.174916580319404602050781250000 0.036289885640144348144531250000 0.005134202539920806884765625000 0.004576964769512414932250976562 0 0 0 0 
2403000000.0000000000 0.174581721425056513030682481258 0.035018865019083023071289062500 0.005433027166873216629028320312 0.004491771571338176727294921875 0 0 0 0 
2403166666.6666665077 0.174244701862335205078125000000 0.033783845603466026996652971093 0.005510294344276189804077148438 0.004332309123128652572631835938 0 0 0 0 
2403333333.3333334923 0.173864528536796597579794365629 0.032428249716758728027343750000 0.005368423182517290115356445312 0.004136342555284500122070312500 0 0 0 0 
2403500000.0000000000 0.173443630337715204436932481258 0.030950978398323059082031250000 0.005638800095766782760620117188 0.003952149301767349243164062500 0 0 0 0 
2403666666.6666665077 0.173089936375618008712606865629 0.029251739382743838918665701954 0.005700827110558748245239257812 0.003702815622091292901280068506 0 0 0 0 
2403833333.3333334923 0.172709524631500188629473768742 0.027668118476867679250696951954 0.005540195386856794357299804688 0.003407133743166923956630087744 0 0 0 0 
2404000000.0000000000 0.172261789441108703613281250000 0.025990476831793788564661795704 0.005775916855782270431518554688 0.003291689790785313086268759619 0 0 0 0 
2404166666.6666665077 0.171887353062629699707031250000 0.024263083934783939016321951954 0.005858734715729951858520507812 0.003203059080988169150111533057 0 0 0 0 
2404333333.3333334923 0.171523183584213312347088731258 0.022298552095890048635462576954 0.006038927473127841949462890625 0.003032546490430831909179687500 0 0 0 0 
2404500000.0000000000 0.170992076396942110916299384371 0.020388128235936168325403983204 0.006187370046973229321951581738 0.002938110381364821954014443506 0 0 0 0 
2404666666.6666665077 0.170801192522049005706463731258 0.018523722887039191509206403907 0.006002339534461498260498046875 0.002760473638772964911219931494 0 0 0 0 
2404833333.3333334923 0.170409590005874606033486884371 0.016645509749650958669642264454 0.006113173440098763379568769238 0.002659701975062489943263388525 0 0 0 0 
2405000000.0000000000 0.170375019311904907226562500000 0.014642630703747270756731602148 0.006101296748965978622436523438 0.002256831387057899995091103662 0 0 0 0 
2405166666.6666665077 0.170052051544189508636151231258 0.012552575208246709650983241602 0.006388565525412560376639081738 0.002198429778218268914463662256 0 0 0 0 
2405333333.3333334923 0.170144170522689791580361884371 0.010596969164907930546770664648 0.006401476450264453887939453125 0.002107815118506550788879394531 0 0 0 0 
2405500000.0000000000 0.170184269547462491134481865629 0.008612496778368949890136718750 0.006607178598642349243164062500 0.001840853015892208056208945166 0 0 0 0 
2405666666.6666665077 0.170106858015060397049111884371 0.006400386337190867337698652051 0.006433591246604919433593750000 0.001719120657071470997453999097 0 0 0 0 
2405833333.3333334923 0.170101881027221707443075615629 0.004471553023904561996459960938 0.006499414332211017608642578125 0.001431584707461297945735312354 0 0 0 0 
2406000000.0000000000 0.170475721359252901931924384371 0.002249703276902437210083007812 0.006763245444744825363159179688 0.001239212579093873934504843604 0 0 0 0 
2406166666.6666665077 0.170647621154785211761151231258 0.000503108371049165725708007812 0.006739103235304355621337890625 0.000939482648391276597976684570 0 0 0 0 
2406333333.3333334923 0.171097368001937893966513115629 -0.001679929671809077046037983472 0.006666049361228942871093750000 0.000802667695097625255584716797 0 0 0 0 
2406500000.0000000000 0.171474769711494501311932481258 -0.003734319936484098000767373193 0.006885168142616748809814453125 0.000518421351443976163864135742 0 0 0 0 
2406666666.6666665077 0.171766310930252102950888115629 -0.005529777146875858306884765625 0.007008855231106281280517578125 0.000304752436932176405757349835 0 0 0 0 
2406833333.3333334923 0.172471329569816589355468750000 -0.007647917140275239944458007812 0.006963790860027074813842773438 0.000110974790004547698937277522 0 0 0 0 
2407000000.0000000000 0.173225253820419311523437500000 -0.009599638171494007110595703125 0.007073663640767335891723632812 -0.000190277831279672709390363150 0 0 0 0 
2407166666.6666665077 0.173844918608665494064169365629 -0.011438342742621900385846522852 0.006980924401432275772094726562 -0.000447971513494849205017089844 0 0 0 0 
2407333333.3333334923 0.174415722489356994628906250000 -0.013427742756903169804583164648 0.007070435211062431335449218750 -0.000744913704693317413330078125 0 0 0 0 
2407500000.0000000000 0.175186157226562500000000000000 -0.014983887784183030564277849805 0.006927745882421731948852539062 -0.000963844708167016506195068359 0 0 0 0 
2407666666.6666665077 0.176018118858337402343750000000 -0.016729999333620071411132812500 0.006937565747648478421683027051 -0.001218234887346624894383095850 0 0 0 0 
2407833333.3333334923 0.176624253392219487945880018742 -0.018635205924510959279993826954 0.006925889290869235992431640625 -0.001547527383081614971160888672 0 0 0 0 
2408000000.0000000000 0.177408874034881591796875000000 -0.020414454862475398672083670704 0.006777267903089523315429687500 -0.001984492875635623931884765625 0 0 0 0 
2408166666.6666665077 0.178242906928062411209268134371 -0.021702939644455909729003906250 0.006711378227919340133666992188 -0.002257944550365210013148642432 0 0 0 0 
2408333333.3333334923 0.179087162017822293380575615629 -0.023368597030639648437500000000 0.006502019241452217102050781250 -0.002411368070170282883885048975 0 0 0 0 
2408500000.0000000000 0.179627969861030606368856865629 -0.024780053645372390747070312500 0.006489583756774663925170898438 -0.002708553569391369819641113281 0 0 0 0 
2408666666.6666665077 0.180352047085761996170205634371 -0.026191085577011108398437500000 0.006374336313456296920776367188 -0.003019223688170313835144042969 0 0 0 0 
2408833333.3333334923 0.180851399898529108245526231258 -0.027385039255022999155064766796 0.006181094329804182052612304688 -0.003172714961692690849304199219 0 0 0 0 
2409000000.0000000000 0.181290611624717712402343750000 -0.028420276939868930471400076954 0.005971814505755901336669921875 -0.003514765528962016105651855469 0 0 0 0 
2409166666.6666665077 0.181816086173057611663494981258 -0.029296472668647769582728201954 0.005723678972572088241577148438 -0.003713505342602729797363281250 0 0 0 0 
2409333333.3333334923 0.182348370552062988281250000000 -0.030213091522455218923548514454 0.005601639393717051419729902051 -0.003986978437751531600952148438 0 0 0 0 
2409500000.0000000000 0.182704389095306396484375000000 -0.031083112582564350473424141796 0.005332692060619592666625976562 -0.003999331500381231307983398438 0 0 0 0 
2409666666.6666665077 0.182799592614173889160156250000 -0.031685013324022293090820312500 0.005121249705553054809570312500 -0.004172778688371182355398847363 0 0 0 0 
2409833333.3333334923 0.183219537138938903808593750000 -0.032243642956018447875976562500 0.005004947539418935775756835938 -0.004405575804412364959716796875 0 0 0 0 
2410000000.0000000000 0.183715984225273104568643134371 -0.032571617513895041728932966407 0.004830511752516031265258789062 -0.004338659811764956387991620801 0 0 0 0 
2410166666.6666665077 0.183784916996955899337606865629 -0.033010851591825492168386091407 0.004504684824496507644653320312 -0.004489158280193805694580078125 0 0 0 0 
2410333333.3333334923 0.183882847428321810623330634371 -0.033518530428409583354909528907 0.004507355391979218396658612988 -0.004661287646740674972534179688 0 0 0 0 
2410500000.0000000000 0.183944642543792696853799384371 -0.033940330147743232036550153907 0.004212135449051856994628906250 -0.004768588114529848098754882812 0 0 0 0 
2410666666.6666665077 0.183895394206047113616619981258 -0.034331161528825759887695312500 0.004028178285807371139526367188 -0.004723163787275552749633789062 0 0 0 0 
2410833333.3333334923 0.183899581432342501541299384371 -0.034404020756483078002929687500 0.003879820695146917863133095850 -0.004878268111497163772583007812 0 0 0 0 
2411000000.0000000000 0.183585733175277709960937500000 -0.034639548510313027118723283593 0.003737287828698753876927041162 -0.005032227374613285064697265625 0 0 0 0 
2411166666.6666665077 0.183446422219276400467080634371 -0.035081237554550170898437500000 0.003527147462591528892517089844 -0.005118438042700290679931640625 0 0 0 0 
2411333333.3333334923 0.182995542883873013595419365629 -0.035168617963790886615793596093 0.003372700652107595963719033350 -0.005223046056926251325125409863 0 0 0 0 
2411500000.0000000000 0.182473868131637600997763115629 -0.035637151449918746948242187500 0.003160797059535979790928506006 -0.005162005312740802764892578125 0 0 0 0 
2411666666.6666665077 0.182162880897522000411825615629 -0.035795319825410842895507812500 0.003003532066941260857823037256 -0.005343552678823471069335937500 0 0 0 0 
2411833333.3333334923 0.181295737624168395996093750000 -0.036183089017868041992187500000 0.002694227267056704001185751807 -0.005451179575175046920776367188 0 0 0 0 
2412000000.0000000000 0.180698499083519009689169365629 -0.036703694611787802959401716407 0.002548404270783067183253622900 -0.005306882318109273910522460938 0 0 0 0 
2412166666.6666665077 0.179829835891723605056924384371 -0.037286963313817977905273437500 0.002297760453075170950648642432 -0.005385584197938442230224609375 0 0 0 0 
2412333333.3333334923 0.179150998592376708984375000000 -0.037494227290153503417968750000 0.002229344565421342849731445312 -0.005412082653492689132690429688 0 0 0 0 
2412500000.0000000000 0.178146719932556207854901231258 -0.038034193217754357074777971093 0.002150980522856115861179970850 -0.005467686336487531661987304688 0 0 0 0 
2412666666.6666665077 0.177066564559936495681924384371 -0.038763757795095436786692033593 0.001938848523423075892804789966 -0.005541112273931503295898437500 0 0 0 0 
2412833333.3333334923 0.175871834158897399902343750000 -0.039395038038492202758789062500 0.001679585198871790929081582178 -0.005463825073093175888061523438 0 0 0 0 
2413000000.0000000000 0.174701273441314697265625000000 -0.040067657828330986713449846093 0.001535401795990765094757080078 -0.005526240449398756027221679688 0 0 0 0 
2413166666.6666665077 0.173480644822120694259481865629 -0.040808301419019699096679687500 0.001379547175019979910609579932 -0.005641792900860309600830078125 0 0 0 0 
2413333333.3333334923 0.172200724482536288162393134371 -0.041836764663457870483398437500 0.001083314418792725043055868994 -0.005517850629985333356375409863 0 0 0 0 
2413500000.0000000000 0.170953780412674005706463731258 -0.042760673910379409790039062500 0.001100062858313322067260742188 -0.005481788422912359237670898438 0 0 0 0 
2413666666.6666665077 0.169436767697334289550781250000 -0.043897595256567001342773437500 0.001021760865114629051805805737 -0.005471719428896903991699218750 0 0 0 0 
2413833333.3333334923 0.168204694986343411544638115629 -0.044882360845804207538645158593 0.000619634985923767089843750000 -0.005460424348711968335623456738 0 0 0 0 
2414000000.0000000000 0.166836574673652704436932481258 -0.046170309185981750488281250000 0.000456539390143006985813695087 -0.005323070101439952850341796875 0 0 0 0 
2414166666.6666665077 0.165682360529899597167968750000 -0.047316484153270721435546875000 0.000467238976852968280941563739 -0.005326962564140558242797851562 0 0 0 0 
2414333333.3333334923 0.164389148354530306717080634371 -0.048700574785470962524414062500 0.000351889437297359108924865723 -0.005287789739668369293212890625 0 0 0 0 
2414500000.0000000000 0.163383871316909790039062500000 -0.050084490329027182842214216407 0.000230110337724909213468274527 -0.005235043819993734359741210938 0 0 0 0 
2414666666.6666665077 0.162056416273117093185263115629 -0.051572818309068679809570312500 -0.000055055839766282588243484497 -0.005287834443151950836181640625 0 0 0 0 
2414833333.3333334923 0.160990715026855496505575615629 -0.053304228931665420532226562500 -0.000082167905929964035749435425 -0.005342625081539154052734375000 0 0 0 0 
2415000000.0000000000 0.159871265292167691329794365629 -0.054864406585693359375000000000 -0.000001791121121641481083469768 -0.005264821462333202362060546875 0 0 0 0 
2415166666.6666665077 0.158850029110908508300781250000 -0.056509077548980712890625000000 -0.000246173323830589706271571027 -0.005045215133577585220336914062 0 0 0 0 
2415333333.3333334923 0.158092498779296902755575615629 -0.058369655162096016620676408593 -0.000214611383853480192735949106 -0.005087782163172960281372070312 0 0 0 0 
2415500000.0000000000 0.157218337059020996093750000000 -0.060239698737859732891042341407 -0.000351941242115572094917297363 -0.005045495927333831787109375000 0 0 0 0 
2415666666.6666665077 0.156297266483306912521200615629 -0.062068331986665732646901716407 -0.000447563652414828484684544696 -0.005248790141195058822631835938 0 0 0 0 
2415833333.3333334923 0.155845895409584100921307481258 -0.064148567616939544677734375000 -0.000603388994932174682617187500 -0.004975621122866868972778320312 0 0 0 0 
2416000000.0000000000 0.155010238289833096603231865629 -0.066074036061763763427734375000 -0.000719581439625471830368041992 -0.004993054550141096115112304688 0 0 0 0 
2416166666.6666665077 0.154515132308006286621093750000 -0.068122543394565582275390625000 -0.000754948472604155540466308594 -0.005093003623187541961669921875 0 0 0 0 
2416333333.3333334923 0.153961971402168301681356865629 -0.070082560181617736816406250000 -0.000915720826014876365661621094 -0.005118885543197393417358398438 0 0 0 0 
2416500000.0000000000 0.153549000620842007736044365629 -0.072267740964889526367187500000 -0.001003467943519354083417582935 -0.004918190184980630874633789062 0 0 0 0 
2416666666.6666665077 0.153077259659767206390057481258 -0.073996938765048980712890625000 -0.000984367914497852325439453125 -0.005017989780753850936889648438 0 0 0 0 
2416833333.3333334923 0.152896061539649991134481865629 -0.076159611344337463378906250000 -0.001299547846429049968719482422 -0.005041664466261863708496093750 0 0 0 0 
2417000000.0000000000 0.152455762028694208343182481258 -0.078157752752304077148437500000 -0.001449900213629006905796670068 -0.005045170895755290985107421875 0 0 0 0 
2417166666.6666665077 0.152277559041976900955361884371 -0.079948954284191131591796875000 -0.001488619949668646075605082935 -0.005114528816193342208862304688 0 0 0 0 
2417333333.3333334923 0.152193278074264498611611884371 -0.081756561994552612304687500000 -0.001614475506357849077937460791 -0.005047114565968514356131269238 0 0 0 0 
2417500000.0000000000 0.152051717042923001388388115629 -0.083559408783912658691406250000 -0.001813911716453731060028076172 -0.004968801513314247131347656250 0 0 0 0 
2417666666.6666665077 0.152118399739265386383380018742 -0.085158854722976684570312500000 -0.002024971880018711090087890625 -0.004839749075472354888916015625 0 0 0 0 
2417833333.3333334923 0.152134925127029391189736884371 -0.086712710559368133544921875000 -0.002079669851809740066528320312 -0.005019746720790863037109375000 0 0 0 0 
2418000000.0000000000 0.152043268084526089767294365629 -0.088393904268741607666015625000 -0.002201298484578729109523154150 -0.004905263427644968032836914062 0 0 0 0 
2418166666.6666665077 0.152216270565986605545205634371 -0.089684069156646728515625000000 -0.002497910754755138917210244287 -0.004950615111738443374633789062 0 0 0 0 
2418333333.3333334923 0.152620092034339904785156250000 -0.091118559241294860839843750000 -0.002616996876895428137538290869 -0.004811514634639024734497070312 0 0 0 0 
2418500000.0000000000 0.152649700641632107833700615629 -0.092177212238311767578125000000 -0.002893285825848578973057412256 -0.004731520544737576570992754199 0 0 0 0 
2418666666.6666665077 0.152915701270103510100994981258 -0.093235231935977935791015625000 -0.003048661630600690841674804688 -0.004687154665589332580566406250 0 0 0 0 
2418833333.3333334923 0.153008759021759005447549384371 -0.094330705702304840087890625000 -0.003184963017702103094813681494 -0.004687339998781681060791015625 0 0 0 0 
2419000000.0000000000 0.153140202164649991134481865629 -0.095132134854793548583984375000 -0.003370146034285426139831542969 -0.004460161086171866330618573926 0 0 0 0 
2419166666.6666665077 0.153470516204834012130575615629 -0.095939591526985168457031250000 -0.003542597172781825065612792969 -0.004370317328721284866333007812 0 0 0 0 
2419333333.3333334923 0.153591409325599698165731865629 -0.096331611275672912597656250000 -0.003853352507576345963719033350 -0.004331306088715791702270507812 0 0 0 0 
2419500000.0000000000 0.153743833303451510330361884371 -0.096988603472709655761718750000 -0.003828051267191768126246786963 -0.004173589870333671569824218750 0 0 0 0 
2419666666.6666665077 0.154165819287300109863281250000 -0.097464792430400848388671875000 -0.004011887591332197189331054688 -0.004148737527430058392996503613 0 0 0 0 
2419833333.3333334923 0.154165849089622497558593750000 -0.097556337714195251464843750000 -0.004099095240235328674316406250 -0.003896971931681036949157714844 0 0 0 0 
