# Version 1.00
#
freq[Hz];re:Trc1_S11;im:Trc1_S11;re:Trc2_S21;im:Trc2_S21;
2.400000000000000E+009;1.516684293746948E-001;1.172850281000137E-001;-5.796317709609866E-004;8.599983411841095E-004;
2.400166666666667E+009;1.511359661817551E-001;1.150521412491798E-001;-6.014146492816508E-004;9.071142412722111E-004;
2.400333333333334E+009;1.510480493307114E-001;1.130137518048286E-001;-4.638906102627516E-004;7.973628235049546E-004;
2.400500000000000E+009;1.508072018623352E-001;1.102588325738907E-001;-4.563820839393884E-004;9.744524722918868E-004;
2.400666666666667E+009;1.508829891681671E-001;1.078470125794411E-001;-4.467552062124014E-004;9.211173164658248E-004;
2.400833333333334E+009;1.504585891962051E-001;1.050324365496635E-001;-2.903374261222780E-004;1.048996346071363E-003;
2.401000000000000E+009;1.506107896566391E-001;1.020633056759834E-001;-3.387522883713245E-004;1.183126354590058E-003;
2.401166666666667E+009;1.505437195301056E-001;9.931008517742157E-002;-1.350747334072366E-004;1.080106594599783E-003;
2.401333333333334E+009;1.507810056209564E-001;9.634818881750107E-002;-2.634330012369901E-004;9.296528878621757E-004;
2.401500000000000E+009;1.508613228797913E-001;9.354142844676971E-002;-2.073377545457333E-004;1.085474388673902E-003;
2.401666666666667E+009;1.510690152645111E-001;9.047551453113556E-002;7.744476897642016E-005;1.148663344793022E-003;
2.401833333333334E+009;1.517445445060730E-001;8.765051513910294E-002;-2.200426024501212E-005;1.194532378576696E-003;
2.402000000000000E+009;1.524928957223892E-001;8.469904214143753E-002;1.853636786108837E-005;1.189411268569529E-003;
2.402166666666667E+009;1.530020982027054E-001;8.205242455005646E-002;2.061647101072595E-004;1.121288049034774E-003;
2.402333333333334E+009;1.541541814804077E-001;7.895231992006302E-002;2.988113556057215E-004;1.109717763029039E-003;
2.402500000000000E+009;1.552370786666870E-001;7.639291882514954E-002;1.652600330999121E-004;9.683565003797412E-004;
2.402666666666667E+009;1.566029340028763E-001;7.371329516172409E-002;4.222051065880805E-004;9.578861645422876E-004;
2.402833333333334E+009;1.578854322433472E-001;7.110712677240372E-002;4.411379341036081E-004;9.943117620423436E-004;
2.403000000000000E+009;1.595319956541061E-001;6.849104166030884E-002;4.611700715031475E-004;7.314574904739857E-004;
2.403166666666667E+009;1.613339483737946E-001;6.588987261056900E-002;5.783221567980945E-004;8.166877669282258E-004;
2.403333333333334E+009;1.630769073963165E-001;6.352062523365021E-002;4.056189209222794E-004;8.030164171941578E-004;
2.403500000000000E+009;1.650363355875015E-001;6.111030653119087E-002;5.120767164044082E-004;6.920392625033855E-004;
2.403666666666667E+009;1.671425551176071E-001;5.888359621167183E-002;3.933116968255490E-004;3.658980422187597E-004;
2.403833333333334E+009;1.688240766525269E-001;5.648843944072723E-002;3.659827052615583E-004;5.027857841923833E-004;
2.404000000000000E+009;1.707777231931686E-001;5.463274568319321E-002;4.322244785726070E-004;5.928466562181711E-004;
2.404166666666667E+009;1.728979647159576E-001;5.263479053974152E-002;3.875912516377866E-004;5.212213727645576E-004;
2.404333333333334E+009;1.748919337987900E-001;5.092583596706390E-002;3.029148210771382E-004;7.456194143742323E-004;
2.404500000000000E+009;1.768859177827835E-001;4.923831671476364E-002;4.042866057716310E-004;6.253749015741050E-004;
2.404666666666667E+009;1.787965893745422E-001;4.775872454047203E-002;1.803579652914777E-004;8.420591475442052E-004;
2.404833333333334E+009;1.807841807603836E-001;4.627320170402527E-002;3.811377682723105E-004;8.556304965168238E-004;
2.405000000000000E+009;1.825908720493317E-001;4.557744413614273E-002;4.569490265566856E-004;9.050352964550257E-004;
2.405166666666667E+009;1.844701766967773E-001;4.457046091556549E-002;6.549207610078156E-004;8.541581337340176E-004;
2.405333333333334E+009;1.862598806619644E-001;4.398539662361145E-002;6.791928317397833E-004;6.982799968682230E-004;
2.405500000000000E+009;1.880467534065247E-001;4.324746876955032E-002;7.760043954476714E-004;9.716585627757013E-004;
2.405666666666667E+009;1.897602230310440E-001;4.282585904002190E-002;9.588279644958675E-004;1.006873906590045E-003;
2.405833333333334E+009;1.913821399211884E-001;4.243589937686920E-002;9.515737765468657E-004;7.058995543047786E-004;
2.406000000000000E+009;1.928081065416336E-001;4.209762066602707E-002;1.103047979995608E-003;7.073826272971928E-004;
2.406166666666667E+009;1.941049247980118E-001;4.198179021477699E-002;1.377404201775789E-003;7.205179426819086E-004;
2.406333333333334E+009;1.955964267253876E-001;4.197163879871368E-002;1.417748397216201E-003;3.140838816761971E-004;
2.406500000000000E+009;1.965547204017639E-001;4.192861914634705E-002;1.424901769496501E-003;3.344412543810904E-004;
2.406666666666667E+009;1.975155174732208E-001;4.208402335643768E-002;1.383816474117339E-003;6.464694160968065E-005;
2.406833333333334E+009;1.985204368829727E-001;4.210668057203293E-002;1.385801122523844E-003;1.410128152201651E-005;
2.407000000000000E+009;1.991579383611679E-001;4.237090423703194E-002;1.314646215178073E-003;-9.743258851813152E-005;
2.407166666666667E+009;1.997788250446320E-001;4.214338213205338E-002;1.294087269343436E-003;-2.302161301486194E-004;
2.407333333333334E+009;1.998875290155411E-001;4.256242513656616E-002;1.345568569377065E-003;-2.626962668728083E-004;
2.407500000000000E+009;2.002543807029724E-001;4.277189821004868E-002;1.174308708868921E-003;-5.130075151100755E-004;
2.407666666666667E+009;2.004240155220032E-001;4.287032037973404E-002;1.126382150687277E-003;-5.384464748203754E-004;
2.407833333333334E+009;2.001128643751144E-001;4.282269999384880E-002;1.103067072108388E-003;-6.285225390456617E-004;
2.408000000000000E+009;2.001173049211502E-001;4.297206923365593E-002;1.134079531766474E-003;-5.181918968446553E-004;
2.408166666666667E+009;1.996185481548309E-001;4.286485537886620E-002;9.249487193301320E-004;-5.927055608481169E-004;
2.408333333333334E+009;1.991573125123978E-001;4.251506179571152E-002;7.771821110509336E-004;-8.384429384022951E-004;
2.408500000000000E+009;1.985588073730469E-001;4.250003769993782E-002;8.718557073734701E-004;-7.864053477533162E-004;
2.408666666666667E+009;1.979908496141434E-001;4.219752177596092E-002;8.518645190633833E-004;-7.440526969730854E-004;
2.408833333333334E+009;1.971194744110107E-001;4.158255830407143E-002;5.896332440897822E-004;-7.738875574432313E-004;
2.409000000000000E+009;1.961165815591812E-001;4.092368483543396E-002;7.141485693864524E-004;-6.782561540603638E-004;
2.409166666666667E+009;1.950236856937408E-001;4.023282974958420E-002;6.189031992107630E-004;-6.937415455467999E-004;
2.409333333333334E+009;1.939253360033035E-001;3.955651447176933E-002;5.298658506944776E-004;-8.863930124789476E-004;
2.409500000000000E+009;1.925493180751801E-001;3.842720761895180E-002;5.024707061238587E-004;-8.391893934458494E-004;
2.409666666666667E+009;1.912897229194641E-001;3.729265928268433E-002;5.151033983565867E-004;-7.335812551900744E-004;
2.409833333333334E+009;1.900202035903931E-001;3.609531745314598E-002;4.337428836151958E-004;-8.224734920077026E-004;
2.410000000000000E+009;1.887094378471375E-001;3.454927355051041E-002;3.288771258667111E-004;-1.017025089822710E-003;
2.410166666666667E+009;1.874191313982010E-001;3.307688236236572E-002;2.581310691311956E-004;-9.701988310553134E-004;
2.410333333333334E+009;1.860980838537216E-001;3.147224709391594E-002;1.484865351812914E-004;-1.008404768072069E-003;
2.410500000000000E+009;1.849233955144882E-001;2.963394112884998E-002;2.145036705769599E-005;-9.570359252393246E-004;
2.410666666666667E+009;1.837575137615204E-001;2.756171114742756E-002;1.082402013707906E-004;-9.615973103791475E-004;
2.410833333333334E+009;1.827916353940964E-001;2.549305930733681E-002;-2.015574282268062E-004;-1.127084251493216E-003;
2.411000000000000E+009;1.816632300615311E-001;2.332859113812447E-002;-1.847789390012622E-004;-9.975236607715488E-004;
2.411166666666667E+009;1.807653903961182E-001;2.106374129652977E-002;-3.707069554366171E-004;-9.090415551327169E-004;
2.411333333333334E+009;1.798281669616699E-001;1.864605396986008E-002;-3.915019624400884E-004;-7.746921619400382E-004;
2.411500000000000E+009;1.791923344135284E-001;1.623919606208801E-002;-4.580448439810425E-004;-8.925355505198240E-004;
2.411666666666667E+009;1.786160171031952E-001;1.379906665533781E-002;-5.931067862547934E-004;-6.548388046212494E-004;
2.411833333333334E+009;1.779053658246994E-001;1.122795324772596E-002;-6.891458760946989E-004;-4.744239849969745E-004;
2.412000000000000E+009;1.779668778181076E-001;8.475058712065220E-003;-5.415134364739060E-004;-4.755338013637811E-004;
2.412166666666667E+009;1.778345704078674E-001;6.107310298830271E-003;-6.307517760433257E-004;-3.229233843740076E-004;
2.412333333333334E+009;1.776217967271805E-001;3.382899099960923E-003;-5.789052811451256E-004;-3.289518353994936E-004;
2.412500000000000E+009;1.779023706912994E-001;7.343056495301426E-004;-4.280665889382362E-004;-2.603436296340078E-004;
2.412666666666667E+009;1.783306151628494E-001;-1.999181462451816E-003;-4.841330519411713E-004;-1.732276577968150E-004;
2.412833333333334E+009;1.787275224924088E-001;-4.574800375849009E-003;-3.875774855259806E-004;-1.686267023615073E-005;
2.413000000000000E+009;1.792468130588532E-001;-7.295815739780664E-003;-3.035029803868383E-004;-6.016569841449382E-006;
2.413166666666667E+009;1.800583153963089E-001;-9.679679758846760E-003;-2.222830808022991E-004;2.917825440817978E-005;
2.413333333333334E+009;1.809718906879425E-001;-1.243464834988117E-002;-1.511855807621032E-004;4.935635297442786E-005;
2.413500000000000E+009;1.817198246717453E-001;-1.479937694966793E-002;-3.186279791407287E-004;6.430272605939535E-006;
2.413666666666667E+009;1.828924119472504E-001;-1.730352826416493E-002;-2.118345873896033E-004;-9.382965799886733E-005;
2.413833333333334E+009;1.838956475257874E-001;-1.955068483948708E-002;-2.895825600717217E-004;5.828623761772178E-005;
2.414000000000000E+009;1.848684698343277E-001;-2.190297096967697E-002;-2.130345092155039E-004;-4.935748438583687E-005;
2.414166666666667E+009;1.862430721521378E-001;-2.392906323075295E-002;-3.132559650111944E-004;-6.108609522925690E-005;
2.414333333333334E+009;1.873780488967896E-001;-2.621953561902046E-002;-2.468051388859749E-004;8.921474363887683E-005;
2.414500000000000E+009;1.888133883476257E-001;-2.783295698463917E-002;-2.930902701336891E-004;1.082250892068259E-004;
2.414666666666667E+009;1.900798827409744E-001;-2.963871695101261E-002;-3.640232898760587E-004;2.538192711654119E-005;
2.414833333333334E+009;1.913475990295410E-001;-3.121906891465187E-002;-2.572372904978693E-004;1.666178286541253E-004;
2.415000000000000E+009;1.926658004522324E-001;-3.266977891325951E-002;-1.803806226234883E-004;3.011116641573608E-004;
2.415166666666667E+009;1.942110806703568E-001;-3.403013199567795E-002;-1.163420165539719E-004;2.327576949028298E-004;
2.415333333333334E+009;1.953894644975662E-001;-3.502053767442703E-002;-3.026309423148632E-005;3.119386092294008E-004;
2.415500000000000E+009;1.967914104461670E-001;-3.583309054374695E-002;6.197917537065223E-005;1.736487902235240E-004;
2.415666666666667E+009;1.978807449340820E-001;-3.691983595490456E-002;6.199396011652425E-005;2.533904043957591E-004;
2.415833333333334E+009;1.991634368896484E-001;-3.759995475411415E-002;1.790866954252124E-004;1.971105812117457E-004;
2.416000000000000E+009;2.001850306987763E-001;-3.823877498507500E-002;1.246525062015280E-004;1.519851648481563E-004;
2.416166666666667E+009;2.010803222656250E-001;-3.886305540800095E-002;3.462357854004949E-004;1.462290529161692E-004;
2.416333333333334E+009;2.019696086645126E-001;-3.913877904415131E-002;4.513374296948314E-004;7.219558028737083E-005;
2.416500000000000E+009;2.027102708816528E-001;-3.934173285961151E-002;4.119474324397743E-004;-9.680972289061174E-005;
2.416666666666667E+009;2.033714652061462E-001;-3.952888771891594E-002;4.507619014475495E-004;-2.697372110560536E-004;
2.416833333333334E+009;2.037916630506516E-001;-3.953402861952782E-002;5.627739592455328E-004;-1.743701723171398E-004;
2.417000000000000E+009;2.041883617639542E-001;-3.960347175598145E-002;4.338089784141630E-004;-3.369331243447959E-004;
2.417166666666667E+009;2.042606621980667E-001;-3.943983465433121E-002;3.456813574302942E-004;-4.959155921824276E-004;
2.417333333333334E+009;2.043198049068451E-001;-3.899410739541054E-002;3.986845840699971E-004;-6.825351156294346E-004;
2.417500000000000E+009;2.042726129293442E-001;-3.885480016469955E-002;1.670948258833960E-004;-8.664716733619571E-004;
2.417666666666667E+009;2.039295434951782E-001;-3.837578371167183E-002;1.230258058058098E-004;-7.717037224210799E-004;
2.417833333333334E+009;2.037786990404129E-001;-3.790415450930595E-002;-4.009320764453150E-005;-8.829972939565778E-004;
2.418000000000000E+009;2.033798396587372E-001;-3.745939955115318E-002;-2.432220644550398E-004;-8.501875563524663E-004;
2.418166666666667E+009;2.027560621500015E-001;-3.708455339074135E-002;-2.620057493913919E-004;-8.448618464171886E-004;
2.418333333333334E+009;2.020564973354340E-001;-3.662400692701340E-002;-3.128326497972012E-004;-6.805970333516598E-004;
2.418500000000000E+009;2.013108134269714E-001;-3.644727170467377E-002;-4.403699422255158E-004;-8.452368783764541E-004;
2.418666666666667E+009;2.005404382944107E-001;-3.600350022315979E-002;-6.213971064426005E-004;-8.366892579942942E-004;
2.418833333333334E+009;1.994392722845078E-001;-3.586173057556152E-002;-6.526918732561171E-004;-7.500685169361532E-004;
2.419000000000000E+009;1.983619332313538E-001;-3.573268279433250E-002;-8.318243781104684E-004;-4.049978742841631E-004;
2.419166666666667E+009;1.970766335725784E-001;-3.575330972671509E-002;-7.829339010640979E-004;-5.756492610089481E-004;
2.419333333333334E+009;1.958270519971848E-001;-3.596727550029755E-002;-7.960759685374796E-004;-3.428516502026469E-004;
2.419500000000000E+009;1.944267600774765E-001;-3.608658909797669E-002;-8.497204398736358E-004;-3.633364394772798E-004;
2.419666666666667E+009;1.927490830421448E-001;-3.660310804843903E-002;-8.671055547893047E-004;-1.792146795196459E-004;
2.419833333333334E+009;1.910312771797180E-001;-3.709299862384796E-002;-7.335651898756623E-004;-1.247202453669161E-004;
2.420000000000000E+009;1.895168125629425E-001;-3.779280185699463E-002;-8.274766732938588E-004;-4.928171256324276E-005;
2.420166666666667E+009;1.877182722091675E-001;-3.853370249271393E-002;-7.991213933564723E-004;-1.479156344430521E-004;
2.420333333333334E+009;1.860502809286118E-001;-3.952127322554588E-002;-6.885944167152047E-004;-2.278973806824070E-005;
2.420500000000000E+009;1.842799037694931E-001;-4.070260003209114E-002;-8.098024991340935E-004;2.316896643606015E-005;
2.420666666666667E+009;1.825276166200638E-001;-4.161837324500084E-002;-8.296709274873138E-004;-2.637806392158382E-005;
2.420833333333334E+009;1.805063784122467E-001;-4.305563494563103E-002;-8.229942177422345E-004;-1.139700107160024E-004;
2.421000000000000E+009;1.789539158344269E-001;-4.446247965097427E-002;-1.006750855594873E-003;8.670102397445589E-005;
2.421166666666667E+009;1.774860769510269E-001;-4.599642381072044E-002;-8.707802044227719E-004;9.238570055458695E-005;
2.421333333333334E+009;1.754268705844879E-001;-4.740423336625099E-002;-1.068885205313563E-003;1.963842660188675E-004;
2.421500000000000E+009;1.738495975732803E-001;-4.954793676733971E-002;-1.078661414794624E-003;3.218252095393837E-004;
2.421666666666667E+009;1.722663789987564E-001;-5.128253251314163E-002;-1.107778516598046E-003;4.782176110893488E-004;
2.421833333333334E+009;1.709675639867783E-001;-5.308644473552704E-002;-1.075499108992517E-003;5.153254605829716E-004;
2.422000000000000E+009;1.695823371410370E-001;-5.495487898588181E-002;-1.032574684359133E-003;6.769138271920383E-004;
2.422166666666667E+009;1.686332672834396E-001;-5.714337527751923E-002;-1.083820709027350E-003;8.182934252545238E-004;
2.422333333333334E+009;1.674682199954987E-001;-5.941040068864822E-002;-9.738485678099096E-004;1.015505287796259E-003;
2.422500000000000E+009;1.663793176412582E-001;-6.118736788630486E-002;-7.200302206911147E-004;1.087485463358462E-003;
2.422666666666667E+009;1.654765605926514E-001;-6.337998062372208E-002;-6.394147640094161E-004;1.270034001208842E-003;
2.422833333333334E+009;1.648807227611542E-001;-6.556025147438049E-002;-4.578642256092280E-004;1.367388758808374E-003;
2.423000000000000E+009;1.641939729452133E-001;-6.781814247369766E-002;-4.230608174111694E-004;1.394395134411752E-003;
2.423166666666667E+009;1.636708080768585E-001;-6.998880207538605E-002;-2.448862942401320E-004;1.554211252368987E-003;
2.423333333333334E+009;1.633885502815247E-001;-7.209954410791397E-002;-1.460391285945661E-005;1.583748613484204E-003;
2.423500000000000E+009;1.633957177400589E-001;-7.417777180671692E-002;2.253104175906628E-004;1.525525003671646E-003;
2.423666666666667E+009;1.632543802261353E-001;-7.627696543931961E-002;4.128779401071370E-004;1.477027777582407E-003;
2.423833333333334E+009;1.632578670978546E-001;-7.825995981693268E-002;5.943313008174300E-004;1.364517491310835E-003;
2.424000000000000E+009;1.635132133960724E-001;-8.026508241891861E-002;5.770951975136995E-004;1.267259125597775E-003;
2.424166666666667E+009;1.635210365056992E-001;-8.204513043165207E-002;8.531769271939993E-004;1.289045671001077E-003;
2.424333333333334E+009;1.638595610857010E-001;-8.392018079757690E-002;9.520439780317247E-004;1.010490348562598E-003;
2.424500000000000E+009;1.642592996358872E-001;-8.580852299928665E-002;9.277304052375257E-004;9.326306171715260E-004;
2.424666666666667E+009;1.647719740867615E-001;-8.745530247688294E-002;9.729253943078220E-004;7.041786448098719E-004;
2.424833333333334E+009;1.654056757688522E-001;-8.894497156143189E-002;1.174229197204113E-003;8.154421811923385E-004;
2.425000000000000E+009;1.659454852342606E-001;-9.037013351917267E-002;1.128161093220115E-003;6.543461931869388E-004;
2.425166666666667E+009;1.664515286684036E-001;-9.168387204408646E-002;1.125558279454708E-003;6.993716815486550E-004;
2.425333333333334E+009;1.670699864625931E-001;-9.291193634271622E-002;1.207911875098944E-003;3.684365365188569E-004;
2.425500000000000E+009;1.677573174238205E-001;-9.403087943792343E-002;1.124549657106400E-003;4.822056216653436E-004;
2.425666666666667E+009;1.683910042047501E-001;-9.486681222915649E-002;1.113571692258120E-003;2.979361161123961E-004;
2.425833333333334E+009;1.690707206726074E-001;-9.585645794868469E-002;1.146197435446084E-003;1.446759270038456E-004;
2.426000000000000E+009;1.697284579277039E-001;-9.631749242544174E-002;1.307703088968992E-003;1.058404595823959E-004;
2.426166666666667E+009;1.705251038074493E-001;-9.710448235273361E-002;1.030193408951163E-003;1.366241940559121E-005;
2.426333333333334E+009;1.709020137786865E-001;-9.767470508813858E-002;1.228585490025580E-003;-5.254630013951100E-005;
2.426500000000000E+009;1.717229336500168E-001;-9.805221110582352E-002;1.304619829170406E-003;-1.412285200785846E-004;
2.426666666666667E+009;1.722983121871948E-001;-9.845953434705734E-002;1.225411659106612E-003;-2.406780404271558E-004;
2.426833333333334E+009;1.728065907955170E-001;-9.883823990821838E-002;1.083993585780263E-003;-3.817490651272237E-004;
2.427000000000000E+009;1.730813533067703E-001;-9.905445575714111E-002;1.120865810662508E-003;-3.909048682544380E-004;
2.427166666666667E+009;1.735843867063522E-001;-9.923586994409561E-002;1.082461792975664E-003;-3.796986129600555E-004;
2.427333333333334E+009;1.737788468599320E-001;-9.945923089981079E-002;1.064276206307113E-003;-5.294156726449728E-004;
2.427500000000000E+009;1.739027947187424E-001;-9.971789270639420E-002;1.027907244861126E-003;-7.091294974088669E-004;
2.427666666666667E+009;1.739787012338638E-001;-9.966914355754852E-002;9.873479139059782E-004;-8.175226394087076E-004;
2.427833333333334E+009;1.737865954637528E-001;-9.984475374221802E-002;8.416285854764283E-004;-8.070620824582875E-004;
