# Version 1.00
#
freq[Hz];re:Trc1_S11;im:Trc1_S11;re:Trc2_S21;im:Trc2_S21;
2.400000000000000E+009;1.557233482599258E-001;1.108002066612244E-001;-4.710756707936525E-003;-5.964474985376000E-004;
2.400166666666667E+009;1.551043689250946E-001;1.084972918033600E-001;-4.701016936451197E-003;-1.800254394765943E-004;
2.400333333333334E+009;1.549498885869980E-001;1.062342897057533E-001;-4.876197315752506E-003;-4.062773223267868E-005;
2.400500000000000E+009;1.544684469699860E-001;1.034797579050064E-001;-4.789227154105902E-003;2.552059595473111E-004;
2.400666666666667E+009;1.542864292860031E-001;1.011695936322212E-001;-4.757175222039223E-003;3.481528838165104E-004;
2.400833333333334E+009;1.541233956813812E-001;9.816370159387589E-002;-4.669705871492624E-003;5.401216330938041E-004;
2.401000000000000E+009;1.540196835994721E-001;9.538309276103973E-002;-4.391590598970652E-003;7.470626733265817E-004;
2.401166666666667E+009;1.536724418401718E-001;9.246162325143814E-002;-4.381982143968344E-003;8.224360062740743E-004;
2.401333333333334E+009;1.538397371768951E-001;8.943726122379303E-002;-4.375761840492487E-003;1.014855806715787E-003;
2.401500000000000E+009;1.540466398000717E-001;8.644876629114151E-002;-4.114638548344374E-003;1.161642838269472E-003;
2.401666666666667E+009;1.541845649480820E-001;8.353830873966217E-002;-3.992923535406590E-003;1.352287479676306E-003;
2.401833333333334E+009;1.544276177883148E-001;8.065320551395416E-002;-4.177877679467201E-003;1.486647524870932E-003;
2.402000000000000E+009;1.550519019365311E-001;7.750419527292252E-002;-3.830974223092198E-003;1.588070066645742E-003;
2.402166666666667E+009;1.557577848434448E-001;7.484296709299088E-002;-3.887630067765713E-003;1.762575935572386E-003;
2.402333333333334E+009;1.566494405269623E-001;7.200988382101059E-002;-3.843727521598339E-003;1.786217209883034E-003;
2.402500000000000E+009;1.574897766113281E-001;6.913180649280548E-002;-3.623450407758355E-003;1.794449752196670E-003;
2.402666666666667E+009;1.585381478071213E-001;6.661628931760788E-002;-3.665746655315161E-003;1.935075502842665E-003;
2.402833333333334E+009;1.597694605588913E-001;6.393057107925415E-002;-3.590847365558147E-003;2.290548756718636E-003;
2.403000000000000E+009;1.610263735055924E-001;6.137885153293610E-002;-3.337517846375704E-003;2.168308012187481E-003;
2.403166666666667E+009;1.628459841012955E-001;5.889293551445007E-002;-3.082627197727561E-003;2.278413390740752E-003;
2.403333333333334E+009;1.643362045288086E-001;5.625125020742416E-002;-3.102055517956615E-003;2.326411427929997E-003;
2.403500000000000E+009;1.660633981227875E-001;5.406212061643601E-002;-2.746070269495249E-003;2.319257473573089E-003;
2.403666666666667E+009;1.679249107837677E-001;5.187778919935226E-002;-2.745626494288445E-003;2.156420378014445E-003;
2.403833333333334E+009;1.696523129940033E-001;4.984909668564796E-002;-2.723507815971971E-003;2.279966836795211E-003;
2.404000000000000E+009;1.711020916700363E-001;4.785101115703583E-002;-2.693024929612875E-003;2.191614825278521E-003;
2.404166666666667E+009;1.731871962547302E-001;4.626486822962761E-002;-2.744144992902875E-003;2.138303127139807E-003;
2.404333333333334E+009;1.749411821365356E-001;4.432332515716553E-002;-2.679558005183935E-003;1.976964063942432E-003;
2.404500000000000E+009;1.766984909772873E-001;4.277236759662628E-002;-2.636602846905589E-003;2.053684787824750E-003;
2.404666666666667E+009;1.785512119531632E-001;4.151808097958565E-002;-2.681697020307183E-003;2.174274297431111E-003;
2.404833333333334E+009;1.805790364742279E-001;4.034913331270218E-002;-2.788611222058535E-003;2.199898241087794E-003;
2.405000000000000E+009;1.820106804370880E-001;3.962754085659981E-002;-2.755355788394809E-003;2.534142928197980E-003;
2.405166666666667E+009;1.837579160928726E-001;3.868180140852928E-002;-2.744929166510701E-003;2.737032948061824E-003;
2.405333333333334E+009;1.852677762508392E-001;3.794990107417107E-002;-2.723681973293424E-003;2.590327290818095E-003;
2.405500000000000E+009;1.871414035558701E-001;3.761544823646545E-002;-2.632496412843466E-003;2.804929623380303E-003;
2.405666666666667E+009;1.884776651859283E-001;3.728939592838287E-002;-2.457798458635807E-003;2.875452395528555E-003;
2.405833333333334E+009;1.901181340217590E-001;3.705339878797531E-002;-2.322434214875102E-003;3.120462410151959E-003;
2.406000000000000E+009;1.912961006164551E-001;3.695659339427948E-002;-2.213728148490191E-003;3.130291588604450E-003;
2.406166666666667E+009;1.926265209913254E-001;3.677717223763466E-002;-2.143561374396086E-003;3.197097685188055E-003;
2.406333333333334E+009;1.938295513391495E-001;3.708401694893837E-002;-1.848404412157834E-003;3.324569668620825E-003;
2.406500000000000E+009;1.947463750839233E-001;3.717912733554840E-002;-1.953767379745841E-003;3.170063486322761E-003;
2.406666666666667E+009;1.955268681049347E-001;3.733759745955467E-002;-1.900004106573761E-003;3.287167521193624E-003;
2.406833333333334E+009;1.963731497526169E-001;3.759917616844177E-002;-1.588124316185713E-003;3.217476420104504E-003;
2.407000000000000E+009;1.969414800405502E-001;3.814941644668579E-002;-1.477815094403923E-003;3.243104787543416E-003;
2.407166666666667E+009;1.974325627088547E-001;3.813118115067482E-002;-1.494788564741612E-003;3.367060329765081E-003;
2.407333333333334E+009;1.975298970937729E-001;3.857387602329254E-002;-1.524472376331687E-003;3.357867477461696E-003;
2.407500000000000E+009;1.977411657571793E-001;3.903542459011078E-002;-1.535170478746295E-003;3.453885205090046E-003;
2.407666666666667E+009;1.978730261325836E-001;3.914661332964897E-002;-1.484499895013869E-003;3.469852497801185E-003;
2.407833333333334E+009;1.974602341651917E-001;3.939938545227051E-002;-1.466555753722787E-003;3.546624910086393E-003;
2.408000000000000E+009;1.976303607225418E-001;3.959548473358154E-002;-1.378695014864206E-003;3.596339141950011E-003;
2.408166666666667E+009;1.970535069704056E-001;3.959293290972710E-002;-1.312313019298017E-003;3.796791657805443E-003;
2.408333333333334E+009;1.966582238674164E-001;3.965581580996513E-002;-1.216756645590067E-003;3.711831988766789E-003;
2.408500000000000E+009;1.959469914436340E-001;3.958065062761307E-002;-1.266825594939292E-003;3.890441032126546E-003;
2.408666666666667E+009;1.952815502882004E-001;3.937913477420807E-002;-1.162784174084663E-003;4.004602320492268E-003;
2.408833333333334E+009;1.947330385446549E-001;3.895599767565727E-002;-1.005899161100388E-003;4.049735143780708E-003;
2.409000000000000E+009;1.936015635728836E-001;3.846001252532005E-002;-8.941876003518701E-004;4.250781610608101E-003;
2.409166666666667E+009;1.926783025264740E-001;3.772020339965820E-002;-8.092633797787130E-004;4.317614715546370E-003;
2.409333333333334E+009;1.916504800319672E-001;3.721504658460617E-002;-4.689756024163216E-004;4.389987327158451E-003;
2.409500000000000E+009;1.904864609241486E-001;3.611179441213608E-002;-3.942970070056617E-004;4.443632438778877E-003;
2.409666666666667E+009;1.893307268619537E-001;3.498129546642304E-002;-2.658596786204726E-004;4.624733235687017E-003;
2.409833333333334E+009;1.881608217954636E-001;3.380266577005386E-002;-1.530541194370017E-004;4.596712533384562E-003;
2.410000000000000E+009;1.869412660598755E-001;3.219737485051155E-002;7.775950507493690E-005;4.681248683482409E-003;
2.410166666666667E+009;1.855384707450867E-001;3.066089749336243E-002;2.193889522459358E-004;4.668664187192917E-003;
2.410333333333334E+009;1.844840198755264E-001;2.903390675783157E-002;5.342122749425471E-004;4.884933121502399E-003;
2.410500000000000E+009;1.832420825958252E-001;2.743818983435631E-002;6.119782919995487E-004;4.739139229059219E-003;
2.410666666666667E+009;1.822213530540466E-001;2.511876821517944E-002;9.433738305233419E-004;4.759731236845255E-003;
2.410833333333334E+009;1.815282702445984E-001;2.308254316449165E-002;1.121095963753760E-003;4.688059911131859E-003;
2.411000000000000E+009;1.803259551525116E-001;2.101960778236389E-002;1.270909444428980E-003;4.645172506570816E-003;
2.411166666666667E+009;1.793506294488907E-001;1.882260665297508E-002;1.439398271031678E-003;4.642869345843792E-003;
2.411333333333334E+009;1.787836402654648E-001;1.616802811622620E-002;1.563647412694991E-003;4.586064256727696E-003;
2.411500000000000E+009;1.779065430164337E-001;1.399928331375122E-002;1.902424148283899E-003;4.541923757642508E-003;
2.411666666666667E+009;1.775711923837662E-001;1.134999655187130E-002;2.111627720296383E-003;4.392059054225683E-003;
2.411833333333334E+009;1.770545691251755E-001;8.941260166466236E-003;2.243888098746538E-003;4.486627411097288E-003;
2.412000000000000E+009;1.772166937589645E-001;6.248774472624064E-003;2.445255173370242E-003;4.402994643896818E-003;
2.412166666666667E+009;1.769546568393707E-001;3.794897580519319E-003;2.522032707929611E-003;4.238866735249758E-003;
2.412333333333334E+009;1.769558191299439E-001;1.158864120952785E-003;2.855115802958608E-003;4.234081599861383E-003;
2.412500000000000E+009;1.773756742477417E-001;-1.483749365434051E-003;3.012858796864748E-003;4.238427616655827E-003;
2.412666666666667E+009;1.776384562253952E-001;-4.010852891951799E-003;3.175159450620413E-003;3.865709062665701E-003;
2.412833333333334E+009;1.781527101993561E-001;-6.818855181336403E-003;3.422048175707459E-003;3.832464339211583E-003;
2.413000000000000E+009;1.789131760597229E-001;-9.364521130919457E-003;3.751983633264899E-003;3.622594289481640E-003;
2.413166666666667E+009;1.796721816062927E-001;-1.171794999390841E-002;3.887898521497846E-003;3.416969440877438E-003;
2.413333333333334E+009;1.808281987905502E-001;-1.444926764816046E-002;4.120724741369486E-003;2.999451244249940E-003;
2.413500000000000E+009;1.814716160297394E-001;-1.702456735074520E-002;4.370493348687887E-003;2.895907266065478E-003;
2.413666666666667E+009;1.826930791139603E-001;-1.930155977606773E-002;4.411642439663410E-003;2.742979209870100E-003;
2.413833333333334E+009;1.839376091957092E-001;-2.166360802948475E-002;4.549236036837101E-003;2.410011598840356E-003;
2.414000000000000E+009;1.852080374956131E-001;-2.384889498353005E-002;4.523056093603373E-003;1.988623756915331E-003;
2.414166666666667E+009;1.864631921052933E-001;-2.590335346758366E-002;4.490382969379425E-003;1.659246161580086E-003;
2.414333333333334E+009;1.879099011421204E-001;-2.810720913112164E-002;4.682796075940132E-003;1.285209320485592E-003;
2.414500000000000E+009;1.892378479242325E-001;-2.972353622317314E-002;4.351655021309853E-003;9.726697462610900E-004;
2.414666666666667E+009;1.906956881284714E-001;-3.154180943965912E-002;4.463752266019583E-003;8.238497539423406E-004;
2.414833333333334E+009;1.919274628162384E-001;-3.299852833151817E-002;4.215576220303774E-003;6.560145411640406E-004;
2.415000000000000E+009;1.933637410402298E-001;-3.447161242365837E-002;4.160347394645214E-003;4.306269984226674E-004;
2.415166666666667E+009;1.949188411235809E-001;-3.565743938088417E-002;3.906755242496729E-003;3.193233569618315E-004;
2.415333333333334E+009;1.962242275476456E-001;-3.690576180815697E-002;4.027394112199545E-003;2.213097759522498E-004;
2.415500000000000E+009;1.977000981569290E-001;-3.773671016097069E-002;4.133967217057943E-003;1.311347732553259E-004;
2.415666666666667E+009;1.990537792444229E-001;-3.884093835949898E-002;3.818074241280556E-003;9.448255696042907E-006;
2.415833333333334E+009;2.001127004623413E-001;-3.955217450857163E-002;3.604174591600895E-003;-2.632437681313604E-004;
2.416000000000000E+009;2.012286484241486E-001;-4.017404466867447E-002;3.669967176392674E-003;-3.000170399900526E-004;
2.416166666666667E+009;2.022339105606079E-001;-4.085731878876686E-002;3.659388050436974E-003;-4.867887473665178E-004;
2.416333333333334E+009;2.032637596130371E-001;-4.118051752448082E-002;3.496653633192182E-003;-6.355030927807093E-004;
2.416500000000000E+009;2.039914280176163E-001;-4.145703092217445E-002;3.411857876926661E-003;-7.334715919569135E-004;
2.416666666666667E+009;2.046502083539963E-001;-4.187586531043053E-002;3.193588228896260E-003;-8.086924208328128E-004;
2.416833333333334E+009;2.050414681434631E-001;-4.176151752471924E-002;3.052354091778398E-003;-8.545466698706150E-004;
2.417000000000000E+009;2.055521160364151E-001;-4.186224192380905E-002;2.903982065618038E-003;-8.859704830683768E-004;
2.417166666666667E+009;2.055025249719620E-001;-4.184252023696899E-002;2.755214925855398E-003;-1.062439754605293E-003;
2.417333333333334E+009;2.054908871650696E-001;-4.147607833147049E-002;2.711732638999820E-003;-9.734606137499213E-004;
2.417500000000000E+009;2.056437581777573E-001;-4.140125587582588E-002;2.577482955530286E-003;-9.458786807954311E-004;
2.417666666666667E+009;2.052836418151856E-001;-4.094345122575760E-002;2.482123905792832E-003;-9.304825798608363E-004;
2.417833333333334E+009;2.050129473209381E-001;-4.067908227443695E-002;2.329445909708738E-003;-8.684488129802048E-004;
2.418000000000000E+009;2.045683562755585E-001;-4.020732268691063E-002;2.319711726158857E-003;-8.724822546355426E-004;
2.418166666666667E+009;2.040221393108368E-001;-3.996621817350388E-002;2.136564580723643E-003;-6.978178280405700E-004;
2.418333333333334E+009;2.032177448272705E-001;-3.959712758660317E-002;2.221873262897134E-003;-7.395634311251342E-004;
2.418500000000000E+009;2.023198306560516E-001;-3.944177180528641E-002;2.143151126801968E-003;-6.843797164037824E-004;
2.418666666666667E+009;2.014598697423935E-001;-3.915281966328621E-002;2.140274504199624E-003;-4.759276926051825E-004;
2.418833333333334E+009;2.003898024559021E-001;-3.911800310015678E-002;2.224538009613752E-003;-6.260987138375640E-004;
2.419000000000000E+009;1.990202069282532E-001;-3.918883949518204E-002;2.216403372585774E-003;-5.867021973244846E-004;
2.419166666666667E+009;1.977670639753342E-001;-3.923076763749123E-002;2.293006051331759E-003;-6.081993342377245E-004;
2.419333333333334E+009;1.964447945356369E-001;-3.934694826602936E-002;2.193383406847715E-003;-5.398213397711515E-004;
2.419500000000000E+009;1.948716938495636E-001;-3.973619639873505E-002;2.267994685098529E-003;-6.065386696718633E-004;
2.419666666666667E+009;1.930796504020691E-001;-4.039694368839264E-002;2.235599095001817E-003;-6.694457260891795E-004;
2.419833333333334E+009;1.914653182029724E-001;-4.098280891776085E-002;2.299779327586293E-003;-5.466636503115296E-004;
2.420000000000000E+009;1.898042708635330E-001;-4.162180423736572E-002;2.317030914127827E-003;-6.936965510249138E-004;
2.420166666666667E+009;1.880778521299362E-001;-4.234541580080986E-002;2.429427346214652E-003;-5.508310860022903E-004;
2.420333333333334E+009;1.863251626491547E-001;-4.340012371540070E-002;2.470366656780243E-003;-5.936452071182430E-004;
2.420500000000000E+009;1.843388080596924E-001;-4.467580467462540E-002;2.467072801664472E-003;-6.524355267174542E-004;
2.420666666666667E+009;1.825989186763763E-001;-4.555858299136162E-002;2.552630379796028E-003;-5.661981995217502E-004;
2.420833333333334E+009;1.808443814516068E-001;-4.720973968505859E-002;2.573896199464798E-003;-6.855562096461654E-004;
2.421000000000000E+009;1.790851503610611E-001;-4.869640991091728E-002;2.641425002366304E-003;-7.044341764412820E-004;
2.421166666666667E+009;1.774721741676331E-001;-5.021711438894272E-002;2.761796116828919E-003;-7.801954634487629E-004;
2.421333333333334E+009;1.755214035511017E-001;-5.180794373154640E-002;2.871405798941851E-003;-9.018313139677048E-004;
2.421500000000000E+009;1.740555018186569E-001;-5.387682095170021E-002;2.906586276367307E-003;-1.066712895408273E-003;
2.421666666666667E+009;1.725991964340210E-001;-5.568386986851692E-002;2.968644956126809E-003;-1.219486701302230E-003;
2.421833333333334E+009;1.711218208074570E-001;-5.758648738265038E-002;2.974790520966053E-003;-1.218576799146831E-003;
2.422000000000000E+009;1.698732227087021E-001;-5.971833691000938E-002;3.013984765857458E-003;-1.286997110582888E-003;
2.422166666666667E+009;1.686003655195236E-001;-6.190598011016846E-002;3.030269406735897E-003;-1.636471366509795E-003;
2.422333333333334E+009;1.674847006797791E-001;-6.414169073104858E-002;3.012848086655140E-003;-1.747646019794047E-003;
2.422500000000000E+009;1.665706336498261E-001;-6.603650003671646E-002;2.962590893730521E-003;-1.959866611286998E-003;
2.422666666666667E+009;1.656768769025803E-001;-6.844735145568848E-002;3.171668155118823E-003;-1.835807692259550E-003;
2.422833333333334E+009;1.650528907775879E-001;-7.078194618225098E-002;2.916585188359022E-003;-2.056992612779141E-003;
2.423000000000000E+009;1.645090878009796E-001;-7.289601117372513E-002;2.890419447794557E-003;-2.232383703812957E-003;
2.423166666666667E+009;1.639102548360825E-001;-7.514690607786179E-002;2.928902395069599E-003;-2.387104788795114E-003;
2.423333333333334E+009;1.636466234922409E-001;-7.728277891874313E-002;2.951392205432057E-003;-2.526737516745925E-003;
2.423500000000000E+009;1.635418087244034E-001;-7.941352576017380E-002;2.780426060780883E-003;-2.675283467397094E-003;
2.423666666666667E+009;1.634154468774796E-001;-8.171331137418747E-002;2.772744046524167E-003;-2.814231906086206E-003;
2.423833333333334E+009;1.632818430662155E-001;-8.356110751628876E-002;2.801877679303289E-003;-2.817885251715779E-003;
2.424000000000000E+009;1.635413318872452E-001;-8.568602800369263E-002;2.527219476178289E-003;-3.136314917355776E-003;
2.424166666666667E+009;1.636302173137665E-001;-8.753696084022522E-002;2.598408143967390E-003;-3.322651842609048E-003;
2.424333333333334E+009;1.637627035379410E-001;-8.944782614707947E-002;2.486821962520480E-003;-3.392180893570185E-003;
2.424500000000000E+009;1.642787754535675E-001;-9.127583354711533E-002;2.346808789297938E-003;-3.660119837149978E-003;
2.424666666666667E+009;1.646597683429718E-001;-9.296235442161560E-002;2.192820655182004E-003;-3.708392381668091E-003;
2.424833333333334E+009;1.652110964059830E-001;-9.467313438653946E-002;1.884911907836795E-003;-3.908989951014519E-003;
2.425000000000000E+009;1.656803339719772E-001;-9.596278518438339E-002;1.849373336881399E-003;-4.127047024667263E-003;
2.425166666666667E+009;1.661199033260346E-001;-9.726095944643021E-002;1.484851585701108E-003;-4.260647576302290E-003;
2.425333333333334E+009;1.667266935110092E-001;-9.848124533891678E-002;1.335355220362544E-003;-4.402774386107922E-003;
2.425500000000000E+009;1.672835648059845E-001;-9.966561198234558E-002;1.105432980693877E-003;-4.342762753367424E-003;
2.425666666666667E+009;1.679222434759140E-001;-1.004522517323494E-001;8.444903069175780E-004;-4.325102083384991E-003;
2.425833333333334E+009;1.683642417192459E-001;-1.014488562941551E-001;8.044508285820484E-004;-4.485482349991798E-003;
2.426000000000000E+009;1.690331548452377E-001;-1.019949764013290E-001;4.101077793166041E-004;-4.260956309735775E-003;
2.426166666666667E+009;1.696964204311371E-001;-1.025981158018112E-001;1.848766405601054E-004;-4.318521358072758E-003;
2.426333333333334E+009;1.698558330535889E-001;-1.032140403985977E-001;-3.778766767936759E-005;-4.246647469699383E-003;
2.426500000000000E+009;1.706330925226212E-001;-1.035372838377953E-001;-1.108529322664253E-004;-4.275552462786436E-003;
2.426666666666667E+009;1.710551977157593E-001;-1.038332730531693E-001;-3.846437030006200E-004;-4.098601173609495E-003;
2.426833333333334E+009;1.715345829725266E-001;-1.042572706937790E-001;-6.237155757844448E-004;-4.145205952227116E-003;
2.427000000000000E+009;1.718849390745163E-001;-1.044389158487320E-001;-7.519495557062328E-004;-4.116799682378769E-003;
2.427166666666667E+009;1.720826327800751E-001;-1.044389754533768E-001;-8.434462361037731E-004;-3.961252514272928E-003;
2.427333333333334E+009;1.722232103347778E-001;-1.047008037567139E-001;-9.111855761148036E-004;-3.944794181734324E-003;
2.427500000000000E+009;1.722269952297211E-001;-1.047130227088928E-001;-1.093113678507507E-003;-3.839798737317324E-003;
2.427666666666667E+009;1.720699518918991E-001;-1.046190783381462E-001;-1.157920458354056E-003;-3.823848906904459E-003;
2.427833333333334E+009;1.720007061958313E-001;-1.046126037836075E-001;-1.287228194996715E-003;-3.771771444007754E-003;
