# Version 1.00
#
freq[Hz];re:Trc1_S11;im:Trc1_S11;re:Trc2_S21;im:Trc2_S21;
2.400000000000000E+009;1.557991355657578E-001;1.108591631054878E-001;-4.679581150412560E-003;-4.663618747144938E-004;
2.400166666666667E+009;1.551085859537125E-001;1.084829792380333E-001;-4.754487890750170E-003;-2.644798660185188E-004;
2.400333333333334E+009;1.550751477479935E-001;1.062079295516014E-001;-4.565379116684198E-003;4.294174505048432E-005;
2.400500000000000E+009;1.545210629701614E-001;1.038365438580513E-001;-4.635581746697426E-003;1.613198837731034E-004;
2.400666666666667E+009;1.543903201818466E-001;1.011982187628746E-001;-4.542366601526737E-003;4.898249171674252E-004;
2.400833333333334E+009;1.540580689907074E-001;9.815011173486710E-002;-4.552180413156748E-003;6.467234925366938E-004;
2.401000000000000E+009;1.539892554283142E-001;9.543428570032120E-002;-4.529525060206652E-003;7.041592616587877E-004;
2.401166666666667E+009;1.539326012134552E-001;9.259648621082306E-002;-4.358128178864718E-003;8.841289090923965E-004;
2.401333333333334E+009;1.539545804262161E-001;8.968421071767807E-002;-4.369444213807583E-003;9.124937350861728E-004;
2.401500000000000E+009;1.540008187294006E-001;8.653230965137482E-002;-4.172080662101507E-003;9.747906588017941E-004;
2.401666666666667E+009;1.541042625904083E-001;8.350054919719696E-002;-3.989157266914845E-003;1.362279872409999E-003;
2.401833333333334E+009;1.545013189315796E-001;8.067524433135986E-002;-4.089218098670244E-003;1.369344769045711E-003;
2.402000000000000E+009;1.550747901201248E-001;7.768822461366653E-002;-3.984654787927866E-003;1.566305640153587E-003;
2.402166666666667E+009;1.556131988763809E-001;7.499144226312637E-002;-3.832999616861343E-003;1.807538210414350E-003;
2.402333333333334E+009;1.565078049898148E-001;7.202059775590897E-002;-3.714829450473189E-003;2.010476076975465E-003;
2.402500000000000E+009;1.575297415256500E-001;6.913966685533524E-002;-3.645077114924789E-003;1.859994605183601E-003;
2.402666666666667E+009;1.586361527442932E-001;6.661533564329147E-002;-3.614429617300630E-003;2.101543126627803E-003;
2.402833333333334E+009;1.598803400993347E-001;6.390585750341415E-002;-3.410607576370239E-003;2.053915988653898E-003;
2.403000000000000E+009;1.611395627260208E-001;6.141363084316254E-002;-3.262462094426155E-003;2.162471413612366E-003;
2.403166666666667E+009;1.630085110664368E-001;5.889548361301422E-002;-2.994031645357609E-003;2.229279605671763E-003;
2.403333333333334E+009;1.643138825893402E-001;5.657217651605606E-002;-2.926735673099756E-003;2.157983137294650E-003;
2.403500000000000E+009;1.660653352737427E-001;5.405579879879952E-002;-2.917291829362512E-003;2.174382796511054E-003;
2.403666666666667E+009;1.678435206413269E-001;5.179212242364883E-002;-2.939206315204501E-003;2.073819283396006E-003;
2.403833333333334E+009;1.696496307849884E-001;4.985022917389870E-002;-2.611789386719465E-003;2.075409749522805E-003;
2.404000000000000E+009;1.712809950113297E-001;4.775796830654144E-002;-2.667746739462018E-003;2.013818593695760E-003;
2.404166666666667E+009;1.732352077960968E-001;4.610916599631310E-002;-2.693012589588761E-003;2.069891663268209E-003;
2.404333333333334E+009;1.749160885810852E-001;4.425730928778648E-002;-2.647960325703025E-003;2.025078283622861E-003;
2.404500000000000E+009;1.767736822366715E-001;4.281624779105187E-002;-2.685005776584148E-003;2.146821701899171E-003;
2.404666666666667E+009;1.786736994981766E-001;4.155700653791428E-002;-2.696985378861427E-003;2.189156366512179E-003;
2.404833333333334E+009;1.805068403482437E-001;4.033545032143593E-002;-2.824613125994802E-003;2.220286056399345E-003;
2.405000000000000E+009;1.819546520709992E-001;3.952982276678085E-002;-2.734511857852340E-003;2.375068143010140E-003;
2.405166666666667E+009;1.837170720100403E-001;3.877187892794609E-002;-2.684677718207240E-003;2.497378271073103E-003;
2.405333333333334E+009;1.853847205638886E-001;3.821097686886787E-002;-2.678991295397282E-003;2.837018575519323E-003;
2.405500000000000E+009;1.872236281633377E-001;3.761073201894760E-002;-2.680199453607202E-003;2.733960049226880E-003;
2.405666666666667E+009;1.885659545660019E-001;3.734230622649193E-002;-2.465182216838002E-003;2.937617711722851E-003;
2.405833333333334E+009;1.899933069944382E-001;3.704911470413208E-002;-2.387704094871879E-003;3.100623609498143E-003;
2.406000000000000E+009;1.913678497076035E-001;3.700097650289536E-002;-2.376043004915118E-003;3.095584223046899E-003;
2.406166666666667E+009;1.925321817398071E-001;3.686563670635223E-002;-1.977192005142570E-003;3.131191711872816E-003;
2.406333333333334E+009;1.938142478466034E-001;3.702911734580994E-002;-2.098973607644439E-003;3.261446487158537E-003;
2.406500000000000E+009;1.947747766971588E-001;3.713802993297577E-002;-1.749122166074812E-003;3.189586568623781E-003;
2.406666666666667E+009;1.956074982881546E-001;3.731106594204903E-002;-1.686482923105359E-003;3.246802836656570E-003;
2.406833333333334E+009;1.963491290807724E-001;3.760221228003502E-002;-1.679216744378209E-003;3.225753549486399E-003;
2.407000000000000E+009;1.969350576400757E-001;3.802001848816872E-002;-1.561505952849984E-003;3.318074857816100E-003;
2.407166666666667E+009;1.975040882825851E-001;3.807498887181282E-002;-1.622594776563346E-003;3.296388546004891E-003;
2.407333333333334E+009;1.976072788238525E-001;3.849520534276962E-002;-1.616808935068548E-003;3.307048697024584E-003;
2.407500000000000E+009;1.976950466632843E-001;3.899441659450531E-002;-1.411289907991886E-003;3.426523180678487E-003;
2.407666666666667E+009;1.979661285877228E-001;3.922650590538979E-002;-1.510945498012006E-003;3.431108780205250E-003;
2.407833333333334E+009;1.976370960474014E-001;3.937589004635811E-002;-1.426756731234491E-003;3.467746078968048E-003;
2.408000000000000E+009;1.974337548017502E-001;3.963518142700195E-002;-1.350391656160355E-003;3.466550493612886E-003;
2.408166666666667E+009;1.971989721059799E-001;3.964195027947426E-002;-1.382549991831183E-003;3.752660239115357E-003;
2.408333333333334E+009;1.966467499732971E-001;3.957891464233398E-002;-1.215717406012118E-003;3.868615720421076E-003;
2.408500000000000E+009;1.960435658693314E-001;3.953747823834419E-002;-1.117094652727246E-003;3.910025116056204E-003;
2.408666666666667E+009;1.953313648700714E-001;3.932079300284386E-002;-1.073778374120593E-003;4.037665668874979E-003;
2.408833333333334E+009;1.946142911911011E-001;3.907763957977295E-002;-9.709260193631053E-004;4.109203349798918E-003;
2.409000000000000E+009;1.936959326267242E-001;3.841145709156990E-002;-8.484618738293648E-004;4.212993197143078E-003;
2.409166666666667E+009;1.927106380462647E-001;3.771813213825226E-002;-8.633882389403880E-004;4.301663953810930E-003;
2.409333333333334E+009;1.918283998966217E-001;3.711310774087906E-002;-4.470872518140823E-004;4.471861757338047E-003;
2.409500000000000E+009;1.905302405357361E-001;3.603796660900116E-002;-4.386646905913949E-004;4.585839807987213E-003;
2.409666666666667E+009;1.893659085035324E-001;3.497558459639549E-002;-2.164893230656162E-004;4.466783255338669E-003;
2.409833333333334E+009;1.880356520414352E-001;3.382622450590134E-002;-1.311801752308384E-004;4.567186348140240E-003;
2.410000000000000E+009;1.867912709712982E-001;3.236589953303337E-002;4.416739102452993E-005;4.726205952465534E-003;
2.410166666666667E+009;1.857246756553650E-001;3.071132861077786E-002;3.476327692624182E-004;4.690893925726414E-003;
2.410333333333334E+009;1.845423430204392E-001;2.911549806594849E-002;4.882965586148202E-004;4.719828721135855E-003;
2.410500000000000E+009;1.833860427141190E-001;2.734048664569855E-002;7.189138559624553E-004;4.722879733890295E-003;
2.410666666666667E+009;1.822109818458557E-001;2.523730508983135E-002;9.893100941553712E-004;4.727574996650219E-003;
2.410833333333334E+009;1.812971830368042E-001;2.314746379852295E-002;1.069799647666514E-003;4.580074921250343E-003;
2.411000000000000E+009;1.803742945194244E-001;2.109616063535214E-002;1.293003442697227E-003;4.715939983725548E-003;
2.411166666666667E+009;1.794130504131317E-001;1.890894584357739E-002;1.585174351930618E-003;4.603027366101742E-003;
2.411333333333334E+009;1.788055151700974E-001;1.637156493961811E-002;1.705392263829708E-003;4.649765789508820E-003;
2.411500000000000E+009;1.780435442924500E-001;1.387190073728561E-002;1.917338697239757E-003;4.431335721164942E-003;
2.411666666666667E+009;1.776287108659744E-001;1.157398242503405E-002;2.062234794721007E-003;4.354097414761782E-003;
2.411833333333334E+009;1.771316081285477E-001;9.059364907443523E-003;2.125751459971070E-003;4.458032548427582E-003;
2.412000000000000E+009;1.771060377359390E-001;6.249387282878161E-003;2.331510651856661E-003;4.268614575266838E-003;
2.412166666666667E+009;1.769797950983048E-001;3.907437436282635E-003;2.701269928365946E-003;4.166285973042250E-003;
2.412333333333334E+009;1.769941598176956E-001;1.113708131015301E-003;2.872125245630741E-003;4.275346174836159E-003;
2.412500000000000E+009;1.775069385766983E-001;-1.487558241933584E-003;2.976839663460851E-003;4.122467711567879E-003;
2.412666666666667E+009;1.775656789541245E-001;-4.181277472525835E-003;3.352688159793615E-003;3.860813798382878E-003;
2.412833333333334E+009;1.784368455410004E-001;-6.945139262825251E-003;3.402211936190724E-003;3.687237855046988E-003;
2.413000000000000E+009;1.790524721145630E-001;-9.350784122943878E-003;3.701450536027551E-003;3.644572105258703E-003;
2.413166666666667E+009;1.796310096979141E-001;-1.182619947940111E-002;3.924447111785412E-003;3.344390075653791E-003;
2.413333333333334E+009;1.806331723928452E-001;-1.437239442020655E-002;4.142155870795250E-003;3.326925681903958E-003;
2.413500000000000E+009;1.815942227840424E-001;-1.708611659705639E-002;4.223408177495003E-003;2.949410583823919E-003;
2.413666666666667E+009;1.829459965229034E-001;-1.940842904150486E-002;4.488869104534388E-003;2.697165589779615E-003;
2.413833333333334E+009;1.840288043022156E-001;-2.161908708512783E-002;4.578059073537588E-003;2.292902208864689E-003;
2.414000000000000E+009;1.852466762065888E-001;-2.390588633716106E-002;4.587148316204548E-003;1.860522548668087E-003;
2.414166666666667E+009;1.865120530128479E-001;-2.585153654217720E-002;4.571401979774237E-003;1.552478293888271E-003;
2.414333333333334E+009;1.878233253955841E-001;-2.799830585718155E-002;4.386028740555048E-003;1.319923205301166E-003;
2.414500000000000E+009;1.893378496170044E-001;-2.956411428749561E-002;4.326395690441132E-003;1.103316550143063E-003;
2.414666666666667E+009;1.906226426362991E-001;-3.142791613936424E-002;4.253564402461052E-003;8.385347318835557E-004;
2.414833333333334E+009;1.920049190521240E-001;-3.303470835089684E-002;4.237636458128691E-003;5.730218254029751E-004;
2.415000000000000E+009;1.933765262365341E-001;-3.458490222692490E-002;4.122559446841478E-003;4.515223263297230E-004;
2.415166666666667E+009;1.949091404676437E-001;-3.586446866393089E-002;4.087851848453283E-003;2.184337208746001E-004;
2.415333333333334E+009;1.962970346212387E-001;-3.693348541855812E-002;4.029183182865381E-003;1.139262167271227E-004;
2.415500000000000E+009;1.976570039987564E-001;-3.777586296200752E-002;4.001982975751162E-003;-8.252766747318674E-006;
2.415666666666667E+009;1.989822387695313E-001;-3.876235708594322E-002;3.838068339973688E-003;-1.095013649319299E-004;
2.415833333333334E+009;2.002117186784744E-001;-3.950236737728119E-002;3.736108308658004E-003;-1.590845931787044E-004;
2.416000000000000E+009;2.011820226907730E-001;-4.024186730384827E-002;3.739117411896586E-003;-2.537415421102196E-004;
2.416166666666667E+009;2.023965567350388E-001;-4.077609255909920E-002;3.445883514359593E-003;-4.891564021818340E-004;
2.416333333333334E+009;2.032542675733566E-001;-4.113149642944336E-002;3.478995524346829E-003;-6.356819649226964E-004;
2.416500000000000E+009;2.041693329811096E-001;-4.134541749954224E-002;3.262896323576570E-003;-8.440852398052812E-004;
2.416666666666667E+009;2.047218233346939E-001;-4.176742210984230E-002;3.200662322342396E-003;-8.249571546912193E-004;
2.416833333333334E+009;2.051538974046707E-001;-4.173765704035759E-002;3.028671722859144E-003;-8.080776897259057E-004;
2.417000000000000E+009;2.054865956306458E-001;-4.186001047492027E-002;2.862720284610987E-003;-9.369627223350108E-004;
2.417166666666667E+009;2.055729478597641E-001;-4.176908731460571E-002;2.830980112776160E-003;-1.057654968462884E-003;
2.417333333333334E+009;2.056227326393127E-001;-4.137360677123070E-002;2.467455808073282E-003;-9.490944212302566E-004;
2.417500000000000E+009;2.055216133594513E-001;-4.134699329733849E-002;2.412196248769760E-003;-9.161597117781639E-004;
2.417666666666667E+009;2.053087800741196E-001;-4.104777052998543E-002;2.278926549479365E-003;-9.468204807490110E-004;
2.417833333333334E+009;2.050861567258835E-001;-4.070153459906578E-002;2.202610950917006E-003;-7.467531249858439E-004;
2.418000000000000E+009;2.045920938253403E-001;-4.028970003128052E-002;2.343417610973120E-003;-6.373909418471158E-004;
2.418166666666667E+009;2.038865685462952E-001;-3.996135294437408E-002;2.217157976701856E-003;-6.863692542538047E-004;
2.418333333333334E+009;2.031657993793488E-001;-3.962669521570206E-002;2.203793497756124E-003;-7.568500004708767E-004;
2.418500000000000E+009;2.023357450962067E-001;-3.951731696724892E-002;2.217116765677929E-003;-6.478400318883359E-004;
2.418666666666667E+009;2.016663402318955E-001;-3.910681232810020E-002;2.163191093131900E-003;-6.836241227574647E-004;
2.418833333333334E+009;2.003828287124634E-001;-3.915647789835930E-002;2.124405931681395E-003;-6.383332656696439E-004;
2.419000000000000E+009;1.989859044551849E-001;-3.918226808309555E-002;2.132903551682830E-003;-6.550169782713056E-004;
2.419166666666667E+009;1.978142261505127E-001;-3.928002342581749E-002;2.087792381644249E-003;-6.198195042088628E-004;
2.419333333333334E+009;1.964416652917862E-001;-3.954821452498436E-002;2.262290799990296E-003;-5.129349883645773E-004;
2.419500000000000E+009;1.948262453079224E-001;-3.970029950141907E-002;2.233462408185005E-003;-5.550915957428515E-004;
2.419666666666667E+009;1.932411342859268E-001;-4.043949395418167E-002;2.115586772561073E-003;-5.223109037615359E-004;
2.419833333333334E+009;1.915822476148605E-001;-4.086164757609367E-002;2.319587860256434E-003;-6.463783211074770E-004;
2.420000000000000E+009;1.898488402366638E-001;-4.149957373738289E-002;2.313826931640506E-003;-5.411371239461005E-004;
2.420166666666667E+009;1.880593299865723E-001;-4.230460152029991E-002;2.440175041556358E-003;-5.025653517805040E-004;
2.420333333333334E+009;1.862105578184128E-001;-4.354784265160561E-002;2.356993732973933E-003;-5.586189217865467E-004;
2.420500000000000E+009;1.843952238559723E-001;-4.469018429517746E-002;2.506743650883436E-003;-6.203891825862229E-004;
2.420666666666667E+009;1.827259510755539E-001;-4.570718109607697E-002;2.591144526377320E-003;-5.717145977541804E-004;
2.420833333333334E+009;1.808484941720963E-001;-4.715086519718170E-002;2.748879604041576E-003;-6.796789239160717E-004;
2.421000000000000E+009;1.790939271450043E-001;-4.861645400524139E-002;2.705462276935577E-003;-5.921269766986370E-004;
2.421166666666667E+009;1.775247305631638E-001;-5.032325908541679E-002;2.896329155191779E-003;-8.248341036960483E-004;
2.421333333333334E+009;1.755925416946411E-001;-5.192907154560089E-002;2.840321743860841E-003;-7.200910476967692E-004;
2.421500000000000E+009;1.740569174289703E-001;-5.385159701108933E-002;2.993786940351129E-003;-1.066391589120030E-003;
2.421666666666667E+009;1.726356744766235E-001;-5.566718056797981E-002;2.940650796517730E-003;-1.101742847822607E-003;
2.421833333333334E+009;1.711968332529068E-001;-5.765855684876442E-002;3.117690794169903E-003;-1.072044949978590E-003;
2.422000000000000E+009;1.698290109634399E-001;-5.973336100578308E-002;3.002479439601302E-003;-1.338935457170010E-003;
2.422166666666667E+009;1.687546223402023E-001;-6.178427487611771E-002;3.094584448263049E-003;-1.602168777026236E-003;
2.422333333333334E+009;1.675397902727127E-001;-6.408934295177460E-002;3.125181188806891E-003;-1.721437089145184E-003;
2.422500000000000E+009;1.666163802146912E-001;-6.619548797607422E-002;3.089750185608864E-003;-1.895680092275143E-003;
2.422666666666667E+009;1.658745557069778E-001;-6.841359287500382E-002;3.032947424799204E-003;-2.033960307016969E-003;
2.422833333333334E+009;1.651858687400818E-001;-7.083091139793396E-002;2.860247623175383E-003;-2.059832913801074E-003;
2.423000000000000E+009;1.644769012928009E-001;-7.298139482736588E-002;2.877085469663143E-003;-2.178715076297522E-003;
2.423166666666667E+009;1.639748215675354E-001;-7.513491064310074E-002;2.825012197718024E-003;-2.312496071681380E-003;
2.423333333333334E+009;1.635821014642716E-001;-7.733644545078278E-002;2.845028182491660E-003;-2.283739857375622E-003;
2.423500000000000E+009;1.634520590305328E-001;-7.942621409893036E-002;2.751220483332872E-003;-2.748706378042698E-003;
2.423666666666667E+009;1.635564267635346E-001;-8.172728121280670E-002;2.753098495304585E-003;-2.685400424525142E-003;
2.423833333333334E+009;1.634075045585632E-001;-8.371404558420181E-002;2.669185400009155E-003;-2.882336732000113E-003;
2.424000000000000E+009;1.634944528341293E-001;-8.570625633001328E-002;2.741476753726602E-003;-3.184403060004115E-003;
2.424166666666667E+009;1.635799854993820E-001;-8.766902238130570E-002;2.632109448313713E-003;-3.217707853764296E-003;
2.424333333333334E+009;1.638958007097244E-001;-8.935620635747910E-002;2.456475514918566E-003;-3.428042866289616E-003;
2.424500000000000E+009;1.643336713314056E-001;-9.142678231000900E-002;2.135337097570300E-003;-3.703803289681673E-003;
2.424666666666667E+009;1.645850241184235E-001;-9.298110008239746E-002;2.267490839585662E-003;-3.721538232639432E-003;
2.424833333333334E+009;1.653307229280472E-001;-9.455649554729462E-002;2.028403105214238E-003;-3.948064520955086E-003;
2.425000000000000E+009;1.657724082469940E-001;-9.593679010868073E-002;1.604449469596148E-003;-4.026661161333323E-003;
2.425166666666667E+009;1.662565767765045E-001;-9.728691726922989E-002;1.375257619656622E-003;-4.194193053990603E-003;
2.425333333333334E+009;1.667446196079254E-001;-9.854461997747421E-002;1.282299985177815E-003;-4.254579544067383E-003;
2.425500000000000E+009;1.673840284347534E-001;-9.963879734277725E-002;1.004796242341399E-003;-4.313785582780838E-003;
2.425666666666667E+009;1.680334061384201E-001;-1.004120483994484E-001;1.029677921906114E-003;-4.344870802015066E-003;
2.425833333333334E+009;1.684335321187973E-001;-1.014529392123222E-001;5.936585948802531E-004;-4.300845786929131E-003;
2.426000000000000E+009;1.690599620342255E-001;-1.020136699080467E-001;4.660134727600962E-004;-4.446041304618120E-003;
2.426166666666667E+009;1.697775274515152E-001;-1.027407869696617E-001;3.305723948869854E-004;-4.405133426189423E-003;
2.426333333333334E+009;1.700138598680496E-001;-1.032506972551346E-001;-4.211357372696511E-005;-4.496468231081963E-003;
2.426500000000000E+009;1.706479489803314E-001;-1.036707311868668E-001;-9.550122922519222E-005;-4.234046675264835E-003;
2.426666666666667E+009;1.711672395467758E-001;-1.039238348603249E-001;-4.454320587683469E-004;-4.166766069829464E-003;
2.426833333333334E+009;1.715683937072754E-001;-1.042204499244690E-001;-4.580201057251543E-004;-4.013489000499249E-003;
2.427000000000000E+009;1.717589795589447E-001;-1.045026928186417E-001;-7.349910447373986E-004;-4.022955428808928E-003;
2.427166666666667E+009;1.720983684062958E-001;-1.044332981109619E-001;-7.352740503847599E-004;-3.926191944628954E-003;
2.427333333333334E+009;1.722095012664795E-001;-1.046859547495842E-001;-9.271011222153902E-004;-3.787039779126644E-003;
2.427500000000000E+009;1.721898764371872E-001;-1.047230586409569E-001;-1.112013473175466E-003;-3.837107913568616E-003;
2.427666666666667E+009;1.720739305019379E-001;-1.047301292419434E-001;-1.156283542513847E-003;-3.902823897078633E-003;
2.427833333333334E+009;1.718925088644028E-001;-1.047822684049606E-001;-1.357287983410060E-003;-3.720110515132546E-003;
