# Hz S RI R 50
2400000000.0000000000 0.155210554599761990646200615629 0.106565356254577595085386576557 -0.008511669933795928955078125000 -0.000553394900634884834289550781 0 0 0 0 
2400166666.6666665077 0.154986754059791592696981865629 0.104171499609947204589843750000 -0.008807622827589511871337890625 -0.000122680168715305599287310190 0 0 0 0 
2400333333.3333334923 0.155155465006828308105468750000 0.101956382393837002853231865629 -0.008703980594873428344726562500 0.000280247098999097889095860614 0 0 0 0 
2400500000.0000000000 0.155007258057594299316406250000 0.099080130457878112792968750000 -0.008834502659738063812255859375 0.000768542638979852199554443359 0 0 0 0 
2400666666.6666665077 0.155087649822235107421875000000 0.096750915050506591796875000000 -0.008769901469349861145019531250 0.001224035630002618052838969653 0 0 0 0 
2400833333.3333334923 0.155018150806427001953125000000 0.093816369771957397460937500000 -0.008814933709800243377685546875 0.001755212084390223026275634766 0 0 0 0 
2401000000.0000000000 0.155364975333213806152343750000 0.091030657291412353515625000000 -0.008766242302954196929931640625 0.002023511100560427145717001807 0 0 0 0 
2401166666.6666665077 0.155303210020065307617187500000 0.088198862969875335693359375000 -0.008650346659123897552490234375 0.002599567407742143110987997900 0 0 0 0 
2401333333.3333334923 0.155997440218925503829794365629 0.085353359580039978027343750000 -0.008420082740485668182373046875 0.003167183371260762214660644531 0 0 0 0 
2401500000.0000000000 0.156216189265251187423544365629 0.082411475479602813720703125000 -0.008180829696357250213623046875 0.003605070989578961892368935693 0 0 0 0 
2401666666.6666665077 0.156630486249923706054687500000 0.079621188342571258544921875000 -0.007899707183241844177246093750 0.004010657314211130142211914062 0 0 0 0 
2401833333.3333334923 0.156995430588722201248330634371 0.076813131570816040039062500000 -0.007577688898891211423392011426 0.004188002552837133407592773438 0 0 0 0 
2402000000.0000000000 0.157941922545432988922442518742 0.073778286576271057128906250000 -0.007305254694074392318725585938 0.004552786704152823361868573926 0 0 0 0 
2402166666.6666665077 0.158816233277320889571981865629 0.071255944669246673583984375000 -0.006880573462694883346557617188 0.004797860048711299896240234375 0 0 0 0 
2402333333.3333334923 0.159624785184860201736611884371 0.068577706813812255859375000000 -0.006779552903026342391967773438 0.004965908359736204147338867188 0 0 0 0 
2402500000.0000000000 0.160874009132385309417401231258 0.065807178616523742675781250000 -0.006408296525478363037109375000 0.005089094862341880798339843750 0 0 0 0 
2402666666.6666665077 0.161948457360267611404580634371 0.063457533717155456542968750000 -0.005999348126351833343505859375 0.005229732487350702285766601562 0 0 0 0 
2402833333.3333334923 0.163364410400390597244424384371 0.061085816472768776630442033593 -0.005844721104949712753295898438 0.005285245832055807113647460938 0 0 0 0 
2403000000.0000000000 0.164529830217361505706463731258 0.058795675635337829589843750000 -0.005446208640933036804199218750 0.005390802398324012756347656250 0 0 0 0 
2403166666.6666665077 0.166403770446777288238848768742 0.056444421410560607910156250000 -0.005418160930275917053222656250 0.005623806267976760864257812500 0 0 0 0 
2403333333.3333334923 0.167817384004592895507812500000 0.054315656423568732524831403907 -0.005038524977862834930419921875 0.005617467220872640609741210938 0 0 0 0 
2403500000.0000000000 0.169398948550224304199218750000 0.052281968295574188232421875000 -0.004835164174437522888183593750 0.005683931987732648849487304688 0 0 0 0 
2403666666.6666665077 0.171171486377716092208700615629 0.050230063498020172119140625000 -0.004443142563104630383963300488 0.006069521885365247726440429688 0 0 0 0 
2403833333.3333334923 0.172760978341102600097656250000 0.048322960734367370605468750000 -0.004416614770889282226562500000 0.006138672120869159698486328125 0 0 0 0 
2404000000.0000000000 0.174333304166793795486611884371 0.046671643853187561035156250000 -0.004312703851610422134399414062 0.006214280147105455398559570312 0 0 0 0 
2404166666.6666665077 0.176173672080040005782919365629 0.045221962034702301025390625000 -0.003947438206523656845092773438 0.006168871186673641204833984375 0 0 0 0 
2404333333.3333334923 0.177826389670372009277343750000 0.043738845735788352275807966407 -0.003509072586894034905674599756 0.006563012488186359405517578125 0 0 0 0 
2404500000.0000000000 0.179355844855308504959268134371 0.042243793606758117675781250000 -0.003334809793159366087672568213 0.006549536250531673431396484375 0 0 0 0 
2404666666.6666665077 0.181014984846115112304687500000 0.041210561990737921977956403907 -0.002988910768181086020228720557 0.006502524949610233306884765625 0 0 0 0 
2404833333.3333334923 0.182717531919479397872763115629 0.040191136300563812255859375000 -0.002786039374768733978271484375 0.006519207730889320373535156250 0 0 0 0 
2405000000.0000000000 0.183947429060936001876669365629 0.039542403072118759155273437500 -0.002582577522844076156616210938 0.006581377703696489334106445312 0 0 0 0 
2405166666.6666665077 0.185466647148132296463174384371 0.038799278438091278076171875000 -0.002212002407759428024291992188 0.006570938508957623568063066699 0 0 0 0 
2405333333.3333334923 0.186805501580238286774005018742 0.038249760866165161132812500000 -0.001952619873918592929840087891 0.006613446399569511413574218750 0 0 0 0 
2405500000.0000000000 0.188478589057922391036825615629 0.037749532610177986835520158593 -0.001834320602938533046125102466 0.006621158216148614883422851562 0 0 0 0 
2405666666.6666665077 0.189384073019027709960937500000 0.037318576127290732646901716407 -0.001556325936689973094342875903 0.006491778418421745300292968750 0 0 0 0 
2405833333.3333334923 0.190753474831581087967080634371 0.037209413945674903179128278907 -0.001246911124326288916944194263 0.006470068357884883880615234375 0 0 0 0 
2406000000.0000000000 0.191687762737274197677450615629 0.037045117467641830444335937500 -0.001110144308768213012098002856 0.006356348749250173568725585938 0 0 0 0 
2406166666.6666665077 0.192768320441246004959268134371 0.036907851696014397357981096093 -0.000739181472454220056533813477 0.006434896960854530334472656250 0 0 0 0 
2406333333.3333334923 0.193705752491950988769531250000 0.036884270608425140380859375000 -0.000543152622412890195846557617 0.006181159988045691576485918262 0 0 0 0 
2406500000.0000000000 0.194308876991272000411825615629 0.037029981613159179687500000000 -0.000345133768860250711441040039 0.006090483162552118301391601562 0 0 0 0 
2406666666.6666665077 0.194891959428787203689736884371 0.037101473659276962280273437500 -0.000200258378754369887426653452 0.006113529670983552932739257812 0 0 0 0 
2406833333.3333334923 0.195428028702735900878906250000 0.037056304514408111572265625000 -0.000081296951975673437118530273 0.005822777748107910156250000000 0 0 0 0 
2407000000.0000000000 0.195662871003150912185830634371 0.037325795739889151836354841407 0.000056877997849369421601295471 0.005872637964785099029541015625 0 0 0 0 
2407166666.6666665077 0.196064651012420709808026231258 0.037163469940423972392995466407 0.000317104131681844592094421387 0.005733710713684558868408203125 0 0 0 0 
2407333333.3333334923 0.195924818515777587890625000000 0.037294987589120871807057966407 0.000407645187806338126033228741 0.005451175384223461151123046875 0 0 0 0 
2407500000.0000000000 0.195915535092353793045205634371 0.037459127604961402202565778907 0.000521960144396871328353881836 0.005457356572151184082031250000 0 0 0 0 
2407666666.6666665077 0.195871338248252896407919365629 0.037459645420312881469726562500 0.000653513940051198005676269531 0.005162002518773078918457031250 0 0 0 0 
2407833333.3333334923 0.195345059037208612640057481258 0.037272162735462188720703125000 0.000611008726991713047027587891 0.005130348261445760726928710938 0 0 0 0 
2408000000.0000000000 0.195258662104606600662393134371 0.037236988544464111328125000000 0.000827875337563455104827880859 0.005004319362342357635498046875 0 0 0 0 
2408166666.6666665077 0.194653764367103604415731865629 0.036963582038879401470143903907 0.000940489990171045064926147461 0.004824388306587935361380292676 0 0 0 0 
2408333333.3333334923 0.194165393710136413574218750000 0.036488428711891167377512346093 0.000690742104779928922653198242 0.004784471355378627777099609375 0 0 0 0 
2408500000.0000000000 0.193377614021301297286825615629 0.036221541464328772808034528907 0.000769808422774076461791992188 0.004681082442402839660644531250 0 0 0 0 
2408666666.6666665077 0.192894309759139986892861884371 0.035822160542011260986328125000 0.000671821238938719034194946289 0.004615206271409988403320312500 0 0 0 0 
2408833333.3333334923 0.192086219787597711761151231258 0.035024024546146392822265625000 0.000803650415036827325820922852 0.004504373762756586074829101562 0 0 0 0 
2409000000.0000000000 0.191162571310997009277343750000 0.034236013889312737201731096093 0.000695239345077425241470336914 0.004292009398341178894042968750 0 0 0 0 
2409166666.6666665077 0.190275356173515292068643134371 0.033304873853921890258789062500 0.000670497189275920391082763672 0.004372610244899988174438476562 0 0 0 0 
2409333333.3333334923 0.189295902848243713378906250000 0.032313995063304901123046875000 0.000559326144866645336151123047 0.004463061690330505371093750000 0 0 0 0 
2409500000.0000000000 0.188148900866508511642294365629 0.030996179208159450185755545704 0.000481408642372116500705164777 0.004363364540040493011474609375 0 0 0 0 
2409666666.6666665077 0.187233477830886813064736884371 0.029608882963657379150390625000 0.000366826803656294887692052020 0.004507127683609724044799804688 0 0 0 0 
2409833333.3333334923 0.186155125498771695236044365629 0.028103420510888099670410156250 0.000468653888674452900886535645 0.004404652863740921020507812500 0 0 0 0 
2410000000.0000000000 0.185286864638328607757244981258 0.026413477957248691213587576954 0.000359351601218804717063903809 0.004823072813451290130615234375 0 0 0 0 
2410166666.6666665077 0.184186995029449490646200615629 0.024701643735170360910435860546 0.000552648212760686874389648438 0.004843517672270536422729492188 0 0 0 0 
2410333333.3333334923 0.183260902762412997146768134371 0.022862948477268218994140625000 0.000473648367915302515029907227 0.005049725528806447982788085938 0 0 0 0 
2410500000.0000000000 0.182324245572090204436932481258 0.020883144810795780527135079296 0.000600852188654243946075439453 0.005007825326174497604370117188 0 0 0 0 
2410666666.6666665077 0.181476876139640808105468750000 0.018577866256237030029296875000 0.000820165558252483606338500977 0.005145401693880558013916015625 0 0 0 0 
2410833333.3333334923 0.180707097053527804275674384371 0.016644284129142761230468750000 0.000989457243122160434722900391 0.005311183165758848190307617188 0 0 0 0 
2411000000.0000000000 0.179956510663032503982705634371 0.014318274334073070180872733204 0.001186313573271035931230854565 0.005213020369410514831542968750 0 0 0 0 
2411166666.6666665077 0.179285973310470608810263115629 0.011869422160089019430140311329 0.001386929536238312938092875903 0.005456771235913038253784179688 0 0 0 0 
2411333333.3333334923 0.178970858454704312423544365629 0.009413235820829868316650390625 0.001501913066022098064422607422 0.005400945432484149932861328125 0 0 0 0 
2411500000.0000000000 0.178192362189292907714843750000 0.007060595788061618804931640625 0.001719341031275690035579062354 0.005450345110148192319388105176 0 0 0 0 
2411666666.6666665077 0.178180441260337801834268134371 0.004792011808604001998901367188 0.001889024511910974979400634766 0.005395774729549884796142578125 0 0 0 0 
2411833333.3333334923 0.177861779928207397460937500000 0.002291237702593206925633095850 0.002133398316800593896153115381 0.005297247786074876785278320312 0 0 0 0 
2412000000.0000000000 0.177769497036933898925781250000 -0.000384717306587845087051391602 0.002356945071369409994838095557 0.005286155268549919128417968750 0 0 0 0 
2412166666.6666665077 0.178008079528808593750000000000 -0.002408216008916496796848916162 0.002488629193976521925685263525 0.005206624977290630340576171875 0 0 0 0 
2412333333.3333334923 0.178045108914375305175781250000 -0.005086403805762529373168945312 0.002692876150831580162048339844 0.005026369355618953704833984375 0 0 0 0 
2412500000.0000000000 0.178585171699523898025674384371 -0.007512695156037808331961347363 0.002768302103504538969752646338 0.004952802322804927825927734375 0 0 0 0 
2412666666.6666665077 0.179036632180213900467080634371 -0.010023180395364759617815586523 0.002848078962415457205531454932 0.004966272506862878799438476562 0 0 0 0 
2412833333.3333334923 0.179762393236160306075888115629 -0.012490678578615190333356288477 0.002966881496831775145289755713 0.004765504971146584424490644238 0 0 0 0 
2413000000.0000000000 0.180653363466262789627236884371 -0.014724906533956529444684413477 0.003162639914080501036403036963 0.004765548743307591351980878613 0 0 0 0 
2413166666.6666665077 0.181291505694389287750567518742 -0.017049446702003479003906250000 0.003255969146266580061671591650 0.004650261718779802322387695312 0 0 0 0 
2413333333.3333334923 0.182422101497650201995526231258 -0.019256025552749630319615548046 0.003147486131638288931605673682 0.004586715716868638992309570312 0 0 0 0 
2413500000.0000000000 0.183256521821022005935830634371 -0.021585971117019649850865548046 0.003307153005152941183802939307 0.004408174660056830319876386426 0 0 0 0 
2413666666.6666665077 0.184613853693008395095986884371 -0.023774925619363791728932966407 0.003320770105347036881687783350 0.004467906430363655090332031250 0 0 0 0 
2413833333.3333334923 0.185671851038932800292968750000 -0.025732157751917839050292968750 0.003588669700548052787780761719 0.004472629632800818356985761426 0 0 0 0 
2414000000.0000000000 0.186874598264694213867187500000 -0.027755727991461750375767891796 0.003628392238169908957240439307 0.004436354618519544601440429688 0 0 0 0 
2414166666.6666665077 0.188086107373237609863281250000 -0.029467262327671051025390625000 0.003775378456339240074157714844 0.004545478150248528394217206738 0 0 0 0 
2414333333.3333334923 0.189260184764862088302450615629 -0.031603112816810607910156250000 0.003912761807441711425781250000 0.004606264643371105194091796875 0 0 0 0 
2414500000.0000000000 0.190453454852104187011718750000 -0.032918907701969146728515625000 0.004233384504914283752441406250 0.004596642684191465377807617188 0 0 0 0 
2414666666.6666665077 0.191727891564369201660156250000 -0.034485466778278350830078125000 0.004399287048727273941040039062 0.004811814520508050918579101562 0 0 0 0 
2414833333.3333334923 0.192773878574371310135049384371 -0.035837627947330481792409528907 0.004701400641351938247680664062 0.004637403879314661026000976562 0 0 0 0 
2415000000.0000000000 0.193867459893226595779580634371 -0.037103641778230667114257812500 0.004940993618220090866088867188 0.004513648804277181625366210938 0 0 0 0 
2415166666.6666665077 0.195132583379745511154013115629 -0.038209971040487289428710937500 0.005202758125960826873779296875 0.004454303532838821411132812500 0 0 0 0 
2415333333.3333334923 0.196285963058471707443075615629 -0.039034668356180191040039062500 0.005483902525156736373901367188 0.004247488453984261426443769238 0 0 0 0 
2415500000.0000000000 0.197437360882759094238281250000 -0.039811551570892327045481096093 0.005762819200754165649414062500 0.004090727306902408599853515625 0 0 0 0 
2415666666.6666665077 0.198474913835525512695312500000 -0.040511392056941993022878278907 0.006129168439656496047973632812 0.003936825785785914334768964551 0 0 0 0 
2415833333.3333334923 0.199283003807067898849325615629 -0.041219770908355712890625000000 0.006289195269346237182617187500 0.003542567370459436936619423975 0 0 0 0 
2416000000.0000000000 0.200026348233222989181356865629 -0.041648171842098243022878278907 0.006700597703456878662109375000 0.003376771230250597000122070312 0 0 0 0 
2416166666.6666665077 0.200798884034156799316406250000 -0.042337305843830108642578125000 0.006879592314362525939941406250 0.003174863290041685104370117188 0 0 0 0 
2416333333.3333334923 0.201327010989189203460369981258 -0.042471650987863540649414062500 0.007177299819886684417724609375 0.002818509237840772108790732275 0 0 0 0 
2416500000.0000000000 0.201869204640388488769531250000 -0.042698401957750320434570312500 0.007049971725791692733764648438 0.002349420683458447890040732275 0 0 0 0 
2416666666.6666665077 0.202261462807655306717080634371 -0.042977139353752143169362653907 0.007220990955829620361328125000 0.002145772567018866972682333838 0 0 0 0 
2416833333.3333334923 0.202315390110015896896200615629 -0.042895074933767318725585937500 0.007486103568226099014282226562 0.001870492938905953927281045068 0 0 0 0 
2417000000.0000000000 0.202449321746826199630575615629 -0.043053571134805679321289062500 0.007525279186666011810302734375 0.001380501897074281952501606519 0 0 0 0 
2417166666.6666665077 0.202206492424011202713174384371 -0.042957678437232971191406250000 0.007663009222596883773803710938 0.001124841161072253964067768628 0 0 0 0 
2417333333.3333334923 0.202002853155136108398437500000 -0.042774841189384460449218750000 0.007487190887331962585449218750 0.000854373036418110132217407227 0 0 0 0 
2417500000.0000000000 0.201636582612991305252236884371 -0.042680330574512481689453125000 0.007530660368502140045166015625 0.000559288600925356149673461914 0 0 0 0 
2417666666.6666665077 0.201194629073143005371093750000 -0.042408183217048651958425153907 0.007481628097593784332275390625 0.000131782726384699290424901141 0 0 0 0 
2417833333.3333334923 0.200776711106300409515057481258 -0.042176391929388053203542341407 0.007406783755868673324584960938 -0.000048264297220157459378242493 0 0 0 0 
2418000000.0000000000 0.200216412544250488281250000000 -0.041927110403776168823242187500 0.007444866932928562164306640625 -0.000356891250703483819961547852 0 0 0 0 
2418166666.6666665077 0.199245095252990694900674384371 -0.041806470602750778198242187500 0.007370414212346076965332031250 -0.000693814188707619905471801758 0 0 0 0 
2418333333.3333334923 0.198419958353042602539062500000 -0.041613277047872543334960937500 0.007357728201895952224731445312 -0.000868907489348202943801879883 0 0 0 0 
2418500000.0000000000 0.197501823306083706954794365629 -0.041684381663799292827565778907 0.007257535587996244430541992188 -0.001218312536366283893585205078 0 0 0 0 
2418666666.6666665077 0.196459069848060607910156250000 -0.041536048054695129394531250000 0.007236614823341369628906250000 -0.001480899401940404935124062646 0 0 0 0 
2418833333.3333334923 0.195247426629066495040731865629 -0.041686873883008956909179687500 0.007144858594983816146850585938 -0.001823596423491836027858115088 0 0 0 0 
2419000000.0000000000 0.193862333893775912185830634371 -0.041892711073160171508789062500 0.007096318528056144714355468750 -0.001991294324398041205165243994 0 0 0 0 
2419166666.6666665077 0.192708149552345303634481865629 -0.042187094688415527343750000000 0.006967786233872175216674804688 -0.002229276346042751832249306787 0 0 0 0 
2419333333.3333334923 0.191290259361267089843750000000 -0.042761500924825668334960937500 0.006845261901617050170898437500 -0.002564958529546856880187988281 0 0 0 0 
2419500000.0000000000 0.189655512571334811111611884371 -0.043103545904159552837331403907 0.006772445514798164367675781250 -0.002839075168594717979431152344 0 0 0 0 
2419666666.6666665077 0.188304796814918490310830634371 -0.043857242912054061889648437500 0.006552325095981360349173261426 -0.002926046028733253912684775244 0 0 0 0 
2419833333.3333334923 0.186608552932739313323651231258 -0.044350311160087592388112653907 0.006595113314688205718994140625 -0.003188938600942492918727255713 0 0 0 0 
2420000000.0000000000 0.185151457786560086349325615629 -0.045251581817865371704101562500 0.006388764828443527221679687500 -0.003576639574021100997924804688 0 0 0 0 
