# Version 1.00
#
freq[Hz];re:Trc1_S11;im:Trc1_S11;re:Trc2_S21;im:Trc2_S21;
2.400000000000000E+009;1.679581850767136E-001;4.074813053011894E-002;2.202184870839119E-003;-1.171102630905807E-003;
2.400166666666667E+009;1.685792356729507E-001;3.998747095465660E-002;2.386718755587935E-003;-1.299416064284742E-003;
2.400333333333334E+009;1.690582931041718E-001;3.892095386981964E-002;2.486132783815265E-003;-1.254899078048766E-003;
2.400500000000000E+009;1.696092188358307E-001;3.816712647676468E-002;2.491620136424899E-003;-1.495166099630296E-003;
2.400666666666667E+009;1.699773818254471E-001;3.740135952830315E-002;2.485915785655379E-003;-1.596940681338310E-003;
2.400833333333334E+009;1.704363822937012E-001;3.650868311524391E-002;2.610631985589862E-003;-1.559593481943011E-003;
2.401000000000000E+009;1.706652194261551E-001;3.567561134696007E-002;2.645767293870449E-003;-1.907912432216108E-003;
2.401166666666667E+009;1.709423214197159E-001;3.465923666954041E-002;2.592840697616339E-003;-2.135388785973191E-003;
2.401333333333334E+009;1.709997504949570E-001;3.387359902262688E-002;2.736537950113416E-003;-2.222680253908038E-003;
2.401500000000000E+009;1.714699268341065E-001;3.309557586908341E-002;2.630080329254270E-003;-2.382616512477398E-003;
2.401666666666667E+009;1.715333610773087E-001;3.232382610440254E-002;2.432892331853509E-003;-2.667464083060622E-003;
2.401833333333334E+009;1.716630905866623E-001;3.129417821764946E-002;2.354593947529793E-003;-2.783177886158228E-003;
2.402000000000000E+009;1.715673357248306E-001;3.054589033126831E-002;2.194434171542525E-003;-2.961878664791584E-003;
2.402166666666667E+009;1.716798096895218E-001;2.931792475283146E-002;2.073768526315689E-003;-3.067742334678769E-003;
2.402333333333334E+009;1.717236936092377E-001;2.872933074831963E-002;1.672261627390981E-003;-3.202165244147182E-003;
2.402500000000000E+009;1.717456728219986E-001;2.767330966889858E-002;1.611420186236501E-003;-3.047089558094740E-003;
2.402666666666667E+009;1.715690940618515E-001;2.662591449916363E-002;1.518646022304893E-003;-3.363025840371847E-003;
2.402833333333334E+009;1.717568635940552E-001;2.594878524541855E-002;1.254904200322926E-003;-3.281703917309642E-003;
2.403000000000000E+009;1.716437041759491E-001;2.485773712396622E-002;1.098022563382983E-003;-3.386470489203930E-003;
2.403166666666667E+009;1.715932786464691E-001;2.368013374507427E-002;9.796735830605030E-004;-3.218206577003002E-003;
2.403333333333334E+009;1.714486479759216E-001;2.249102480709553E-002;9.318756056018174E-004;-3.066841978579760E-003;
2.403500000000000E+009;1.712538152933121E-001;2.136424556374550E-002;6.666991394013166E-004;-3.013496985659003E-003;
2.403666666666667E+009;1.710301488637924E-001;2.012347429990768E-002;5.636830464936793E-004;-3.134287195280194E-003;
2.403833333333334E+009;1.710256636142731E-001;1.890127174556255E-002;5.317165632732213E-004;-3.137614112347364E-003;
2.404000000000000E+009;1.708316057920456E-001;1.741854473948479E-002;4.047529946547002E-004;-2.899703802540898E-003;
2.404166666666667E+009;1.706566214561462E-001;1.626928523182869E-002;4.697039548773319E-004;-2.966560656204820E-003;
2.404333333333334E+009;1.705077886581421E-001;1.502345222979784E-002;3.414628736209124E-004;-2.980231074616313E-003;
2.404500000000000E+009;1.704138219356537E-001;1.359889842569828E-002;3.920921299140900E-004;-2.897078869864345E-003;
2.404666666666667E+009;1.703166812658310E-001;1.217534020543098E-002;4.049299168400466E-004;-2.832217141985893E-003;
2.404833333333334E+009;1.702856421470642E-001;1.065623201429844E-002;2.593371609691531E-004;-2.960177836939693E-003;
2.405000000000000E+009;1.701300442218781E-001;9.230496361851692E-003;3.315052890684456E-004;-2.796600107103586E-003;
2.405166666666667E+009;1.702209562063217E-001;7.751677185297012E-003;2.064404397970066E-004;-3.069840371608734E-003;
2.405333333333334E+009;1.702933609485626E-001;6.080562714487314E-003;4.942046871292405E-005;-3.213807009160519E-003;
2.405500000000000E+009;1.700313091278076E-001;4.615178331732750E-003;1.004431487672264E-005;-3.231925657019019E-003;
2.405666666666667E+009;1.700511127710342E-001;3.075130283832550E-003;-2.056015655398369E-004;-3.202069085091353E-003;
2.405833333333334E+009;1.698765158653259E-001;1.465397072024643E-003;-3.688075521495193E-004;-3.268222790211439E-003;
2.406000000000000E+009;1.699173450469971E-001;-2.921765262726694E-004;-5.587177583947778E-004;-3.286905819550157E-003;
2.406166666666667E+009;1.697399616241455E-001;-1.870049047283828E-003;-6.994276191107929E-004;-3.104156581684947E-003;
2.406333333333334E+009;1.697127819061279E-001;-3.484980901703239E-003;-1.005254802294076E-003;-3.183098509907723E-003;
2.406500000000000E+009;1.694400310516357E-001;-5.082255695015192E-003;-9.026573388837278E-004;-3.012276487424970E-003;
2.406666666666667E+009;1.692439764738083E-001;-6.624319124966860E-003;-9.709271835163236E-004;-2.860349835827947E-003;
2.406833333333334E+009;1.691824644804001E-001;-8.214016444981098E-003;-1.178076025098562E-003;-2.748182974755764E-003;
2.407000000000000E+009;1.690437793731690E-001;-9.643658995628357E-003;-1.250610570423305E-003;-2.812552265822887E-003;
2.407166666666667E+009;1.690907478332520E-001;-1.097419392317534E-002;-1.400766661390662E-003;-2.439978066831827E-003;
2.407333333333334E+009;1.688624769449234E-001;-1.252813171595335E-002;-1.259970827959478E-003;-2.339830156415701E-003;
2.407500000000000E+009;1.686568260192871E-001;-1.377848442643881E-002;-1.374761457554996E-003;-2.409744076430798E-003;
2.407666666666667E+009;1.684864610433579E-001;-1.493954565376043E-002;-1.363666728138924E-003;-2.272210083901882E-003;
2.407833333333334E+009;1.682262569665909E-001;-1.616110093891621E-002;-1.414911355823278E-003;-2.169728046283126E-003;
2.408000000000000E+009;1.681484282016754E-001;-1.734564639627934E-002;-1.147493952885270E-003;-2.117222640663385E-003;
2.408166666666667E+009;1.680416762828827E-001;-1.827052049338818E-002;-1.290999702177942E-003;-1.985491253435612E-003;
2.408333333333334E+009;1.682677417993546E-001;-1.931469142436981E-002;-1.317447982728481E-003;-1.850218744948506E-003;
2.408500000000000E+009;1.681154966354370E-001;-2.025403082370758E-002;-1.277891336940229E-003;-1.880064606666565E-003;
2.408666666666667E+009;1.682602316141129E-001;-2.134180441498756E-002;-1.361096394248307E-003;-1.840281882323325E-003;
2.408833333333334E+009;1.683099716901779E-001;-2.223153039813042E-002;-1.265435945242643E-003;-1.770929782651365E-003;
2.409000000000000E+009;1.683394610881805E-001;-2.304917760193348E-002;-1.051000203005970E-003;-1.934176194481552E-003;
2.409166666666667E+009;1.685467064380646E-001;-2.379202470183373E-002;-1.189191709272564E-003;-1.857534982264042E-003;
2.409333333333334E+009;1.687525808811188E-001;-2.474915608763695E-002;-1.028717728331685E-003;-1.761986757628620E-003;
2.409500000000000E+009;1.688214838504791E-001;-2.583159506320953E-002;-9.410413913428783E-004;-1.754961209371686E-003;
2.409666666666667E+009;1.688520163297653E-001;-2.655682712793350E-002;-9.077725699171424E-004;-1.907303230836988E-003;
2.409833333333334E+009;1.689124554395676E-001;-2.729935199022293E-002;-1.023129560053349E-003;-1.949952449649572E-003;
2.410000000000000E+009;1.692177206277847E-001;-2.820706740021706E-002;-9.105649078264833E-004;-2.079359488561750E-003;
2.410166666666667E+009;1.693107187747955E-001;-2.912466414272785E-002;-1.008589635603130E-003;-1.981870271265507E-003;
2.410333333333334E+009;1.693030595779419E-001;-3.006665781140328E-002;-1.001996686682105E-003;-2.089857822284102E-003;
2.410500000000000E+009;1.693606525659561E-001;-3.094677813351154E-002;-1.243935315869749E-003;-2.296866849064827E-003;
2.410666666666667E+009;1.691585779190064E-001;-3.190283104777336E-002;-1.153353718109429E-003;-2.472491702064872E-003;
2.410833333333334E+009;1.691411733627319E-001;-3.272578865289688E-002;-1.324561191722751E-003;-2.350502880290151E-003;
2.411000000000000E+009;1.689244657754898E-001;-3.354825824499130E-002;-1.478078658692539E-003;-2.480181399732828E-003;
2.411166666666667E+009;1.687646657228470E-001;-3.442392498254776E-002;-1.603567041456699E-003;-2.395575633272529E-003;
2.411333333333334E+009;1.686599254608154E-001;-3.522203862667084E-002;-1.659388188272715E-003;-2.418724587187171E-003;
2.411500000000000E+009;1.682745665311813E-001;-3.624723479151726E-002;-1.679676002822816E-003;-2.365723019465804E-003;
2.411666666666667E+009;1.683794260025024E-001;-3.710107505321503E-002;-1.867537968792021E-003;-2.409071428701282E-003;
2.411833333333334E+009;1.680098176002502E-001;-3.792059049010277E-002;-2.161548240110278E-003;-2.380719874054194E-003;
2.412000000000000E+009;1.677943915128708E-001;-3.880224004387856E-002;-1.993345562368631E-003;-2.443350851535797E-003;
2.412166666666667E+009;1.673378646373749E-001;-3.970391675829887E-002;-2.148574683815241E-003;-2.429024316370487E-003;
2.412333333333334E+009;1.675437092781067E-001;-4.051227122545242E-002;-2.256423933431506E-003;-2.395311370491982E-003;
2.412500000000000E+009;1.667671501636505E-001;-4.142156243324280E-002;-2.270240103825927E-003;-2.356608165428042E-003;
2.412666666666667E+009;1.666322499513626E-001;-4.269454628229141E-002;-2.420617034658790E-003;-2.312042517587543E-003;
2.412833333333334E+009;1.661605089902878E-001;-4.350561648607254E-002;-2.565671689808369E-003;-2.487322781234980E-003;
2.413000000000000E+009;1.656640172004700E-001;-4.439148679375649E-002;-2.629710361361504E-003;-2.431668573990464E-003;
2.413166666666667E+009;1.652108877897263E-001;-4.541717842221260E-002;-2.818732289597392E-003;-2.276583807542920E-003;
2.413333333333334E+009;1.646953076124191E-001;-4.639444500207901E-002;-3.050161991268396E-003;-2.334250370040536E-003;
2.413500000000000E+009;1.642450094223023E-001;-4.748222604393959E-002;-3.358623711392283E-003;-2.371514448896051E-003;
2.413666666666667E+009;1.638117730617523E-001;-4.846892133355141E-002;-3.648837795481086E-003;-2.442718716338277E-003;
2.413833333333334E+009;1.632691919803619E-001;-4.956154897809029E-002;-3.667054930701852E-003;-2.077703829854727E-003;
2.414000000000000E+009;1.626955717802048E-001;-5.051767081022263E-002;-3.995408304035664E-003;-1.983975991606712E-003;
2.414166666666667E+009;1.623856574296951E-001;-5.136810615658760E-002;-4.342703614383936E-003;-1.591145643033087E-003;
2.414333333333334E+009;1.619296222925186E-001;-5.251147970557213E-002;-4.353999160230160E-003;-1.558295567519963E-003;
2.414500000000000E+009;1.618580222129822E-001;-5.329912528395653E-002;-4.569234326481819E-003;-1.292668050155044E-003;
2.414666666666667E+009;1.613808423280716E-001;-5.440964177250862E-002;-4.755453672260046E-003;-9.901066077873111E-004;
2.414833333333334E+009;1.609040647745132E-001;-5.540549010038376E-002;-4.784976132214069E-003;-7.255038945004344E-004;
2.415000000000000E+009;1.607085913419724E-001;-5.631883442401886E-002;-5.019415635615587E-003;-3.255946503486484E-004;
2.415166666666667E+009;1.604974418878555E-001;-5.743581429123879E-002;-4.914819728583098E-003;-4.419868128024973E-005;
2.415333333333334E+009;1.604193747043610E-001;-5.873461067676544E-002;-4.966223612427712E-003;5.130163044668734E-004;
2.415500000000000E+009;1.601045429706574E-001;-5.971050634980202E-002;-4.884595517069101E-003;7.655403460375965E-004;
2.415666666666667E+009;1.599328964948654E-001;-6.086063757538796E-002;-4.715654067695141E-003;1.013920526020229E-003;
2.415833333333334E+009;1.598970741033554E-001;-6.199634820222855E-002;-4.571284633129835E-003;1.465683570131660E-003;
2.416000000000000E+009;1.595399230718613E-001;-6.335691362619400E-002;-4.432823974639177E-003;1.438770210370421E-003;
2.416166666666667E+009;1.595653146505356E-001;-6.456456333398819E-002;-4.104670137166977E-003;1.720413449220359E-003;
2.416333333333334E+009;1.591150611639023E-001;-6.567586958408356E-002;-3.870849497616291E-003;1.996301114559174E-003;
2.416500000000000E+009;1.589150875806809E-001;-6.695258617401123E-002;-3.655037842690945E-003;2.113241469487548E-003;
2.416666666666667E+009;1.586102247238159E-001;-6.806819140911102E-002;-3.463195404037833E-003;2.061224775388837E-003;
2.416833333333334E+009;1.583912074565888E-001;-6.946102529764175E-002;-3.139875829219818E-003;2.037163591012359E-003;
2.417000000000000E+009;1.578457057476044E-001;-7.053487002849579E-002;-3.003162564709783E-003;2.113008871674538E-003;
2.417166666666667E+009;1.576668322086334E-001;-7.152193784713745E-002;-2.764254342764616E-003;2.407053252682090E-003;
2.417333333333334E+009;1.574084162712097E-001;-7.258935272693634E-002;-2.779632806777954E-003;2.169722458347678E-003;
2.417500000000000E+009;1.570403873920441E-001;-7.377715408802033E-002;-2.644776366651058E-003;2.084310865029693E-003;
2.417666666666667E+009;1.568478047847748E-001;-7.454708963632584E-002;-2.559850225225091E-003;1.988682197406888E-003;
2.417833333333334E+009;1.565173119306564E-001;-7.549808174371719E-002;-2.414337359368801E-003;2.007420640438795E-003;
2.418000000000000E+009;1.560225933790207E-001;-7.645022124052048E-002;-2.314294455572963E-003;2.030445495620370E-003;
2.418166666666667E+009;1.557663828134537E-001;-7.714837044477463E-002;-2.320750849321485E-003;2.158471150323749E-003;
2.418333333333334E+009;1.558846682310104E-001;-7.811395078897476E-002;-2.225475385785103E-003;2.062694635242224E-003;
2.418500000000000E+009;1.552776247262955E-001;-7.901177555322647E-002;-2.300124615430832E-003;2.126884181052446E-003;
2.418666666666667E+009;1.551359742879868E-001;-7.970719039440155E-002;-2.177221700549126E-003;2.105213934555650E-003;
2.418833333333334E+009;1.548824310302734E-001;-8.044258505105972E-002;-2.288795309141278E-003;2.018183236941695E-003;
2.419000000000000E+009;1.544460654258728E-001;-8.111640065908432E-002;-2.177997492253780E-003;2.161943120881915E-003;
2.419166666666667E+009;1.541119366884232E-001;-8.186152577400208E-002;-2.083086874336004E-003;2.144492929801345E-003;
2.419333333333334E+009;1.536959856748581E-001;-8.232829719781876E-002;-1.895085209980607E-003;2.198600675910711E-003;
2.419500000000000E+009;1.534235626459122E-001;-8.315018564462662E-002;-1.852409215644002E-003;2.228931523859501E-003;
2.419666666666667E+009;1.531516760587692E-001;-8.393669873476028E-002;-1.891733729280531E-003;2.143814461305738E-003;
2.419833333333334E+009;1.527470350265503E-001;-8.428750932216644E-002;-1.800840487703681E-003;2.215165644884110E-003;
2.420000000000000E+009;1.525750011205673E-001;-8.485679328441620E-002;-1.842701807618141E-003;2.220404101535678E-003;
2.420166666666667E+009;1.521358639001846E-001;-8.532465994358063E-002;-1.714276382699609E-003;2.285693539306521E-003;
2.420333333333334E+009;1.519376188516617E-001;-8.597965538501740E-002;-1.802743412554264E-003;2.342494903132320E-003;
2.420500000000000E+009;1.514843106269836E-001;-8.636312186717987E-002;-1.768114976584911E-003;2.357110381126404E-003;
2.420666666666667E+009;1.511183679103851E-001;-8.704612404108048E-002;-1.693232450634241E-003;2.465419936925173E-003;
2.420833333333334E+009;1.508030891418457E-001;-8.749108761548996E-002;-1.779787940904498E-003;2.425127429887652E-003;
2.421000000000000E+009;1.503275483846664E-001;-8.831973373889923E-002;-1.603927114047110E-003;2.373035997152329E-003;
2.421166666666667E+009;1.501224637031555E-001;-8.886490762233734E-002;-1.833674614317715E-003;2.476067282259464E-003;
2.421333333333334E+009;1.496953368186951E-001;-8.954344689846039E-002;-1.751418458297849E-003;2.565821167081595E-003;
2.421500000000000E+009;1.489979475736618E-001;-9.020429104566574E-002;-1.778888399712741E-003;2.672857139259577E-003;
2.421666666666667E+009;1.485473215579987E-001;-9.070517867803574E-002;-1.553051988594234E-003;2.761296695098281E-003;
2.421833333333334E+009;1.481575965881348E-001;-9.149637073278427E-002;-1.570089603774250E-003;2.970648929476738E-003;
2.422000000000000E+009;1.472570449113846E-001;-9.200817346572876E-002;-1.699052285403013E-003;3.075597342103720E-003;
2.422166666666667E+009;1.466749012470245E-001;-9.297199547290802E-002;-1.539271790534258E-003;3.326459089294076E-003;
2.422333333333334E+009;1.461827754974365E-001;-9.350222349166870E-002;-1.450194860808551E-003;3.382890252396464E-003;
2.422500000000000E+009;1.455649733543396E-001;-9.427056461572647E-002;-1.256041694432497E-003;3.499617334455252E-003;
2.422666666666667E+009;1.450020223855972E-001;-9.508111327886581E-002;-1.085654250346124E-003;3.551615634933114E-003;
2.422833333333334E+009;1.443066596984863E-001;-9.588324278593063E-002;-1.019046758301556E-003;3.774303477257490E-003;
2.423000000000000E+009;1.437611430883408E-001;-9.674862772226334E-002;-8.906918228603900E-004;3.860135097056627E-003;
2.423166666666667E+009;1.432322561740875E-001;-9.762649238109589E-002;-5.822500097565353E-004;3.878719639033079E-003;
2.423333333333334E+009;1.426479965448380E-001;-9.826178848743439E-002;-3.824108862318099E-004;3.960705362260342E-003;
2.423500000000000E+009;1.419133245944977E-001;-9.953504800796509E-002;-3.793225550907664E-005;4.100328776985407E-003;
2.423666666666667E+009;1.410835087299347E-001;-1.004584133625031E-001;-7.587800155306468E-006;4.189332015812397E-003;
2.423833333333334E+009;1.406463831663132E-001;-1.013057976961136E-001;4.255907260812819E-004;4.023679066449404E-003;
2.424000000000000E+009;1.398674696683884E-001;-1.021584197878838E-001;7.331068627536297E-004;3.856497118249536E-003;
2.424166666666667E+009;1.390533447265625E-001;-1.031775623559952E-001;9.587695240043104E-004;3.742747474461794E-003;
2.424333333333334E+009;1.384631544351578E-001;-1.040938347578049E-001;1.043569180183113E-003;3.665877273306251E-003;
2.424500000000000E+009;1.378661841154099E-001;-1.051434874534607E-001;1.203441759571433E-003;3.302214201539755E-003;
2.424666666666667E+009;1.372441649436951E-001;-1.058448031544685E-001;1.264789374545217E-003;3.141200868412852E-003;
2.424833333333334E+009;1.366024315357208E-001;-1.069125011563301E-001;1.318778609856963E-003;3.008931409567595E-003;
2.425000000000000E+009;1.360434889793396E-001;-1.080194115638733E-001;1.502896309830248E-003;2.860517706722021E-003;
2.425166666666667E+009;1.351846456527710E-001;-1.091987639665604E-001;1.441380591131747E-003;2.631394192576408E-003;
2.425333333333334E+009;1.347224116325378E-001;-1.100120097398758E-001;1.496112905442715E-003;2.559782937169075E-003;
2.425500000000000E+009;1.342900246381760E-001;-1.110397949814796E-001;1.453898381441832E-003;2.683075843378902E-003;
2.425666666666667E+009;1.336538046598434E-001;-1.120841950178146E-001;1.422257279045880E-003;2.294738544151187E-003;
2.425833333333334E+009;1.332271546125412E-001;-1.130118817090988E-001;1.502062426880002E-003;2.311541466042399E-003;
2.426000000000000E+009;1.327143311500549E-001;-1.140998527407646E-001;1.325471093878150E-003;2.297193976119161E-003;
2.426166666666667E+009;1.323950439691544E-001;-1.151943802833557E-001;1.353983068838716E-003;2.333523239940405E-003;
2.426333333333334E+009;1.317603588104248E-001;-1.160111650824547E-001;1.352924969978631E-003;2.274176338687539E-003;
2.426500000000000E+009;1.314368695020676E-001;-1.168844178318977E-001;1.309045008383691E-003;2.127487445250154E-003;
2.426666666666667E+009;1.310985833406448E-001;-1.176603287458420E-001;1.448205439373851E-003;2.083220984786749E-003;
2.426833333333334E+009;1.305454522371292E-001;-1.187115013599396E-001;1.512208720669150E-003;2.041834406554699E-003;
2.427000000000000E+009;1.301735788583756E-001;-1.195050925016403E-001;1.364001072943211E-003;1.942905946634710E-003;
2.427166666666667E+009;1.297565549612045E-001;-1.201660260558128E-001;1.437008497305214E-003;1.998813124373555E-003;
2.427333333333334E+009;1.293318867683411E-001;-1.209914162755013E-001;1.442911685444415E-003;1.949089579284191E-003;
2.427500000000000E+009;1.292003542184830E-001;-1.216634511947632E-001;1.510972622781992E-003;1.940129091963172E-003;
2.427666666666667E+009;1.288894563913345E-001;-1.224918663501740E-001;1.548586529679596E-003;1.805982785299420E-003;
