# Hz S RI R 
2400000000.0000000000 0.168997600674629211425781250000 0.047174826264381408691406250000 -0.000853975070640444755554199219 0.001303233206272125027300190503 0 0 0 0 
2400166666.6666665077 0.170078694820404108245526231258 0.046166684478521347045898437500 -0.000780525908339768648147583008 0.001258695730939507918116904150 0 0 0 0 
2400333333.3333334923 0.170776903629303006271200615629 0.045006416738033301616628278907 -0.000722092110663652420043945312 0.001065715565346180958988808740 0 0 0 0 
2400500000.0000000000 0.171773403882980402190838731258 0.044122096151113510131835937500 -0.000625773100182414054870605469 0.001027966500259936072705913013 0 0 0 0 
2400666666.6666665077 0.172622650861740112304687500000 0.043200150132179260253906250000 -0.000510941899847239255905151367 0.000760486873332411050796508789 0 0 0 0 
2400833333.3333334923 0.173657745122909601409588731258 0.042488850653171539306640625000 -0.000415359914768487215042114258 0.000763865245971828699111938477 0 0 0 0 
2401000000.0000000000 0.174272030591964693924111884371 0.041458796709775931621511091407 -0.000484342221170663779408055438 0.000545235874596983194351196289 0 0 0 0 
2401166666.6666665077 0.175078690052032498458700615629 0.040853414684534072875976562500 -0.000537308922503143548965454102 0.000379092234652489423751831055 0 0 0 0 
2401333333.3333334923 0.175698384642601013183593750000 0.039934746921062469482421875000 -0.000703042431268841028213500977 0.000222978560486808392122545786 0 0 0 0 
2401500000.0000000000 0.176446735858917208572549384371 0.039372250437736511230468750000 -0.000685498060192912817001342773 0.000078614000813104212284088135 0 0 0 0 
2401666666.6666665077 0.177177175879478510100994981258 0.038798023015260703350026716407 -0.000962116231676191091537475586 -0.000037904355849605046886990206 0 0 0 0 
2401833333.3333334923 0.177619501948356600662393134371 0.038100723177194602275807966407 -0.000995852751657366752624511719 0.000075283576734364032745361328 0 0 0 0 
2402000000.0000000000 0.177974686026573208907919365629 0.037469077855348587036132812500 -0.001205405220389365933061909253 0.000005454458005260676145553589 0 0 0 0 
2402166666.6666665077 0.178284212946891812423544365629 0.036844670772552490234375000000 -0.001284801401197910091997456128 -0.000132005297928117188528338022 0 0 0 0 
2402333333.3333334923 0.178668662905693109710369981258 0.036047816276550292968750000000 -0.001495796139352024035212851416 -0.000149266517837531891748151236 0 0 0 0 
2402500000.0000000000 0.179025262594222994705361884371 0.035455297678709030151367187500 -0.001542506041005254008649516528 -0.000341182429110631400912684308 0 0 0 0 
2402666666.6666665077 0.179139226675033597091513115629 0.034752465784549713134765625000 -0.001707874354906379959703754956 -0.000136737842694856199339190073 0 0 0 0 
2402833333.3333334923 0.179261222481727600097656250000 0.034134812653064727783203125000 -0.001870977925136684937718056787 -0.000292995886411517912715357648 0 0 0 0 
2403000000.0000000000 0.179246112704277010818643134371 0.033263955265283591533620466407 -0.002142190700396894974949502100 -0.000078179196862038224935531616 0 0 0 0 
2403166666.6666665077 0.179248720407485989669638115629 0.032454300671815872192382812500 -0.002286281902343035177943564307 0.000008339410669577773660421371 0 0 0 0 
2403333333.3333334923 0.179136916995048495193643134371 0.031448494642972953105886091407 -0.002466038567945361137390136719 -0.000112580586574040393955768724 0 0 0 0 
2403500000.0000000000 0.178872734308242797851562500000 0.030525129288434978830357735546 -0.002664563246071339087245322119 0.000090381232439540326595306396 0 0 0 0 
2403666666.6666665077 0.178673103451728793045205634371 0.029267486184835430490513985546 -0.002876637736335397200343466650 0.000069295056164264678955078125 0 0 0 0 
2403833333.3333334923 0.178496688604354886154013115629 0.028310606256127360952357108204 -0.003003788879141211943385458838 0.000404624675866216421127319336 0 0 0 0 
2404000000.0000000000 0.178083419799804687500000000000 0.027281193062663078308105468750 -0.003175460500642656846287392725 0.000540012959390878677368164062 0 0 0 0 
2404166666.6666665077 0.177741363644599886795205634371 0.026004394516348838806152343750 -0.003264769446104764938354492188 0.000578130420763045549392700195 0 0 0 0 
2404333333.3333334923 0.177220851182937594314736884371 0.024810532107949260366419608204 -0.003400176763534545898437500000 0.000872302742209285497665405273 0 0 0 0 
2404500000.0000000000 0.176728248596191406250000000000 0.023573033511638641357421875000 -0.003429374191910028891322470557 0.001216494012624024911167763818 0 0 0 0 
2404666666.6666665077 0.176385596394538907150106865629 0.022049169987440109252929687500 -0.003447440918534994125366210938 0.001496310345828532955766987378 0 0 0 0 
2404833333.3333334923 0.175898358225822504241619981258 0.020516496151685721660573591407 -0.003537069773301482200622558594 0.001851215492933989004847861182 0 0 0 0 
2405000000.0000000000 0.175462171435356112381143134371 0.019011128693819049489954764454 -0.003730479162186384201049804688 0.002096931450068951086757040869 0 0 0 0 
2405166666.6666665077 0.174937993288040188888388115629 0.017487274482846260070800781250 -0.003462940920144319967982626807 0.002351162023842335180995322119 0 0 0 0 
2405333333.3333334923 0.174686044454574612716513115629 0.015646714717149731027623360546 -0.003365982789546250863316201318 0.002653654199093579812290810693 0 0 0 0 
2405500000.0000000000 0.174247935414314297775106865629 0.014092271216213699686070626171 -0.003298933152109384970424033057 0.002906345063820480866673134912 0 0 0 0 
2405666666.6666665077 0.173871651291847201248330634371 0.012252615764737129211425781250 -0.003340092953294516043422079932 0.003336743684485555128810263525 0 0 0 0 
2405833333.3333334923 0.173391342163085909744424384371 0.010692466050386430567731288477 -0.003019109368324279785156250000 0.003549360902979969978332519531 0 0 0 0 
2406000000.0000000000 0.173355087637901306152343750000 0.008570556528866291046142578125 -0.002921740058809518814086914062 0.003679775167256594137904501807 0 0 0 0 
2406166666.6666665077 0.172968670725822504241619981258 0.006850081495940685272216796875 -0.002779681235551834106445312500 0.003737185150384902954101562500 0 0 0 0 
2406333333.3333334923 0.173027828335761996170205634371 0.004908372182399035367483808301 -0.002366698812693357901332236182 0.004027181770652532577514648438 0 0 0 0 
2406500000.0000000000 0.172753691673278808593750000000 0.002859431318938732147216796875 -0.002141288481652737097499228369 0.004104971885681152343750000000 0 0 0 0 
2406666666.6666665077 0.172656819224357604980468750000 0.000786942604463547468185424805 -0.002033201511949301199672079932 0.004298625048249959945678710938 0 0 0 0 
2406833333.3333334923 0.172828361392021206954794365629 -0.001225311658345163085340190356 -0.001699374173767864920972514575 0.004396889824420213699340820312 0 0 0 0 
2407000000.0000000000 0.172934979200363186935263115629 -0.003354050219058990912196493994 -0.001399714732542634010314941406 0.004426544066518545150756835938 0 0 0 0 
2407166666.6666665077 0.173113182187080411056356865629 -0.005314164329320192337036132812 -0.001153935212641953988316201318 0.004511255305260419845581054688 0 0 0 0 
2407333333.3333334923 0.173290058970451410491619981258 -0.007497734390199184417724609375 -0.000997480121441185474395751953 0.004645143169909715652465820312 0 0 0 0 
2407500000.0000000000 0.173631921410560607910156250000 -0.009420872665941715240478515625 -0.000593644857872277498245239258 0.004604975227266550064086914062 0 0 0 0 
2407666666.6666665077 0.173997431993484497070312500000 -0.011546031571924689901331717579 -0.000490134814754128456115722656 0.004587136674672365188598632812 0 0 0 0 
2407833333.3333334923 0.174185931682586697677450615629 -0.013647349551320079458216483204 -0.000248639698838815093040466309 0.004764699842780829343313886426 0 0 0 0 
2408000000.0000000000 0.174694254994392395019531250000 -0.015758840367197990417480468750 0.000061433747760020196437835693 0.004502878524363040924072265625 0 0 0 0 
2408166666.6666665077 0.175138294696807889083700615629 -0.017533564940094951284388358204 0.000324206863297149484783726825 0.004435584880411624908447265625 0 0 0 0 
2408333333.3333334923 0.175570473074912997146768134371 -0.019528117030858990060826485546 0.000427078572101890986591893329 0.004471410065889359387869550488 0 0 0 0 
2408500000.0000000000 0.176023796200752313811932481258 -0.021485602483153339731236641796 0.000605542736593633890151977539 0.004306907299906015396118164062 0 0 0 0 
2408666666.6666665077 0.176417320966720608810263115629 -0.023433309048414230346679687500 0.000616808538325130939483642578 0.004210498649626970291137695312 0 0 0 0 
2408833333.3333334923 0.176821276545524597167968750000 -0.025143107399344440805455391796 0.000914549513254314661026000977 0.004145761020481587323660566113 0 0 0 0 
2409000000.0000000000 0.177324488759040804763955634371 -0.026707410812377929687500000000 0.001025987789034843011143349756 0.003967612050473690032958984375 0 0 0 0 
2409166666.6666665077 0.177590325474739102462606865629 -0.028243063017725951457936872657 0.001210367074236273982404399341 0.004004181828349828720092773438 0 0 0 0 
2409333333.3333334923 0.178252354264259310623330634371 -0.029750175774097439157506173046 0.001310156076215208010432577979 0.003817858872935175895690917969 0 0 0 0 
2409500000.0000000000 0.178597837686538696289062500000 -0.031184347346425059926966483204 0.001420234097167849974391318213 0.003684605937451124191284179688 0 0 0 0 
2409666666.6666665077 0.178882509469985989669638115629 -0.032335642725229263305664062500 0.001576718292199075005174946362 0.003690274432301520867588662256 0 0 0 0 
2409833333.3333334923 0.179358944296836908538494981258 -0.033282589167356491088867187500 0.001577946706674993038177490234 0.003595524933189154104945517432 0 0 0 0 
2410000000.0000000000 0.179864570498466491699218750000 -0.034176569432020187377929687500 0.001647428260184824900386191260 0.003381259273737668991088867188 0 0 0 0 
2410166666.6666665077 0.180090159177780206878338731258 -0.034994650632143020629882812500 0.001731639262288809039472270435 0.003400251502171158790588378906 0 0 0 0 
2410333333.3333334923 0.180465787649154690841513115629 -0.035830732434988021850585937500 0.001821780810132622935651469653 0.003415490267798304991481161963 0 0 0 0 
2410500000.0000000000 0.180903464555740411956463731258 -0.036619659513235092163085937500 0.001851202803663909001591347803 0.003188924165442585945129394531 0 0 0 0 
2410666666.6666665077 0.181253820657730102539062500000 -0.037428226321935646747629533593 0.001955640735104680061340332031 0.003226748201996088027954101562 0 0 0 0 
2410833333.3333334923 0.181747853755950899978799384371 -0.037925235927104949951171875000 0.002040281658992170853855752100 0.003180630039423704147338867188 0 0 0 0 
2411000000.0000000000 0.181868240237235995193643134371 -0.038455646485090262676198591407 0.002122905803844333128688193213 0.003098016604781150817871093750 0 0 0 0 
2411166666.6666665077 0.182056397199630709549111884371 -0.038949757814407348632812500000 0.002187865320593119101283408057 0.003072103252634406089782714844 0 0 0 0 
2411333333.3333334923 0.182079717516899108886718750000 -0.039307892322540283203125000000 0.002194975502789020972010947119 0.003060971619561315016505576025 0 0 0 0 
2411500000.0000000000 0.181997969746589688400106865629 -0.039782918989658362651784528907 0.002379855373874307112452841650 0.003005447098985313935520791162 0 0 0 0 
2411666666.6666665077 0.182219371199607904632244981258 -0.040118958801031112670898437500 0.002513813320547341866734170068 0.003040346316993236975428915869 0 0 0 0 
2411833333.3333334923 0.181928962469101007659588731258 -0.040421295911073691631276716407 0.002607955830171703858616494287 0.002996686846017837958094931494 0 0 0 0 
2412000000.0000000000 0.181837663054466303069744981258 -0.041027337312698357318918596093 0.002698101568967103958129882812 0.003029693849384785132167197119 0 0 0 0 
2412166666.6666665077 0.181481286883354187011718750000 -0.041206181049346916889231096093 0.002713549416512250900268554688 0.002789177931845188140869140625 0 0 0 0 
2412333333.3333334923 0.181062176823616000076455634371 -0.041621144860982901836354841407 0.002941527636721729798557900537 0.002716081216931343078613281250 0 0 0 0 
2412500000.0000000000 0.180493727326393099685830634371 -0.041958846151828772808034528907 0.002929526614025235176086425781 0.002745889825746417045593261719 0 0 0 0 
2412666666.6666665077 0.179911985993385287185830634371 -0.042310263961553566669504533593 0.003124846378341317176818847656 0.002474225126206874847412109375 0 0 0 0 
2412833333.3333334923 0.179379701614379910568075615629 -0.042675241827964782714843750000 0.003244173713028430938720703125 0.002520960988476872010471963037 0 0 0 0 
2413000000.0000000000 0.178283706307411193847656250000 -0.043071471154689788818359375000 0.003498198697343469099757529150 0.002314660698175429864170693506 0 0 0 0 
2413166666.6666665077 0.177481457591056795974893134371 -0.043371807783842086791992187500 0.003440808970481156869175576318 0.002289880532771348953247070312 0 0 0 0 
2413333333.3333334923 0.176540538668632507324218750000 -0.043869331479072570800781250000 0.003542443271726369857788085938 0.002123076468706130981445312500 0 0 0 0 
2413500000.0000000000 0.175716668367385892013388115629 -0.044504225254058837890625000000 0.003549000248312950134277343750 0.001797778415493666908861469800 0 0 0 0 
2413666666.6666665077 0.174527212977409390548544365629 -0.045051358640193939208984375000 0.003662833478301763968226767432 0.001875826972536742904065776294 0 0 0 0 
2413833333.3333334923 0.173508375883102389236611884371 -0.045534998178482062602956403907 0.003656017826870083808898925781 0.001787524903193115971208881909 0 0 0 0 
2414000000.0000000000 0.172170862555503900725994981258 -0.046404518187046051025390625000 0.003600353375077248053309775244 0.001535075600259006023406982422 0 0 0 0 
2414166666.6666665077 0.171160683035850497146768134371 -0.046995501965284347534179687500 0.003786819055676459832432412256 0.001439571031369268894195556641 0 0 0 0 
2414333333.3333334923 0.169863253831863403320312500000 -0.047810040414333336566965471093 0.003762946696951984925511025537 0.001380858826451003985164023291 0 0 0 0 
2414500000.0000000000 0.168806403875351007659588731258 -0.048688337206840522075612653907 0.003775417571887373924255371094 0.001192081719636916897417378003 0 0 0 0 
2414666666.6666665077 0.167548447847366305252236884371 -0.049649339169263839721679687500 0.003758675651624799208400107275 0.001141067827120423100115131909 0 0 0 0 
2414833333.3333334923 0.166210487484932001311932481258 -0.050869259983301162719726562500 0.003892252920195459885838173975 0.001051026512868701977970742334 0 0 0 0 
2415000000.0000000000 0.165149137377739008147869981258 -0.051824744790792472148854841407 0.004113924223929643630981445312 0.000839149055536836385726928711 0 0 0 0 
2415166666.6666665077 0.163764357566833496093750000000 -0.053228750824928276752512346093 0.003891643369570374922511435400 0.000774396874476224184036254883 0 0 0 0 
2415333333.3333334923 0.162810429930687006194744981258 -0.054673396050930023193359375000 0.004029912874102593335623456738 0.000648496730718761682510375977 0 0 0 0 
2415500000.0000000000 0.161612495779991205413494981258 -0.056033913046121597290039062500 0.004054987803101539611816406250 0.000655499752610921859741210938 0 0 0 0 
2415666666.6666665077 0.160504281520843505859375000000 -0.057539038360118872905690778907 0.004159920383244752883911132812 0.000456136593129485899775904523 0 0 0 0 
2415833333.3333334923 0.159474238753318786621093750000 -0.059106759727001190185546875000 0.004017612896859645843505859375 0.000374696712242439389228820801 0 0 0 0 
2416000000.0000000000 0.158280074596405001541299384371 -0.060959670692682273174245466407 0.004011967685073614120483398438 0.000385997758712619488865452899 0 0 0 0 
2416166666.6666665077 0.157556086778640802581463731258 -0.062644168734550476074218750000 0.004298949614167212572579668262 0.000168443133588880300521850586 0 0 0 0 
2416333333.3333334923 0.156511142849922207931356865629 -0.064373753964900970458984375000 0.004335479810833930969238281250 0.000070203815994318574666976929 0 0 0 0 
2416500000.0000000000 0.155600517988205011565838731258 -0.066331759095191955566406250000 0.004282002802938222885131835938 -0.000164778495673090192392626352 0 0 0 0 
2416666666.6666665077 0.154699742794036892989950615629 -0.068210005760192871093750000000 0.004266902804374694824218750000 -0.000221283538849092992857256479 0 0 0 0 
2416833333.3333334923 0.154088512063026400467080634371 -0.070276826620101928710937500000 0.004310042131692171096801757812 -0.000495808897539973258972167969 0 0 0 0 
2417000000.0000000000 0.153101593255996704101562500000 -0.072191707789897918701171875000 0.004305185750126838684082031250 -0.000622315797954797744750976562 0 0 0 0 
2417166666.6666665077 0.152478247880935696700888115629 -0.074060671031475067138671875000 0.004433366004377604398245527051 -0.000840050925035029649734497070 0 0 0 0 
2417333333.3333334923 0.151931762695312500000000000000 -0.076063178479671478271484375000 0.004451195709407330426687909863 -0.001085026422515511946437216650 0 0 0 0 
2417500000.0000000000 0.151408493518829401214276231258 -0.078117348253726959228515625000 0.004455404821783304214477539062 -0.001292011933401226997375488281 0 0 0 0 
2417666666.6666665077 0.151126205921173095703125000000 -0.079889707267284393310546875000 0.004339312203228473663330078125 -0.001386483083479105992558144678 0 0 0 0 
2417833333.3333334923 0.150631934404373196700888115629 -0.081621274352073669433593750000 0.004381861072033643722534179688 -0.001589188235811888954759907300 0 0 0 0 
2418000000.0000000000 0.150273501873016412933026231258 -0.083668820559978485107421875000 0.004384102299809455871582031250 -0.001677005668170749924303364331 0 0 0 0 
2418166666.6666665077 0.149945750832557705978231865629 -0.085134401917457580566406250000 0.004171857610344886779785156250 -0.002191877691075205802917480469 0 0 0 0 
2418333333.3333334923 0.150057464838028009612713731258 -0.086877278983592987060546875000 0.004243124276399612426757812500 -0.002379731507971882820129394531 0 0 0 0 
2418500000.0000000000 0.149881631135940607268963731258 -0.088452897965908050537109375000 0.004252591636031866073608398438 -0.002608380047604442076442099463 0 0 0 0 
2418666666.6666665077 0.149948537349700899978799384371 -0.089945480227470397949218750000 0.003936538007110357284545898438 -0.002836626488715409798863076318 0 0 0 0 
2418833333.3333334923 0.149796426296234103103799384371 -0.091511666774749755859375000000 0.003800246864557265801670693506 -0.003039278322830795808079384912 0 0 0 0 
2419000000.0000000000 0.149938941001892089843750000000 -0.092804975807666778564453125000 0.003596908180043100877049111475 -0.003235243726521729989292763818 0 0 0 0 
2419166666.6666665077 0.149960234761238098144531250000 -0.093987062573432922363281250000 0.003399596316739916801452636719 -0.003257076488807796998264931787 0 0 0 0 
2419333333.3333334923 0.149911582469940213302450615629 -0.094944849610328674316406250000 0.003189963987097144126892089844 -0.003470866242423654036280966650 0 0 0 0 
2419500000.0000000000 0.150313541293144198318643134371 -0.096162714064121246337890625000 0.002929647453129291968104697119 -0.003629796206951140923741006006 0 0 0 0 
2419666666.6666665077 0.150605827569961603362713731258 -0.096946567296981811523437500000 0.002610082970932126045227050781 -0.003829086432233452796936035156 0 0 0 0 
2419833333.3333334923 0.150729879736900301834268134371 -0.097437106072902679443359375000 0.002376467455178498788120888818 -0.003860981203615665002110146631 0 0 0 0 
