# Version 1.00
#
freq[Hz];re:Trc1_S11;im:Trc1_S11;re:Trc2_S21;im:Trc2_S21;
2.400000000000000E+009;1.582466959953308E-001;6.255826354026794E-002;1.267621293663979E-003;-3.103048307821155E-003;
2.400166666666667E+009;1.581870764493942E-001;6.114069372415543E-002;1.164837274700403E-003;-3.175607882440090E-003;
2.400333333333334E+009;1.581324934959412E-001;5.903929099440575E-002;1.213720068335533E-003;-3.316724672913551E-003;
2.400500000000000E+009;1.580128073692322E-001;5.703965201973915E-002;1.148113398812711E-003;-3.409171942621470E-003;
2.400666666666667E+009;1.579201519489288E-001;5.503768473863602E-002;1.071853796020150E-003;-3.519799094647169E-003;
2.400833333333334E+009;1.580529659986496E-001;5.314773693680763E-002;9.301215177401900E-004;-3.449401352554560E-003;
2.401000000000000E+009;1.579827815294266E-001;5.113862827420235E-002;9.783974383026362E-004;-3.684683702886105E-003;
2.401166666666667E+009;1.581437438726425E-001;4.894306510686874E-002;9.292708709836006E-004;-3.840976860374212E-003;
2.401333333333334E+009;1.583852022886276E-001;4.671189561486244E-002;7.894026348367333E-004;-3.969937562942505E-003;
2.401500000000000E+009;1.587366461753845E-001;4.489867389202118E-002;4.862675850745291E-004;-3.854798851534724E-003;
2.401666666666667E+009;1.589446663856506E-001;4.294177889823914E-002;5.765598034486175E-004;-3.990829922258854E-003;
2.401833333333334E+009;1.594361364841461E-001;4.066615179181099E-002;5.200106534175575E-004;-4.216596484184265E-003;
2.402000000000000E+009;1.597815752029419E-001;3.872803971171379E-002;1.643116847844794E-004;-4.411258269101381E-003;
2.402166666666667E+009;1.600763946771622E-001;3.677162528038025E-002;2.089193585561588E-004;-4.410054534673691E-003;
2.402333333333334E+009;1.607408821582794E-001;3.487610444426537E-002;-9.212596341967583E-005;-4.521880764514208E-003;
2.402500000000000E+009;1.614685505628586E-001;3.287413343787193E-002;-3.114484425168484E-004;-4.661330953240395E-003;
2.402666666666667E+009;1.621273308992386E-001;3.113277070224285E-002;-5.893110064789653E-004;-4.716008901596069E-003;
2.402833333333334E+009;1.628650277853012E-001;2.945348620414734E-002;-7.705842144787312E-004;-4.806378390640020E-003;
2.403000000000000E+009;1.636382341384888E-001;2.774843201041222E-002;-8.029720047488809E-004;-4.839625675231218E-003;
2.403166666666667E+009;1.645589470863342E-001;2.619035169482231E-002;-1.073300256393850E-003;-4.788341466337442E-003;
2.403333333333334E+009;1.652654111385346E-001;2.470840327441692E-002;-1.518913079053164E-003;-4.677654244005680E-003;
2.403500000000000E+009;1.663186997175217E-001;2.335789985954762E-002;-1.735514844767749E-003;-4.685628227889538E-003;
2.403666666666667E+009;1.673766970634460E-001;2.180628292262554E-002;-1.881889998912811E-003;-4.622046370059252E-003;
2.403833333333334E+009;1.681511551141739E-001;2.054335363209248E-002;-2.145875245332718E-003;-4.688614979386330E-003;
2.404000000000000E+009;1.692598760128021E-001;1.938549242913723E-002;-2.460029209032655E-003;-4.332056734710932E-003;
2.404166666666667E+009;1.702063083648682E-001;1.828495785593987E-002;-2.768816659227014E-003;-4.407627973705530E-003;
2.404333333333334E+009;1.710861325263977E-001;1.739108562469482E-002;-2.821050351485610E-003;-4.379333462566137E-003;
2.404500000000000E+009;1.718129813671112E-001;1.625624112784863E-002;-3.140425775200129E-003;-4.256546031683683E-003;
2.404666666666667E+009;1.729691028594971E-001;1.543245743960142E-002;-3.123020986095071E-003;-4.087232518941164E-003;
2.404833333333334E+009;1.738972663879395E-001;1.466335263103247E-002;-3.273003268986940E-003;-3.941212315112352E-003;
2.405000000000000E+009;1.746831983327866E-001;1.401271112263203E-002;-3.641379298642278E-003;-3.783761523663998E-003;
2.405166666666667E+009;1.755720824003220E-001;1.316040195524693E-002;-3.550399560481310E-003;-3.690602257847786E-003;
2.405333333333334E+009;1.764121353626251E-001;1.263678912073374E-002;-3.881441429257393E-003;-3.446609945967794E-003;
2.405500000000000E+009;1.772554963827133E-001;1.223447918891907E-002;-3.955740947276354E-003;-3.363944124430418E-003;
2.405666666666667E+009;1.778079867362976E-001;1.181965228170157E-002;-4.137853626161814E-003;-3.228628076612949E-003;
2.405833333333334E+009;1.783382445573807E-001;1.145010441541672E-002;-4.133292473852634E-003;-2.899380400776863E-003;
2.406000000000000E+009;1.789800375699997E-001;1.097236294299364E-002;-4.207598511129618E-003;-2.890579402446747E-003;
2.406166666666667E+009;1.792497187852860E-001;1.076408196240664E-002;-4.437676630914211E-003;-2.641911618411541E-003;
2.406333333333334E+009;1.798334419727325E-001;1.048017852008343E-002;-4.471485968679190E-003;-2.538218628615141E-003;
2.406500000000000E+009;1.801382452249527E-001;1.015915814787149E-002;-4.523188807070255E-003;-2.257505897432566E-003;
2.406666666666667E+009;1.803337633609772E-001;9.914838708937168E-003;-4.627989605069161E-003;-2.060138154774904E-003;
2.406833333333334E+009;1.805858910083771E-001;9.554033167660236E-003;-4.599474836140871E-003;-1.852558343671262E-003;
2.407000000000000E+009;1.806671321392059E-001;9.287821128964424E-003;-4.821395967155695E-003;-1.716115046292543E-003;
2.407166666666667E+009;1.807890683412552E-001;9.079881012439728E-003;-4.670919850468636E-003;-1.586996368132532E-003;
2.407333333333334E+009;1.806487143039703E-001;8.540860377252102E-003;-4.712282214313746E-003;-1.377947512082756E-003;
2.407500000000000E+009;1.804655492305756E-001;8.212824352085590E-003;-4.827833734452725E-003;-1.180909341201186E-003;
2.407666666666667E+009;1.802026033401489E-001;7.831857539713383E-003;-4.747831728309393E-003;-8.845140691846609E-004;
2.407833333333334E+009;1.798001676797867E-001;7.205712143331766E-003;-4.916834644973278E-003;-1.030813786201179E-003;
2.408000000000000E+009;1.794655770063400E-001;6.692106835544109E-003;-4.704918246716261E-003;-7.265093736350536E-004;
2.408166666666667E+009;1.791515201330185E-001;6.113645154982805E-003;-4.844189155846834E-003;-3.867666528094560E-004;
2.408333333333334E+009;1.787556707859039E-001;5.392308812588453E-003;-4.851181060075760E-003;-2.324483793927357E-004;
2.408500000000000E+009;1.781520098447800E-001;4.530981648713350E-003;-4.608657676726580E-003;-1.034046945278533E-004;
2.408666666666667E+009;1.774902790784836E-001;3.765848232433200E-003;-4.694703500717878E-003;-1.637504174141213E-004;
2.408833333333334E+009;1.769749969244003E-001;2.745496109127998E-003;-4.691288340836763E-003;1.126378920162097E-004;
2.409000000000000E+009;1.762692779302597E-001;1.711474265903235E-003;-4.674548283219338E-003;1.731527445372194E-004;
2.409166666666667E+009;1.755306720733643E-001;5.819992511533201E-004;-4.581475164741278E-003;3.591385611798614E-004;
2.409333333333334E+009;1.749421060085297E-001;-5.697120213881135E-004;-4.546156618744135E-003;5.077220266684890E-004;
2.409500000000000E+009;1.742585301399231E-001;-2.042780164629221E-003;-4.421872086822987E-003;4.275307583156973E-004;
2.409666666666667E+009;1.734525412321091E-001;-3.387679345905781E-003;-4.412304144352675E-003;5.590986693277955E-004;
2.409833333333334E+009;1.727543920278549E-001;-4.758492112159729E-003;-4.252889659255743E-003;7.945154211483896E-004;
2.410000000000000E+009;1.722525209188461E-001;-5.956071428954601E-003;-4.385490436106920E-003;8.606226183474064E-004;
2.410166666666667E+009;1.714537292718887E-001;-7.684855721890926E-003;-4.387624096125364E-003;8.322696667164564E-004;
2.410333333333334E+009;1.709691137075424E-001;-9.322135709226131E-003;-4.256716929376125E-003;1.121314475312829E-003;
2.410500000000000E+009;1.703117489814758E-001;-1.102054212242365E-002;-4.248711746186018E-003;1.099707325920463E-003;
2.410666666666667E+009;1.697901636362076E-001;-1.295864582061768E-002;-4.165143705904484E-003;1.206600689329207E-003;
2.410833333333334E+009;1.692753583192825E-001;-1.475124992430210E-002;-4.115480463951826E-003;1.191301271319389E-003;
2.411000000000000E+009;1.690217852592468E-001;-1.637803204357624E-002;-4.143689759075642E-003;1.369242323562503E-003;
2.411166666666667E+009;1.685718297958374E-001;-1.839477941393852E-002;-4.055716097354889E-003;1.506532542407513E-003;
2.411333333333334E+009;1.683378964662552E-001;-2.026821859180927E-002;-4.200494382530451E-003;1.659409492276609E-003;
2.411500000000000E+009;1.681675463914871E-001;-2.223997935652733E-002;-4.131587687879801E-003;1.832459238357842E-003;
2.411666666666667E+009;1.681141257286072E-001;-2.408980578184128E-002;-4.052954725921154E-003;1.770230242982507E-003;
2.411833333333334E+009;1.680183261632919E-001;-2.607179246842861E-002;-4.168458282947540E-003;1.910287071950734E-003;
2.412000000000000E+009;1.681642830371857E-001;-2.814094722270966E-002;-4.111321177333593E-003;2.015096135437489E-003;
2.412166666666667E+009;1.681193858385086E-001;-3.002451360225678E-002;-3.953537438064814E-003;2.081035636365414E-003;
2.412333333333334E+009;1.685930192470551E-001;-3.193270787596703E-002;-3.942982759326696E-003;2.357754856348038E-003;
2.412500000000000E+009;1.686099022626877E-001;-3.373049572110176E-002;-3.915000706911087E-003;2.338322112336755E-003;
2.412666666666667E+009;1.689781248569489E-001;-3.573877364397049E-002;-3.914500121027231E-003;2.766198012977839E-003;
2.412833333333334E+009;1.693629026412964E-001;-3.757368773221970E-002;-3.875737776979804E-003;2.701175864785910E-003;
2.413000000000000E+009;1.696862131357193E-001;-3.948426991701126E-002;-3.877745009958744E-003;2.914087148383260E-003;
2.413166666666667E+009;1.701374650001526E-001;-4.100519046187401E-002;-3.810224588960409E-003;3.131450619548559E-003;
2.413333333333334E+009;1.703286468982697E-001;-4.299598559737206E-002;-3.452614881098270E-003;3.157004015520215E-003;
2.413500000000000E+009;1.712597161531448E-001;-4.447702318429947E-002;-3.410361707210541E-003;3.344395197927952E-003;
2.413666666666667E+009;1.716864854097366E-001;-4.609580710530281E-002;-3.411210607737303E-003;3.409903496503830E-003;
2.413833333333334E+009;1.721312552690506E-001;-4.758201166987419E-002;-3.246763953939080E-003;3.616288769990206E-003;
2.414000000000000E+009;1.725626438856125E-001;-4.906938597559929E-002;-3.012881614267826E-003;3.715031780302525E-003;
2.414166666666667E+009;1.732300370931625E-001;-5.030019581317902E-002;-2.914148848503828E-003;3.871450666338205E-003;
2.414333333333334E+009;1.736486852169037E-001;-5.175684392452240E-002;-2.860987558960915E-003;3.956185653805733E-003;
2.414500000000000E+009;1.744872182607651E-001;-5.276770889759064E-002;-2.608084352687001E-003;4.193504340946674E-003;
2.414666666666667E+009;1.750281155109406E-001;-5.373032763600349E-002;-2.395899966359139E-003;4.158315248787403E-003;
2.414833333333334E+009;1.754667609930039E-001;-5.496521294116974E-002;-2.302049193531275E-003;4.317914601415396E-003;
2.415000000000000E+009;1.759252548217773E-001;-5.560968071222305E-002;-2.193189458921552E-003;4.340638872236013E-003;
2.415166666666667E+009;1.762859374284744E-001;-5.647109821438789E-002;-2.143633784726262E-003;4.293989855796099E-003;
2.415333333333334E+009;1.766974776983261E-001;-5.733386427164078E-002;-1.887794816866517E-003;4.471175838261843E-003;
2.415500000000000E+009;1.769582182168961E-001;-5.782970041036606E-002;-1.718344283290207E-003;4.508287645876408E-003;
2.415666666666667E+009;1.773897260427475E-001;-5.844519287347794E-002;-1.505315536633134E-003;4.482112824916840E-003;
2.415833333333334E+009;1.776664555072784E-001;-5.901814624667168E-002;-1.340788789093494E-003;4.563848953694105E-003;
2.416000000000000E+009;1.775554269552231E-001;-5.937841162085533E-002;-1.258817268535495E-003;4.746336489915848E-003;
2.416166666666667E+009;1.778888106346130E-001;-5.971052497625351E-002;-1.061117276549339E-003;4.590414930135012E-003;
2.416333333333334E+009;1.777340769767761E-001;-5.999387055635452E-002;-9.147259406745434E-004;4.360963124781847E-003;
2.416500000000000E+009;1.776543408632278E-001;-6.044293195009232E-002;-6.808650796301663E-004;4.599399399012327E-003;
2.416666666666667E+009;1.773635894060135E-001;-6.065890192985535E-002;-4.638381069526076E-004;4.478129092603922E-003;
2.416833333333334E+009;1.772252768278122E-001;-6.096981465816498E-002;-4.437155148480088E-004;4.641099367290735E-003;
2.417000000000000E+009;1.766963452100754E-001;-6.120579689741135E-002;-3.514967102091759E-004;4.460134543478489E-003;
2.417166666666667E+009;1.762231439352036E-001;-6.124749034643173E-002;-1.734337274683639E-004;4.443031270056963E-003;
2.417333333333334E+009;1.758330613374710E-001;-6.153016909956932E-002;-1.228895707754418E-004;4.568474832922220E-003;
2.417500000000000E+009;1.751641333103180E-001;-6.197391822934151E-002;-1.577357215865050E-005;4.282301757484675E-003;
2.417666666666667E+009;1.745628267526627E-001;-6.181688234210014E-002;2.827772113960236E-004;4.418273922055960E-003;
2.417833333333334E+009;1.736525893211365E-001;-6.223733350634575E-002;3.139660111628473E-004;4.291882272809744E-003;
2.418000000000000E+009;1.727966815233231E-001;-6.254091858863831E-002;2.982515725307167E-004;4.502902738749981E-003;
2.418166666666667E+009;1.719987392425537E-001;-6.279588490724564E-002;5.448270239867270E-004;4.307011608034372E-003;
2.418333333333334E+009;1.711560487747192E-001;-6.311761587858200E-002;7.336218841373920E-004;4.297797568142414E-003;
2.418500000000000E+009;1.699996590614319E-001;-6.363140046596527E-002;7.841541664674878E-004;4.348817747086287E-003;
2.418666666666667E+009;1.690056771039963E-001;-6.405013054609299E-002;7.895208545960486E-004;4.242252558469772E-003;
2.418833333333334E+009;1.676530241966248E-001;-6.467381119728088E-002;9.685722761787474E-004;4.284332972019911E-003;
2.419000000000000E+009;1.665143668651581E-001;-6.515236943960190E-002;1.030510407872498E-003;4.133565351366997E-003;
2.419166666666667E+009;1.654061526060104E-001;-6.594590842723846E-002;1.283841207623482E-003;4.196170717477799E-003;
2.419333333333334E+009;1.640614569187164E-001;-6.644192337989807E-002;1.255001872777939E-003;4.013971425592899E-003;
2.419500000000000E+009;1.628848165273666E-001;-6.746035069227219E-002;1.465087640099227E-003;3.963580355048180E-003;
2.419666666666667E+009;1.618188470602036E-001;-6.845181435346603E-002;1.430778764188290E-003;3.884951816871762E-003;
2.419833333333334E+009;1.605055183172226E-001;-6.915938854217529E-002;1.440172665752471E-003;3.918222151696682E-003;
2.420000000000000E+009;1.594659090042114E-001;-7.029459625482559E-002;1.667143777012825E-003;3.865230595692992E-003;
2.420166666666667E+009;1.582555919885635E-001;-7.124439626932144E-002;1.881134579889476E-003;3.736996790394187E-003;
2.420333333333334E+009;1.571711599826813E-001;-7.271084189414978E-002;2.108952496200800E-003;3.909818362444639E-003;
2.420500000000000E+009;1.562472134828568E-001;-7.364249974489212E-002;1.989634009078145E-003;3.670709906145930E-003;
2.420666666666667E+009;1.551892012357712E-001;-7.508618384599686E-002;2.160893520340323E-003;3.739515319466591E-003;
2.420833333333334E+009;1.543304473161697E-001;-7.649794220924377E-002;2.118592383340001E-003;3.640604438260198E-003;
2.421000000000000E+009;1.534432768821716E-001;-7.813438028097153E-002;2.267542062327266E-003;3.604382276535034E-003;
2.421166666666667E+009;1.525580137968063E-001;-7.940996438264847E-002;2.449384192004800E-003;3.527817549183965E-003;
2.421333333333334E+009;1.519214957952499E-001;-8.094716817140579E-002;2.550466917455196E-003;3.530720481649041E-003;
2.421500000000000E+009;1.512471586465836E-001;-8.256754279136658E-002;2.446895930916071E-003;3.383557545021176E-003;
2.421666666666667E+009;1.507797688245773E-001;-8.444102853536606E-002;2.656522206962109E-003;3.286320948973298E-003;
2.421833333333334E+009;1.504145860671997E-001;-8.585502207279205E-002;2.657513599842787E-003;3.146737813949585E-003;
2.422000000000000E+009;1.499329060316086E-001;-8.756744116544724E-002;2.714738948270679E-003;3.084102878347039E-003;
2.422166666666667E+009;1.496250331401825E-001;-8.945485204458237E-002;2.795196836814284E-003;3.027253085747361E-003;
2.422333333333334E+009;1.494381874799728E-001;-9.101234376430512E-002;2.848474308848381E-003;2.933809533715248E-003;
2.422500000000000E+009;1.493246704339981E-001;-9.263363480567932E-002;3.029831685125828E-003;2.822576323524118E-003;
2.422666666666667E+009;1.490538567304611E-001;-9.444201737642288E-002;2.914077602326870E-003;2.741191303357482E-003;
2.422833333333334E+009;1.492846757173538E-001;-9.617037326097488E-002;3.027839586138725E-003;2.809876576066017E-003;
2.423000000000000E+009;1.494365781545639E-001;-9.774605929851532E-002;3.320876974612474E-003;2.703915582969785E-003;
2.423166666666667E+009;1.497536897659302E-001;-9.941491484642029E-002;3.273175330832601E-003;2.739073475822806E-003;
2.423333333333334E+009;1.499776393175125E-001;-1.009147316217423E-001;3.381090238690376E-003;2.545943949371576E-003;
2.423500000000000E+009;1.502102464437485E-001;-1.024526134133339E-001;3.417594358325005E-003;2.492663683369756E-003;
2.423666666666667E+009;1.504242867231369E-001;-1.040413603186607E-001;3.532026894390583E-003;2.332735806703568E-003;
2.423833333333334E+009;1.509731858968735E-001;-1.054848656058312E-001;3.518960438668728E-003;2.251452067866921E-003;
2.424000000000000E+009;1.512990444898605E-001;-1.068602576851845E-001;3.712533740326762E-003;2.140798838809133E-003;
2.424166666666667E+009;1.518059521913528E-001;-1.080654636025429E-001;3.763722721487284E-003;1.995036378502846E-003;
2.424333333333334E+009;1.523987054824829E-001;-1.092823743820190E-001;3.796183504164219E-003;2.017166232690215E-003;
2.424500000000000E+009;1.528454869985580E-001;-1.103637367486954E-001;4.023690707981587E-003;1.777646015398204E-003;
2.424666666666667E+009;1.535383313894272E-001;-1.113610416650772E-001;4.089864436537027E-003;1.796741853468120E-003;
2.424833333333334E+009;1.538361310958862E-001;-1.123865097761154E-001;3.964175935834646E-003;1.563360332511365E-003;
2.425000000000000E+009;1.543026715517044E-001;-1.134100481867790E-001;4.204024560749531E-003;1.513085211627185E-003;
2.425166666666667E+009;1.546216011047363E-001;-1.142255887389183E-001;4.107735119760037E-003;1.411287696100771E-003;
2.425333333333334E+009;1.551544517278671E-001;-1.150295957922936E-001;4.224741831421852E-003;1.235891017131507E-003;
2.425500000000000E+009;1.555810272693634E-001;-1.156283542513847E-001;4.340603481978178E-003;1.124116592109203E-003;
2.425666666666667E+009;1.557163745164871E-001;-1.161700040102005E-001;4.197874572128058E-003;9.264865657314658E-004;
2.425833333333334E+009;1.560756713151932E-001;-1.167923808097839E-001;4.307563882321119E-003;8.431156747974455E-004;
2.426000000000000E+009;1.563329994678497E-001;-1.172986775636673E-001;4.351473879069090E-003;7.288809865713120E-004;
2.426166666666667E+009;1.566293686628342E-001;-1.177048832178116E-001;4.424802958965302E-003;5.459028761833906E-004;
2.426333333333334E+009;1.564968228340149E-001;-1.180470809340477E-001;4.390689078718424E-003;3.165286034345627E-004;
2.426500000000000E+009;1.565853059291840E-001;-1.183414831757546E-001;4.392779432237148E-003;1.264605962205678E-004;
2.426666666666667E+009;1.565445214509964E-001;-1.183378323912621E-001;4.448125604540110E-003;-1.642648021515925E-005;
2.426833333333334E+009;1.563614755868912E-001;-1.187211498618126E-001;4.306908231228590E-003;4.853543487115530E-006;
2.427000000000000E+009;1.560281068086624E-001;-1.189673915505409E-001;4.293049685657024E-003;-2.056424709735438E-004;
2.427166666666667E+009;1.556748896837235E-001;-1.189585253596306E-001;4.258091561496258E-003;-2.153719833586365E-004;
2.427333333333334E+009;1.551494747400284E-001;-1.190265193581581E-001;4.426616244018078E-003;-4.037331382278353E-004;
2.427500000000000E+009;1.547233015298843E-001;-1.191919296979904E-001;4.461078438907862E-003;-6.399546400643885E-004;
2.427666666666667E+009;1.539510488510132E-001;-1.193705946207047E-001;4.300213418900967E-003;-6.848224438726902E-004;
2.427833333333334E+009;1.531498283147812E-001;-1.194457411766052E-001;4.378123208880425E-003;-7.275359821505845E-004;
