# Hz S RI R 50
2400000000.0000000000 0.172812849283218411544638115629 0.048995245248079299926757812500 0.003849886357784270806553506006 -0.000799801608081907033920288086 0 0 0 0 
2400166666.6666665077 0.173481673002242986481036268742 0.048432625830173492431640625000 0.003722846973687409920933388818 -0.000906037923414260149002075195 0 0 0 0 
2400333333.3333334923 0.173876181244850186446981865629 0.047500822693109512329101562500 0.003842078149318695068359375000 -0.001207016524858772971509623950 0 0 0 0 
2400500000.0000000000 0.174399167299270602127236884371 0.046805463731288909912109375000 0.003717333776876329941990517725 -0.001381304347887635014177631909 0 0 0 0 
2400666666.6666665077 0.174724310636520413497763115629 0.046185437589883797382395158593 0.003707398194819688796997070312 -0.001429241965524852059007954175 0 0 0 0 
2400833333.3333334923 0.175184592604637201507244981258 0.045780945569276809692382812500 0.003678529988974332809448242188 -0.001557165407575666904449462891 0 0 0 0 
2401000000.0000000000 0.175269514322280911544638115629 0.045041531324386596679687500000 0.003629947081208229064941406250 -0.001667476259171962954877543872 0 0 0 0 
2401166666.6666665077 0.175453603267669705489950615629 0.044461954385042190551757812500 0.003466877620667219161987304688 -0.001794943353161215999005961841 0 0 0 0 
2401333333.3333334923 0.175562530755996704101562500000 0.043741192668676383281667341407 0.003409505356103181838989257812 -0.002015200909227132797241210938 0 0 0 0 
2401500000.0000000000 0.175799921154975891113281250000 0.043111972510814666748046875000 0.003297201590612531141993857275 -0.002056258032098412947413779150 0 0 0 0 
2401666666.6666665077 0.175809741020202608963174384371 0.042414776980876922607421875000 0.003163097659125924110412597656 -0.002183493226766585870030068506 0 0 0 0 
2401833333.3333334923 0.175758212804794311523437500000 0.041726648807525641704518903907 0.003079085610806941986083984375 -0.002252673497423530058619833838 0 0 0 0 
2402000000.0000000000 0.175677597522735595703125000000 0.041009061038494110107421875000 0.003005106933414936065673828125 -0.002548023127019404931309365381 0 0 0 0 
2402166666.6666665077 0.175432607531547601897869981258 0.039876598864793777465820312500 0.002939848462119698958155966650 -0.002612594049423933029174804688 0 0 0 0 
2402333333.3333334923 0.175349995493888910491619981258 0.039027113467454910278320312500 0.002873523393645883040187216650 -0.002509413054212927818298339844 0 0 0 0 
2402500000.0000000000 0.175347357988357488434161268742 0.038102053105831153179128278907 0.002737266942858695983886718750 -0.002828035503625870184657431494 0 0 0 0 
2402666666.6666665077 0.175113886594772311111611884371 0.037133995443582541728932966407 0.002583196153864264921901083838 -0.002971923677250742912292480469 0 0 0 0 
2402833333.3333334923 0.174982056021690396407919365629 0.035973463207483291625976562500 0.002508773934096097946166992188 -0.003026793943718076185939169775 0 0 0 0 
2403000000.0000000000 0.174511894583702087402343750000 0.034474644809961318969726562500 0.002182135824114083810093545068 -0.003161502769216895103454589844 0 0 0 0 
2403166666.6666665077 0.174401223659515408614950615629 0.033279653638601303100585937500 0.002033992204815148873570107568 -0.003201178275048733191249228369 0 0 0 0 
2403333333.3333334923 0.173840597271919305999432481258 0.032094422727823257446289062500 0.001880350988358258984209370190 -0.003304860088974237008335732568 0 0 0 0 
2403500000.0000000000 0.173526570200920104980468750000 0.030333306640386581420898437500 0.001910824677906930012943886865 -0.003381046000868082046508789062 0 0 0 0 
2403666666.6666665077 0.173234015703201293945312500000 0.028760166838765140878697579296 0.001698303385637700991389609229 -0.003398280125111341910121298682 0 0 0 0 
2403833333.3333334923 0.172929793596267700195312500000 0.027040328830480579030970389454 0.001547196996398269913317036206 -0.003345130477100611166713095557 0 0 0 0 
2404000000.0000000000 0.172461062669754000564736884371 0.025445949286222461355189139454 0.001318761031143367073656391675 -0.003159830346703528924229287256 0 0 0 0 
2404166666.6666665077 0.172224327921867398361044365629 0.023660212755203250539759451954 0.001060133683495223955867148291 -0.003375448519363998933079384912 0 0 0 0 
2404333333.3333334923 0.171802967786788912674111884371 0.021764557808637619018554687500 0.000856548547744750976562500000 -0.003366629127413034005406045068 0 0 0 0 
2404500000.0000000000 0.171318262815475491622763115629 0.019894368946552280080775076954 0.000797815155237913131713867188 -0.003267238382250071005580283057 0 0 0 0 
2404666666.6666665077 0.171222493052482604980468750000 0.017928130924701690673828125000 0.000607684778515249490737915039 -0.003302867757156490845921181787 0 0 0 0 
2404833333.3333334923 0.170933634042739895919638115629 0.016059335321187969553013985546 0.000612910313066095113754272461 -0.003144606482237577004673623193 0 0 0 0 
2405000000.0000000000 0.170682668685913113693075615629 0.013954794965684410440465157421 0.000480302405776455998420715332 -0.003122542984783649010899209131 0 0 0 0 
2405166666.6666665077 0.170549124479293795486611884371 0.011938505806028839456578438671 0.000326393317664042115211486816 -0.003056592773646115823032998193 0 0 0 0 
2405333333.3333334923 0.170571252703666687011718750000 0.009843653067946434020996093750 0.000217684573726728612750452863 -0.002831747988238931135890341650 0 0 0 0 
2405500000.0000000000 0.170543104410171508789062500000 0.007897759787738323211669921875 0.000096879681223072111606597900 -0.002616363577544689178466796875 0 0 0 0 
2405666666.6666665077 0.170619279146194513518963731258 0.005992827937006950378417968750 0.000156288209836930009439745493 -0.002803398761898279190063476562 0 0 0 0 
2405833333.3333334923 0.170707643032074002364950615629 0.003842901205644011931178427588 0.000175321736605837886959630145 -0.002529746619984507994410849463 0 0 0 0 
2406000000.0000000000 0.171055436134338406661825615629 0.001788479858078062968013144385 0.000118717725854367004193444524 -0.002525219228118658065795898438 0 0 0 0 
2406166666.6666665077 0.171190008521079989334268134371 -0.000261014909483492374420166016 0.000042412659240653738379478455 -0.002359485719352961020228720557 0 0 0 0 
2406333333.3333334923 0.171699836850166293045205634371 -0.002357300370931624932530068506 0.000150358202517964000075739728 -0.002238769084215164184570312500 0 0 0 0 
2406500000.0000000000 0.171971157193183898925781250000 -0.004389815963804721832275390625 0.000024842473067110400984083482 -0.002282697474583982987644814600 0 0 0 0 
2406666666.6666665077 0.172360673546791104415731865629 -0.006273090373724699020385742188 0.000176493645994924008846282959 -0.002163434633985162214991904150 0 0 0 0 
2406833333.3333334923 0.173025265336036709884481865629 -0.008385352790355682373046875000 0.000191084269317798289373674936 -0.002143797697499393983128213037 0 0 0 0 
2407000000.0000000000 0.173600956797599792480468750000 -0.010269275866448879241943359375 0.000326890090946108102798461914 -0.002199711976572871208190917969 0 0 0 0 
2407166666.6666665077 0.174398541450500488281250000000 -0.012214042246341710526436052930 0.000419334130128845626681727277 -0.002253273269161581993103027344 0 0 0 0 
2407333333.3333334923 0.174884006381034906585369981258 -0.014055674895644189661969569727 0.000283315283013507723808288574 -0.002302630804479122161865234375 0 0 0 0 
2407500000.0000000000 0.175558313727378900725994981258 -0.015750199556350711477259451954 0.000354615680407732725143432617 -0.002394520910456777052638388525 0 0 0 0 
2407666666.6666665077 0.176269277930259704589843750000 -0.017448311671614650381068045704 0.000411846936913207173347473145 -0.002408762928098440170288085938 0 0 0 0 
2407833333.3333334923 0.176901698112487792968750000000 -0.019131695851683620107630545704 0.000354401709046214818954467773 -0.002333821961656212806701660156 0 0 0 0 
2408000000.0000000000 0.177638262510299710372763115629 -0.020776661112904548645019531250 0.000366361928172409480244237079 -0.002476674038916825814488076318 0 0 0 0 
2408166666.6666665077 0.178389146924018887618856865629 -0.022151347249746319162388985546 0.000498953624628484249114990234 -0.002585430862382053895237588037 0 0 0 0 
2408333333.3333334923 0.179142594337463406661825615629 -0.023855522274971008300781250000 0.000517101492732763290405273438 -0.002781451214104890823364257812 0 0 0 0 
2408500000.0000000000 0.179727137088775607010049384371 -0.025299189612269401550292968750 0.000234790524700656506136217661 -0.002914014738053082986118935693 0 0 0 0 
2408666666.6666665077 0.180471211671829195877236884371 -0.026549980044364929199218750000 0.000287579285213723778724670410 -0.003046535188332200050354003906 0 0 0 0 
2408833333.3333334923 0.180909797549247686188067518742 -0.027700433507561680185338204296 0.000248015654506161808967590332 -0.002979611977934836907627724756 0 0 0 0 
2409000000.0000000000 0.181339874863624600509481865629 -0.028767187148332599294642264454 0.000113820977276191101826806340 -0.003043578471988439993617392432 0 0 0 0 
2409166666.6666665077 0.181904211640357998946981865629 -0.029690818861126899719238281250 0.000013103773198963610286814536 -0.003178385319188237190246582031 0 0 0 0 
2409333333.3333334923 0.182372525334358187576455634371 -0.030768265947699550283411795704 -0.000274695368716493303149622784 -0.003254404757171868844273232568 0 0 0 0 
2409500000.0000000000 0.182712420821189908126669365629 -0.031584642827510826801340471093 -0.000312066433252766674191075458 -0.003302009776234627203700400244 0 0 0 0 
2409666666.6666665077 0.182868272066116305252236884371 -0.032346297055482857440988908593 -0.000423303659772500395774841309 -0.003375887870788573785069131006 0 0 0 0 
2409833333.3333334923 0.183171451091766412933026231258 -0.032742295414209372783620466407 -0.000583947985433042049407958984 -0.003538205521181226210353232275 0 0 0 0 
2410000000.0000000000 0.183608889579773004729901231258 -0.033353697508573532104492187500 -0.000673521892167627811431884766 -0.003516540164127945899963378906 0 0 0 0 
2410166666.6666665077 0.183534130454063387771768134371 -0.033707447350025177001953125000 -0.000772822764702141284942626953 -0.003478740109130740165710449219 0 0 0 0 
2410333333.3333334923 0.183624595403671292404013115629 -0.034030143171548843383789062500 -0.001076108193956315951106406104 -0.003563862526789308027980185400 0 0 0 0 
2410500000.0000000000 0.183693930506706210037393134371 -0.034622494131326682353932966407 -0.001223833183757961013196635669 -0.003572651185095310211181640625 0 0 0 0 
2410666666.6666665077 0.183670401573181207854901231258 -0.035109061747789382934570312500 -0.001381998299621046023127890479 -0.003467297181487083001377724756 0 0 0 0 
2410833333.3333334923 0.183623671531677301604901231258 -0.035322226583957672119140625000 -0.001478782389312982992884970557 -0.003530077869072556929347372900 0 0 0 0 
2411000000.0000000000 0.183407872915267888824786268742 -0.035509802401065833354909528907 -0.001657584798522294001338339697 -0.003612770000472664833068847656 0 0 0 0 
2411166666.6666665077 0.183073386549949701507244981258 -0.035841874778270721435546875000 -0.001968919299542903900146484375 -0.003499865997582674026489257812 0 0 0 0 
2411333333.3333334923 0.182550117373466491699218750000 -0.036250129342079162597656250000 -0.002061117906123400168177939307 -0.003515548538416624069213867188 0 0 0 0 
2411500000.0000000000 0.181977987289428710937500000000 -0.036690834909677512432057966407 -0.002258234424516559080836630713 -0.003230825532227755026576376807 0 0 0 0 
2411666666.6666665077 0.181693702936172513107138115629 -0.036982499063014977191965471093 -0.002568681957200169996974326025 -0.003349836450070143179652548682 0 0 0 0 
2411833333.3333334923 0.180746823549270602127236884371 -0.037343267351388931274414062500 -0.002631043782457708878758095850 -0.003369390266016126112696982275 0 0 0 0 
2412000000.0000000000 0.180208846926689203460369981258 -0.037834968417882919311523437500 -0.002842751564458013014552451025 -0.002997577888891100883483886719 0 0 0 0 
2412166666.6666665077 0.179306402802467401702557481258 -0.038353260606527328491210937500 -0.003038714174181222915649414062 -0.002996334340423345999476767432 0 0 0 0 
2412333333.3333334923 0.178344458341598510742187500000 -0.038682885468006127094309221093 -0.003163211047649383978602743994 -0.002662041224539279937744140625 0 0 0 0 
2412500000.0000000000 0.177182212471962002853231865629 -0.039386108517646789550781250000 -0.003335431916639208793640136719 -0.002527638804167509078979492188 0 0 0 0 
2412666666.6666665077 0.176155880093574496170205634371 -0.039911571890115737915039062500 -0.003439063206315041022059775244 -0.002351566916331648826599121094 0 0 0 0 
2412833333.3333334923 0.175082102417945889571981865629 -0.040651910006999969482421875000 -0.003684614319354296164271689307 -0.001898561138659716086146689307 0 0 0 0 
2413000000.0000000000 0.173912808299064608474893134371 -0.041390541940927512432057966407 -0.003596943104639648957493447412 -0.001911618746817111968994140625 0 0 0 0 
2413166666.6666665077 0.172577947378158597091513115629 -0.042160309851169593120534528907 -0.003730635158717631860020302881 -0.001696204533800482966779399341 0 0 0 0 
2413333333.3333334923 0.171210929751396206954794365629 -0.043080952018499367450754533593 -0.003887885250151156945469521631 -0.001367205986753105900408100659 0 0 0 0 
2413500000.0000000000 0.169817239046096801757812500000 -0.043923024088144302368164062500 -0.003768593538552523092982626807 -0.001175703713670372962951660156 0 0 0 0 
2413666666.6666665077 0.168709948658943204025106865629 -0.045055598020553588867187500000 -0.003714311402291059927699423682 -0.000765047559980303049087524414 0 0 0 0 
2413833333.3333334923 0.167351827025413513183593750000 -0.046028375625610351562500000000 -0.003790036309510469002964638818 -0.000590032606851309537887573242 0 0 0 0 
2414000000.0000000000 0.165984004735946710784588731258 -0.047164604067802429199218750000 -0.003447991795837879180908203125 -0.000368686829460784792900085449 0 0 0 0 
2414166666.6666665077 0.164768934249877901931924384371 -0.048462282866239547729492187500 -0.003658689791336656050441122900 -0.000111213063064497004873813768 0 0 0 0 
2414333333.3333334923 0.163455218076705904861611884371 -0.049717087298631668090820312500 -0.003631445812061429023742675781 0.000032808613468660041689872742 0 0 0 0 
2414500000.0000000000 0.162455037236213711837606865629 -0.051089376211166381835937500000 -0.003351808292791246934178017725 0.000179865208338014808580121451 0 0 0 0 
2414666666.6666665077 0.161326169967651394943075615629 -0.052484970539808273315429687500 -0.003371384227648376984837197412 0.000298898579785600304603576660 0 0 0 0 
2414833333.3333334923 0.160045653581619290450888115629 -0.054170303046703338623046875000 -0.003123674308881164030787802588 0.000346055341651663184165954590 0 0 0 0 
2415000000.0000000000 0.159117609262466402908486884371 -0.055636148899793631816823591407 -0.002983466023579239845275878906 0.000524521106854081153869628906 0 0 0 0 
2415166666.6666665077 0.158063560724258395095986884371 -0.057383760809898383403737653907 -0.002861017594113945960998535156 0.000789490994065999984741210938 0 0 0 0 
2415333333.3333334923 0.157264247536659212967080634371 -0.059083253145217902446706403907 -0.002623005071654915809631347656 0.000868565635755658149719238281 0 0 0 0 
2415500000.0000000000 0.156410679221153287032919365629 -0.060736894607543952251393903907 -0.002689390908926724953892373193 0.000936018943320959806442260742 0 0 0 0 
2415666666.6666665077 0.155562520027160589020098768742 -0.062616460025310516357421875000 -0.002441538264974952177760458838 0.000906225235667079687118530273 0 0 0 0 
2415833333.3333334923 0.155004575848579406738281250000 -0.064643114805221557617187500000 -0.002162324963137507004978798975 0.000936722964979708194732666016 0 0 0 0 
2416000000.0000000000 0.154244497418403597732705634371 -0.066486418247222900390625000000 -0.002215506508946419195887900244 0.000998655217699706554412841797 0 0 0 0 
2416166666.6666665077 0.153858661651611300369424384371 -0.068397261202335357666015625000 -0.001998082036152482032775878906 0.000996011076495051383972167969 0 0 0 0 
2416333333.3333334923 0.153352960944175692459268134371 -0.070322401821613311767578125000 -0.001915838220156729004503559644 0.001011237269267440059064555591 0 0 0 0 
2416500000.0000000000 0.152905911207199096679687500000 -0.072280146181583404541015625000 -0.001859356532804667949676513672 0.001090690959244966940638876807 0 0 0 0 
2416666666.6666665077 0.152497902512550409515057481258 -0.074094131588935852050781250000 -0.001683763228356838009477924878 0.001132200006395577950718545068 0 0 0 0 
2416833333.3333334923 0.152348577976226806640625000000 -0.076297678053379058837890625000 -0.001600514282472432093379355322 0.001018643495626748041865683447 0 0 0 0 
2417000000.0000000000 0.151978790760040310958700615629 -0.078226491808891296386718750000 -0.001475216704420744939091347803 0.000903536798432469367980957031 0 0 0 0 
2417166666.6666665077 0.151876449584960909744424384371 -0.079810842871665954589843750000 -0.001254974282346666076062846606 0.000768083846196532249450683594 0 0 0 0 
2417333333.3333334923 0.151803448796272305587606865629 -0.081580020487308502197265625000 -0.001168677350506186918971396338 0.000811184698250144720077514648 0 0 0 0 
2417500000.0000000000 0.151720926165580805022869981258 -0.083467625081539154052734375000 -0.001123761059716344096540141528 0.000611390220001339912414550781 0 0 0 0 
2417666666.6666665077 0.151775598526001004318075615629 -0.084960483014583587646484375000 -0.001003292971290647983551025391 0.000591288029681891202926635742 0 0 0 0 
2417833333.3333334923 0.151835739612579401214276231258 -0.086556285619735717773437500000 -0.000864830450154840946197509766 0.000559219100978225469589233398 0 0 0 0 
2418000000.0000000000 0.151855662465095492263955634371 -0.088104046881198883056640625000 -0.000956627598498016595840454102 0.000443786557298153584629613055 0 0 0 0 
2418166666.6666665077 0.151968404650688199142294365629 -0.089261569082736968994140625000 -0.000773935928009450435638427734 0.000288460956653580123752039777 0 0 0 0 
2418333333.3333334923 0.152305811643600491622763115629 -0.090710714459419250488281250000 -0.000933242496103048324584960938 0.000247585907345637679100036621 0 0 0 0 
2418500000.0000000000 0.152322828769683810135049384371 -0.091864071786403656005859375000 -0.000857213977724313735961914062 0.000083849947259295731782913208 0 0 0 0 
2418666666.6666665077 0.152758464217186001876669365629 -0.092990726232528686523437500000 -0.000782823539339005947113037109 -0.000253631180385127717822474347 0 0 0 0 
2418833333.3333334923 0.152735128998756408691406250000 -0.093971751630306243896484375000 -0.001060279784724115891697548975 -0.000266676041064783876568394794 0 0 0 0 
2419000000.0000000000 0.152924656867981012542401231258 -0.094868056476116180419921875000 -0.001198986778035759925842285156 -0.000224764706217683905929011212 0 0 0 0 
2419166666.6666665077 0.153241559863090487381143134371 -0.095461137592792510986328125000 -0.001177503261715173938153911060 -0.000209947043913416591569623404 0 0 0 0 
2419333333.3333334923 0.153291448950767489334268134371 -0.096017934381961822509765625000 -0.001301570329815149090410542065 -0.000213440755032934302657526837 0 0 0 0 
2419500000.0000000000 0.153472974896430996993856865629 -0.096655271947383880615234375000 -0.001400545239448546929600381006 -0.000377315038349479382664281024 0 0 0 0 
2419666666.6666665077 0.153787538409233093261718750000 -0.097165919840335845947265625000 -0.001612074906006454987766884912 -0.000480101793073117678791600360 0 0 0 0 
2419833333.3333334923 0.153797805309295709808026231258 -0.097374901175498962402343750000 -0.001702724490314722061157226562 -0.000459560658782720620006007062 0 0 0 0 
