# Version 1.00
#
freq[Hz];re:Trc1_S11;im:Trc1_S11;re:Trc2_S21;im:Trc2_S21;
2.400000000000000E+009;1.581131517887116E-001;6.202785298228264E-002;-2.351720817387104E-003;-8.266543154604733E-004;
2.400166666666667E+009;1.581766009330750E-001;6.057341396808624E-002;-2.329020295292139E-003;-8.654473931528628E-004;
2.400333333333334E+009;1.580773144960403E-001;5.858302861452103E-002;-2.529773162677884E-003;-9.163372451439500E-004;
2.400500000000000E+009;1.580479890108109E-001;5.674415826797485E-002;-2.237190259620547E-003;-8.573333616368473E-004;
2.400666666666667E+009;1.577885746955872E-001;5.483969300985336E-002;-2.360707148909569E-003;-8.863168186508119E-004;
2.400833333333334E+009;1.582047492265701E-001;5.284064263105393E-002;-2.336934208869934E-003;-6.951662362553179E-004;
2.401000000000000E+009;1.581145226955414E-001;5.079574510455132E-002;-2.369878115132451E-003;-7.724280585534871E-004;
2.401166666666667E+009;1.583275198936462E-001;4.874163120985031E-002;-2.549757249653339E-003;-6.627836846746504E-004;
2.401333333333334E+009;1.587306112051010E-001;4.641775041818619E-002;-2.668614499270916E-003;-6.750777829438448E-004;
2.401500000000000E+009;1.590472161769867E-001;4.479641094803810E-002;-2.678566845133901E-003;-6.649343995377421E-004;
2.401666666666667E+009;1.593426316976547E-001;4.282031580805779E-002;-2.644676947966218E-003;-7.147621945478022E-004;
2.401833333333334E+009;1.598573923110962E-001;4.053503647446632E-002;-2.827438991516829E-003;-5.260489415377379E-004;
2.402000000000000E+009;1.600251495838165E-001;3.898007795214653E-002;-2.978892531245947E-003;-3.721465473063290E-004;
2.402166666666667E+009;1.605718284845352E-001;3.663064911961556E-002;-3.057400695979595E-003;-2.574533573351800E-004;
2.402333333333334E+009;1.611222624778748E-001;3.506387025117874E-002;-2.973410300910473E-003;-1.978493382921442E-004;
2.402500000000000E+009;1.620547175407410E-001;3.315956890583038E-002;-3.077405039221048E-003;-1.580728858243674E-004;
2.402666666666667E+009;1.625603437423706E-001;3.158706054091454E-002;-3.078690730035305E-003;-8.981490100268275E-005;
2.402833333333334E+009;1.634313613176346E-001;2.976995892822743E-002;-3.048491431400180E-003;-1.516065094619989E-005;
2.403000000000000E+009;1.641865223646164E-001;2.804699726402760E-002;-3.328487277030945E-003;1.853118155850098E-004;
2.403166666666667E+009;1.651337146759033E-001;2.654477022588253E-002;-3.283498110249639E-003;2.898352104239166E-004;
2.403333333333334E+009;1.659477502107620E-001;2.515905909240246E-002;-3.256564727053046E-003;3.809685294982046E-004;
2.403500000000000E+009;1.667693853378296E-001;2.368737570941448E-002;-3.287351923063397E-003;5.553097580559552E-004;
2.403666666666667E+009;1.677041351795197E-001;2.231081016361713E-002;-3.376426640897989E-003;6.280406960286200E-004;
2.403833333333334E+009;1.687467843294144E-001;2.104008942842484E-002;-3.435890655964613E-003;7.950938888825476E-004;
2.404000000000000E+009;1.697605848312378E-001;1.990625448524952E-002;-3.375495318323374E-003;9.157249587588012E-004;
2.404166666666667E+009;1.705449819564819E-001;1.862869970500469E-002;-3.399771172553301E-003;1.081441179849207E-003;
2.404333333333334E+009;1.716036200523377E-001;1.777946949005127E-002;-3.411116078495979E-003;1.171224168501794E-003;
2.404500000000000E+009;1.725396960973740E-001;1.679968088865280E-002;-3.392673796042800E-003;1.375708496198058E-003;
2.404666666666667E+009;1.733594238758087E-001;1.597201824188232E-002;-3.334872424602509E-003;1.668707933276892E-003;
2.404833333333334E+009;1.742205023765564E-001;1.507826056331396E-002;-3.290196182206273E-003;1.809430425055325E-003;
2.405000000000000E+009;1.750564873218536E-001;1.428666245192289E-002;-3.211250761523843E-003;1.900261268019676E-003;
2.405166666666667E+009;1.759311258792877E-001;1.367167010903359E-002;-3.211236093193293E-003;2.181204268708825E-003;
2.405333333333334E+009;1.766587793827057E-001;1.297291647642851E-002;-3.097254550084472E-003;2.459371695294976E-003;
2.405500000000000E+009;1.774294674396515E-001;1.251225732266903E-002;-3.094066167250276E-003;2.328652190044522E-003;
2.405666666666667E+009;1.780201643705368E-001;1.203187741339207E-002;-2.871123608201742E-003;2.497194334864616E-003;
2.405833333333334E+009;1.783624142408371E-001;1.171673275530338E-002;-2.931705908849835E-003;2.758999355137348E-003;
2.406000000000000E+009;1.791380643844605E-001;1.122500374913216E-002;-2.709184307605028E-003;2.760205650702119E-003;
2.406166666666667E+009;1.793936043977737E-001;1.091485749930143E-002;-2.402986166998744E-003;3.083915682509542E-003;
2.406333333333334E+009;1.798068434000015E-001;1.045161020010710E-002;-2.233064733445644E-003;3.185754409059882E-003;
2.406500000000000E+009;1.800841987133026E-001;1.016125828027725E-002;-2.103090751916170E-003;3.339303191751242E-003;
2.406666666666667E+009;1.801874786615372E-001;9.837517514824867E-003;-1.890397048555315E-003;3.438044106587768E-003;
2.406833333333334E+009;1.803565025329590E-001;9.509860537946224E-003;-1.769686001352966E-003;3.550522262230516E-003;
2.407000000000000E+009;1.805293560028076E-001;9.099002927541733E-003;-1.546047627925873E-003;3.501223400235176E-003;
2.407166666666667E+009;1.805187761783600E-001;8.608100935816765E-003;-1.417938037775457E-003;3.560121404007077E-003;
2.407333333333334E+009;1.802090853452683E-001;8.320441469550133E-003;-1.348419231362641E-003;3.625451354309917E-003;
2.407500000000000E+009;1.801751255989075E-001;7.789870724081993E-003;-9.708366123959422E-004;3.585459198802710E-003;
2.407666666666667E+009;1.801020503044128E-001;7.404059637337923E-003;-8.959646802395582E-004;3.597554052248597E-003;
2.407833333333334E+009;1.795645952224731E-001;6.689020432531834E-003;-8.576948894187808E-004;3.590457141399384E-003;
2.408000000000000E+009;1.792481392621994E-001;5.976601969450712E-003;-5.138263222761452E-004;3.675580723211169E-003;
2.408166666666667E+009;1.787975728511810E-001;5.477608647197485E-003;-2.965527528431267E-004;3.694477723911405E-003;
2.408333333333334E+009;1.783886253833771E-001;4.556634463369846E-003;-3.684103721752763E-004;3.569707507267594E-003;
2.408500000000000E+009;1.779139637947083E-001;3.858806332573295E-003;-7.590942550450563E-005;3.503622487187386E-003;
2.408666666666667E+009;1.772237122058868E-001;2.865777816623449E-003;7.871529669500887E-005;3.421111498028040E-003;
2.408833333333334E+009;1.765643358230591E-001;2.013644669204950E-003;6.456283881561831E-005;3.410722361877561E-003;
2.409000000000000E+009;1.758356839418411E-001;9.833135409280658E-004;3.711961326189339E-004;3.331147367134690E-003;
2.409166666666667E+009;1.754038929939270E-001;-3.022063174284995E-004;2.793848980218172E-004;3.344616387039423E-003;
2.409333333333334E+009;1.746336519718170E-001;-1.494185533374548E-003;5.816520424559712E-004;3.396213054656982E-003;
2.409500000000000E+009;1.740393787622452E-001;-2.890270901843905E-003;4.842592170462012E-004;3.434739075601101E-003;
2.409666666666667E+009;1.731785386800766E-001;-4.318922758102417E-003;6.097958539612591E-004;3.184188855811954E-003;
2.409833333333334E+009;1.727194637060165E-001;-5.509688518941402E-003;7.358274306170642E-004;3.163601737469435E-003;
2.410000000000000E+009;1.721156090497971E-001;-7.081695832312107E-003;9.540676255710423E-004;3.173526376485825E-003;
2.410166666666667E+009;1.715749502182007E-001;-8.541203103959560E-003;1.011053100228310E-003;2.956840675324202E-003;
2.410333333333334E+009;1.708896309137344E-001;-1.027968805283308E-002;1.121323904953897E-003;2.911990974098444E-003;
2.410500000000000E+009;1.704459488391876E-001;-1.201542839407921E-002;1.133741461671889E-003;3.042506985366345E-003;
2.410666666666667E+009;1.697502285242081E-001;-1.383450534194708E-002;1.326516852714121E-003;2.775190398097038E-003;
2.410833333333334E+009;1.693842709064484E-001;-1.555571891367436E-002;1.356908585876226E-003;2.769516082480550E-003;
2.411000000000000E+009;1.690839529037476E-001;-1.735591515898705E-002;1.420180662535131E-003;2.881711116060615E-003;
2.411166666666667E+009;1.687964200973511E-001;-1.930244825780392E-002;1.425721216946840E-003;2.777242101728916E-003;
2.411333333333334E+009;1.684086173772812E-001;-2.092487551271915E-002;1.717536477372050E-003;2.573475940153003E-003;
2.411500000000000E+009;1.681817471981049E-001;-2.322638593614101E-002;1.812834176234901E-003;2.543042413890362E-003;
2.411666666666667E+009;1.683075278997421E-001;-2.496951259672642E-002;1.776374178007245E-003;2.545663854107261E-003;
2.411833333333334E+009;1.683583259582520E-001;-2.690468728542328E-002;1.909233047626913E-003;2.334818011149764E-003;
2.412000000000000E+009;1.683980077505112E-001;-2.871783636510372E-002;2.106501255184412E-003;2.333050360903144E-003;
2.412166666666667E+009;1.682041734457016E-001;-3.060505539178848E-002;2.101824153214693E-003;2.232311526313424E-003;
2.412333333333334E+009;1.687537133693695E-001;-3.260949254035950E-002;2.157435286790133E-003;1.945380587130785E-003;
2.412500000000000E+009;1.686515361070633E-001;-3.445977345108986E-002;2.227252582088113E-003;1.918963855132461E-003;
2.412666666666667E+009;1.690195053815842E-001;-3.635843098163605E-002;2.312369411811233E-003;1.697977655567229E-003;
2.412833333333334E+009;1.695430278778076E-001;-3.819485381245613E-002;2.370441565290093E-003;1.791565911844373E-003;
2.413000000000000E+009;1.698115468025208E-001;-3.995740413665772E-002;2.348868176341057E-003;1.614229287952185E-003;
2.413166666666667E+009;1.701997518539429E-001;-4.154644906520844E-002;2.410549204796553E-003;1.408930285833776E-003;
2.413333333333334E+009;1.706583052873612E-001;-4.326032847166061E-002;2.547803800553083E-003;1.318193622864783E-003;
2.413500000000000E+009;1.710525602102280E-001;-4.487807303667069E-002;2.468788297846913E-003;1.246307743713260E-003;
2.413666666666667E+009;1.716726720333099E-001;-4.654293134808540E-002;2.574712736532092E-003;1.018045819364488E-003;
2.413833333333334E+009;1.721502244472504E-001;-4.777869209647179E-002;2.584805013611913E-003;8.832361199893057E-004;
2.414000000000000E+009;1.725859493017197E-001;-4.921386018395424E-002;2.467517741024494E-003;8.094697841443121E-004;
2.414166666666667E+009;1.731223315000534E-001;-5.047252774238586E-002;2.437804592773318E-003;6.506305653601885E-004;
2.414333333333334E+009;1.736881136894226E-001;-5.170266702771187E-002;2.402638550847769E-003;5.409865989349783E-004;
2.414500000000000E+009;1.743658185005188E-001;-5.276732146739960E-002;2.361255930736661E-003;3.773997887037695E-004;
2.414666666666667E+009;1.747040152549744E-001;-5.376136675477028E-002;2.420874312520027E-003;5.442211404442787E-004;
2.414833333333334E+009;1.750936508178711E-001;-5.479451641440392E-002;2.217363798990846E-003;3.147256211377680E-004;
2.415000000000000E+009;1.755305975675583E-001;-5.549146234989166E-002;2.272779354825616E-003;2.571505319792777E-004;
2.415166666666667E+009;1.759390980005264E-001;-5.626631528139114E-002;2.126312116160989E-003;2.816992928273976E-004;
2.415333333333334E+009;1.764318197965622E-001;-5.710793286561966E-002;2.103152219206095E-003;4.185671787126921E-005;
2.415500000000000E+009;1.766804456710815E-001;-5.769567564129829E-002;2.070026937872171E-003;5.438135121949017E-005;
2.415666666666667E+009;1.769448220729828E-001;-5.819334462285042E-002;2.164192963391542E-003;6.342952110571787E-005;
2.415833333333334E+009;1.771569997072220E-001;-5.868947878479958E-002;1.960763940587640E-003;-3.839604323729873E-005;
2.416000000000000E+009;1.771443337202072E-001;-5.912659689784050E-002;1.761296531185508E-003;-1.110343655454926E-004;
2.416166666666667E+009;1.773966550827026E-001;-5.949557945132256E-002;1.916748937219381E-003;-1.598477101651952E-004;
2.416333333333334E+009;1.772567778825760E-001;-5.980177223682404E-002;1.776304212398827E-003;-9.979442256735638E-005;
2.416500000000000E+009;1.771379709243774E-001;-6.022633984684944E-002;1.897602574899793E-003;-1.549336302559823E-004;
2.416666666666667E+009;1.768907904624939E-001;-6.039864569902420E-002;1.818439573980868E-003;-2.834861516021192E-004;
2.416833333333334E+009;1.766700148582459E-001;-6.083659455180168E-002;1.762125524692237E-003;-1.841015618992969E-004;
2.417000000000000E+009;1.762044727802277E-001;-6.109377741813660E-002;1.609163940884173E-003;-2.851426252163947E-004;
2.417166666666667E+009;1.756514161825180E-001;-6.115103885531426E-002;1.698286621831358E-003;-2.748122788034380E-004;
2.417333333333334E+009;1.752106398344040E-001;-6.142059341073036E-002;1.624556025490165E-003;-1.929331192513928E-004;
2.417500000000000E+009;1.744718849658966E-001;-6.188550963997841E-002;1.538711600005627E-003;-3.583743236958981E-004;
2.417666666666667E+009;1.739717125892639E-001;-6.207149475812912E-002;1.653535640798509E-003;-3.100894973613322E-004;
2.417833333333334E+009;1.732115745544434E-001;-6.228815019130707E-002;1.520868623629212E-003;-4.126235726289451E-004;
2.418000000000000E+009;1.721789687871933E-001;-6.281309574842453E-002;1.575353322550654E-003;-3.476478159427643E-004;
2.418166666666667E+009;1.713237911462784E-001;-6.288962066173554E-002;1.380746485665441E-003;-4.878108156844974E-004;
2.418333333333334E+009;1.704951077699661E-001;-6.343757361173630E-002;1.365607953630388E-003;-4.693576775025576E-004;
2.418500000000000E+009;1.693554371595383E-001;-6.379090249538422E-002;1.462076557800174E-003;-5.314697045832872E-004;
2.418666666666667E+009;1.683418452739716E-001;-6.440716236829758E-002;1.494613359682262E-003;-4.469380364753306E-004;
2.418833333333334E+009;1.671262830495834E-001;-6.494265049695969E-002;1.313341199420393E-003;-4.132017493247986E-004;
2.419000000000000E+009;1.659307181835175E-001;-6.557575613260269E-002;1.188951428048313E-003;-4.406519001349807E-004;
2.419166666666667E+009;1.647836565971375E-001;-6.629157811403275E-002;1.253101392649114E-003;-4.996782517991960E-004;
2.419333333333334E+009;1.634131819009781E-001;-6.689678132534027E-002;1.283621648326516E-003;-4.994127666577697E-004;
2.419500000000000E+009;1.623946577310562E-001;-6.795310974121094E-002;1.177316531538963E-003;-4.916402394883335E-004;
2.419666666666667E+009;1.613957732915878E-001;-6.881117075681686E-002;1.310983672738075E-003;-3.952575498260558E-004;
2.419833333333334E+009;1.600041836500168E-001;-6.957592070102692E-002;1.158985774964094E-003;-5.935402004979551E-004;
2.420000000000000E+009;1.589367389678955E-001;-7.077506184577942E-002;1.118324114941061E-003;-4.622176056727767E-004;
2.420166666666667E+009;1.580337136983872E-001;-7.198186963796616E-002;1.177657279185951E-003;-5.753006553277373E-004;
2.420333333333334E+009;1.569349616765976E-001;-7.314664125442505E-002;1.267900341190398E-003;-6.215654429979622E-004;
2.420500000000000E+009;1.559437066316605E-001;-7.432059943675995E-002;1.161168213002384E-003;-5.407517892308533E-004;
2.420666666666667E+009;1.549792140722275E-001;-7.567100971937180E-002;1.199594116769731E-003;-5.948197213001549E-004;
2.420833333333334E+009;1.541545093059540E-001;-7.713324576616287E-002;1.168337184935808E-003;-5.742936045862734E-004;
2.421000000000000E+009;1.531218290328980E-001;-7.848742604255676E-002;1.273178146220744E-003;-5.723949288949370E-004;
2.421166666666667E+009;1.526232957839966E-001;-7.989954203367233E-002;1.158380182459950E-003;-5.752086872234941E-004;
2.421333333333334E+009;1.520260572433472E-001;-8.170040696859360E-002;1.230485155247152E-003;-6.253900937736034E-004;
2.421500000000000E+009;1.511473059654236E-001;-8.307938277721405E-002;1.070178579539061E-003;-5.332730943337083E-004;
2.421666666666667E+009;1.509395837783814E-001;-8.480606228113174E-002;1.057629007846117E-003;-5.404986441135407E-004;
2.421833333333334E+009;1.504256576299667E-001;-8.636548370122910E-002;9.982667397707701E-004;-6.895590340718627E-004;
2.422000000000000E+009;1.499406993389130E-001;-8.796689659357071E-002;1.132452394813299E-003;-6.697595235891640E-004;
2.422166666666667E+009;1.497013866901398E-001;-8.967848867177963E-002;1.129143638536334E-003;-7.874515140429139E-004;
2.422333333333334E+009;1.496439278125763E-001;-9.144739061594009E-002;1.062931260094047E-003;-7.878004689700902E-004;
2.422500000000000E+009;1.494009345769882E-001;-9.294007718563080E-002;1.106240670196712E-003;-7.765036425553262E-004;
2.422666666666667E+009;1.493251323699951E-001;-9.478746354579926E-002;9.891876252368093E-004;-7.251820643432438E-004;
2.422833333333334E+009;1.495719850063324E-001;-9.647008031606674E-002;1.028365688398480E-003;-8.163852617144585E-004;
2.423000000000000E+009;1.495964378118515E-001;-9.800437837839127E-002;1.073168008588255E-003;-8.079597610048950E-004;
2.423166666666667E+009;1.499986052513123E-001;-9.969986975193024E-002;1.130044460296631E-003;-8.047036826610565E-004;
2.423333333333334E+009;1.502499729394913E-001;-1.010455340147018E-001;1.127154333516955E-003;-9.813214419409633E-004;
2.423500000000000E+009;1.504748016595841E-001;-1.025219634175301E-001;8.307524840347469E-004;-1.093641971237958E-003;
2.423666666666667E+009;1.506861746311188E-001;-1.042521744966507E-001;1.090854639187455E-003;-9.963336633518338E-004;
2.423833333333334E+009;1.513654887676239E-001;-1.055447086691856E-001;8.971885545179248E-004;-1.060467096976936E-003;
2.424000000000000E+009;1.514874547719955E-001;-1.068198755383492E-001;9.017576230689883E-004;-1.066495431587100E-003;
2.424166666666667E+009;1.519838869571686E-001;-1.081212908029556E-001;8.134737145155668E-004;-8.788352133706212E-004;
2.424333333333334E+009;1.524768173694611E-001;-1.091529130935669E-001;8.962871506810188E-004;-1.063001342117786E-003;
2.424500000000000E+009;1.528049260377884E-001;-1.105867102742195E-001;7.753279060125351E-004;-1.096627907827497E-003;
2.424666666666667E+009;1.536364257335663E-001;-1.113792732357979E-001;7.461982895620167E-004;-1.146659953519702E-003;
2.424833333333334E+009;1.536827534437180E-001;-1.123977676033974E-001;8.164168102666736E-004;-1.042521558701992E-003;
2.425000000000000E+009;1.542428582906723E-001;-1.134664267301559E-001;6.953872507438064E-004;-1.166685484349728E-003;
2.425166666666667E+009;1.546262055635452E-001;-1.140732467174530E-001;6.738541997037828E-004;-1.003774232231081E-003;
2.425333333333334E+009;1.550562679767609E-001;-1.149303391575813E-001;4.941356601193547E-004;-1.130321063101292E-003;
2.425500000000000E+009;1.552834361791611E-001;-1.157424896955490E-001;5.910598556511104E-004;-9.388041216880083E-004;
2.425666666666667E+009;1.554765254259110E-001;-1.162739917635918E-001;5.346974357962608E-004;-1.102993264794350E-003;
2.425833333333334E+009;1.558625251054764E-001;-1.167832687497139E-001;6.530847167596221E-004;-8.807030972093344E-004;
2.426000000000000E+009;1.559275090694428E-001;-1.172792389988899E-001;4.985564737580717E-004;-1.056905020959675E-003;
2.426166666666667E+009;1.561936587095261E-001;-1.177152767777443E-001;5.141448928043246E-004;-1.111319521442056E-003;
2.426333333333334E+009;1.561349183320999E-001;-1.179421767592430E-001;5.132395308464766E-004;-1.047596917487681E-003;
2.426500000000000E+009;1.560578644275665E-001;-1.182840913534164E-001;4.737593990284950E-004;-9.948124643415213E-004;
2.426666666666667E+009;1.560739576816559E-001;-1.183484271168709E-001;3.868935455102474E-004;-1.144594862125814E-003;
2.426833333333334E+009;1.557898074388504E-001;-1.185225546360016E-001;6.478621507994831E-004;-1.107038231566548E-003;
2.427000000000000E+009;1.554566025733948E-001;-1.188613995909691E-001;4.582254914566875E-004;-1.125789247453213E-003;
2.427166666666667E+009;1.550818681716919E-001;-1.188633218407631E-001;6.013044621795416E-004;-1.045229495503008E-003;
2.427333333333334E+009;1.545448750257492E-001;-1.190368533134460E-001;6.018335116095841E-004;-1.133922021836042E-003;
2.427500000000000E+009;1.541297733783722E-001;-1.191383898258209E-001;4.868896503467113E-004;-1.092443126253784E-003;
2.427666666666667E+009;1.533726900815964E-001;-1.193027496337891E-001;4.892820143140853E-004;-1.266144099645317E-003;
2.427833333333334E+009;1.525071263313294E-001;-1.193799823522568E-001;4.353321855887771E-004;-1.079677371308208E-003;
