# Version 1.00
#
freq[Hz];re:Trc1_S11;im:Trc1_S11;re:Trc2_S21;im:Trc2_S21;
2.400000000000000E+009;1.581947356462479E-001;6.191484257578850E-002;-2.331268740817905E-003;-8.860157104209065E-004;
2.400166666666667E+009;1.582209914922714E-001;6.047501415014267E-002;-2.429375192150474E-003;-9.683027165010572E-004;
2.400333333333334E+009;1.579088866710663E-001;5.841888114809990E-002;-2.442475873976946E-003;-8.976883837021887E-004;
2.400500000000000E+009;1.579066812992096E-001;5.664963275194168E-002;-2.476262161508203E-003;-8.256033179350197E-004;
2.400666666666667E+009;1.581663191318512E-001;5.453769490122795E-002;-2.320773433893919E-003;-8.493590867146850E-004;
2.400833333333334E+009;1.581962257623673E-001;5.273166298866272E-002;-2.511361381039023E-003;-8.231857209466398E-004;
2.401000000000000E+009;1.582502573728561E-001;5.070985108613968E-002;-2.478869631886482E-003;-8.427110151387751E-004;
2.401166666666667E+009;1.583180129528046E-001;4.853101819753647E-002;-2.559693763032556E-003;-5.682770279236138E-004;
2.401333333333334E+009;1.585089862346649E-001;4.649672657251358E-002;-2.608978888019919E-003;-6.638088962063193E-004;
2.401500000000000E+009;1.590156406164169E-001;4.445584863424301E-002;-2.704643877223134E-003;-6.715636118315160E-004;
2.401666666666667E+009;1.592126935720444E-001;4.277714714407921E-002;-2.589148469269276E-003;-6.269806763157249E-004;
2.401833333333334E+009;1.598100662231445E-001;4.055890813469887E-002;-2.794124651700258E-003;-5.761920474469662E-004;
2.402000000000000E+009;1.601295024156570E-001;3.857084363698959E-002;-2.942931605502963E-003;-2.937028475571424E-004;
2.402166666666667E+009;1.604633033275604E-001;3.662581369280815E-002;-3.023699391633272E-003;-3.753391210921109E-004;
2.402333333333334E+009;1.609840691089630E-001;3.480911254882813E-002;-2.935547148808837E-003;-7.525366527261213E-005;
2.402500000000000E+009;1.620392501354218E-001;3.313565626740456E-002;-3.186179092153907E-003;-1.905491080833599E-004;
2.402666666666667E+009;1.626656949520111E-001;3.137800842523575E-002;-3.170789917930961E-003;-4.097526471014135E-005;
2.402833333333334E+009;1.632949858903885E-001;2.973185665905476E-002;-3.147154580801725E-003;8.031186735024676E-005;
2.403000000000000E+009;1.640131026506424E-001;2.815210819244385E-002;-3.332013729959726E-003;7.598915544804186E-005;
2.403166666666667E+009;1.649305075407028E-001;2.633577585220337E-002;-3.300710348412395E-003;3.243167593609542E-004;
2.403333333333334E+009;1.657564193010330E-001;2.513578347861767E-002;-3.355314256623387E-003;3.132989513687789E-004;
2.403500000000000E+009;1.666012257337570E-001;2.364925481379032E-002;-3.254399634897709E-003;4.951786831952632E-004;
2.403666666666667E+009;1.676174998283386E-001;2.219194360077381E-002;-3.254615236073732E-003;7.214365759864450E-004;
2.403833333333334E+009;1.685433089733124E-001;2.096238732337952E-002;-3.521887352690101E-003;8.724326035007834E-004;
2.404000000000000E+009;1.695532202720642E-001;1.982254162430763E-002;-3.387796226888895E-003;1.020465744659305E-003;
2.404166666666667E+009;1.704863309860230E-001;1.862477697432041E-002;-3.324512857943773E-003;1.072417944669724E-003;
2.404333333333334E+009;1.713404804468155E-001;1.783132366836071E-002;-3.347801044583321E-003;1.250367145985365E-003;
2.404500000000000E+009;1.722695976495743E-001;1.670414209365845E-002;-3.331570653244853E-003;1.462482730858028E-003;
2.404666666666667E+009;1.733953803777695E-001;1.584955118596554E-002;-3.354292362928391E-003;1.488376990891993E-003;
2.404833333333334E+009;1.740529239177704E-001;1.500122621655464E-002;-3.308529965579510E-003;1.815850846469402E-003;
2.405000000000000E+009;1.750594824552536E-001;1.437390502542257E-002;-3.318635281175375E-003;1.961480127647519E-003;
2.405166666666667E+009;1.758263856172562E-001;1.379434484988451E-002;-3.167004557326436E-003;2.089329529553652E-003;
2.405333333333334E+009;1.765797287225723E-001;1.295681856572628E-002;-3.109146608039737E-003;2.338883467018604E-003;
2.405500000000000E+009;1.772172152996063E-001;1.251599844545126E-002;-2.880960004404187E-003;2.530934289097786E-003;
2.405666666666667E+009;1.779931485652924E-001;1.202596351504326E-002;-2.906581852585077E-003;2.675461582839489E-003;
2.405833333333334E+009;1.782982498407364E-001;1.166293490678072E-002;-2.784664975479245E-003;2.696451731026173E-003;
2.406000000000000E+009;1.790760755538940E-001;1.118843723088503E-002;-2.597351325675845E-003;3.014355432242155E-003;
2.406166666666667E+009;1.792532503604889E-001;1.091731339693070E-002;-2.586117247119546E-003;3.046466736122966E-003;
2.406333333333334E+009;1.797140687704086E-001;1.055265218019486E-002;-2.283011795952916E-003;3.137204330414534E-003;
2.406500000000000E+009;1.801144480705261E-001;1.010370068252087E-002;-2.104209735989571E-003;3.375031286850572E-003;
2.406666666666667E+009;1.800668835639954E-001;9.846491739153862E-003;-1.960256136953831E-003;3.383965929970145E-003;
2.406833333333334E+009;1.803236454725266E-001;9.525428526103497E-003;-1.729513751342893E-003;3.475883742794395E-003;
2.407000000000000E+009;1.804100275039673E-001;9.113597683608532E-003;-1.665578456595540E-003;3.609900362789631E-003;
2.407166666666667E+009;1.805641055107117E-001;8.695079945027828E-003;-1.506572240032256E-003;3.680299269035459E-003;
2.407333333333334E+009;1.802121698856354E-001;8.335095830261707E-003;-1.355071552097797E-003;3.589376108720899E-003;
2.407500000000000E+009;1.801697462797165E-001;7.856266573071480E-003;-1.036522095091641E-003;3.541306126862764E-003;
2.407666666666667E+009;1.799629032611847E-001;7.365903351455927E-003;-8.963634027168155E-004;3.516672644764185E-003;
2.407833333333334E+009;1.795202046632767E-001;6.693209055811167E-003;-8.057269733399153E-004;3.502535866573453E-003;
2.408000000000000E+009;1.792264580726624E-001;6.156875751912594E-003;-5.273462738841772E-004;3.645846387371421E-003;
2.408166666666667E+009;1.787274181842804E-001;5.435308907181025E-003;-3.799531550612301E-004;3.756108926609159E-003;
2.408333333333334E+009;1.784512400627136E-001;4.786472767591476E-003;-2.497594105079770E-004;3.583470359444618E-003;
2.408500000000000E+009;1.777027845382690E-001;3.883420955389738E-003;-8.240076567744836E-005;3.531878115609288E-003;
2.408666666666667E+009;1.773275136947632E-001;2.896360121667385E-003;-3.479499355307780E-005;3.460980718955398E-003;
2.408833333333334E+009;1.765219271183014E-001;1.978090731427074E-003;2.321593492524698E-004;3.420250257477164E-003;
2.409000000000000E+009;1.759357899427414E-001;9.820022387430072E-004;3.116409061476588E-004;3.424011403694749E-003;
2.409166666666667E+009;1.754335463047028E-001;-1.679032284300774E-004;3.985308576375246E-004;3.467769129201770E-003;
2.409333333333334E+009;1.745688170194626E-001;-1.521590515039861E-003;5.179568543098867E-004;3.270695684477687E-003;
2.409500000000000E+009;1.739351749420166E-001;-2.894533099606633E-003;6.552541744895279E-004;3.232096787542105E-003;
2.409666666666667E+009;1.731938272714615E-001;-4.276114515960217E-003;6.216446054168046E-004;3.133977763354778E-003;
2.409833333333334E+009;1.723988503217697E-001;-5.658957641571760E-003;7.674419903196394E-004;3.011562395840883E-003;
2.410000000000000E+009;1.719578206539154E-001;-7.214937824755907E-003;8.344317902810872E-004;3.051111940294504E-003;
2.410166666666667E+009;1.714050769805908E-001;-8.616214618086815E-003;9.203527588397265E-004;3.191709984093905E-003;
2.410333333333334E+009;1.708433777093887E-001;-1.032288651913405E-002;1.103830523788929E-003;3.000171855092049E-003;
2.410500000000000E+009;1.702841222286224E-001;-1.203748956322670E-002;1.007785089313984E-003;2.910656621679664E-003;
2.410666666666667E+009;1.698229312896729E-001;-1.389985904097557E-002;1.273324596695602E-003;2.763856900855899E-003;
2.410833333333334E+009;1.694836467504501E-001;-1.548560149967670E-002;1.253386843018234E-003;2.872432814911008E-003;
2.411000000000000E+009;1.688964068889618E-001;-1.739396899938583E-002;1.359908725135028E-003;2.700475044548512E-003;
2.411166666666667E+009;1.686475127935410E-001;-1.935489661991596E-002;1.544865197502077E-003;2.737832721322775E-003;
2.411333333333334E+009;1.685421168804169E-001;-2.107927761971951E-002;1.514975214377046E-003;2.651390852406621E-003;
2.411500000000000E+009;1.682202965021133E-001;-2.324177511036396E-002;1.635730848647654E-003;2.670493209734559E-003;
2.411666666666667E+009;1.681433767080307E-001;-2.493008226156235E-002;1.682805246673524E-003;2.487215911969543E-003;
2.411833333333334E+009;1.681557893753052E-001;-2.668134309351444E-002;1.859030104242265E-003;2.305426634848118E-003;
2.412000000000000E+009;1.682336926460266E-001;-2.885132096707821E-002;2.068182453513145E-003;2.343124477192760E-003;
2.412166666666667E+009;1.684323698282242E-001;-3.075568750500679E-002;2.037727739661932E-003;2.277988940477371E-003;
2.412333333333334E+009;1.686415523290634E-001;-3.251359611749649E-002;2.210619393736124E-003;2.101663034409285E-003;
2.412500000000000E+009;1.687398254871368E-001;-3.422055765986443E-002;2.270105062052608E-003;1.878565526567400E-003;
2.412666666666667E+009;1.690729409456253E-001;-3.638434410095215E-002;2.305331174284220E-003;1.787849003449082E-003;
2.412833333333334E+009;1.695615053176880E-001;-3.824571147561073E-002;2.327553229406476E-003;1.622440642677248E-003;
2.413000000000000E+009;1.697545945644379E-001;-3.992325067520142E-002;2.307178219780326E-003;1.713737030513585E-003;
2.413166666666667E+009;1.701917648315430E-001;-4.160707071423531E-002;2.464201301336289E-003;1.515256124548614E-003;
2.413333333333334E+009;1.706608831882477E-001;-4.317798465490341E-002;2.405915409326553E-003;1.140211243182421E-003;
2.413500000000000E+009;1.711894869804382E-001;-4.494034126400948E-002;2.446173923090100E-003;1.128829549998045E-003;
2.413666666666667E+009;1.716022640466690E-001;-4.638723284006119E-002;2.420295262709260E-003;1.054270658642054E-003;
2.413833333333334E+009;1.720784008502960E-001;-4.780268669128418E-002;2.606558846309781E-003;9.280952508561313E-004;
2.414000000000000E+009;1.726350337266922E-001;-4.930815100669861E-002;2.447318285703659E-003;9.482934838160873E-004;
2.414166666666667E+009;1.732282936573029E-001;-5.041290074586868E-002;2.404571976512671E-003;6.785204168409109E-004;
2.414333333333334E+009;1.737719476222992E-001;-5.175295099616051E-002;2.408941974863410E-003;6.911030504852533E-004;
2.414500000000000E+009;1.743563711643219E-001;-5.268182232975960E-002;2.476564608514309E-003;4.266527830623090E-004;
2.414666666666667E+009;1.747735738754273E-001;-5.375665426254273E-002;2.326900605112314E-003;4.487022524699569E-004;
2.414833333333334E+009;1.752671003341675E-001;-5.469116941094399E-002;2.377524273470044E-003;2.781645162031055E-004;
2.415000000000000E+009;1.755866706371307E-001;-5.551683530211449E-002;2.265675924718380E-003;6.852120714029297E-005;
2.415166666666667E+009;1.760692596435547E-001;-5.640325322747231E-002;2.193940570577979E-003;9.224882523994893E-005;
2.415333333333334E+009;1.762666404247284E-001;-5.713210627436638E-002;2.037423430010676E-003;1.218594479723834E-005;
2.415500000000000E+009;1.767518967390060E-001;-5.768477916717529E-002;2.125305589288473E-003;-1.965175324585289E-004;
2.415666666666667E+009;1.768409162759781E-001;-5.809804424643517E-002;2.062727231532335E-003;-1.541012316010892E-004;
2.415833333333334E+009;1.772150844335556E-001;-5.875261873006821E-002;2.041122177615762E-003;-1.989303418667987E-004;
2.416000000000000E+009;1.771503239870071E-001;-5.929423496127129E-002;1.913846470415592E-003;-3.524165949784219E-004;
2.416166666666667E+009;1.774091571569443E-001;-5.967928841710091E-002;1.843651174567640E-003;-2.006304712267593E-004;
2.416333333333334E+009;1.772396117448807E-001;-5.988254770636559E-002;1.838386175222695E-003;-3.314431232865900E-004;
2.416500000000000E+009;1.771894395351410E-001;-6.015304103493691E-002;1.798352110199630E-003;-4.095021286047995E-004;
2.416666666666667E+009;1.768644303083420E-001;-6.049175560474396E-002;1.755172503180802E-003;-3.440887667238712E-004;
2.416833333333334E+009;1.767768561840057E-001;-6.087590008974075E-002;1.665486721321940E-003;-2.081669517792761E-004;
2.417000000000000E+009;1.761662513017654E-001;-6.104473397135735E-002;1.699945772998035E-003;-4.475541063584387E-004;
2.417166666666667E+009;1.757332086563110E-001;-6.127305701375008E-002;1.720189349725843E-003;-4.229596524965018E-004;
2.417333333333334E+009;1.751970052719116E-001;-6.143956631422043E-002;1.551881548948586E-003;-4.409025132190436E-004;
2.417500000000000E+009;1.745255291461945E-001;-6.196238845586777E-002;1.780856749974191E-003;-4.501905350480229E-004;
2.417666666666667E+009;1.739169657230377E-001;-6.209674477577210E-002;1.373131177388132E-003;-4.074149182997644E-004;
2.417833333333334E+009;1.731216311454773E-001;-6.238940730690956E-002;1.530731911770999E-003;-4.689783090725541E-004;
2.418000000000000E+009;1.721766889095306E-001;-6.277886778116226E-002;1.568187377415597E-003;-4.094329779036343E-004;
2.418166666666667E+009;1.713793724775314E-001;-6.292680650949478E-002;1.515043084509671E-003;-6.174591253511608E-004;
2.418333333333334E+009;1.705413907766342E-001;-6.352381408214569E-002;1.524201012216508E-003;-5.283392965793610E-004;
2.418500000000000E+009;1.694067269563675E-001;-6.395938992500305E-002;1.239018049091101E-003;-2.833362377714366E-004;
2.418666666666667E+009;1.684168726205826E-001;-6.446123868227005E-002;1.471332623623312E-003;-5.351096624508500E-004;
2.418833333333334E+009;1.671320348978043E-001;-6.502816081047058E-002;1.392400008626282E-003;-4.646704182960093E-004;
2.419000000000000E+009;1.659504324197769E-001;-6.559886783361435E-002;1.334977918304503E-003;-5.301873316057026E-004;
2.419166666666667E+009;1.648335158824921E-001;-6.635867059230804E-002;1.382465357892215E-003;-5.156505503691733E-004;
2.419333333333334E+009;1.634922027587891E-001;-6.691017746925354E-002;1.236312789842486E-003;-5.143139278516173E-004;
2.419500000000000E+009;1.623571813106537E-001;-6.809523701667786E-002;1.159625011496246E-003;-6.348472670651972E-004;
2.419666666666667E+009;1.613077968358994E-001;-6.888645887374878E-002;1.232430106028915E-003;-5.268190288916230E-004;
2.419833333333334E+009;1.601279824972153E-001;-6.973975896835327E-002;1.275947783142328E-003;-5.384316318668425E-004;
2.420000000000000E+009;1.591972410678864E-001;-7.072702795267105E-002;1.258225063793361E-003;-5.592045490629971E-004;
2.420166666666667E+009;1.579719334840775E-001;-7.189178466796875E-002;1.202874002046883E-003;-6.491410313174129E-004;
2.420333333333334E+009;1.569416224956513E-001;-7.318128645420075E-002;1.165394205600023E-003;-4.595297505147755E-004;
2.420500000000000E+009;1.558814644813538E-001;-7.430355995893478E-002;1.046647550538182E-003;-7.243762956932187E-004;
2.420666666666667E+009;1.549731194972992E-001;-7.549898326396942E-002;1.177776022814214E-003;-6.359555409289897E-004;
2.420833333333334E+009;1.541651934385300E-001;-7.695762813091278E-002;1.230126246809959E-003;-5.962741561233997E-004;
2.421000000000000E+009;1.532193422317505E-001;-7.854619622230530E-002;1.166750211268663E-003;-6.390893831849098E-004;
2.421166666666667E+009;1.524808257818222E-001;-7.998140901327133E-002;1.276526367291808E-003;-5.470943870022893E-004;
2.421333333333334E+009;1.519103944301605E-001;-8.144509792327881E-002;9.709654841572046E-004;-6.568640237674117E-004;
2.421500000000000E+009;1.513113528490067E-001;-8.285809308290482E-002;1.167376176454127E-003;-6.904079345986247E-004;
2.421666666666667E+009;1.508028507232666E-001;-8.470133692026138E-002;1.114873331971467E-003;-7.540244259871543E-004;
2.421833333333334E+009;1.502963155508041E-001;-8.637847751379013E-002;1.047032652422786E-003;-7.503792294301093E-004;
2.422000000000000E+009;1.501784026622772E-001;-8.786721527576447E-002;9.721104288473725E-004;-6.670537404716015E-004;
2.422166666666667E+009;1.498543769121170E-001;-8.976433426141739E-002;8.572341175749898E-004;-7.805932546034455E-004;
2.422333333333334E+009;1.495390385389328E-001;-9.140245616436005E-002;1.073768013156951E-003;-7.804199121892452E-004;
2.422500000000000E+009;1.495081484317780E-001;-9.289741516113281E-002;1.068956684321165E-003;-7.073087035678327E-004;
2.422666666666667E+009;1.496076285839081E-001;-9.469509869813919E-002;1.046078046783805E-003;-8.188563515432179E-004;
2.422833333333334E+009;1.495652794837952E-001;-9.649147838354111E-002;9.509137016721070E-004;-7.780320593155921E-004;
2.423000000000000E+009;1.496031135320664E-001;-9.788264334201813E-002;9.565338259562850E-004;-8.290334371849895E-004;
2.423166666666667E+009;1.499767154455185E-001;-9.964734315872192E-002;1.225015847012401E-003;-9.176672319881618E-004;
2.423333333333334E+009;1.503082364797592E-001;-1.010624542832375E-001;9.433761588297784E-004;-9.367979364469647E-004;
2.423500000000000E+009;1.504683494567871E-001;-1.027067452669144E-001;8.439015364274383E-004;-1.050767372362316E-003;
2.423666666666667E+009;1.508173942565918E-001;-1.041893213987351E-001;1.006372156552970E-003;-9.544792701490223E-004;
2.423833333333334E+009;1.514635086059570E-001;-1.056828647851944E-001;7.198204402811825E-004;-9.739365777932107E-004;
2.424000000000000E+009;1.516520082950592E-001;-1.069146469235420E-001;8.548187324777246E-004;-1.143014640547335E-003;
2.424166666666667E+009;1.519890725612640E-001;-1.081347018480301E-001;7.363976910710335E-004;-9.033157839439809E-004;
2.424333333333334E+009;1.525726020336151E-001;-1.093107685446739E-001;8.406765991821885E-004;-8.649045485071838E-004;
2.424500000000000E+009;1.530462801456451E-001;-1.105927675962448E-001;8.187010535039008E-004;-1.153092598542571E-003;
2.424666666666667E+009;1.535806208848953E-001;-1.115169525146484E-001;7.709984201937914E-004;-1.065446762368083E-003;
2.424833333333334E+009;1.539258956909180E-001;-1.125363335013390E-001;7.920959033071995E-004;-1.123443595133722E-003;
2.425000000000000E+009;1.544383615255356E-001;-1.135301738977432E-001;6.415584357455373E-004;-1.208364148624241E-003;
2.425166666666667E+009;1.545743346214294E-001;-1.143259927630425E-001;6.877061678096652E-004;-1.069335383363068E-003;
2.425333333333334E+009;1.551044732332230E-001;-1.149578019976616E-001;5.393572500906885E-004;-1.053550397045910E-003;
2.425500000000000E+009;1.553755998611450E-001;-1.157886981964111E-001;6.850896170362830E-004;-1.234840368852019E-003;
2.425666666666667E+009;1.555651426315308E-001;-1.163348406553268E-001;5.952563369646668E-004;-1.110052922740579E-003;
2.425833333333334E+009;1.557290107011795E-001;-1.168931797146797E-001;5.941509152762592E-004;-1.038229092955589E-003;
2.426000000000000E+009;1.558622121810913E-001;-1.173942312598229E-001;4.481623473111540E-004;-1.197974197566509E-003;
2.426166666666667E+009;1.562090069055557E-001;-1.177800670266151E-001;5.381811060942709E-004;-1.143205212429166E-003;
2.426333333333334E+009;1.560358405113220E-001;-1.180461421608925E-001;5.352712469175458E-004;-1.040499191731215E-003;
2.426500000000000E+009;1.560974717140198E-001;-1.182210370898247E-001;5.292319110594690E-004;-1.007822458632290E-003;
2.426666666666667E+009;1.559905856847763E-001;-1.184368804097176E-001;4.751764354296029E-004;-1.121737062931061E-003;
2.426833333333334E+009;1.558308452367783E-001;-1.187292709946632E-001;4.217241366859525E-004;-1.185023458674550E-003;
2.427000000000000E+009;1.554373502731323E-001;-1.189570501446724E-001;3.698386135511100E-004;-1.064948970451951E-003;
2.427166666666667E+009;1.550523191690445E-001;-1.189216673374176E-001;4.160351818427444E-004;-1.024914672598243E-003;
2.427333333333334E+009;1.544975191354752E-001;-1.191040128469467E-001;4.447558312676847E-004;-1.096882042475045E-003;
2.427500000000000E+009;1.539470553398132E-001;-1.192108988761902E-001;3.999761538580060E-004;-1.216329983435571E-003;
2.427666666666667E+009;1.532052606344223E-001;-1.193034574389458E-001;4.574205377139151E-004;-1.024877536110580E-003;
2.427833333333334E+009;1.525018066167831E-001;-1.194156557321549E-001;3.726618597283959E-004;-1.131489872932434E-003;
