# Hz S RI R 
2400000000.0000000000 0.156011775135994013030682481258 0.060332547873258590698242187500 -0.004073470830917358398437500000 0.000502414128277450799942016602 0 0 0 0 
2400166666.6666665077 0.156159043312072809417401231258 0.058629725128412246704101562500 -0.004105450585484504699707031250 0.000643206702079623937606811523 0 0 0 0 
2400333333.3333334923 0.156048148870468111892861884371 0.056624971330165863037109375000 -0.004023839253932237625122070312 0.000872640579473227262496948242 0 0 0 0 
2400500000.0000000000 0.156619295477867098709268134371 0.054657422006130218505859375000 -0.004136080853641033172607421875 0.001070342375896871089935302734 0 0 0 0 
2400666666.6666665077 0.156759023666381808181924384371 0.052488658577203750610351562500 -0.003910230007022619247436523438 0.000912850082386285066604614258 0 0 0 0 
2400833333.3333334923 0.156911522150039700607138115629 0.050637610256671912456472028907 -0.003968031611293554306030273438 0.001125580165535211996791220557 0 0 0 0 
2401000000.0000000000 0.157446190714836092849893134371 0.048399776220321662212331403907 -0.003790715010836720900294638525 0.001286504557356237931492470850 0 0 0 0 
2401166666.6666665077 0.157745257019996587555255018742 0.046383008360862731933593750000 -0.003966887481510639190673828125 0.001293390640057622952702187646 0 0 0 0 
2401333333.3333334923 0.158207803964614895919638115629 0.044311128556728363037109375000 -0.003928439691662788391113281250 0.001584005774930119948146201025 0 0 0 0 
2401500000.0000000000 0.158768832683563204666299384371 0.042310260236263282085378278907 -0.003808426903560758070704794775 0.001551202964037657000898051685 0 0 0 0 
2401666666.6666665077 0.159322574734687805175781250000 0.040493331849575042724609375000 -0.003727617906406521797180175781 0.001687282347120345072505331885 0 0 0 0 
2401833333.3333334923 0.159990057349204989334268134371 0.038358457386493682861328125000 -0.003688119351863861083984375000 0.001926230033859610991237021338 0 0 0 0 
2402000000.0000000000 0.160501316189765902420205634371 0.036532726138830191875417341407 -0.003826469881460071043727255713 0.001916160341352223916294716943 0 0 0 0 
2402166666.6666665077 0.161307081580162103850994981258 0.034598995000123977661132812500 -0.003702097805216908888575888525 0.001856133458204566998722695459 0 0 0 0 
2402333333.3333334923 0.161934033036231994628906250000 0.032836727797985076904296875000 -0.003600078402087091965916298975 0.002076312201097608046290732275 0 0 0 0 
2402500000.0000000000 0.162985607981681795974893134371 0.031412176787853240966796875000 -0.003422012785449624061584472656 0.002079406753182411193847656250 0 0 0 0 
2402666666.6666665077 0.163899064064025906661825615629 0.029772359877824779855748360546 -0.003358589252457023100612021338 0.002014688216149806976318359375 0 0 0 0 
2402833333.3333334923 0.164561972022056607345419365629 0.028274571523070338857630545704 -0.003434274578467011885402060400 0.002261118730530142784118652344 0 0 0 0 
2403000000.0000000000 0.165655091404914911468182481258 0.026892790570855140686035156250 -0.003406594740226864814758300781 0.002370368223637342886683798682 0 0 0 0 
2403166666.6666665077 0.166600987315177889724893134371 0.025593725964426990854283516796 -0.003150181379169226126429892432 0.002456693211570382118225097656 0 0 0 0 
2403333333.3333334923 0.167689263820648193359375000000 0.024284608662128448486328125000 -0.003203800413757563071009970557 0.002466858830302954153773642432 0 0 0 0 
2403500000.0000000000 0.168429866433143587967080634371 0.023220857605338100088099295704 -0.003064732765778899192810058594 0.002670750254765152931213378906 0 0 0 0 
2403666666.6666665077 0.169492766261100796798544365629 0.021731929853558540344238281250 -0.003168274648487567901611328125 0.002828217810019851164576865088 0 0 0 0 
2403833333.3333334923 0.170585304498672513107138115629 0.020878862589597698556920235546 -0.002964464249089359803440713037 0.002702414290979505018946982275 0 0 0 0 
2404000000.0000000000 0.171684354543685913085937500000 0.019924612715840339660644531250 -0.002802285365760325951817177881 0.002842653077095746994018554688 0 0 0 0 
2404166666.6666665077 0.172241628170013399978799384371 0.019114894792437549936314766796 -0.002891541458666325049159384619 0.003077993402257562117335654150 0 0 0 0 
2404333333.3333334923 0.173363715410232488434161268742 0.018361909314990040170689766796 -0.002837590640410780906677246094 0.003171566873788834051844931494 0 0 0 0 
2404500000.0000000000 0.174127921462058993240518134371 0.017558071762323379516601562500 -0.002797669032588601112365722656 0.003281156532466412024257040869 0 0 0 0 
2404666666.6666665077 0.175018519163131713867187500000 0.016947235912084579467773437500 -0.002748224884271622137782431494 0.003287169383838773207423544775 0 0 0 0 
2404833333.3333334923 0.175796851515769986251669365629 0.016092166304588321340540701954 -0.002891698852181435065028525244 0.003423507558181881904602050781 0 0 0 0 
2405000000.0000000000 0.176384314894676208496093750000 0.015871619805693629873255545704 -0.002611435018479824066162109375 0.004033551085740327835083007812 0 0 0 0 
2405166666.6666665077 0.177138298749923706054687500000 0.015418489463627340144147304102 -0.002672901842743157906773232568 0.003714848775416613058802939307 0 0 0 0 
2405333333.3333334923 0.177976742386817904373330634371 0.014675098471343520772913748829 -0.002298285253345965905430459131 0.003684811294078826904296875000 0 0 0 0 
2405500000.0000000000 0.178423747420311001876669365629 0.014583230018615719186803048046 -0.002316508674994111061096191406 0.003971268422901630401611328125 0 0 0 0 
2405666666.6666665077 0.178789719939231900314169365629 0.014181764796376230067243007227 -0.002157521899789572195765829932 0.003888185601681470870971679688 0 0 0 0 
2405833333.3333334923 0.179152116179466303069744981258 0.014057734981179240835169608204 -0.001941030262969434044481586987 0.003950790036469697952270507812 0 0 0 0 
2406000000.0000000000 0.179527238011360196212606865629 0.013622972182929519308069998829 -0.001888473867438734011409140479 0.004190847743302583694458007812 0 0 0 0 
2406166666.6666665077 0.179647341370582608321981865629 0.013538865372538570058802420704 -0.001734061399474740028381347656 0.004325198475271463394165039062 0 0 0 0 
2406333333.3333334923 0.179987221956253107268963731258 0.013123132288455959665318673046 -0.001534203765913843891741108472 0.004281152505427598953247070312 0 0 0 0 
2406500000.0000000000 0.179959774017334012130575615629 0.012717994861304759979248046875 -0.001338441623374819972394633716 0.004342057276517152786254882812 0 0 0 0 
2406666666.6666665077 0.179973229765892001053018134371 0.012468216940760610753069492773 -0.001350425183773040988324809497 0.004496376495808362960815429688 0 0 0 0 
2406833333.3333334923 0.179884970188140896896200615629 0.012093798257410529745081717579 -0.001026595593430102088330913013 0.004571786150336266431326581738 0 0 0 0 
2407000000.0000000000 0.179848730564117403885049384371 0.011713013984262939798375313671 -0.000960664416197687387466430664 0.004583175294101238250732421875 0 0 0 0 
2407166666.6666665077 0.179631218314170809646768134371 0.011252502910792829340924647852 -0.000684679194819182157516479492 0.004489086568355560302734375000 0 0 0 0 
2407333333.3333334923 0.179222792387008694747763115629 0.010705896653234960383405116602 -0.000588924740441143512725830078 0.004683495499193668365478515625 0 0 0 0 
2407500000.0000000000 0.178944423794746398925781250000 0.010185805149376390629778477148 -0.000328102061757817918628138409 0.004547266289591789245605468750 0 0 0 0 
2407666666.6666665077 0.178479552268981905838174384371 0.009659588336944580078125000000 -0.000209953563171438899919232779 0.004791120998561382293701171875 0 0 0 0 
2407833333.3333334923 0.177908450365066500564736884371 0.008873284794390201568603515625 -0.000100614408438559594467440195 0.004632710479199886322021484375 0 0 0 0 
2408000000.0000000000 0.177414119243621798416299384371 0.008012128993868827819824218750 0.000125316902995109612315577374 0.004683037754148244857788085938 0 0 0 0 
2408166666.6666665077 0.176771804690360995193643134371 0.007295837160199880599975585938 0.000199368398170918199137011118 0.004516838118433952331542968750 0 0 0 0 
2408333333.3333334923 0.176452785730361910720986884371 0.006380915176123380661010742188 0.000451676547527313178211766376 0.004362338222563266754150390625 0 0 0 0 
2408500000.0000000000 0.175769940018653897384481865629 0.005329743959009647369384765625 0.000481451221276074702113551007 0.004260099958628416061401367188 0 0 0 0 
2408666666.6666665077 0.175019323825836209396200615629 0.004088103771209716796875000000 0.000678673386573791503906250000 0.004433663561940193176269531250 0 0 0 0 
2408833333.3333334923 0.174279674887657193282919365629 0.002919483231380581855773925781 0.000891243922524154186248779297 0.004525929223746061325073242188 0 0 0 0 
2409000000.0000000000 0.173442363739013699630575615629 0.001589406048879026932957314600 0.000912989722564816474914550781 0.004282563924789428710937500000 0 0 0 0 
2409166666.6666665077 0.172999054193496704101562500000 0.000196571476408280405119219370 0.000882064457982778549194335938 0.004234105348587036132812500000 0 0 0 0 
2409333333.3333334923 0.172405749559402493575888115629 -0.001201030798256397030474018628 0.001213258714415132999420166016 0.004270500969141721725463867188 0 0 0 0 
2409500000.0000000000 0.171640321612358093261718750000 -0.002850300166755915121791220557 0.001282686484046279950382851709 0.004138712305575609207153320312 0 0 0 0 
2409666666.6666665077 0.170947104692459106445312500000 -0.004396253731101751327514648438 0.001571278437040745995165180737 0.004132446367293596267700195312 0 0 0 0 
2409833333.3333334923 0.170345321297645596603231865629 -0.005838373675942420959472656250 0.001618403475731611034990620190 0.004026814829558134078979492188 0 0 0 0 
2410000000.0000000000 0.169828772544860812088174384371 -0.007613034918904305371756269238 0.001589883002452552101732563550 0.003952075261622667312622070312 0 0 0 0 
2410166666.6666665077 0.169328898191451998611611884371 -0.009408744983375072479248046875 0.001909387181513012106057192163 0.003823198610916734175441122900 0 0 0 0 
2410333333.3333334923 0.168780326843261690994424384371 -0.011240895837545400101631365430 0.002042973181232810020446777344 0.003819555277004837989807128906 0 0 0 0 
2410500000.0000000000 0.168403431773185702224893134371 -0.013211013749241830653180507227 0.002117907395586370988133095850 0.003605000441893935203552246094 0 0 0 0 
2410666666.6666665077 0.168061256408691406250000000000 -0.015234452672302719461461251171 0.002289317781105637984034872900 0.003612536471337080001831054688 0 0 0 0 
2410833333.3333334923 0.167991191148757906814736884371 -0.016978088766336441040039062500 0.002257297048345208168029785156 0.003738838713616133169886923682 0 0 0 0 
2411000000.0000000000 0.167636141180992098709268134371 -0.018949558958411220205286795704 0.002251639496535062789916992188 0.003359600203111768202540732275 0 0 0 0 
2411166666.6666665077 0.167586714029312106033486884371 -0.021078670397400859487513358204 0.002416321076452732086181640625 0.003316883696243166923522949219 0 0 0 0 
2411333333.3333334923 0.167387500405311612228231865629 -0.022784600034356120717982108204 0.002571583492681384086608886719 0.003336931345984340147731161963 0 0 0 0 
2411500000.0000000000 0.167363524436950711349325615629 -0.025073261931538578378697579296 0.002707225037738680839538574219 0.003031967440620065169093466650 0 0 0 0 
2411666666.6666665077 0.167701870203018188476562500000 -0.026888813823461529123326485546 0.002674280432984232902526855469 0.003208193462342023849487304688 0 0 0 0 
2411833333.3333334923 0.167685031890869112869424384371 -0.028573064133524901653249372657 0.002762640826404095129725790869 0.002999970689415932135341025244 0 0 0 0 
2412000000.0000000000 0.168151095509529113769531250000 -0.030511347576975818979283516796 0.002946777734905480904820107568 0.002910962328314781188964843750 0 0 0 0 
2412166666.6666665077 0.168244212865829495529013115629 -0.032468590885400772094726562500 0.002970528323203324837925576318 0.002844082424417138099670410156 0 0 0 0 
2412333333.3333334923 0.168983146548271206954794365629 -0.034344431012868881225585937500 0.003111464204266666932346963037 0.002552494639530777931213378906 0 0 0 0 
2412500000.0000000000 0.169176205992698697189169365629 -0.035903286188840873027761091407 0.003126497147604823112487792969 0.002473465865477920012233115088 0 0 0 0 
2412666666.6666665077 0.169689849019050598144531250000 -0.037858854979276657104492187500 0.003139315405860542817356728662 0.002394797978922725157496786963 0 0 0 0 
2412833333.3333334923 0.170317456126213101486044365629 -0.039607077836990363384206403907 0.003246268955990672111511230469 0.002154259709641336961033486475 0 0 0 0 
2413000000.0000000000 0.170656666159629794021768134371 -0.041113905608654022216796875000 0.003327380865812302069423056494 0.002042084001004695892333984375 0 0 0 0 
2413166666.6666665077 0.171170458197593688964843750000 -0.042768232524394989013671875000 0.003199021099135280089137411963 0.001769816386513411998748779297 0 0 0 0 
2413333333.3333334923 0.171874001622200012207031250000 -0.044333510100841522216796875000 0.003240993013605474992039345850 0.001828754437156022028682089697 0 0 0 0 
2413500000.0000000000 0.172728896141052301604901231258 -0.045684304088354110717773437500 0.003278305521234869956970214844 0.001702383509837090969085693359 0 0 0 0 
2413666666.6666665077 0.173256650567054804046307481258 -0.047165010124444961547851562500 0.003362983698025345802307128906 0.001656928798183799006818461841 0 0 0 0 
2413833333.3333334923 0.173749521374702509124432481258 -0.048385381698608398437500000000 0.003294077236205338998081826318 0.001520002610050142028211284106 0 0 0 0 
2414000000.0000000000 0.174242600798606900314169365629 -0.049678821116685867309570312500 0.003362277289852499961853027344 0.001436104765161871910095214844 0 0 0 0 
2414166666.6666665077 0.175046160817146301269531250000 -0.050654936581850051879882812500 0.003293932881206274032592773438 0.001157535007223486900329589844 0 0 0 0 
2414333333.3333334923 0.175539016723632812500000000000 -0.051721863448619842529296875000 0.003321711439639329910278320312 0.001064760959707200960872031104 0 0 0 0 
2414500000.0000000000 0.176331311464309692382812500000 -0.052616190165281302715261091407 0.003201481886208056969883584131 0.001137457438744605021235800635 0 0 0 0 
2414666666.6666665077 0.176597118377685602386151231258 -0.053469013422727591777761091407 0.003223187057301402091979980469 0.000973009446170181035995483398 0 0 0 0 
2414833333.3333334923 0.177020013332366887848223768742 -0.054216362535953521728515625000 0.003282699268311262130737304688 0.000724742421880364418029785156 0 0 0 0 
2415000000.0000000000 0.177468046545982388595419365629 -0.054719168692827231670339216407 0.003267708700150250954868935693 0.000622817489784210920333862305 0 0 0 0 
2415166666.6666665077 0.177835375070571899414062500000 -0.055441454052925109863281250000 0.003120363922789692878723144531 0.000617048237472772598266601562 0 0 0 0 
2415333333.3333334923 0.178182825446128900725994981258 -0.055999059230089187622070312500 0.003178458660840988159179687500 0.000567357114050537347793579102 0 0 0 0 
2415500000.0000000000 0.178441837430000305175781250000 -0.056338068097829818725585937500 0.003284694161266088919398642432 0.000479539972729980999797266827 0 0 0 0 
2415666666.6666665077 0.178367227315902709960937500000 -0.056755356490612030029296875000 0.003124635433778167204615927588 0.000385998777346685474545079364 0 0 0 0 
2415833333.3333334923 0.178496360778808593750000000000 -0.057102460414171218872070312500 0.003217679914087057113647460938 0.000297324470011517405509948730 0 0 0 0 
2416000000.0000000000 0.178362473845481900314169365629 -0.057439099997282028198242187500 0.003099102061241865158081054688 0.000189068552572280195638379507 0 0 0 0 
2416166666.6666665077 0.178463563323020907303018134371 -0.057644575834274291992187500000 0.003155579091981052918675088037 -0.000008097427780739963054656982 0 0 0 0 
2416333333.3333334923 0.178241342306137112716513115629 -0.057884227484464652324636091407 0.003147382522001862959620810400 -0.000013652776942763010208504830 0 0 0 0 
2416500000.0000000000 0.177891030907630892654580634371 -0.058248057961463928222656250000 0.003053878201171755790710449219 -0.000038348494854290038347244263 0 0 0 0 
2416666666.6666665077 0.177552521228790310958700615629 -0.058434963226318359375000000000 0.003073834348469973044154501807 -0.000094801966042723506689071655 0 0 0 0 
2416833333.3333334923 0.177099585533142089843750000000 -0.058653101325035102153737653907 0.002972849877551198005676269531 -0.000204572555958293405458173209 0 0 0 0 
2417000000.0000000000 0.176369041204452486892861884371 -0.058813735842704772949218750000 0.003033032407984137968776083838 -0.000276138016488403081893920898 0 0 0 0 
2417166666.6666665077 0.175775215029716491699218750000 -0.058948066085577011108398437500 0.002863499568775296211242675781 -0.000206814234843477606773376465 0 0 0 0 
2417333333.3333334923 0.175069928169250488281250000000 -0.059177063405513763427734375000 0.002908585360273718833923339844 -0.000317448837449774200290125714 0 0 0 0 
2417500000.0000000000 0.174208030104637201507244981258 -0.059664513915777213359792341407 0.002871727803722023963928222656 -0.000396058749174699187278747559 0 0 0 0 
2417666666.6666665077 0.173394605517387390136718750000 -0.059777442365884780883789062500 0.002880520885810256004333496094 -0.000413050758652389103740137921 0 0 0 0 
2417833333.3333334923 0.172336801886558504959268134371 -0.060049526393413536762277971093 0.002778335008770226998570107568 -0.000440872827311977689892369403 0 0 0 0 
2418000000.0000000000 0.171309411525726290603799384371 -0.060527127236127853393554687500 0.002658850280568004088160849463 -0.000596021534875035285949707031 0 0 0 0 
2418166666.6666665077 0.170274376869201687911825615629 -0.060969144105911261821706403907 0.002718709176406263871433877100 -0.000643307866994291543960571289 0 0 0 0 
2418333333.3333334923 0.169296190142631503006143134371 -0.061547555029392242431640625000 0.002622670726850628852844238281 -0.000723667035344988107681274414 0 0 0 0 
2418500000.0000000000 0.168019995093345586578692518742 -0.062090270221233367919921875000 0.002615747973322867913487099756 -0.000789589190389961004257202148 0 0 0 0 
2418666666.6666665077 0.166928172111511202713174384371 -0.062778666615486145019531250000 0.002560341730713843865635537256 -0.000930021866224706172943115234 0 0 0 0 
2418833333.3333334923 0.165520146489143399337606865629 -0.063460841774940490722656250000 0.002556286286562681198120117188 -0.000951228779740631580352783203 0 0 0 0 
2419000000.0000000000 0.164268031716346712967080634371 -0.064274981617927551269531250000 0.002645684173330665068385458838 -0.001006949227303266958949423682 0 0 0 0 
2419166666.6666665077 0.162996798753738403320312500000 -0.065174959599971771240234375000 0.002548848045989871025085449219 -0.000953170994762331247329711914 0 0 0 0 
2419333333.3333334923 0.161682128906250000000000000000 -0.065833926200866699218750000000 0.002528178039938211007359170068 -0.000979535165242850780487060547 0 0 0 0 
2419500000.0000000000 0.160649269819259588043536268742 -0.066951103508472442626953125000 0.002437270013615489006042480469 -0.001069221994839609102961874854 0 0 0 0 
2419666666.6666665077 0.159542828798294095138388115629 -0.068141892552375793457031250000 0.002304074820131063894984579932 -0.001231249654665588898899697412 0 0 0 0 
2419833333.3333334923 0.158113315701484707931356865629 -0.069298580288887023925781250000 0.002418436342850327925441122900 -0.001045678742229938940760947119 0 0 0 0 
2420000000.0000000000 0.157272845506668090820312500000 -0.070598848164081573486328125000 0.002196056768298149108886718750 -0.001205461914651096083997416919 0 0 0 0 
