# Hz S RI R 50
2400000000.0000000000 0.168839335441589410979901231258 0.040308058261871337890625000000 0.000879407452885061502456665039 0.000695013266522437334060668945 0 0 0 0 
2400166666.6666665077 0.169617846608161898513955634371 0.039618894457817077636718750000 0.000917715544346719980239868164 0.000773996871430426836013793945 0 0 0 0 
2400333333.3333334923 0.170257970690727206131143134371 0.038554619997739791870117187500 0.000898698519449681043624877930 0.000920394959393888711929321289 0 0 0 0 
2400500000.0000000000 0.170839533209800692459268134371 0.037913486361503601074218750000 0.000928073306567966938018798828 0.001065128715708852031110454028 0 0 0 0 
2400666666.6666665077 0.171232193708419799804687500000 0.036996919661760330200195312500 0.000993078225292265415191650391 0.001285869628190994045854878003 0 0 0 0 
2400833333.3333334923 0.171741217374801607986611884371 0.036332380026578903198242187500 0.001171621144749223969103169019 0.001280647818930447101593017578 0 0 0 0 
2401000000.0000000000 0.172223329544067410568075615629 0.035502269864082343364675153907 0.001465142588131129958509135669 0.001494709169492125944850302588 0 0 0 0 
2401166666.6666665077 0.172498792409896906097088731258 0.034788679331541061401367187500 0.001579912961460649967193603516 0.001681608380749822096583701025 0 0 0 0 
2401333333.3333334923 0.172432765364646911621093750000 0.033925160765647888183593750000 0.002010438824072480201721191406 0.001507367240265012004254985278 0 0 0 0 
2401500000.0000000000 0.172902196645736694335937500000 0.033266454935073852539062500000 0.002039999468252062797546386719 0.001716738333925605037091899341 0 0 0 0 
2401666666.6666665077 0.173145905137062100509481865629 0.032470870763063430786132812500 0.002306181704625486893894814600 0.001716703409329056956647563403 0 0 0 0 
2401833333.3333334923 0.173168003559112604339276231258 0.031638465821743011474609375000 0.002687496365979313850402832031 0.001540036522783339023590087891 0 0 0 0 
2402000000.0000000000 0.173019319772720309158486884371 0.030947638675570491445521170704 0.002845549257472157912013388525 0.001672974205575882954838418115 0 0 0 0 
2402166666.6666665077 0.173140630125999506194744981258 0.030208906158804890024205391796 0.003103466704487801031825400244 0.001422143774107099013087607275 0 0 0 0 
2402333333.3333334923 0.173134282231330899337606865629 0.029283236712217330932617187500 0.003214816330000758171081542969 0.001026869867928325913072895581 0 0 0 0 
2402500000.0000000000 0.173355892300605801681356865629 0.028637960553169250488281250000 0.003471883479505776925327920068 0.000925542553886771202087402344 0 0 0 0 
2402666666.6666665077 0.173182129859924288650674384371 0.027733687311410900461217110546 0.003719191998243331909179687500 0.000568620045669376850128173828 0 0 0 0 
2402833333.3333334923 0.172869667410850497146768134371 0.026868121698498729360560233204 0.003965693060308694839477539062 0.000411789835197851116031092511 0 0 0 0 
2403000000.0000000000 0.172932744026184109786825615629 0.025717502459883689880371093750 0.003987492527812719345092773438 0.000089806155301630496978759766 0 0 0 0 
2403166666.6666665077 0.172819107770919799804687500000 0.024743946269154548645019531250 0.004079078789800406369681073926 -0.000283892266452312523692530499 0 0 0 0 
2403333333.3333334923 0.172545626759529113769531250000 0.023824028670787811279296875000 0.003916115034371615323538495801 -0.000571789103560149669647216797 0 0 0 0 
2403500000.0000000000 0.172249004244804410079794365629 0.022676976397633549081822579296 0.003958887886255980405325605176 -0.000965627434197813272476196289 0 0 0 0 
2403666666.6666665077 0.172086700797080993652343750000 0.021603845059871670114537423046 0.003979632630944252014160156250 -0.001096390304155647971509623950 0 0 0 0 
2403833333.3333334923 0.171993970870971707443075615629 0.020351782441139221191406250000 0.003966066520661115646362304688 -0.001593211200088262991664267432 0 0 0 0 
2404000000.0000000000 0.171681284904480008224325615629 0.019198896363377571105957031250 0.003571697510778903961181640625 -0.001619420945644379095790243994 0 0 0 0 
2404166666.6666665077 0.171275764703750610351562500000 0.017776204273104671133021170704 0.003509995760396122932434082031 -0.001876989961601793982862163013 0 0 0 0 
2404333333.3333334923 0.171107038855552701095419365629 0.016606939956545829772949218750 0.003354678163304924964904785156 -0.002064485568553208871128701318 0 0 0 0 
2404500000.0000000000 0.170795738697052001953125000000 0.015013430267572399484654610546 0.003210923401638865904567099463 -0.001973319333046675162074423682 0 0 0 0 
2404666666.6666665077 0.170804217457771301269531250000 0.013842638581991199148157889454 0.003000303637236357168910361182 -0.002418219111859797997715615381 0 0 0 0 
2404833333.3333334923 0.170456320047378512283486884371 0.012289873324334619694719883398 0.002909569302573800086975097656 -0.002576252212747931914088583838 0 0 0 0 
2405000000.0000000000 0.170371294021606500823651231258 0.010818979702889919281005859375 0.002612692303955554962158203125 -0.002703825477510691122767783057 0 0 0 0 
2405166666.6666665077 0.170304089784622192382812500000 0.009024007245898246765136718750 0.002640092512592672868015908350 -0.002643469721078873114344931494 0 0 0 0 
2405333333.3333334923 0.170242145657539395431356865629 0.007430278230458498001098632812 0.002243276685476303100585937500 -0.002700281795114278793334960938 0 0 0 0 
2405500000.0000000000 0.169924303889274597167968750000 0.005825341213494539260864257812 0.002191172679886221885681152344 -0.002916065277531743049621582031 0 0 0 0 
2405666666.6666665077 0.169897571206092806717080634371 0.004194855690002441406250000000 0.002093405229970812797546386719 -0.002757233334705234007594443213 0 0 0 0 
2405833333.3333334923 0.169584140181541387359942518742 0.002509324112907052040100097656 0.001688121701590717055677104419 -0.002799470443278551101684570312 0 0 0 0 
2406000000.0000000000 0.169565588235855102539062500000 0.000672904949169605970382690430 0.001650497899390757083892822266 -0.002903603482991456985473632812 0 0 0 0 
2406166666.6666665077 0.169157296419143704513388115629 -0.000996485818177461624145507812 0.001529932953417300961138081128 -0.002821289468556642966029501807 0 0 0 0 
2406333333.3333334923 0.169173195958137512207031250000 -0.002606982365250587897059775244 0.001402950030751525922062539209 -0.002890311414375900788548134912 0 0 0 0 
2406500000.0000000000 0.168827697634696988204794365629 -0.004398535471409559249877929688 0.001350619248114526054979633862 -0.002973788185045123100280761719 0 0 0 0 
2406666666.6666665077 0.168536126613616887848223768742 -0.006040361709892749786376953125 0.001223963103257120089289999854 -0.002931973664090036912205361475 0 0 0 0 
2406833333.3333334923 0.168482139706611605545205634371 -0.007797354832291603088378906250 0.000804185867309570312500000000 -0.002935609547421336174011230469 0 0 0 0 
2407000000.0000000000 0.168315216898918207366619981258 -0.009352246299386024475097656250 0.000773333420511335134506225586 -0.002792248968034983114955283057 0 0 0 0 
2407166666.6666665077 0.168290972709655789474325615629 -0.010682292282581329345703125000 0.000745395664125680923461914062 -0.002886934671550989151000976562 0 0 0 0 
2407333333.3333334923 0.168048709630966186523437500000 -0.012342915870249269658098789648 0.000572859426029026508331298828 -0.002762047573924065069911337744 0 0 0 0 
2407500000.0000000000 0.167883962392807006835937500000 -0.013671553693711759394635585352 0.000541376764886081218719482422 -0.002721588825806974931004189600 0 0 0 0 
2407666666.6666665077 0.167905539274215698242187500000 -0.015114903450012210500696951954 0.000539533386472612619400024414 -0.002740841358900070190429687500 0 0 0 0 
2407833333.3333334923 0.167566180229187011718750000000 -0.016418116167187690734863281250 0.000477597641292959505885523663 -0.002744041848927735848667763818 0 0 0 0 
2408000000.0000000000 0.167581588029861505706463731258 -0.017631474882364269601842110546 0.000429867679486051201820373535 -0.002765029901638627052307128906 0 0 0 0 
2408166666.6666665077 0.167519778013229397872763115629 -0.018686993047595020639439766796 0.000465788471046835184097290039 -0.002491127233952283859252929688 0 0 0 0 
2408333333.3333334923 0.167928934097290011306924384371 -0.019767405465245250356653983204 0.000486807519337162375450134277 -0.002552474848926066918614052881 0 0 0 0 
2408500000.0000000000 0.167877241969108609298544365629 -0.020836450159549709665318673046 0.000307786627672612721293848859 -0.002531553385779262022731161963 0 0 0 0 
2408666666.6666665077 0.168060764670372009277343750000 -0.021744966506958011281946951954 0.000403717742301523685455322266 -0.002592289587482810020446777344 0 0 0 0 
2408833333.3333334923 0.168155744671821594238281250000 -0.022804964333772659301757812500 0.000307832669932395219802856445 -0.002406057203188538985011435400 0 0 0 0 
2409000000.0000000000 0.168317496776580810546875000000 -0.023623554036021229135533516796 0.000403407902922481298446655273 -0.002474824897944927215576171875 0 0 0 0 
2409166666.6666665077 0.168764680624008206466513115629 -0.024650486186146739614466483204 0.000340656377375125885009765625 -0.002512117382138967947718954932 0 0 0 0 
2409333333.3333334923 0.169131547212600708007812500000 -0.025453023612499240529993826954 0.000209607824217528104782104492 -0.002531707286834716796875000000 0 0 0 0 
2409500000.0000000000 0.169171333312988309005575615629 -0.026448082178831100463867187500 0.000233342856517992886617937631 -0.002665819600224494934082031250 0 0 0 0 
2409666666.6666665077 0.169474929571151705642861884371 -0.027412973344326019287109375000 0.000139215844683349105432787485 -0.002792109036818147139308310400 0 0 0 0 
2409833333.3333334923 0.169832736253738403320312500000 -0.028187261894345280038853829296 0.000098988501122221350669860840 -0.002921332139521836800816201318 0 0 0 0 
2410000000.0000000000 0.170012772083282498458700615629 -0.029003750532865520822545235546 -0.000091095644165761768817901611 -0.002910968381911516189575195312 0 0 0 0 
2410166666.6666665077 0.170256048440933199783486884371 -0.029851436614990230905553048046 -0.000067686683905776590108871460 -0.002995291957631707191467285156 0 0 0 0 
2410333333.3333334923 0.170397505164146395584268134371 -0.030635003000497821462611014454 -0.000189461061381734907627105713 -0.002895107958465815024134970557 0 0 0 0 
2410500000.0000000000 0.170568153262138394454794365629 -0.031492676585912697528879533593 -0.000316265737637877518504542218 -0.003092448459938168959376669775 0 0 0 0 
2410666666.6666665077 0.170637860894203213790731865629 -0.032531239092350013042409528907 -0.000452619831776246374279576434 -0.003038863418623805046081542969 0 0 0 0 
2410833333.3333334923 0.170784205198287991622763115629 -0.033190142363309860229492187500 -0.000550849828869104385375976562 -0.003070765640586615042445517432 0 0 0 0 
2411000000.0000000000 0.170599475502967806717080634371 -0.034090694040060043334960937500 -0.000653490133117884397506713867 -0.003145493799820541901829384912 0 0 0 0 
2411166666.6666665077 0.170580133795738192459268134371 -0.034973669797182083129882812500 -0.000905006483662873506546020508 -0.003110408084467052979710244287 0 0 0 0 
2411333333.3333334923 0.170421570539474487304687500000 -0.035604819655418402934987653907 -0.001015953021124005100847553784 -0.003259107703343033790588378906 0 0 0 0 
2411500000.0000000000 0.170203045010566711425781250000 -0.036525219678878777240793596093 -0.001148174633271991989733051831 -0.003264681668952106995823525537 0 0 0 0 
2411666666.6666665077 0.170164361596107510665731865629 -0.037248414009809487079660783593 -0.001339181326329708099365234375 -0.003052474930882453918457031250 0 0 0 0 
2411833333.3333334923 0.170087024569511413574218750000 -0.037930019199848181987722028907 -0.001566368970088660933850932544 -0.003047471400350331826450966943 0 0 0 0 
2412000000.0000000000 0.169864401221275301834268134371 -0.038825988769531250000000000000 -0.001756358426064253070233989185 -0.002959824865683912797215127100 0 0 0 0 
2412166666.6666665077 0.169376894831657409667968750000 -0.039762653410434722900390625000 -0.001890531391836703040479350513 -0.002934718038886785940883017432 0 0 0 0 
2412333333.3333334923 0.169258207082748413085937500000 -0.040401656180620186542551408593 -0.001959124812856317000148154150 -0.002892427146434783935546875000 0 0 0 0 
2412500000.0000000000 0.168855383992195101638955634371 -0.040948607027530670166015625000 -0.002250027144327760176417685400 -0.002807710785418748855590820312 0 0 0 0 
2412666666.6666665077 0.168508753180503900725994981258 -0.042145635932683951641042341407 -0.002410075627267361120936728369 -0.002612781710922718048095703125 0 0 0 0 
2412833333.3333334923 0.167975828051567105392294365629 -0.042931113392114639282226562500 -0.002397165633738040924072265625 -0.002583773573860526084899902344 0 0 0 0 
2413000000.0000000000 0.167553961277008112151776231258 -0.043720725923776626586914062500 -0.002583081601187586784362792969 -0.002297840081155300140380859375 0 0 0 0 
2413166666.6666665077 0.166936069726943997482138115629 -0.044758643954992287372629533593 -0.002597035374492406845092773438 -0.002191708656027913093566894531 0 0 0 0 
2413333333.3333334923 0.166409388184547396560830634371 -0.045721158385276787494699846093 -0.002675544237717986106872558594 -0.001999041298404335975646972656 0 0 0 0 
2413500000.0000000000 0.165803402662277193924111884371 -0.046366937458515167236328125000 -0.002820344176143407821655273438 -0.001818233402445911927464150537 0 0 0 0 
2413666666.6666665077 0.165428608655929593185263115629 -0.047548960894346237182617187500 -0.002953015966340899901149130713 -0.001645506243221461989759135669 0 0 0 0 
2413833333.3333334923 0.164758577942848205566406250000 -0.048370331525802612304687500000 -0.002951761474832891984226845850 -0.001503600971773267009137797778 0 0 0 0 
2414000000.0000000000 0.164096221327781705001669365629 -0.049224115908145911479909528907 -0.003095605876296759085414267432 -0.001356148393824696974513388525 0 0 0 0 
2414166666.6666665077 0.163580447435379000564736884371 -0.049953822046518332744557966407 -0.003050460014492272897007607568 -0.001337024150416254997253417969 0 0 0 0 
2414333333.3333334923 0.163115307688713101486044365629 -0.051079217344522483135182966407 -0.003017537994310259819030761719 -0.001155700068920850970624614185 0 0 0 0 
2414500000.0000000000 0.162804603576660211761151231258 -0.051923546940088272094726562500 -0.003104677656665443940403603662 -0.000895762990694493055343627930 0 0 0 0 
2414666666.6666665077 0.162287652492523193359375000000 -0.052802737802267081523854841407 -0.003168298164382576942443847656 -0.000664466118905693292617797852 0 0 0 0 
2414833333.3333334923 0.161795467138290405273437500000 -0.053898848593235022808034528907 -0.003070104867219924926757812500 -0.000484269228763878399699610577 0 0 0 0 
2415000000.0000000000 0.161439299583435086349325615629 -0.054975390434265136718750000000 -0.003031923435628414154052734375 -0.000169125836691819104269304819 0 0 0 0 
2415166666.6666665077 0.161084786057472201248330634371 -0.056159112602472312236745466407 -0.003023062366992235183715820312 -0.000182098869117908206865033560 0 0 0 0 
2415333333.3333334923 0.160938814282417297363281250000 -0.057390436530113220214843750000 -0.002917766105383635000941611182 0.000057321936765220023017337186 0 0 0 0 
2415500000.0000000000 0.160438746213912991622763115629 -0.058492623269557952880859375000 -0.002891373820602893829345703125 0.000162627329700626405790606088 0 0 0 0 
2415666666.6666665077 0.160211712121963500976562500000 -0.059557199478149407123606096093 -0.002619715873152018027064658057 0.000224665534915402504518786020 0 0 0 0 
2415833333.3333334923 0.159968942403793307205361884371 -0.060893494635820388793945312500 -0.002277532825246452851536416162 0.000496560358442366123199462891 0 0 0 0 
2416000000.0000000000 0.159496501088142395019531250000 -0.062355168163776397705078125000 -0.002341766376048326925990439307 0.000467314879642799496650695801 0 0 0 0 
2416166666.6666665077 0.159402966499328613281250000000 -0.063565641641616821289062500000 -0.002245550742372870011570595850 0.000729999621398746967315673828 0 0 0 0 
2416333333.3333334923 0.159054651856422396560830634371 -0.064847603440284729003906250000 -0.001974863465875387191772460938 0.000674937386065721511840820312 0 0 0 0 
2416500000.0000000000 0.158718049526214599609375000000 -0.066328912973403930664062500000 -0.001763501786626874966862343896 0.000609269947744905948638916016 0 0 0 0 
2416666666.6666665077 0.158338025212287902832031250000 -0.067548319697380065917968750000 -0.001671012141741812012316059644 0.000598913640715181827545166016 0 0 0 0 
2416833333.3333334923 0.158169716596603393554687500000 -0.068921141326427459716796875000 -0.001655660453252493901493691553 0.000630765629466623067855834961 0 0 0 0 
2417000000.0000000000 0.157560497522354098220986884371 -0.070222966372966766357421875000 -0.001420243759639560959459614331 0.000520452798809856176376342773 0 0 0 0 
2417166666.6666665077 0.157262399792671203613281250000 -0.071262434124946594238281250000 -0.001262714387848973057390522534 0.000381843536160886287689208984 0 0 0 0 
2417333333.3333334923 0.156982272863388089279013115629 -0.072401933372020721435546875000 -0.001342452480457722923876118237 0.000193654312170110588699895038 0 0 0 0 
2417500000.0000000000 0.156654119491577203948651231258 -0.073732107877731323242187500000 -0.001296418369747698090196919019 0.000111224057036451995372772217 0 0 0 0 
2417666666.6666665077 0.156451627612114008147869981258 -0.074571527540683746337890625000 -0.001207610126584768078447651440 -0.000042139530705753707069943087 0 0 0 0 
2417833333.3333334923 0.156218722462654113769531250000 -0.075614504516124725341796875000 -0.001254198374226688905003213037 -0.000201972710783593410819453107 0 0 0 0 
2418000000.0000000000 0.155889183282852200607138115629 -0.076738476753234863281250000000 -0.001284706755541265010833740234 -0.000123036719742231098100385123 0 0 0 0 
2418166666.6666665077 0.155576407909393310546875000000 -0.077525518834590911865234375000 -0.001370305661112070083618164062 -0.000271235359832644516795557843 0 0 0 0 
2418333333.3333334923 0.155747339129447909256143134371 -0.078584529459476470947265625000 -0.001395716797560452981236123193 -0.000420707161538302898406982422 0 0 0 0 
2418500000.0000000000 0.155382007360458401779013115629 -0.079449221491813659667968750000 -0.001512606977485120079637836987 -0.000350420596078038215637207031 0 0 0 0 
2418666666.6666665077 0.155325829982757596114950615629 -0.080369323492050170898437500000 -0.001692144782282412052154541016 -0.000529468001332134008407592773 0 0 0 0 
2418833333.3333334923 0.154919624328613309005575615629 -0.081340089440345764160156250000 -0.001793939969502388997318886865 -0.000483718496980145573616027832 0 0 0 0 
2419000000.0000000000 0.154755726456642206390057481258 -0.082117617130279541015625000000 -0.001936085522174834988237690503 -0.000572063145227730274200439453 0 0 0 0 
2419166666.6666665077 0.154514878988265991210937500000 -0.082861036062240600585937500000 -0.002119431039318441910984658350 -0.000532638980075716972351074219 0 0 0 0 
2419333333.3333334923 0.154237747192382812500000000000 -0.083269454538822174072265625000 -0.002421315293759108023402548682 -0.000431228050729259902804774152 0 0 0 0 
2419500000.0000000000 0.154157951474189813811932481258 -0.084343932569026947021484375000 -0.002353313844650983810424804688 -0.000372803566278889775276184082 0 0 0 0 
2419666666.6666665077 0.154071092605590792556924384371 -0.085077427327632904052734375000 -0.002571556484326719804051064600 -0.000225701456656679511070251465 0 0 0 0 
2419833333.3333334923 0.153663486242294311523437500000 -0.085529685020446777343750000000 -0.002536695683375000953674316406 -0.000159784074639901491716661996 0 0 0 0 
