# Version 1.00
#
freq[Hz];re:Trc1_S11;im:Trc1_S11;re:Trc2_S21;im:Trc2_S21;
2.400000000000000E+009;1.549765914678574E-001;1.064189523458481E-001;-2.690629626158625E-004;1.162466127425432E-003;
2.400166666666667E+009;1.547492146492004E-001;1.038746759295464E-001;-3.352048806846142E-004;1.228957786224783E-003;
2.400333333333334E+009;1.547944545745850E-001;1.017238870263100E-001;-2.281643537571654E-004;1.314461114816368E-003;
2.400500000000000E+009;1.547069251537323E-001;9.889199584722519E-002;-1.821240148274228E-004;1.274768728762865E-003;
2.400666666666667E+009;1.550255715847015E-001;9.656710177659988E-002;-1.371297403238714E-004;1.231052679941058E-003;
2.400833333333334E+009;1.550247073173523E-001;9.365902841091156E-002;1.216507807839662E-004;1.330798026174307E-003;
2.401000000000000E+009;1.551663130521774E-001;9.085909277200699E-002;5.652710751746781E-005;1.219250378198922E-003;
2.401166666666667E+009;1.552599221467972E-001;8.799446374177933E-002;1.830798464652617E-005;1.310770399868488E-003;
2.401333333333334E+009;1.556365340948105E-001;8.524046838283539E-002;-4.484163582674228E-005;1.251226523891091E-003;
2.401500000000000E+009;1.562487185001373E-001;8.228068053722382E-002;1.734215620672330E-004;1.339755137450993E-003;
2.401666666666667E+009;1.565943509340286E-001;7.955631613731384E-002;1.402234192937613E-004;1.200436265207827E-003;
2.401833333333334E+009;1.571135520935059E-001;7.688073068857193E-002;6.644430686719716E-005;1.040910487063229E-003;
2.402000000000000E+009;1.579625159502029E-001;7.412900775671005E-002;7.618140807608143E-005;1.207695924676955E-003;
2.402166666666667E+009;1.589269191026688E-001;7.171715795993805E-002;1.040709903463721E-004;9.204474044963718E-004;
2.402333333333334E+009;1.599140167236328E-001;6.884013861417770E-002;-5.214295015321113E-005;1.162110944278538E-003;
2.402500000000000E+009;1.611314713954926E-001;6.650435179471970E-002;-5.428891017800197E-005;9.964531054720283E-004;
2.402666666666667E+009;1.623890697956085E-001;6.432147324085236E-002;-9.902633610181510E-005;1.119983964599669E-003;
2.402833333333334E+009;1.635686606168747E-001;6.176564097404480E-002;-2.826089039444923E-004;1.099455868825316E-003;
2.403000000000000E+009;1.651509702205658E-001;5.939382314682007E-002;-4.021106287837029E-004;1.160620828159154E-003;
2.403166666666667E+009;1.668515503406525E-001;5.735805258154869E-002;-3.817178367171437E-004;1.349495607428253E-003;
2.403333333333334E+009;1.682269573211670E-001;5.513263121247292E-002;-3.779974358621985E-004;1.464796485379338E-003;
2.403500000000000E+009;1.700947880744934E-001;5.311825498938561E-002;-4.673414805438370E-004;1.602588221430779E-003;
2.403666666666667E+009;1.717735081911087E-001;5.117212608456612E-002;-3.735464706551284E-004;2.050703158602119E-003;
2.403833333333334E+009;1.733382642269135E-001;4.944987222552300E-002;-2.274124999530613E-004;2.045337576419115E-003;
2.404000000000000E+009;1.749897301197052E-001;4.783295467495918E-002;-8.201529999496415E-005;2.302078297361732E-003;
2.404166666666667E+009;1.767534017562866E-001;4.625002294778824E-002;-1.650090598559473E-005;2.464424353092909E-003;
2.404333333333334E+009;1.779786348342896E-001;4.489733651280403E-002;3.583508951123804E-004;2.618788974359632E-003;
2.404500000000000E+009;1.798255592584610E-001;4.326690733432770E-002;3.991484409198165E-004;2.799908164888620E-003;
2.404666666666667E+009;1.813689172267914E-001;4.234786331653595E-002;7.893529837019742E-004;2.987645799294114E-003;
2.404833333333334E+009;1.831007450819016E-001;4.133905097842217E-002;9.519619634374976E-004;2.986581297591329E-003;
2.405000000000000E+009;1.842231899499893E-001;4.057002440094948E-002;1.337481196969748E-003;2.783241681754589E-003;
2.405166666666667E+009;1.857998520135880E-001;3.986059874296188E-002;1.485564396716654E-003;2.852192381396890E-003;
2.405333333333334E+009;1.869915127754211E-001;3.935260325670242E-002;1.707013230770826E-003;2.797688823193312E-003;
2.405500000000000E+009;1.884142160415649E-001;3.902595862746239E-002;1.873838482424617E-003;2.641515340656042E-003;
2.405666666666667E+009;1.896816194057465E-001;3.851475566625595E-002;2.035397803410888E-003;2.443895209580660E-003;
2.405833333333334E+009;1.907840073108673E-001;3.827097266912460E-002;2.222675830125809E-003;2.384248888120055E-003;
2.406000000000000E+009;1.917241215705872E-001;3.819169104099274E-002;2.480969531461597E-003;2.137996954843402E-003;
2.406166666666667E+009;1.927094608545303E-001;3.791708126664162E-002;2.447658218443394E-003;2.170491032302380E-003;
2.406333333333334E+009;1.937305331230164E-001;3.808750584721565E-002;2.573158359155059E-003;1.878136419691145E-003;
2.406500000000000E+009;1.944059431552887E-001;3.808822855353355E-002;2.674688817933202E-003;1.904142322018743E-003;
2.406666666666667E+009;1.949271708726883E-001;3.812626004219055E-002;2.816084073856473E-003;1.689525321125984E-003;
2.406833333333334E+009;1.953903883695602E-001;3.803239390254021E-002;2.802791772410274E-003;1.751787727698684E-003;
2.407000000000000E+009;1.956223845481873E-001;3.821348771452904E-002;3.001837525516748E-003;1.765711698681116E-003;
2.407166666666667E+009;1.960227191448212E-001;3.789738565683365E-002;3.343692980706692E-003;1.568481093272567E-003;
2.407333333333334E+009;1.961036622524262E-001;3.809159249067307E-002;3.421120345592499E-003;1.300138537772000E-003;
2.407500000000000E+009;1.959142386913300E-001;3.824123740196228E-002;3.393846331164241E-003;1.236129202879965E-003;
2.407666666666667E+009;1.958173364400864E-001;3.809290006756783E-002;3.630420891568065E-003;1.025473582558334E-003;
2.407833333333334E+009;1.952911466360092E-001;3.789403662085533E-002;3.797684563323855E-003;8.061233675107360E-004;
2.408000000000000E+009;1.952120810747147E-001;3.762052580714226E-002;3.819814417511225E-003;5.310935084708035E-004;
2.408166666666667E+009;1.945935934782028E-001;3.753485158085823E-002;3.802535822615027E-003;4.680707643274218E-004;
2.408333333333334E+009;1.941704899072647E-001;3.681319579482079E-002;3.875137539580464E-003;1.319468196925300E-007;
2.408500000000000E+009;1.936499625444412E-001;3.636033087968826E-002;4.009944386780262E-003;-3.083685878664255E-004;
2.408666666666667E+009;1.929228603839874E-001;3.576489537954330E-002;3.991525154560804E-003;-5.627439823001623E-004;
2.408833333333334E+009;1.919203102588654E-001;3.486445546150208E-002;3.858514362946153E-003;-8.094517397694290E-004;
2.409000000000000E+009;1.912743747234345E-001;3.401039168238640E-002;3.860719967633486E-003;-1.123331720009446E-003;
2.409166666666667E+009;1.902716606855393E-001;3.294852748513222E-002;3.815581789240241E-003;-1.487292232923210E-003;
2.409333333333334E+009;1.895214170217514E-001;3.192794322967529E-002;3.545338753610849E-003;-1.630960498005152E-003;
2.409500000000000E+009;1.884058266878128E-001;3.058932907879353E-002;3.399718087166548E-003;-1.797262928448618E-003;
2.409666666666667E+009;1.872460395097733E-001;2.925208956003189E-002;3.296629758551717E-003;-2.050431445240974E-003;
2.409833333333334E+009;1.863510459661484E-001;2.772896923124790E-002;3.171361051499844E-003;-2.259727334603667E-003;
2.410000000000000E+009;1.854805052280426E-001;2.597946114838123E-002;2.904630266129971E-003;-2.430276479572058E-003;
2.410166666666667E+009;1.843356043100357E-001;2.403676137328148E-002;2.650351729243994E-003;-2.357171382755041E-003;
2.410333333333334E+009;1.835268884897232E-001;2.242225036025047E-002;2.472451189532876E-003;-2.557657426223159E-003;
2.410500000000000E+009;1.824293583631516E-001;2.039312385022640E-002;2.220916328951716E-003;-2.735311863943934E-003;
2.410666666666667E+009;1.815595924854279E-001;1.800648868083954E-002;2.065898152068257E-003;-2.687688218429685E-003;
2.410833333333334E+009;1.811316460371018E-001;1.585306972265244E-002;1.850088709034026E-003;-2.915984950959683E-003;
2.411000000000000E+009;1.802771687507629E-001;1.369121670722961E-002;1.851927372626960E-003;-2.925599226728082E-003;
2.411166666666667E+009;1.795542836189270E-001;1.152069121599197E-002;1.521056052297354E-003;-3.021591110154986E-003;
2.411333333333334E+009;1.790484040975571E-001;8.950865827500820E-003;1.508431043475866E-003;-3.049758262932301E-003;
2.411500000000000E+009;1.785950362682343E-001;6.618176586925983E-003;1.233882037922740E-003;-3.076876047998667E-003;
2.411666666666667E+009;1.786472201347351E-001;4.239922389388084E-003;1.023090095259249E-003;-3.164554014801979E-003;
2.411833333333334E+009;1.783366352319717E-001;1.892175059765577E-003;7.371490937657654E-004;-3.106095828115940E-003;
2.412000000000000E+009;1.785200089216232E-001;-5.788924754597247E-004;6.107819499447942E-004;-3.138926578685641E-003;
2.412166666666667E+009;1.785313189029694E-001;-2.810568781569600E-003;2.266529627377167E-004;-3.179802093654871E-003;
2.412333333333334E+009;1.786023974418640E-001;-5.404590163379908E-003;1.365776988677681E-004;-3.139644395560026E-003;
2.412500000000000E+009;1.792463213205338E-001;-7.878017611801624E-003;-4.366276334621944E-005;-3.122674068436027E-003;
2.412666666666667E+009;1.796355843544006E-001;-1.025290600955486E-002;-2.401986275799573E-004;-3.125140909105539E-003;
2.412833333333334E+009;1.804034560918808E-001;-1.281033083796501E-002;-5.055467481724918E-004;-2.886890666559339E-003;
2.413000000000000E+009;1.810381561517716E-001;-1.488359738141298E-002;-8.548580808565021E-004;-2.959629753604531E-003;
2.413166666666667E+009;1.818356513977051E-001;-1.712056249380112E-002;-8.976149838417769E-004;-2.807188546285033E-003;
2.413333333333334E+009;1.829028129577637E-001;-1.936664991080761E-002;-1.222900580614805E-003;-2.475432585924864E-003;
2.413500000000000E+009;1.837545186281204E-001;-2.153628878295422E-002;-1.408729469403625E-003;-2.307401970028877E-003;
2.413666666666667E+009;1.849875152111054E-001;-2.366930991411209E-002;-1.627053483389318E-003;-1.952792983502150E-003;
2.413833333333334E+009;1.861931085586548E-001;-2.550189197063446E-002;-1.683366484940052E-003;-1.832777634263039E-003;
2.414000000000000E+009;1.871645301580429E-001;-2.752826549112797E-002;-1.793735078535974E-003;-1.481948536820710E-003;
2.414166666666667E+009;1.884604394435883E-001;-2.916072867810726E-002;-1.873996225185692E-003;-1.076311222277582E-003;
2.414333333333334E+009;1.894779354333878E-001;-3.121421299874783E-002;-1.909603015519679E-003;-8.647412760183215E-004;
2.414500000000000E+009;1.907975077629089E-001;-3.245663642883301E-002;-1.708061899989843E-003;-7.823030464351177E-004;
2.414666666666667E+009;1.919486075639725E-001;-3.396656736731529E-002;-1.582844881340861E-003;-4.975186311639845E-004;
2.414833333333334E+009;1.930409222841263E-001;-3.539298847317696E-002;-1.459207269363105E-003;-2.524638548493385E-004;
2.415000000000000E+009;1.940553039312363E-001;-3.657967969775200E-002;-1.308134756982327E-003;-1.211169510497712E-004;
2.415166666666667E+009;1.953729540109634E-001;-3.762993216514587E-002;-1.233852817676961E-003;9.615503950044513E-005;
2.415333333333334E+009;1.963528990745544E-001;-3.857672959566116E-002;-9.345893049612641E-004;2.130173816112801E-004;
2.415500000000000E+009;1.975969970226288E-001;-3.921334445476532E-002;-9.016943513415754E-004;2.195505221607164E-004;
2.415666666666667E+009;1.984927207231522E-001;-4.000691324472427E-002;-9.049106738530099E-004;3.576707676984370E-004;
2.415833333333334E+009;1.993025541305542E-001;-4.065493866801262E-002;-6.852454389445484E-004;3.967734810430557E-004;
2.416000000000000E+009;2.000786215066910E-001;-4.125782102346420E-002;-6.517848232761025E-004;6.738303927704692E-004;
2.416166666666667E+009;2.008635699748993E-001;-4.174751043319702E-002;-4.037769394926727E-004;6.422842852771282E-004;
2.416333333333334E+009;2.012938559055328E-001;-4.189609363675118E-002;-3.195023455191404E-004;4.789212835021317E-004;
2.416500000000000E+009;2.018645107746124E-001;-4.225145280361176E-002;-4.572612306219526E-005;6.432153168134391E-004;
2.416666666666667E+009;2.020941376686096E-001;-4.266776517033577E-002;-1.122162302635843E-005;6.586660165339708E-004;
2.416833333333334E+009;2.022972404956818E-001;-4.254637658596039E-002;2.655302523635328E-004;5.314958398230374E-004;
2.417000000000000E+009;2.023457586765289E-001;-4.276999458670616E-002;3.945515491068363E-004;6.404440500773490E-004;
2.417166666666667E+009;2.019287943840027E-001;-4.268281906843185E-002;7.042581564746797E-004;6.270078592933714E-004;
2.417333333333334E+009;2.018415927886963E-001;-4.247435927391052E-002;8.933946373872459E-004;4.412509733811021E-004;
2.417500000000000E+009;2.014476358890533E-001;-4.248505085706711E-002;9.644410456530750E-004;3.085863136220723E-004;
2.417666666666667E+009;2.008289694786072E-001;-4.238523915410042E-002;1.160357613116503E-003;1.164291243185289E-004;
2.417833333333334E+009;2.004129737615585E-001;-4.214761406183243E-002;1.198103069327772E-003;-1.326847559539601E-004;
2.418000000000000E+009;1.997258812189102E-001;-4.200696945190430E-002;1.266747014597058E-003;-1.391780970152468E-004;
2.418166666666667E+009;1.987498104572296E-001;-4.194928333163261E-002;1.489854184910655E-003;-4.035340389236808E-004;
2.418333333333334E+009;1.978483647108078E-001;-4.178030043840408E-002;1.614650595001876E-003;-6.730829481966794E-004;
2.418500000000000E+009;1.968596279621124E-001;-4.177465662360191E-002;1.552586210891604E-003;-8.035848150029779E-004;
2.418666666666667E+009;1.959599256515503E-001;-4.160072281956673E-002;1.676278305239976E-003;-1.077867578715086E-003;
2.418833333333334E+009;1.946151256561279E-001;-4.190922528505325E-002;1.581289689056575E-003;-1.285089878365398E-003;
2.419000000000000E+009;1.932652592658997E-001;-4.217353463172913E-002;1.485145185142756E-003;-1.465078676119447E-003;
2.419166666666667E+009;1.921697109937668E-001;-4.255661740899086E-002;1.373493229039013E-003;-1.623330754227936E-003;
2.419333333333334E+009;1.907157003879547E-001;-4.304535314440727E-002;1.205672509968281E-003;-1.841518795117736E-003;
2.419500000000000E+009;1.892274767160416E-001;-4.342848062515259E-002;1.089544850401580E-003;-2.050993731245399E-003;
2.419666666666667E+009;1.876218318939209E-001;-4.412921145558357E-002;9.567448869347572E-004;-2.169022103771567E-003;
2.419833333333334E+009;1.860749721527100E-001;-4.492095857858658E-002;8.413777686655521E-004;-2.106365980580449E-003;
2.420000000000000E+009;1.845195740461350E-001;-4.585344716906548E-002;6.881690351292491E-004;-2.218452282249928E-003;
2.420166666666667E+009;1.830214560031891E-001;-4.687521979212761E-002;5.624831537716091E-004;-2.313971752300859E-003;
2.420333333333334E+009;1.812839210033417E-001;-4.805428162217140E-002;2.780174545478076E-004;-2.401719801127911E-003;
2.420500000000000E+009;1.796415001153946E-001;-4.927813261747360E-002;1.192451163660735E-004;-2.458613598719239E-003;
2.420666666666667E+009;1.782162338495255E-001;-5.043666064739227E-002;5.253109702607617E-005;-2.499488880857825E-003;
2.420833333333334E+009;1.766211986541748E-001;-5.194913223385811E-002;-1.511398149887100E-004;-2.533591585233808E-003;
2.421000000000000E+009;1.750727891921997E-001;-5.352321267127991E-002;-2.859547967091203E-004;-2.530968282371759E-003;
2.421166666666667E+009;1.737749278545380E-001;-5.518274009227753E-002;-2.630432718433440E-004;-2.413483569398522E-003;
2.421333333333334E+009;1.721531301736832E-001;-5.668609216809273E-002;-4.952427698299289E-004;-2.489481121301651E-003;
2.421500000000000E+009;1.708807051181793E-001;-5.872004479169846E-002;-5.303992656990886E-004;-2.498849993571639E-003;
2.421666666666667E+009;1.698928773403168E-001;-6.049315631389618E-002;-8.456383948214352E-004;-2.470665378496051E-003;
2.421833333333334E+009;1.685712188482285E-001;-6.227855756878853E-002;-9.591905400156975E-004;-2.329805633053184E-003;
2.422000000000000E+009;1.676531881093979E-001;-6.411361694335938E-002;-1.116131548769772E-003;-2.291001379489899E-003;
2.422166666666667E+009;1.667295247316361E-001;-6.618404388427734E-002;-1.126227434724569E-003;-2.279122825711966E-003;
2.422333333333334E+009;1.657836586236954E-001;-6.821434199810028E-002;-1.379367196932435E-003;-2.309218281880021E-003;
2.422500000000000E+009;1.651097834110260E-001;-7.021731883287430E-002;-1.507185283116996E-003;-2.329136244952679E-003;
2.422666666666667E+009;1.644624024629593E-001;-7.218459248542786E-002;-1.442774664610624E-003;-2.151208929717541E-003;
2.422833333333334E+009;1.638974994421005E-001;-7.418008893728256E-002;-1.607060083188117E-003;-2.214461797848344E-003;
2.423000000000000E+009;1.634533554315567E-001;-7.634762674570084E-002;-1.865164609625936E-003;-2.202287316322327E-003;
2.423166666666667E+009;1.632295250892639E-001;-7.814302295446396E-002;-1.943017705343664E-003;-2.130240201950073E-003;
2.423333333333334E+009;1.628966629505158E-001;-7.991296052932739E-002;-2.086997264996171E-003;-1.931164064444602E-003;
2.423500000000000E+009;1.629428714513779E-001;-8.191332966089249E-002;-2.331952098757029E-003;-1.959314337000251E-003;
2.423666666666667E+009;1.629448086023331E-001;-8.368531614542007E-002;-2.363309497013688E-003;-1.853239838965237E-003;
2.423833333333334E+009;1.628732234239578E-001;-8.540352433919907E-002;-2.563905203714967E-003;-1.713387086056173E-003;
2.424000000000000E+009;1.629874706268311E-001;-8.699604868888855E-002;-2.762716263532639E-003;-1.455786521546543E-003;
2.424166666666667E+009;1.630633771419525E-001;-8.874859660863876E-002;-2.886542351916432E-003;-1.393377664498985E-003;
2.424333333333334E+009;1.633821874856949E-001;-8.997555077075958E-002;-2.961391117423773E-003;-1.077257911674678E-003;
2.424500000000000E+009;1.637091189622879E-001;-9.194538742303848E-002;-3.089591162279248E-003;-9.529028320685029E-004;
2.424666666666667E+009;1.640360802412033E-001;-9.310777485370636E-002;-2.835279563441873E-003;-7.747158524580300E-004;
2.424833333333334E+009;1.645320057868958E-001;-9.444089233875275E-002;-3.040881594642997E-003;-3.645701508503407E-004;
2.425000000000000E+009;1.648258715867996E-001;-9.555314481258392E-002;-2.951028291136026E-003;-2.881413092836738E-004;
2.425166666666667E+009;1.652396321296692E-001;-9.657691419124603E-002;-2.903106622397900E-003;7.850437395973131E-005;
2.425333333333334E+009;1.654438972473145E-001;-9.757998585700989E-002;-3.031483851373196E-003;3.195739700458944E-004;
2.425500000000000E+009;1.659734845161438E-001;-9.843678772449493E-002;-2.837968058884144E-003;5.148696363903582E-004;
2.425666666666667E+009;1.664703786373138E-001;-9.908573329448700E-002;-2.653999254107475E-003;5.561353173106909E-004;
2.425833333333334E+009;1.666447967290878E-001;-9.992724657058716E-002;-2.441112184897065E-003;7.353663677349687E-004;
2.426000000000000E+009;1.670011430978775E-001;-1.002540662884712E-001;-2.421885030344129E-003;8.377591730095446E-004;
2.426166666666667E+009;1.674038618803024E-001;-1.007897034287453E-001;-2.271466422826052E-003;9.011040092445910E-004;
2.426333333333334E+009;1.676725149154663E-001;-1.013412997126579E-001;-2.175385365262628E-003;1.043589669279754E-003;
2.426500000000000E+009;1.679196953773499E-001;-1.016398370265961E-001;-1.999401021748781E-003;9.087698999792337E-004;
2.426666666666667E+009;1.680844724178314E-001;-1.018432006239891E-001;-2.045228844508529E-003;1.095563173294067E-003;
2.426833333333334E+009;1.682662665843964E-001;-1.022391691803932E-001;-1.721999142318964E-003;1.223178347572684E-003;
2.427000000000000E+009;1.682558655738831E-001;-1.024563014507294E-001;-1.752773532643914E-003;1.004808931611478E-003;
2.427166666666667E+009;1.682781875133514E-001;-1.024112999439240E-001;-1.542470650747418E-003;1.060641370713711E-003;
2.427333333333334E+009;1.681320518255234E-001;-1.027357727289200E-001;-1.572483801282942E-003;1.239482196979225E-003;
2.427500000000000E+009;1.678290814161301E-001;-1.028632968664169E-001;-1.555851544253528E-003;1.083332928828895E-003;
2.427666666666667E+009;1.674866229295731E-001;-1.029446870088577E-001;-1.451415591873229E-003;1.195450779050589E-003;
