# Hz S RI R 50
2400000000.0000000000 0.157314583659172113616619981258 0.062998965382575988769531250000 -0.001495677395723759911180805737 -0.003113708458840847015380859375 0 0 0 0 
2400166666.6666665077 0.157504528760910006424111884371 0.061284102499485022808034528907 -0.001535382936708628914476704175 -0.003027711296454071998596191406 0 0 0 0 
2400333333.3333334923 0.157165989279747009277343750000 0.059503801167011260986328125000 -0.001533176633529365062713623047 -0.003026075195521115823032998193 0 0 0 0 
2400500000.0000000000 0.157225593924522399902343750000 0.057593774050474166870117187500 -0.001578191993758081956150673975 -0.002970468020066618919372558594 0 0 0 0 
2400666666.6666665077 0.157167822122573908050213731258 0.055481947958469390869140625000 -0.001814058399759232997894287109 -0.002908753463998436927795410156 0 0 0 0 
2400833333.3333334923 0.157468274235725402832031250000 0.053476948291063308715820312500 -0.001841522403992712931392050635 -0.002802171511575580076930380713 0 0 0 0 
2401000000.0000000000 0.157411769032478304763955634371 0.051320776343345642089843750000 -0.001848704065196216106414794922 -0.002841757377609610991237021338 0 0 0 0 
2401166666.6666665077 0.157564088702201787750567518742 0.049076937139034271240234375000 -0.002060772152617574171779013525 -0.002590773627161980108973837744 0 0 0 0 
2401333333.3333334923 0.157692000269889803787393134371 0.046887107193470001220703125000 -0.002124718157574533982517861475 -0.002576564904302359061000204932 0 0 0 0 
2401500000.0000000000 0.158329293131828308105468750000 0.044918764382600777362863908593 -0.002269146265462040901184082031 -0.002477846341207623915431357275 0 0 0 0 
2401666666.6666665077 0.158559039235115106780682481258 0.042857553809881210327148437500 -0.002242532791569828987121582031 -0.002443368546664714813232421875 0 0 0 0 
2401833333.3333334923 0.158935785293579101562500000000 0.040755368769168846820871721093 -0.002334610791876912117004394531 -0.002347354311496018929722451318 0 0 0 0 
2402000000.0000000000 0.159403786063194302657919365629 0.038804832845926291728932966407 -0.002414973918348550796508789062 -0.002103499136865139007568359375 0 0 0 0 
2402166666.6666665077 0.159826561808586092849893134371 0.036714430898427963256835937500 -0.002515563741326332092285156250 -0.002111950889229774908778525244 0 0 0 0 
2402333333.3333334923 0.160645917057991000076455634371 0.034987494349479682231862653907 -0.002368524903431535200831747900 -0.002108030486851931051967001807 0 0 0 0 
2402500000.0000000000 0.161412283778190612792968750000 0.033078663051128387451171875000 -0.002556353807449340820312500000 -0.002137582749128342108485556494 0 0 0 0 
2402666666.6666665077 0.162137910723686190506143134371 0.031341869384050369262695312500 -0.002616827841848134994506835938 -0.001895479275844990990282368237 0 0 0 0 
2402833333.3333334923 0.162804350256919888595419365629 0.029556345194578170776367187500 -0.002500442089512943787815713037 -0.001629960839636624076245952075 0 0 0 0 
2403000000.0000000000 0.163725569844245910644531250000 0.027785224840044978750208670704 -0.002633116208016871972324990381 -0.001501366263255476951599121094 0 0 0 0 
2403166666.6666665077 0.164585009217262295821981865629 0.026308128610253330575963204296 -0.002691210014745593070983886719 -0.001436994760297239043592143481 0 0 0 0 
2403333333.3333334923 0.165550008416175786774005018742 0.024910561740398410451868826954 -0.002652586437761784033534384619 -0.001381842186674476103541708838 0 0 0 0 
2403500000.0000000000 0.166537150740623501876669365629 0.023570265620946880685826485546 -0.002690125722438097000122070312 -0.001372732105664909102796245044 0 0 0 0 
2403666666.6666665077 0.167503282427787808517294365629 0.022023426368832591665247733204 -0.002744362456724048094508505713 -0.001171671436168252988102578271 0 0 0 0 
2403833333.3333334923 0.168558225035667391678018134371 0.020706232637166980398157889454 -0.002804563846439123153686523438 -0.001113090198487042947056435693 0 0 0 0 
2404000000.0000000000 0.169505596160888699630575615629 0.019744506105780601501464843750 -0.002530251629650592803955078125 -0.001149761956185102896449423682 0 0 0 0 
2404166666.6666665077 0.170514002442359896560830634371 0.018457898870110508310338204296 -0.002820747438818215890171670068 -0.000887613219674676656723022461 0 0 0 0 
2404333333.3333334923 0.171442508697509793380575615629 0.017597010359168049203892891796 -0.002745721256360412077662802588 -0.000987489824183285236358642578 0 0 0 0 
2404500000.0000000000 0.172416359186172513107138115629 0.016638146713376048696497733204 -0.002675227122381329970118857275 -0.000883666623849421739578247070 0 0 0 0 
2404666666.6666665077 0.173495680093765286544638115629 0.015791647136211398733118826954 -0.002623150125145912170410156250 -0.000633175426628440618515014648 0 0 0 0 
2404833333.3333334923 0.174194529652595492263955634371 0.015144770964980130631416521680 -0.002804609481245278878452920068 -0.000560052983928471803665161133 0 0 0 0 
2405000000.0000000000 0.175092235207557705978231865629 0.014251298271119599778145037305 -0.002735772635787725014927529443 -0.000661859812680631875991821289 0 0 0 0 
2405166666.6666665077 0.175994008779525812347088731258 0.013782706111669540405273437500 -0.002794592874124646186828613281 -0.000459358619991689920425415039 0 0 0 0 
2405333333.3333334923 0.176874116063118008712606865629 0.013024800457060340536097342579 -0.002747631166130303902866982568 -0.000385457475204020684391575946 0 0 0 0 
2405500000.0000000000 0.177643492817878695388955634371 0.012820861302316190546979335352 -0.002755081979557871818542480469 -0.000243415488512255305617731915 0 0 0 0 
2405666666.6666665077 0.178148135542869595626669365629 0.012421494349837299692174141796 -0.002880252664908767180201865088 -0.000235673534916713806703844614 0 0 0 0 
2405833333.3333334923 0.178786128759384210784588731258 0.012119127437472339975377266796 -0.002842091256752610206604003906 0.000038454716559499502182006836 0 0 0 0 
2406000000.0000000000 0.179322674870491000076455634371 0.011686922051012519491175467579 -0.002846638206392527060267783057 -0.000202140945475548505783081055 0 0 0 0 
2406166666.6666665077 0.179588705301284790039062500000 0.011442445218563079833984375000 -0.002919625723734498023986816406 -0.000110636879981029805824002676 0 0 0 0 
2406333333.3333334923 0.180133745074272211272869981258 0.011278048157691960770576677930 -0.002728598192334175109863281250 -0.000048214875278063118457794189 0 0 0 0 
2406500000.0000000000 0.180314168334007290939169365629 0.010900570079684259242047694727 -0.002862012246623634858372353662 0.000204970230697654187679290771 0 0 0 0 
2406666666.6666665077 0.180525720119476290603799384371 0.010607792064547540492047694727 -0.002867616945877670808079384912 0.000288170063868165016174316406 0 0 0 0 
2406833333.3333334923 0.180724501609802301604901231258 0.010357261635363100224505039648 -0.002796095097437500953674316406 0.000159188595716841491773882455 0 0 0 0 
2407000000.0000000000 0.180779397487640408614950615629 0.010050518438220020639439766796 -0.002902419771999121145961142432 0.000382839207304641604423522949 0 0 0 0 
2407166666.6666665077 0.180805802345275906661825615629 0.009792550466954708099365234375 -0.002664260799065231843235634912 0.000477304565720260089069920673 0 0 0 0 
2407333333.3333334923 0.180608198046684292892294365629 0.009346487000584602355957031250 -0.002764689503237605094909667969 0.000563872687052935361862182617 0 0 0 0 
2407500000.0000000000 0.180420503020286587814169365629 0.008972816169261932373046875000 -0.002672374015673995018005371094 0.000756790279410779476165771484 0 0 0 0 
2407666666.6666665077 0.180249243974685696700888115629 0.008635797537863254547119140625 -0.002680188743397593931910849463 0.000848248426336795091629028320 0 0 0 0 
2407833333.3333334923 0.179662808775901794433593750000 0.007987054064869880676269531250 -0.002593790180981159210205078125 0.000805280462373048067092895508 0 0 0 0 
2408000000.0000000000 0.179353445768356295486611884371 0.007407752331346273422241210938 -0.002532358514145017103907919775 0.000902199652045965194702148438 0 0 0 0 
2408166666.6666665077 0.178997918963432312011718750000 0.006929727736860513687133789062 -0.002683708444237709045410156250 0.000799795554485172033309936523 0 0 0 0 
2408333333.3333334923 0.178607717156410189529580634371 0.006128203123807907104492187500 -0.002417520387098193168640136719 0.001104454859159887053846049731 0 0 0 0 
2408500000.0000000000 0.177817270159721402267294365629 0.005290075670927762985229492188 -0.002572806784883141951320029150 0.001157984137535094998003315503 0 0 0 0 
2408666666.6666665077 0.177212044596672113616619981258 0.004315154161304236325735761426 -0.002365183783695102171656943213 0.001256453804671763940098427881 0 0 0 0 
2408833333.3333334923 0.176362350583076504806356865629 0.003387140575796366171595908057 -0.002261600689962505860569619287 0.001152681303210556940791464697 0 0 0 0 
2409000000.0000000000 0.175771415233612088302450615629 0.002313726348802446885349892725 -0.002242562593892217116114951025 0.001301757758483291105983115088 0 0 0 0 
2409166666.6666665077 0.175133883953094510177450615629 0.001176395686343312046648335034 -0.002087235217913984818699502100 0.001390778343193233013153076172 0 0 0 0 
2409333333.3333334923 0.174570590257644708831463731258 -0.000073647694080136716365814209 -0.002233130391687155203578329932 0.001477540587075055079219199072 0 0 0 0 
2409500000.0000000000 0.173749461770057705978231865629 -0.001602686010301112911821674878 -0.002011525910347700119018554688 0.001638732384890317916870117188 0 0 0 0 
2409666666.6666665077 0.172907575964927701095419365629 -0.002771659288555384115931845557 -0.001901613315567374012590717847 0.001594914821907877922058105469 0 0 0 0 
2409833333.3333334923 0.172266885638236999511718750000 -0.004275911021977663040161132812 -0.001911261817440391020533896338 0.001600702293217181942583393628 0 0 0 0 
2410000000.0000000000 0.171727150678634588043536268742 -0.005774527322500944137573242188 -0.001967639662325381798985146631 0.001612543477676809050916362231 0 0 0 0 
2410166666.6666665077 0.171156585216522189041299384371 -0.007381975185126066207885742188 -0.001750272465869783921482705225 0.001620983821339905045152973706 0 0 0 0 
2410333333.3333334923 0.170359984040260287185830634371 -0.009075419045984745025634765625 -0.001736916019581258080126118237 0.001670779427513479969621967847 0 0 0 0 
2410500000.0000000000 0.169840082526206997970419365629 -0.010829200036823749542236328125 -0.001659435685724020004272460938 0.001701131463050842068315815503 0 0 0 0 
2410666666.6666665077 0.169471099972724886795205634371 -0.012857660651206970214843750000 -0.001593922381289303085924458081 0.001752506941556930975673056494 0 0 0 0 
2410833333.3333334923 0.169050842523574801345986884371 -0.014509774744510650634765625000 -0.001732580945827066898345947266 0.001751338015310466072679829175 0 0 0 0 
2411000000.0000000000 0.168525964021682711502236884371 -0.016377652063965800893763358204 -0.001364660449326037926914834131 0.001598992384970187924028706128 0 0 0 0 
2411166666.6666665077 0.168232753872871398925781250000 -0.018301056697964668273925781250 -0.001314643537625669999363564600 0.001466772635467350916621542822 0 0 0 0 
2411333333.3333334923 0.168036058545112609863281250000 -0.020287187770009040832519531250 -0.001434367964975536086438823169 0.001680893241427839019178080981 0 0 0 0 
2411500000.0000000000 0.167709574103355407714843750000 -0.022173697128891948354700858204 -0.001411731587722897963282919775 0.001577599789015948989270854419 0 0 0 0 
2411666666.6666665077 0.167818456888198908050213731258 -0.024286964908242229116419608204 -0.001373103703372180895564413916 0.001684981863945723013636923682 0 0 0 0 
2411833333.3333334923 0.167598515748977688888388115629 -0.026143256574869159353236014454 -0.001185886445455252907396626050 0.001585817779414355971692729419 0 0 0 0 
2412000000.0000000000 0.167827636003494290450888115629 -0.028251240029931068420410156250 -0.001220223028212785937665629810 0.001651433645747601985931396484 0 0 0 0 
2412166666.6666665077 0.167895466089248712737713731258 -0.030332516878843310964564139454 -0.001172640244476496956468891675 0.001557893701829015991808247144 0 0 0 0 
2412333333.3333334923 0.168248265981674194335937500000 -0.031988158822059631347656250000 -0.001074882806278764984728169019 0.001650901045650243975995707935 0 0 0 0 
2412500000.0000000000 0.168221503496169988434161268742 -0.033906441181898117065429687500 -0.001292195520363748073577880859 0.001506961532868444919586181641 0 0 0 0 
2412666666.6666665077 0.168790146708488492111044365629 -0.036043755710124969482421875000 -0.001078415545634924931767129053 0.001740787294693290970445942456 0 0 0 0 
2412833333.3333334923 0.169208794832229586502236884371 -0.037588883191347122192382812500 -0.001340015907771884961369179834 0.001781749306246638081194233472 0 0 0 0 
2413000000.0000000000 0.169608354568481500823651231258 -0.039515946060419082641601562500 -0.001281534903682767911198281396 0.001653237384743988947627402197 0 0 0 0 
2413166666.6666665077 0.170046001672744806487713731258 -0.041235186159610748291015625000 -0.001146149472333491065381694263 0.001708426163531840064405131763 0 0 0 0 
2413333333.3333334923 0.170488476753234891036825615629 -0.042865235358476638793945312500 -0.001281052478589117960688925635 0.001707405433990061066271137769 0 0 0 0 
2413500000.0000000000 0.171130374073982211013955634371 -0.044704601168632507324218750000 -0.001244714250788093046901083838 0.001796047086827456951141357422 0 0 0 0 
2413666666.6666665077 0.171725481748580904861611884371 -0.046283777803182601928710937500 -0.001313272747211158058763813550 0.001930726226419210000279091943 0 0 0 0 
2413833333.3333334923 0.172067597508430508712606865629 -0.047597084194421768188476562500 -0.001018720213323831991908408057 0.001977351494133472008946084131 0 0 0 0 
2414000000.0000000000 0.172788992524147005935830634371 -0.049176722764968872070312500000 -0.001080330461263657049891806494 0.001805372536182403998133993994 0 0 0 0 
2414166666.6666665077 0.173566102981567410568075615629 -0.050257168710231781005859375000 -0.001064946874976157925249409253 0.001982835819944738908054970850 0 0 0 0 
2414333333.3333334923 0.173982977867126492599325615629 -0.051621157675981521606445312500 -0.001142552355304359956028603662 0.001883402816019952080370258862 0 0 0 0 
2414500000.0000000000 0.174799919128417996505575615629 -0.052649103105068206787109375000 -0.000741627824027091264724731445 0.002063536085188388824462890625 0 0 0 0 
2414666666.6666665077 0.175209477543830899337606865629 -0.053723715245723717426340471093 -0.000915571290533989667892456055 0.002045943867415190176722861182 0 0 0 0 
2414833333.3333334923 0.175707116723060607910156250000 -0.054742399603128433227539062500 -0.000816999177914112806320190430 0.002274168888106942176818847656 0 0 0 0 
2415000000.0000000000 0.176160752773284912109375000000 -0.055549155920743942260742187500 -0.000733794586267322301864624023 0.002184040145948528809788369287 0 0 0 0 
2415166666.6666665077 0.176585644483566311935263115629 -0.056271504610776901245117187500 -0.000748948194086551666259765625 0.002228442812338470978977822412 0 0 0 0 
2415333333.3333334923 0.177121892571449307540731865629 -0.057002019137144088745117187500 -0.000703963625710457563400268555 0.002471308922395110130310058594 0 0 0 0 
2415500000.0000000000 0.177410110831260708907919365629 -0.057453773915767669677734375000 -0.000714830239303410053253173828 0.002392505295574665069580078125 0 0 0 0 
2415666666.6666665077 0.177754655480384798904580634371 -0.058050498366355902934987653907 -0.000734804547391831874847412109 0.002492123516276479201075888525 0 0 0 0 
2415833333.3333334923 0.177968710660934503753338731258 -0.058522060513496398925781250000 -0.000601119652856141328811645508 0.002673071576282382011413574219 0 0 0 0 
2416000000.0000000000 0.177995681762695312500000000000 -0.058913111686706542968750000000 -0.000443440803792327588230687274 0.002529548946768044991734170068 0 0 0 0 
2416166666.6666665077 0.178199648857116699218750000000 -0.059222117066383361816406250000 -0.000499240006320178508758544922 0.002598263323307036919834756006 0 0 0 0 
2416333333.3333334923 0.178233847022056607345419365629 -0.059455167502164840698242187500 -0.000308907154249027425616663800 0.002636125078424810929539345850 0 0 0 0 
2416500000.0000000000 0.178122341632842989822549384371 -0.059837516397237777709960937500 -0.000297601305646821910708826886 0.002692439360544085936305380713 0 0 0 0 
2416666666.6666665077 0.177839919924735995193643134371 -0.060053400695323937152902971093 -0.000175168883288279202863416129 0.002744776196777821020839072119 0 0 0 0 
2416833333.3333334923 0.177651315927505493164062500000 -0.060344140976667397235910783593 0.000009946244063030462712049484 0.002835928695276380018946982275 0 0 0 0 
2417000000.0000000000 0.177181884646415710449218750000 -0.060569602996110923076589216407 0.000064707688579801470041275024 0.002879281295463442802429199219 0 0 0 0 
2417166666.6666665077 0.176642656326294000823651231258 -0.060647826641798019409179687500 0.000149276369484141496106824332 0.002871119184419513182399130713 0 0 0 0 
2417333333.3333334923 0.176276147365570096114950615629 -0.060769584029912948608398437500 0.000194564578123390701696118765 0.002830813638865948157069540869 0 0 0 0 
2417500000.0000000000 0.175481259822845486739950615629 -0.061102896928787231445312500000 0.000355358584783971309661865234 0.003033764660358428955078125000 0 0 0 0 
2417666666.6666665077 0.174893617630004910568075615629 -0.061147261410951607440988908593 0.000494950916618108749389648438 0.002937807235866785049438476562 0 0 0 0 
2417833333.3333334923 0.173980772495269803146200615629 -0.061405297368764877319335937500 0.000515810563229024410247802734 0.002726940903812646865844726562 0 0 0 0 
2418000000.0000000000 0.173077434301376287262286268742 -0.061861187219619750976562500000 0.000659216311760246753692626953 0.002823047339916228814366006006 0 0 0 0 
2418166666.6666665077 0.172098323702812194824218750000 -0.061989981681108481670339216407 0.000883872911799699068069458008 0.002982361940667033195495605469 0 0 0 0 
2418333333.3333334923 0.171359121799468994140625000000 -0.062477607280015952373464216407 0.000710694584995508193969726562 0.002814512467011808915379189600 0 0 0 0 
2418500000.0000000000 0.170101225376129205901776231258 -0.062870636582374572753906250000 0.001046479679644108035443950122 0.002893144497647881941554404150 0 0 0 0 
2418666666.6666665077 0.169013649225235013107138115629 -0.063396111130714416503906250000 0.001025501172989607074140239185 0.002730291569605470137355185400 0 0 0 0 
2418833333.3333334923 0.167728692293167086502236884371 -0.063824333250522613525390625000 0.001171510317362844944000244141 0.002751866588369011878967285156 0 0 0 0 
2419000000.0000000000 0.166330426931381197830361884371 -0.064509436488151550292968750000 0.001349171623587607903721474756 0.002708429004997014999389648438 0 0 0 0 
2419166666.6666665077 0.165340155363082913497763115629 -0.065243728458881378173828125000 0.001378727145493030981776572119 0.002765279030427337126490927588 0 0 0 0 
2419333333.3333334923 0.163980871438980102539062500000 -0.065704725682735443115234375000 0.001664967858232557990430522388 0.002672116970643401145935058594 0 0 0 0 
2419500000.0000000000 0.162947058677673312088174384371 -0.066734679043292999267578125000 0.001591352163814008019090961987 0.002618423895910381837132119287 0 0 0 0 
2419666666.6666665077 0.161844402551651000976562500000 -0.067760758101940155029296875000 0.001686186413280666091321635669 0.002604699926450849013087607275 0 0 0 0 
2419833333.3333334923 0.160387367010116604904013115629 -0.068567335605621337890625000000 0.001705763512291013977648090894 0.002469975734129548072814941406 0 0 0 0 
