# Hz S RI R 50
2400000000.0000000000 0.160488590598106412032919365629 0.057054743170738220214843750000 0.003207466332241892814636230469 -0.002202454255893826918361044775 0 0 0 0 
2400166666.6666665077 0.160448327660560607910156250000 0.055459287017583847045898437500 0.003159864339977502822875976562 -0.002218165667727590040919638525 0 0 0 0 
2400333333.3333334923 0.160609379410743713378906250000 0.053690515458583831787109375000 0.003102040849626063866856240381 -0.002146684098988771004917763818 0 0 0 0 
2400500000.0000000000 0.160774737596511813064736884371 0.051893632858991622924804687500 0.003165333531796931786778115381 -0.002339655533432960943934775244 0 0 0 0 
2400666666.6666665077 0.160911351442337008377236884371 0.050037633627653121948242187500 0.003112613456323742866516113281 -0.002191101433709263801574707031 0 0 0 0 
2400833333.3333334923 0.160985842347145108321981865629 0.048273745924234390258789062500 0.003001182107254862785339355469 -0.002350921975448728041407919775 0 0 0 0 
2401000000.0000000000 0.161342993378639193435830634371 0.046407073736190802837331403907 0.002929565729573369026184082031 -0.002345312619581819014308310400 0 0 0 0 
2401166666.6666665077 0.161530926823616000076455634371 0.044461909681558609008789062500 0.003169865347445011138916015625 -0.002381607424467802047729492188 0 0 0 0 
2401333333.3333334923 0.161882162094116210937500000000 0.042600434273481369018554687500 0.003126991912722588019130087744 -0.002523656236007810072657919775 0 0 0 0 
2401500000.0000000000 0.162378251552581787109375000000 0.040712732821702957153320312500 0.003133568214252591133117675781 -0.002476722234860063032862997900 0 0 0 0 
2401666666.6666665077 0.162562400102615411956463731258 0.039138633757829673076589216407 0.003176828846335411071777343750 -0.002354155061766504807713173975 0 0 0 0 
2401833333.3333334923 0.162985041737556513030682481258 0.037132840603590011596679687500 0.003083934541791677908656454932 -0.002687046071514486832859658350 0 0 0 0 
2402000000.0000000000 0.163252964615821810623330634371 0.035347919911146157001535783593 0.003076238324865698814392089844 -0.002656862372532486915588378906 0 0 0 0 
2402166666.6666665077 0.163747325539588900467080634371 0.033510401844978332519531250000 0.003271381370723247961757040869 -0.002744545461609960036036826025 0 0 0 0 
2402333333.3333334923 0.164293020963668795486611884371 0.031932398676872253417968750000 0.003257694421336054801940917969 -0.002751158317551016807556152344 0 0 0 0 
2402500000.0000000000 0.165299162268638610839843750000 0.030260203406214710580846016796 0.003294224618002771897556923975 -0.002857505343854426903965615381 0 0 0 0 
2402666666.6666665077 0.165776401758193997482138115629 0.028739150613546371459960937500 0.003281579818576573891880654443 -0.003061301773414016203639365088 0 0 0 0 
2402833333.3333334923 0.166292682290077209472656250000 0.027224106714129451406458670704 0.003272435395047069029567099463 -0.003134894184768199920654296875 0 0 0 0 
2403000000.0000000000 0.167050078511238098144531250000 0.025774974375963211059570312500 0.003338272450491786003112792969 -0.003217253368347882790806435693 0 0 0 0 
2403166666.6666665077 0.167789056897163391113281250000 0.024481574073433879507044608204 0.003253110684454441070556640625 -0.003408328164368867874145507812 0 0 0 0 
2403333333.3333334923 0.168539330363273592849893134371 0.023036010563373569143275076954 0.003241308033466339111328125000 -0.003636184381321073012111044775 0 0 0 0 
2403500000.0000000000 0.169277474284172113616619981258 0.021840788424015048635462576954 0.003420472610741854147670126807 -0.003722658148035407066345214844 0 0 0 0 
2403666666.6666665077 0.170048609375953702071981865629 0.020429739728569980966588204296 0.003183308523148297829868935693 -0.003903412492945789857151650537 0 0 0 0 
2403833333.3333334923 0.170820653438568087478799384371 0.019381966441869739187220389454 0.003052278188988565964939736475 -0.003910342697054147720336914062 0 0 0 0 
2404000000.0000000000 0.171567440032959012130575615629 0.018281836062669750558873360546 0.003022588556632399992701865088 -0.004124507308006286621093750000 0 0 0 0 
2404166666.6666665077 0.172337010502815302093182481258 0.017343349754810329782506173046 0.002938418416306376890895224463 -0.004456042777746915817260742188 0 0 0 0 
2404333333.3333334923 0.172887638211250305175781250000 0.016309216618537899362584298046 0.002956216456368565993068076025 -0.004655966535210608568673418262 0 0 0 0 
2404500000.0000000000 0.173600912094116210937500000000 0.015245013870298860722551914648 0.002595006022602320151088095557 -0.004808852449059486389160156250 0 0 0 0 
2404666666.6666665077 0.174254983663558987716513115629 0.014555192552506920206090157421 0.002494991989806294007542275537 -0.004915542434900999069213867188 0 0 0 0 
2404833333.3333334923 0.174965560436248807052450615629 0.013838264159858230245569998829 0.002338100224733353094813681494 -0.005204917397350072860717773438 0 0 0 0 
2405000000.0000000000 0.175572842359542902190838731258 0.013135555200278760737409022852 0.002281158231198788122889853369 -0.005297572817653417587280273438 0 0 0 0 
2405166666.6666665077 0.176115572452545193771200615629 0.012442026287317279470423514454 0.002171189989894628958461142432 -0.005481463391333817568307207324 0 0 0 0 
2405333333.3333334923 0.176623791456222506424111884371 0.011713985353708270681361014454 0.001919916248880326964734721606 -0.005660856142640113830566406250 0 0 0 0 
2405500000.0000000000 0.177082017064094487945880018742 0.011364870704710480081578438671 0.001704163849353790066362690503 -0.005722414702177047729492187500 0 0 0 0 
2405666666.6666665077 0.177517250180244501311932481258 0.010927599854767320805559727148 0.001604399178177118084551167065 -0.006028352305293083190917968750 0 0 0 0 
2405833333.3333334923 0.177742734551429804046307481258 0.010426243767142299306849295704 0.001243009697645903067347861182 -0.005981475580483675003051757812 0 0 0 0 
2406000000.0000000000 0.178158432245254488845986884371 0.009920890443027019500732421875 0.000957519921939820051193237305 -0.005982700269669294357299804688 0 0 0 0 
2406166666.6666665077 0.178294539451599093338174384371 0.009659104049205780029296875000 0.000966979074291884899139404297 -0.005993818864226341247558593750 0 0 0 0 
2406333333.3333334923 0.178599730134010287185830634371 0.009310518391430377960205078125 0.000579664425458759069442749023 -0.006049860734492540359497070312 0 0 0 0 
2406500000.0000000000 0.178660780191421508789062500000 0.008868085220456123352050781250 0.000388631451642140800326746808 -0.006094094831496477127075195312 0 0 0 0 
2406666666.6666665077 0.178573384881019592285156250000 0.008414831012487411499023437500 0.000059992806200170889496803284 -0.006342283915728330612182617188 0 0 0 0 
2406833333.3333334923 0.178701251745223999023437500000 0.007974430918693542480468750000 -0.000117658550152555094517846379 -0.006203347351402044296264648438 0 0 0 0 
2407000000.0000000000 0.178567603230476407150106865629 0.007612464483827353391165448926 -0.000292149983579292893409729004 -0.006169586908072233200073242188 0 0 0 0 
2407166666.6666665077 0.178497582674026489257812500000 0.007187798619270324707031250000 -0.000472728512249886989593505859 -0.006134326569736003875732421875 0 0 0 0 
2407333333.3333334923 0.178205162286758395095986884371 0.006517363712191581726074218750 -0.000640705460682511329650878906 -0.006190998479723930358886718750 0 0 0 0 
2407500000.0000000000 0.178153783082962008377236884371 0.005985416006296873092651367188 -0.001002894830890000083326030200 -0.006323677487671375274658203125 0 0 0 0 
2407666666.6666665077 0.177834719419479397872763115629 0.005500885657966136932373046875 -0.000985715771093964576721191406 -0.006009440403431653976440429688 0 0 0 0 
2407833333.3333334923 0.177252516150474603850994981258 0.004693455528467893600463867188 -0.001299915020354091904283833081 -0.006124140229076147079467773438 0 0 0 0 
2408000000.0000000000 0.176961734890937805175781250000 0.003906849306076765060424804688 -0.001610578852705657915828085791 -0.005971955135464668273925781250 0 0 0 0 
2408166666.6666665077 0.176482662558555603027343750000 0.003211982082575560049769736182 -0.001761760213412345106240297632 -0.005994625855237246427054120801 0 0 0 0 
2408333333.3333334923 0.176146090030670193771200615629 0.002358489902690052986145019531 -0.001961227506399155096766806494 -0.005932221189141274365896894238 0 0 0 0 
2408500000.0000000000 0.175620511174201993087606865629 0.001405151793733238957048725659 -0.002261933404952288107631064307 -0.005893508438020944595336914062 0 0 0 0 
2408666666.6666665077 0.174913361668586703201455634371 0.000276652892353013212054652081 -0.002213255502283573150634765625 -0.005773247219622135162353515625 0 0 0 0 
2408833333.3333334923 0.174332499504089410979901231258 -0.000799834378995001316070556641 -0.002617351710796356201171875000 -0.005605866666883230209350585938 0 0 0 0 
2409000000.0000000000 0.173687562346458407303018134371 -0.001895316410809754891636513818 -0.002784476848319172859191894531 -0.005609948653727769851684570312 0 0 0 0 
2409166666.6666665077 0.173234239220619201660156250000 -0.003100948408246039910557412256 -0.002866354538127779960632324219 -0.005459839943796396255493164062 0 0 0 0 
2409333333.3333334923 0.172637581825256403167401231258 -0.004515583626925945281982421875 -0.003143113339319825172424316406 -0.005279549397528172406668378613 0 0 0 0 
2409500000.0000000000 0.172105982899665804763955634371 -0.005896761082112789154052734375 -0.003139867447316647009608603369 -0.005186466034501791000366210938 0 0 0 0 
2409666666.6666665077 0.171361550688743591308593750000 -0.007431209087371826171875000000 -0.003279920667409896850585937500 -0.005108321551233530044555664062 0 0 0 0 
2409833333.3333334923 0.170885622501373291015625000000 -0.008734866976737976074218750000 -0.003487253794446587996241904150 -0.004951353184878826141357421875 0 0 0 0 
2410000000.0000000000 0.170405596494674710372763115629 -0.010212044231593610590924647852 -0.003455604193732142014744423975 -0.004857218824326992034912109375 0 0 0 0 
2410166666.6666665077 0.169869095087051391601562500000 -0.011909632943570610391637032421 -0.003672808175906538963317871094 -0.004758644383400678634643554688 0 0 0 0 
2410333333.3333334923 0.169399604201316805740518134371 -0.013563832268118860072125819727 -0.003687005955725907845738076318 -0.004470086656510829925537109375 0 0 0 0 
2410500000.0000000000 0.169168785214424105545205634371 -0.015373794361948970449427420704 -0.003897015936672687964198447119 -0.004405892454087734222412109375 0 0 0 0 
2410666666.6666665077 0.168596222996711703201455634371 -0.017369618639349940908411795704 -0.003929506056010723114013671875 -0.004313076380640268325805664062 0 0 0 0 
2410833333.3333334923 0.168483838438987704178018134371 -0.018894605338573459279993826954 -0.003936861641705036163330078125 -0.004212174098938704404349042676 0 0 0 0 
2411000000.0000000000 0.168007746338844299316406250000 -0.020832030102610591543177420704 -0.004046851303428412351126386426 -0.004126499872654675570016191699 0 0 0 0 
2411166666.6666665077 0.168077319860458401779013115629 -0.022728390991687781597097028907 -0.004125345498323441419119550488 -0.004129686392843723297119140625 0 0 0 0 
2411333333.3333334923 0.167815223336219787597656250000 -0.024593176320195201528528983204 -0.004296045284718275070190429688 -0.003860576311126350922825478662 0 0 0 0 
2411500000.0000000000 0.167537465691566495040731865629 -0.026507375761866569519042968750 -0.004383972380310297012329101562 -0.004030674230307340621948242188 0 0 0 0 
2411666666.6666665077 0.167672187089919988434161268742 -0.028324173763394359243372733204 -0.004486188292503356933593750000 -0.003869775449857116179225302588 0 0 0 0 
2411833333.3333334923 0.167852446436881991287393134371 -0.030224500223994258535364920704 -0.004499324597418308258056640625 -0.003622381249442697005030966650 0 0 0 0 
2412000000.0000000000 0.167913094162941006759481865629 -0.031948234885931021953542341407 -0.004654022864997386932373046875 -0.003703464753925799889805459131 0 0 0 0 
2412166666.6666665077 0.168055102229118402679119981258 -0.033914584666490561748464216407 -0.004643394146114587783813476562 -0.003582803299650549888610839844 0 0 0 0 
2412333333.3333334923 0.168236568570136996170205634371 -0.035644277930259711528737653907 -0.005017295945435762405395507812 -0.003520519472658634185791015625 0 0 0 0 
2412500000.0000000000 0.168337538838386507888955634371 -0.037437923252582550048828125000 -0.004949916619807481765747070312 -0.003495331387966870827915810693 0 0 0 0 
2412666666.6666665077 0.168954730033874511718750000000 -0.039436724036931991577148437500 -0.005065761972218751907348632812 -0.003286653896793723106384277344 0 0 0 0 
2412833333.3333334923 0.169288411736488286774005018742 -0.040953718125820159912109375000 -0.005233629606664180755615234375 -0.003245038678869605064392089844 0 0 0 0 
2413000000.0000000000 0.169676393270492609222088731258 -0.042647939175367362285573591407 -0.005344628356397151947021484375 -0.003229210851714015007019042969 0 0 0 0 
2413166666.6666665077 0.169886276125907897949218750000 -0.044305857270956039428710937500 -0.005694684106856585416311933301 -0.003119409084320067925694131006 0 0 0 0 
2413333333.3333334923 0.170453235507011413574218750000 -0.045927982777357101440429687500 -0.005749221425503492355346679688 -0.002893862547352910041809082031 0 0 0 0 
2413500000.0000000000 0.171012669801712008377236884371 -0.047321114689111709594726562500 -0.005935736000537872314453125000 -0.002877377672120929198024130713 0 0 0 0 
2413666666.6666665077 0.171631976962089510818643134371 -0.048826884478330612182617187500 -0.006055528763681650161743164062 -0.002598416293039917945861816406 0 0 0 0 
2413833333.3333334923 0.171974390745162991622763115629 -0.050126254558563232421875000000 -0.006426820065826177597045898438 -0.002399428049102426008937216650 0 0 0 0 
2414000000.0000000000 0.172290384769439697265625000000 -0.051367454230785369873046875000 -0.006389466114342212677001953125 -0.002180874114856123924255371094 0 0 0 0 
2414166666.6666665077 0.173031881451606805999432481258 -0.052486639469861977314035783593 -0.006696993485093116760253906250 -0.002147764200344682173487997900 0 0 0 0 
2414333333.3333334923 0.173494055867195101638955634371 -0.053608719259500496601145158593 -0.006787565536797046661376953125 -0.001831599278375505967381142725 0 0 0 0 
2414500000.0000000000 0.174146950244903592208700615629 -0.054608505219221122051198591407 -0.006845916621387004852294921875 -0.001605704426765441894531250000 0 0 0 0 
2414666666.6666665077 0.174496218562126187423544365629 -0.055433690547943122173268903907 -0.006835283711552619934082031250 -0.001282234792597592093824077075 0 0 0 0 
2414833333.3333334923 0.174905180931091308593750000000 -0.056393921375274658203125000000 -0.007165617309510707855224609375 -0.000917504541575908660888671875 0 0 0 0 
2415000000.0000000000 0.175287202000618008712606865629 -0.057020410895347602153737653907 -0.007261166349053382873535156250 -0.000744971621315926313400268555 0 0 0 0 
2415166666.6666665077 0.175570115447044400314169365629 -0.057687707245349877094309221093 -0.007371294777840375900268554688 -0.000568852468859404325485229492 0 0 0 0 
2415333333.3333334923 0.176039800047874506194744981258 -0.058478210121393196796457658593 -0.007258964702486991882324218750 -0.000150621737702749696656903677 0 0 0 0 
2415500000.0000000000 0.176191672682762201507244981258 -0.058924239128828048706054687500 -0.007280981633812189102172851562 0.000136891467263922095298767090 0 0 0 0 
2415666666.6666665077 0.176296368241310091873330634371 -0.059384714812040328979492187500 -0.007421869318932294845581054688 0.000441489682998508214950561523 0 0 0 0 
2415833333.3333334923 0.176624149084091186523437500000 -0.059828978031873703002929687500 -0.007495128549635410308837890625 0.000656661519315093755722045898 0 0 0 0 
2416000000.0000000000 0.176462262868881197830361884371 -0.060208365321159362792968750000 -0.007524560205638408660888671875 0.001024132943712174892425537109 0 0 0 0 
2416166666.6666665077 0.176720470190048190017861884371 -0.060549724847078323364257812500 -0.007384624797850847244262695312 0.001273175119422375939012836987 0 0 0 0 
2416333333.3333334923 0.176570594310760498046875000000 -0.060759227722883217548410783593 -0.007332428358495234575753496387 0.001672965590842067978502583081 0 0 0 0 
2416500000.0000000000 0.176410421729087801834268134371 -0.061105519533157348632812500000 -0.007233093958348035812377929688 0.001958539709448813958408974756 0 0 0 0 
2416666666.6666665077 0.176017060875892611404580634371 -0.061365790665149688720703125000 -0.007193584926426410675048828125 0.002268568612635136084315634619 0 0 0 0 
2416833333.3333334923 0.175829231739044189453125000000 -0.061622697860002517700195312500 -0.007218557875603437423706054688 0.002530315890908240838291787256 0 0 0 0 
2417000000.0000000000 0.175254851579666109939736884371 -0.061845246702432632446289062500 -0.006929539144039154052734375000 0.002770696999505161805393838037 0 0 0 0 
2417166666.6666665077 0.174731552600860595703125000000 -0.061947975307703018188476562500 -0.006774530280381441116333007812 0.003062036819756031036376953125 0 0 0 0 
2417333333.3333334923 0.174186810851097106933593750000 -0.062134545296430587768554687500 -0.006703442893922328948974609375 0.003427986754104495048522949219 0 0 0 0 
2417500000.0000000000 0.173469439148902893066406250000 -0.062510468065738677978515625000 -0.006555454805493354797363281250 0.003672938328236341910121298682 0 0 0 0 
2417666666.6666665077 0.172849506139755304534588731258 -0.062536783516407012939453125000 -0.006515544839203357696533203125 0.003845881437882781028747558594 0 0 0 0 
2417833333.3333334923 0.171992987394332913497763115629 -0.062841653823852539062500000000 -0.006294244434684514999389648438 0.004065659362822771072387695312 0 0 0 0 
2418000000.0000000000 0.170999363064765902420205634371 -0.063131473958492279052734375000 -0.005977916996926069259643554688 0.004361555445939301577096269824 0 0 0 0 
2418166666.6666665077 0.170060887932777404785156250000 -0.063430748879909515380859375000 -0.005836673546582460403442382812 0.004538811277598142623901367188 0 0 0 0 
2418333333.3333334923 0.169214248657226590255575615629 -0.063826590776443481445312500000 -0.005519132129848003387451171875 0.004737798590213060379028320312 0 0 0 0 
2418500000.0000000000 0.168152302503585787674111884371 -0.064388327300548553466796875000 -0.005418375600129365921020507812 0.004769628867506980895996093750 0 0 0 0 
2418666666.6666665077 0.167154386639595003982705634371 -0.064720824360847473144531250000 -0.005261689424514771375174237988 0.005040451418608427047729492188 0 0 0 0 
2418833333.3333334923 0.165769219398498507400674384371 -0.065515927970409393310546875000 -0.005137949250638484954833984375 0.005176322534680367383475019238 0 0 0 0 
2419000000.0000000000 0.164664626121520996093750000000 -0.066004849970340728759765625000 -0.004778828471899032592773437500 0.005347341299057006835937500000 0 0 0 0 
2419166666.6666665077 0.163602322340011596679687500000 -0.066743649542331695556640625000 -0.004765843041241168975830078125 0.005431521683931350708007812500 0 0 0 0 
2419333333.3333334923 0.162242665886878995040731865629 -0.067193172872066497802734375000 -0.004437518306076526641845703125 0.005528287962079048156738281250 0 0 0 0 
2419500000.0000000000 0.161162257194518987457598768742 -0.068319700658321380615234375000 -0.004317035432904958724975585938 0.005657096393406391143798828125 0 0 0 0 
2419666666.6666665077 0.159992054104804992675781250000 -0.069424904882907867431640625000 -0.003990861121565104398245527051 0.005852491594851016998291015625 0 0 0 0 
2419833333.3333334923 0.158737957477569607833700615629 -0.070094175636768341064453125000 -0.003812116337940096855163574219 0.005887567531317473325247480176 0 0 0 0 
