# Hz S RI R 50
2400000000.0000000000 0.155162379145622308929119981258 0.061812728643417358398437500000 -0.002480716444551945166346884619 0.000604031782131642103195190430 0 0 0 0 
2400166666.6666665077 0.155163258314132690429687500000 0.059869937598705291748046875000 -0.002459937473759055137634277344 0.000753230415284633636474609375 0 0 0 0 
2400333333.3333334923 0.155153259634971590896768134371 0.057730913162231452251393903907 -0.002521510701626538796665810693 0.000681575969792902469635009766 0 0 0 0 
2400500000.0000000000 0.155243977904319790939169365629 0.055611588060855872417409528907 -0.002531721489503980116603232275 0.000769319885876029729843139648 0 0 0 0 
2400666666.6666665077 0.155406013131141690353231865629 0.053329151123762130737304687500 -0.002424085978418589071986533057 0.000812463404145091772079467773 0 0 0 0 
2400833333.3333334923 0.155741631984710693359375000000 0.051289618015289306640625000000 -0.002312209922820330099818564307 0.001005366793833673000335693359 0 0 0 0 
2401000000.0000000000 0.156053364276885986328125000000 0.048926021903753280639648437500 -0.002283745445311069922206259619 0.001008987543173133893253945459 0 0 0 0 
2401166666.6666665077 0.156320065259933499435263115629 0.046776164323091506958007812500 -0.002149369334802031950709677588 0.001017869450151920101763081128 0 0 0 0 
2401333333.3333334923 0.156795933842658996582031250000 0.044519018381834030151367187500 -0.002017402322962880134582519531 0.001253894064575433947919536060 0 0 0 0 
2401500000.0000000000 0.157473340630531311035156250000 0.042238321155309677124023437500 -0.001959986751899123191833496094 0.001080150483176111958147358472 0 0 0 0 
2401666666.6666665077 0.157816797494888305664062500000 0.040365949273109442974050153907 -0.001906741876155138015747070312 0.001197997946292161941528320312 0 0 0 0 
2401833333.3333334923 0.158628165721893310546875000000 0.038076482713222496723215471093 -0.001699543208815156979801797021 0.001313051907345653013942099463 0 0 0 0 
2402000000.0000000000 0.159034296870231600662393134371 0.036135781556367867206613908593 -0.001796312397345900969264365088 0.001240571611560880921007465894 0 0 0 0 
2402166666.6666665077 0.159845575690269497970419365629 0.034068170934915542602539062500 -0.001652608858421444892883300781 0.001387979253195225975633930737 0 0 0 0 
2402333333.3333334923 0.160494595766067504882812500000 0.032196238636970520019531250000 -0.001465818146243691010716103662 0.001362713403068483092664409106 0 0 0 0 
2402500000.0000000000 0.161713525652885409256143134371 0.030457129701972011220911795704 -0.001396993175148963928222656250 0.001225564046762884096858359229 0 0 0 0 
2402666666.6666665077 0.162473857402801513671875000000 0.028605885803699489938756173046 -0.001257990603335201957105327075 0.001123027177527547099469829028 0 0 0 0 
2402833333.3333334923 0.163547888398170498946981865629 0.027101268991827971721608747657 -0.001145894173532723946812295068 0.001050936523824929974199604565 0 0 0 0 
2403000000.0000000000 0.164477735757827786544638115629 0.025502730160951610910435860546 -0.001169577473774551911595009912 0.001137830666266381957410502856 0 0 0 0 
2403166666.6666665077 0.165551453828811701018963731258 0.024012591689825061452845389454 -0.000856411585118621587753295898 0.000950235349591821432113647461 0 0 0 0 
2403333333.3333334923 0.166774153709411593338174384371 0.022870820015668869018554687500 -0.000928829074837267398834228516 0.001011220039799810106392885523 0 0 0 0 
2403500000.0000000000 0.167717412114143399337606865629 0.021545270457863811147669608204 -0.000886299414560198783874511719 0.000964480452239513397216796875 0 0 0 0 
2403666666.6666665077 0.168861106038093594650106865629 0.020330684259533878671666329296 -0.000745003984775394201278686523 0.000838201551232486963272094727 0 0 0 0 
2403833333.3333334923 0.170048013329505892654580634371 0.019225370138883590698242187500 -0.000784316216595470905303955078 0.000838533800560981035232543945 0 0 0 0 
2404000000.0000000000 0.171209499239921597579794365629 0.018233370035886771465261091407 -0.000900104700122028589248657227 0.000696857634466141462326049805 0 0 0 0 
2404166666.6666665077 0.172271370887756403167401231258 0.017369039356708530080775076954 -0.000915316748432815074920654297 0.000779983529355376958847045898 0 0 0 0 
2404333333.3333334923 0.173338949680328396896200615629 0.016631435602903369558314139454 -0.000840326014440506696701049805 0.000590759038459509611129760742 0 0 0 0 
2404500000.0000000000 0.174196377396583612640057481258 0.015841804444789889944056326954 -0.000648331653792411088943481445 0.000711087021045386791229248047 0 0 0 0 
2404666666.6666665077 0.175162211060523986816406250000 0.015187066979706290853480155079 -0.000603344116825610399246215820 0.000692766625434160232543945312 0 0 0 0 
2404833333.3333334923 0.176058739423751803299111884371 0.014689858071506019937535469921 -0.000802343594841659069061279297 0.000457146874396130388409215106 0 0 0 0 
2405000000.0000000000 0.176963105797767611404580634371 0.014329426921904090536097342579 -0.000916315824724733829498291016 0.000484343472635373473167419434 0 0 0 0 
2405166666.6666665077 0.177823513746261596679687500000 0.013830340467393400019635585352 -0.000762761861551553010940551758 0.000492108287289738655090332031 0 0 0 0 
2405333333.3333334923 0.178509563207626287262286268742 0.013470472767949100839635079296 -0.000686085433699190616607666016 0.000565453316085040569305419922 0 0 0 0 
2405500000.0000000000 0.179269447922706604003906250000 0.013268091715872289484967616602 -0.000823203823529183864593505859 0.000394809991121292114257812500 0 0 0 0 
2405666666.6666665077 0.179767742753028897384481865629 0.013078472577035430562952811329 -0.000765077536925673484802246094 0.000554797472432255744934082031 0 0 0 0 
2405833333.3333334923 0.180162966251373291015625000000 0.013031892478466030466099923046 -0.000878006219863891601562500000 0.000424163881689310073852539062 0 0 0 0 
2406000000.0000000000 0.180592522025108309646768134371 0.012622594833374019968053048046 -0.000862904067616909742355346680 0.000454825290944427306025904523 0 0 0 0 
2406166666.6666665077 0.180839076638221712967080634371 0.012432770803570750844935233204 -0.000825591967441141605377197266 0.000557344639673829078674316406 0 0 0 0 
2406333333.3333334923 0.181107059121131896972656250000 0.012448751367628569167167462695 -0.000908719201106578111648559570 0.000327459187246859073638916016 0 0 0 0 
2406500000.0000000000 0.181236505508422907073651231258 0.012265080586075779306431954296 -0.000844935188069939613342285156 0.000433473993325605988502502441 0 0 0 0 
2406666666.6666665077 0.181099250912666293045205634371 0.012107958085834980010986328125 -0.000817004998680204153060913086 0.000315809389576315879821777344 0 0 0 0 
2406833333.3333334923 0.180993005633354187011718750000 0.011808409355580810201624686329 -0.000760803348384797573089599609 0.000447332306066528016894739972 0 0 0 0 
2407000000.0000000000 0.180979594588279696365518134371 0.011588206514716150111188319727 -0.000844117370434105396270751953 0.000360145320883020812838953839 0 0 0 0 
2407166666.6666665077 0.180694818496704101562500000000 0.011333398520946499216099923046 -0.000843745074234902858734130859 0.000356454023858532309532165527 0 0 0 0 
2407333333.3333334923 0.180360093712806701660156250000 0.010942609049379830796211443555 -0.001084971008822321891784667969 0.000185676006367430090904235840 0 0 0 0 
2407500000.0000000000 0.180029764771461486816406250000 0.010635990649461749685267264454 -0.000991700449958443641662597656 0.000240313020185567411497393198 0 0 0 0 
2407666666.6666665077 0.179530352354049710372763115629 0.010128396563231950242012224805 -0.000954642018768936395645141602 0.000251528166700154488712865009 0 0 0 0 
2407833333.3333334923 0.178812250494956997970419365629 0.009627724066376686096191406250 -0.001038044691085814996006631006 0.000126256054500117897987365723 0 0 0 0 
2408000000.0000000000 0.178293570876121493240518134371 0.008852893486618995666503906250 -0.001115227700211107947705913013 0.000317714817356318181187230243 0 0 0 0 
2408166666.6666665077 0.177591815590858487228231865629 0.008276915177702903747558593750 -0.001178188133053482012507773291 0.000232384889386594295501708984 0 0 0 0 
2408333333.3333334923 0.177135825157165499588174384371 0.007437956053763628005981445312 -0.001023721066303550980211567456 0.000081678568676579743623733521 0 0 0 0 
2408500000.0000000000 0.176167622208595303634481865629 0.006413144059479236602783203125 -0.001099932938814162991167378003 0.000278235616860911304324549542 0 0 0 0 
2408666666.6666665077 0.175517290830612210372763115629 0.005440834909677506360525800488 -0.001112717785872519016265869141 0.000290744734229520017474573956 0 0 0 0 
2408833333.3333334923 0.174618870019912691970986884371 0.004436015151441097259521484375 -0.001172589953057467937469482422 0.000249088130658492500155848370 0 0 0 0 
2409000000.0000000000 0.173785150051116887848223768742 0.003198287216946483092067099463 -0.001218722551129757924320839990 0.000300729298032820224761962891 0 0 0 0 
2409166666.6666665077 0.172972157597541809082031250000 0.001801039790734648921369243091 -0.001280675642192363955854106372 0.000378039432689547484547215594 0 0 0 0 
2409333333.3333334923 0.172351554036140386383380018742 0.000416479830164462273747044696 -0.001225445652380586104152060400 0.000208041412406601011753082275 0 0 0 0 
2409500000.0000000000 0.171451389789581298828125000000 -0.001320139970630406899693154443 -0.001318745664320885918260883862 0.000188956561032682711451929913 0 0 0 0 
2409666666.6666665077 0.170629814267158508300781250000 -0.002711715642362833023071289062 -0.001369205187074840068817138672 0.000216297135921195203631800519 0 0 0 0 
2409833333.3333334923 0.169867724180221613128338731258 -0.004200682509690523147583007812 -0.001426118309609591960906982422 0.000400743272621184587478637695 0 0 0 0 
2410000000.0000000000 0.169416204094886807540731865629 -0.006136487238109111785888671875 -0.001467900234274565956713032300 0.000300528830848634188801365985 0 0 0 0 
2410166666.6666665077 0.168614774942398099044638115629 -0.007871246896684169769287109375 -0.001465170644223690032958984375 0.000386365398298949003219604492 0 0 0 0 
2410333333.3333334923 0.167953342199325589279013115629 -0.009852731600403785705566406250 -0.001479103462770581028581928784 0.000315239594783634001582545148 0 0 0 0 
2410500000.0000000000 0.167547062039375305175781250000 -0.011724662967026230203648751171 -0.001572354580275713963749550928 0.000471636536531150286823826923 0 0 0 0 
2410666666.6666665077 0.167089939117431612869424384371 -0.013825856149196629960029802930 -0.001639974769204854965209960938 0.000480206246720627004474085675 0 0 0 0 
2410833333.3333334923 0.166746199131011990646200615629 -0.015573336742818360764473162305 -0.001519023207947612025617289966 0.000555869890376925468444824219 0 0 0 0 
2411000000.0000000000 0.166591405868530301193075615629 -0.017764613032340999948521798046 -0.001686608535237609906437539209 0.000486963515868410522311610089 0 0 0 0 
2411166666.6666665077 0.166309669613838195800781250000 -0.019970487803220748901367187500 -0.001646529533900320963618613135 0.000531572790350764989852905273 0 0 0 0 
2411333333.3333334923 0.166184052824974087814169365629 -0.022005584090948108327845389454 -0.001878305454738437912584614331 0.000658582779578864574432373047 0 0 0 0 
2411500000.0000000000 0.166156291961669894119424384371 -0.024171246215701099741002266796 -0.001821491750888526005985879053 0.000787974917329847812652587891 0 0 0 0 
2411666666.6666665077 0.166395500302314813811932481258 -0.026120198890566829336146170704 -0.001781388069503009102464985425 0.000869478331878781318664550781 0 0 0 0 
2411833333.3333334923 0.166455611586570711990518134371 -0.027999807149171829223632812500 -0.001928743789903819994685507666 0.000875630124937742948532104492 0 0 0 0 
2412000000.0000000000 0.166862308979034396072549384371 -0.030306752771139148366907889454 -0.001979823689907788796665810693 0.000983384787105023860931396484 0 0 0 0 
2412166666.6666665077 0.166796937584876986404580634371 -0.032349649816751480102539062500 -0.001928773941472172953962016528 0.001111646764911710999132465894 0 0 0 0 
2412333333.3333334923 0.167539879679679898361044365629 -0.034130986779928207397460937500 -0.002039880026131867928745888818 0.001377586973831057982203818213 0 0 0 0 
2412500000.0000000000 0.167941898107528686523437500000 -0.036135438829660422588307966407 -0.002032067626714705987217568506 0.001278852811083198027369833838 0 0 0 0 
2412666666.6666665077 0.168458923697471590896768134371 -0.038242898881435387348215471093 -0.002217785920947790145874023438 0.001449034200049936988233256763 0 0 0 0 
2412833333.3333334923 0.169110655784606905838174384371 -0.040072351694107062602956403907 -0.002119798911735415892360068213 0.001720619155094027952906943213 0 0 0 0 
2413000000.0000000000 0.169581815600395202636718750000 -0.041793245822191238403320312500 -0.001968209864571690993068076025 0.001547724590636790015577006763 0 0 0 0 
2413166666.6666665077 0.170189589262008694747763115629 -0.043428443372249603271484375000 -0.002139359712600708007812500000 0.001656496082432568073272705078 0 0 0 0 
2413333333.3333334923 0.170869082212448092361611884371 -0.044979065656661987304687500000 -0.002003713510930538177490234375 0.001904737902805208943010639722 0 0 0 0 
2413500000.0000000000 0.171751841902732904632244981258 -0.046601299196481711650807966407 -0.001982879592105745835545205225 0.002163574565201998190638876807 0 0 0 0 
2413666666.6666665077 0.172522082924842806717080634371 -0.048036180436611182476003278907 -0.001780837075784802003147744287 0.002108334796503185792210244287 0 0 0 0 
2413833333.3333334923 0.173065185546875000000000000000 -0.049461450427770621562917341407 -0.001762648578733206012128520435 0.002227364107966423034667968750 0 0 0 0 
2414000000.0000000000 0.173738569021225003341513115629 -0.050889980047941207885742187500 -0.001775146462023257992388081128 0.002532616490498185157775878906 0 0 0 0 
2414166666.6666665077 0.174624443054199190994424384371 -0.051854614168405532836914062500 -0.001661663874983787970301962744 0.002438151976093649864196777344 0 0 0 0 
2414333333.3333334923 0.175283029675483703613281250000 -0.052900187671184539794921875000 -0.001465346780605613968492817456 0.002689470769837499098536826025 0 0 0 0 
2414500000.0000000000 0.176209390163421603103799384371 -0.053847439587116241455078125000 -0.001301527954638004086138081128 0.002669041510671377182006835938 0 0 0 0 
2414666666.6666665077 0.176736727356910705566406250000 -0.054689362645149230957031250000 -0.001372659229673445007921528394 0.002798965433612465858459472656 0 0 0 0 
2414833333.3333334923 0.177160993218421908279580634371 -0.055472508072853088378906250000 -0.001196953468024730899213481372 0.002869854448363184928894042969 0 0 0 0 
2415000000.0000000000 0.177739232778549194335937500000 -0.056107342243194580078125000000 -0.000925018975976854562759399414 0.002915575634688138961791992188 0 0 0 0 
2415166666.6666665077 0.178223535418510409256143134371 -0.056643001735210418701171875000 -0.000920395017601549625396728516 0.003086543409153819084167480469 0 0 0 0 
2415333333.3333334923 0.178689405322074890136718750000 -0.057361114770174033428151716407 -0.000720937852747738361358642578 0.003039631294086575941798544775 0 0 0 0 
2415500000.0000000000 0.179045543074607904632244981258 -0.057739391922950751567800153907 -0.000615872209891676902770996094 0.002995118964463471932652138818 0 0 0 0 
2415666666.6666665077 0.179209232330322293380575615629 -0.058010708540678017353098283593 -0.000529790006112307310104370117 0.003147662617266178131103515625 0 0 0 0 
2415833333.3333334923 0.179491907358169611175213731258 -0.058216869831085212017018903907 -0.000365879794117063283920288086 0.003183780470862985090968466650 0 0 0 0 
2416000000.0000000000 0.179422438144683810135049384371 -0.058552701026201248168945312500 -0.000203685689484700587674817496 0.002977462252601981163024902344 0 0 0 0 
2416166666.6666665077 0.179524898529052706619424384371 -0.058742318302392959594726562500 -0.000089298300736118108034133911 0.003178637940436602072474814307 0 0 0 0 
2416333333.3333334923 0.179280802607536288162393134371 -0.058772429823875427246093750000 0.000000114654355343191101288694 0.003056995104998350143432617188 0 0 0 0 
2416500000.0000000000 0.179150715470313998123330634371 -0.058867678046226501464843750000 0.000099807941296603530645370483 0.003117510583251715140101767432 0 0 0 0 
2416666666.6666665077 0.178763449192047091385049384371 -0.058911401778459548950195312500 0.000214677143958397209644317627 0.003072846448048948807957314600 0 0 0 0 
2416833333.3333334923 0.178358480334281893631143134371 -0.059198856353759772563893903907 0.000197503453819081187248229980 0.003044989192858337922337197412 0 0 0 0 
2417000000.0000000000 0.177646845579147311111611884371 -0.059260103851556777954101562500 0.000417993782320991212695521222 0.002792270155623555183410644531 0 0 0 0 
2417166666.6666665077 0.176985979080200195312500000000 -0.059364333748817436908762346093 0.000545718648936599493026733398 0.003063746960833669142482138525 0 0 0 0 
2417333333.3333334923 0.176328718662261990646200615629 -0.059377420693635940551757812500 0.000583263754379004240036010742 0.002891993615776299996616982568 0 0 0 0 
2417500000.0000000000 0.175549834966659601409588731258 -0.059670742601156241680104841407 0.000771899998653680086135864258 0.002916349796578288078308105469 0 0 0 0 
2417666666.6666665077 0.174567535519599886795205634371 -0.059756733477115631103515625000 0.000746583798900246620178222656 0.002797646680846809907200478662 0 0 0 0 
2417833333.3333334923 0.173682257533073397537393134371 -0.059823878109455108642578125000 0.000794160238001495599746704102 0.002719111507758498191833496094 0 0 0 0 
2418000000.0000000000 0.172498956322670010665731865629 -0.060306373983621597290039062500 0.000810062920209020376205444336 0.002834900049492716789245605469 0 0 0 0 
2418166666.6666665077 0.171213284134864807128906250000 -0.060450669378042221069335937500 0.000979798845946788787841796875 0.002831085817888379096984863281 0 0 0 0 
2418333333.3333334923 0.170270353555679293533486884371 -0.060957755893468856811523437500 0.000900822575204074382781982422 0.002744217170402408079860068213 0 0 0 0 
2418500000.0000000000 0.168998926877975491622763115629 -0.061329554766416549682617187500 0.001002868055365980105159140479 0.002625622553750873045680380713 0 0 0 0 
2418666666.6666665077 0.167707279324531610686932481258 -0.061990983784198760986328125000 0.001282751560211182074305868994 0.002544375834986567930934286963 0 0 0 0 
2418833333.3333334923 0.166236177086830111404580634371 -0.062631368637084960937500000000 0.001109322882257401943206787109 0.002470136387273668809178017725 0 0 0 0 
2419000000.0000000000 0.164690554141998291015625000000 -0.063343793153762817382812500000 0.001207118271850049929377890479 0.002614844590425490899326943506 0 0 0 0 
2419166666.6666665077 0.163568094372749300857705634371 -0.064070075750350952148437500000 0.001349413767457007928135537256 0.002557342639192938804626464844 0 0 0 0 
2419333333.3333334923 0.162019461393356295486611884371 -0.064698137342929840087890625000 0.001399596338160336017608642578 0.002520495560020207925083779443 0 0 0 0 
2419500000.0000000000 0.160747855901718111892861884371 -0.065913654863834381103515625000 0.001417158870026469013811420972 0.002349546412006020979640341650 0 0 0 0 
2419666666.6666665077 0.159592837095260592361611884371 -0.067057453095912933349609375000 0.001396002480760216929792094653 0.002278060186654328866245888818 0 0 0 0 
2419833333.3333334923 0.158117190003395108321981865629 -0.068135596811771392822265625000 0.001428365590982138893724751050 0.002444841433316469192504882812 0 0 0 0 
