# Version 1.00
#
freq[Hz];re:Trc1_S11;im:Trc1_S11;re:Trc2_S21;im:Trc2_S21;
2.400000000000000E+009;1.608081310987473E-001;5.702758952975273E-002;9.447720367461443E-004;-1.647616387344897E-003;
2.400166666666667E+009;1.609757244586945E-001;5.540765821933746E-002;9.821028215810657E-004;-1.614330336451531E-003;
2.400333333333334E+009;1.608452498912811E-001;5.367273092269898E-002;7.914561429060996E-004;-1.486541936174035E-003;
2.400500000000000E+009;1.610967218875885E-001;5.190410465002060E-002;9.113079286180437E-004;-1.455740653909743E-003;
2.400666666666667E+009;1.611044704914093E-001;4.996201768517494E-002;8.806712576188147E-004;-1.333608641289175E-003;
2.400833333333334E+009;1.615300178527832E-001;4.819918423891068E-002;1.154969912022352E-003;-1.331166131421924E-003;
2.401000000000000E+009;1.615400463342667E-001;4.635164141654968E-002;9.862190345302224E-004;-1.316675450652838E-003;
2.401166666666667E+009;1.617150753736496E-001;4.434017837047577E-002;1.081643626093864E-003;-1.153377816081047E-003;
2.401333333333334E+009;1.621552258729935E-001;4.230064898729324E-002;1.102248439565301E-003;-1.166507950983942E-003;
2.401500000000000E+009;1.624692976474762E-001;4.058896377682686E-002;1.109579461626709E-003;-1.271891407668591E-003;
2.401666666666667E+009;1.628799587488174E-001;3.901012241840363E-002;1.368362922221422E-003;-1.145910820923746E-003;
2.401833333333334E+009;1.634083092212677E-001;3.685699775815010E-002;1.493669464252889E-003;-1.155540696345270E-003;
2.402000000000000E+009;1.634967327117920E-001;3.517577052116394E-002;1.640104688704014E-003;-1.217602286487818E-003;
2.402166666666667E+009;1.639766097068787E-001;3.342051059007645E-002;1.499502337537706E-003;-1.066857716068626E-003;
2.402333333333334E+009;1.643837541341782E-001;3.169582039117813E-002;1.771254464983940E-003;-1.203054562211037E-003;
2.402500000000000E+009;1.654139459133148E-001;3.007755428552628E-002;1.844648970291019E-003;-1.114920829422772E-003;
2.402666666666667E+009;1.658725738525391E-001;2.854221314191818E-002;1.908425241708756E-003;-1.319074770435691E-003;
2.402833333333334E+009;1.663518399000168E-001;2.702385932207108E-002;2.086182357743383E-003;-1.339100534096360E-003;
2.403000000000000E+009;1.670082360506058E-001;2.557905763387680E-002;2.180933486670256E-003;-1.462230109609664E-003;
2.403166666666667E+009;1.679250895977020E-001;2.410405687987804E-002;2.119806827977300E-003;-1.517819939181209E-003;
2.403333333333334E+009;1.685299426317215E-001;2.295593172311783E-002;2.317703096196055E-003;-1.687326934188604E-003;
2.403500000000000E+009;1.691238284111023E-001;2.172509767115116E-002;2.509633777663112E-003;-1.978666987270117E-003;
2.403666666666667E+009;1.699091792106628E-001;2.042219601571560E-002;2.410355955362320E-003;-2.012909157201648E-003;
2.403833333333334E+009;1.708441376686096E-001;1.905314065515995E-002;2.472046762704849E-003;-2.172415377572179E-003;
2.404000000000000E+009;1.715516597032547E-001;1.811911165714264E-002;2.350440481677651E-003;-2.507314318791032E-003;
2.404166666666667E+009;1.722708493471146E-001;1.711430586874485E-002;2.564318012446165E-003;-2.675757044926286E-003;
2.404333333333334E+009;1.729972064495087E-001;1.626615785062313E-002;2.575769554823637E-003;-2.831153571605682E-003;
2.404500000000000E+009;1.736205518245697E-001;1.534004416316748E-002;2.504486823454499E-003;-2.994921756908298E-003;
2.404666666666667E+009;1.741617769002914E-001;1.456513348966837E-002;2.205316675826907E-003;-3.214269177988172E-003;
2.404833333333334E+009;1.748388260602951E-001;1.363678742200136E-002;2.233560429885984E-003;-3.369780024513602E-003;
2.405000000000000E+009;1.754088252782822E-001;1.297328155487776E-002;2.125981729477644E-003;-3.633819054812193E-003;
2.405166666666667E+009;1.759664267301559E-001;1.236432604491711E-002;2.031976124271751E-003;-3.744610119611025E-003;
2.405333333333334E+009;1.765398234128952E-001;1.171384938061237E-002;1.896263100206852E-003;-3.893395420163870E-003;
2.405500000000000E+009;1.770931035280228E-001;1.133272703737021E-002;1.686044968664646E-003;-3.984064329415560E-003;
2.405666666666667E+009;1.775231063365936E-001;1.089303940534592E-002;1.567417057231069E-003;-4.217486828565598E-003;
2.405833333333334E+009;1.776772886514664E-001;1.046792231500149E-002;1.429781434126198E-003;-4.223469644784927E-003;
2.406000000000000E+009;1.780658662319183E-001;9.838735684752464E-003;1.296979025937617E-003;-4.474297631531954E-003;
2.406166666666667E+009;1.781938225030899E-001;9.615712799131870E-003;1.032451516948640E-003;-4.422982688993216E-003;
2.406333333333334E+009;1.785067766904831E-001;9.212885051965714E-003;9.581763879396021E-004;-4.660074133425951E-003;
2.406500000000000E+009;1.786119341850281E-001;8.703242056071758E-003;6.647233967669308E-004;-4.658650606870651E-003;
2.406666666666667E+009;1.785700917243958E-001;8.337780833244324E-003;4.121237725485116E-004;-4.842294845730066E-003;
2.406833333333334E+009;1.786886751651764E-001;7.892728783190250E-003;2.868594310712069E-004;-4.624588880687952E-003;
2.407000000000000E+009;1.786790192127228E-001;7.455706596374512E-003;6.587920506717637E-005;-4.819795489311218E-003;
2.407166666666667E+009;1.785470843315125E-001;7.090781349688768E-003;-2.187862492064596E-006;-4.719407763332129E-003;
2.407333333333334E+009;1.782576441764832E-001;6.323328707367182E-003;-1.700419234111905E-004;-4.795994609594345E-003;
2.407500000000000E+009;1.779156923294067E-001;5.968517158180475E-003;-4.217487003188580E-004;-4.800806753337383E-003;
2.407666666666667E+009;1.777114272117615E-001;5.408583674579859E-003;-4.671663045883179E-004;-4.829310812056065E-003;
2.407833333333334E+009;1.771509498357773E-001;4.553985316306353E-003;-7.528925198130310E-004;-4.752704873681068E-003;
2.408000000000000E+009;1.769099533557892E-001;3.776316298171878E-003;-9.909436339512467E-004;-4.634561482816935E-003;
2.408166666666667E+009;1.762908995151520E-001;3.100203117355704E-003;-1.172346645034850E-003;-4.660495556890965E-003;
2.408333333333334E+009;1.760146021842957E-001;2.250187098979950E-003;-1.282545854337513E-003;-4.664729349315167E-003;
2.408500000000000E+009;1.753690093755722E-001;1.236752141267061E-003;-1.496666227467358E-003;-4.593130666762590E-003;
2.408666666666667E+009;1.749471127986908E-001;2.919743710663170E-004;-1.662773778662086E-003;-4.526558332145214E-003;
2.408833333333334E+009;1.742008179426193E-001;-7.582827820442617E-004;-1.858812058344483E-003;-4.683427046984434E-003;
2.409000000000000E+009;1.735679209232330E-001;-1.929592341184616E-003;-2.037294441834092E-003;-4.530424717813730E-003;
2.409166666666667E+009;1.730626225471497E-001;-3.236480522900820E-003;-2.131039509549737E-003;-4.301780834794045E-003;
2.409333333333334E+009;1.726122647523880E-001;-4.463942721486092E-003;-2.323535736650229E-003;-4.373657051473856E-003;
2.409500000000000E+009;1.720092147588730E-001;-5.818250123411417E-003;-2.543668728321791E-003;-4.195617511868477E-003;
2.409666666666667E+009;1.712816059589386E-001;-7.291164249181747E-003;-2.426049904897809E-003;-4.199309740215540E-003;
2.409833333333334E+009;1.708627641201019E-001;-8.691675029695034E-003;-2.714066300541163E-003;-3.951318562030792E-003;
2.410000000000000E+009;1.703217774629593E-001;-1.033055968582630E-002;-2.732408232986927E-003;-3.886888967826963E-003;
2.410166666666667E+009;1.697716414928436E-001;-1.186492759734392E-002;-2.848983509466052E-003;-3.857708303257823E-003;
2.410333333333334E+009;1.692703068256378E-001;-1.351300813257694E-002;-2.869574353098869E-003;-3.776345402002335E-003;
2.410500000000000E+009;1.690894067287445E-001;-1.528855878859758E-002;-3.087324323132634E-003;-3.636338980868459E-003;
2.410666666666667E+009;1.686161011457443E-001;-1.724505610764027E-002;-3.210758790373802E-003;-3.559183329343796E-003;
2.410833333333334E+009;1.684119999408722E-001;-1.874857768416405E-002;-3.203795757144690E-003;-3.430984448641539E-003;
2.411000000000000E+009;1.680291593074799E-001;-2.043610811233521E-002;-3.291116096079350E-003;-3.513189032673836E-003;
2.411166666666667E+009;1.680335402488709E-001;-2.245774306356907E-002;-3.345547709614039E-003;-3.345390083268285E-003;
2.411333333333334E+009;1.677370667457581E-001;-2.428488247096539E-002;-3.450786462053657E-003;-3.334566950798035E-003;
2.411500000000000E+009;1.676924377679825E-001;-2.643131464719772E-002;-3.383354283869267E-003;-3.123714355751872E-003;
2.411666666666667E+009;1.677506268024445E-001;-2.824832685291767E-002;-3.662870964035392E-003;-3.038134891539812E-003;
2.411833333333334E+009;1.677901595830917E-001;-3.010798431932926E-002;-3.679072950035334E-003;-3.060939256101847E-003;
2.412000000000000E+009;1.679478436708450E-001;-3.185803815722466E-002;-3.778813173994422E-003;-3.137535648420453E-003;
2.412166666666667E+009;1.679404526948929E-001;-3.380630165338516E-002;-3.887189552187920E-003;-2.950093476101756E-003;
2.412333333333334E+009;1.684275418519974E-001;-3.555424511432648E-002;-4.001693334430456E-003;-2.905921312049031E-003;
2.412500000000000E+009;1.686732470989227E-001;-3.741006925702095E-002;-4.035595338791609E-003;-3.036034526303411E-003;
2.412666666666667E+009;1.691155284643173E-001;-3.911039978265762E-002;-4.284553695470095E-003;-2.753755310550332E-003;
2.412833333333334E+009;1.694879829883575E-001;-4.074326902627945E-002;-4.298388026654720E-003;-2.772618783637881E-003;
2.413000000000000E+009;1.698995083570480E-001;-4.234927892684937E-002;-4.575080238282681E-003;-2.652062103152275E-003;
2.413166666666667E+009;1.701643764972687E-001;-4.410079494118691E-002;-4.737864714115858E-003;-2.413443522527814E-003;
2.413333333333334E+009;1.705071181058884E-001;-4.565952345728874E-002;-4.936156328767538E-003;-2.410810673609376E-003;
2.413500000000000E+009;1.712786555290222E-001;-4.718928039073944E-002;-4.911332856863737E-003;-2.331492956727743E-003;
2.413666666666667E+009;1.717096418142319E-001;-4.867597296833992E-002;-5.041534546762705E-003;-2.153866225853562E-003;
2.413833333333334E+009;1.721038371324539E-001;-4.992876946926117E-002;-5.366560537368059E-003;-2.035621786490083E-003;
2.414000000000000E+009;1.725217700004578E-001;-5.126329138875008E-002;-5.552220623940229E-003;-1.691379351541400E-003;
2.414166666666667E+009;1.731600761413574E-001;-5.230242386460304E-002;-5.504641216248274E-003;-1.652470440603793E-003;
2.414333333333334E+009;1.736349761486054E-001;-5.347328633069992E-002;-5.584679078310728E-003;-1.499186502769589E-003;
2.414500000000000E+009;1.743095368146896E-001;-5.443719401955605E-002;-5.663304589688778E-003;-1.217752811498940E-003;
2.414666666666667E+009;1.746546924114227E-001;-5.542733520269394E-002;-6.040240637958050E-003;-8.772080764174461E-004;
2.414833333333334E+009;1.750543415546417E-001;-5.630126222968102E-002;-5.871613509953022E-003;-7.496210164390504E-004;
2.415000000000000E+009;1.754261553287506E-001;-5.709777399897575E-002;-6.128907669335604E-003;-5.851348396390677E-004;
2.415166666666667E+009;1.757617890834808E-001;-5.780196562409401E-002;-6.036790553480387E-003;-1.821895129978657E-004;
2.415333333333334E+009;1.762175858020783E-001;-5.835554376244545E-002;-6.187468767166138E-003;4.206243102089502E-005;
2.415500000000000E+009;1.763463467359543E-001;-5.883369222283363E-002;-6.160137243568897E-003;2.488888567313552E-004;
2.415666666666667E+009;1.765668839216232E-001;-5.938407033681870E-002;-6.181241478770971E-003;6.443352322094142E-004;
2.415833333333334E+009;1.768062561750412E-001;-5.985743179917336E-002;-6.402778439223766E-003;8.108440088108182E-004;
2.416000000000000E+009;1.767478287220001E-001;-6.023942306637764E-002;-6.188993342220783E-003;1.058051246218383E-003;
2.416166666666667E+009;1.769278198480606E-001;-6.059173122048378E-002;-6.388495676219463E-003;1.259750919416547E-003;
2.416333333333334E+009;1.766733229160309E-001;-6.078020483255386E-002;-6.253749132156372E-003;1.603023731149733E-003;
2.416500000000000E+009;1.765308976173401E-001;-6.112496554851532E-002;-5.981417838484049E-003;1.886893529444933E-003;
2.416666666666667E+009;1.761833727359772E-001;-6.125386431813240E-002;-5.941758397966623E-003;2.158703980967403E-003;
2.416833333333334E+009;1.759066879749298E-001;-6.169921159744263E-002;-5.997928325086832E-003;2.409611130133271E-003;
2.417000000000000E+009;1.753192096948624E-001;-6.194831803441048E-002;-5.943799857050180E-003;2.642796607688069E-003;
2.417166666666667E+009;1.749983131885529E-001;-6.202081590890884E-002;-5.853407084941864E-003;3.063227748498321E-003;
2.417333333333334E+009;1.743125319480896E-001;-6.224848330020905E-002;-5.579170770943165E-003;2.999225631356239E-003;
2.417500000000000E+009;1.735913753509522E-001;-6.269657611846924E-002;-5.430119577795267E-003;3.375850850716233E-003;
2.417666666666667E+009;1.729837208986282E-001;-6.268104165792465E-002;-5.138852167874575E-003;3.529525361955166E-003;
2.417833333333334E+009;1.721290349960327E-001;-6.301105767488480E-002;-5.114715546369553E-003;3.835208946838975E-003;
2.418000000000000E+009;1.711146384477615E-001;-6.353622674942017E-002;-4.896669648587704E-003;4.019668325781822E-003;
2.418166666666667E+009;1.701938211917877E-001;-6.364946812391281E-002;-4.816490691155195E-003;4.005897790193558E-003;
2.418333333333334E+009;1.694019883871079E-001;-6.428487598896027E-002;-4.582141526043415E-003;4.391675349324942E-003;
2.418500000000000E+009;1.681660264730454E-001;-6.464775651693344E-002;-4.345853812992573E-003;4.422727506607771E-003;
2.418666666666667E+009;1.670884788036346E-001;-6.512992829084396E-002;-4.097915720194578E-003;4.617170896381140E-003;
2.418833333333334E+009;1.658455580472946E-001;-6.578253954648972E-002;-4.094861447811127E-003;4.837483633309603E-003;
2.419000000000000E+009;1.647286862134934E-001;-6.631606072187424E-002;-3.851034911349416E-003;5.000931210815907E-003;
2.419166666666667E+009;1.636472940444946E-001;-6.698645651340485E-002;-3.551162313669920E-003;5.004918668419123E-003;
2.419333333333334E+009;1.621007174253464E-001;-6.758803874254227E-002;-3.462329739704728E-003;5.153527483344078E-003;
2.419500000000000E+009;1.611064523458481E-001;-6.865111738443375E-002;-3.127689240500331E-003;5.306274164468050E-003;
2.419666666666667E+009;1.599507778882980E-001;-6.963053345680237E-002;-2.827503485605121E-003;5.496725440025330E-003;
2.419833333333334E+009;1.586696207523346E-001;-7.046919316053391E-002;-2.720286604017019E-003;5.601278506219387E-003;
2.420000000000000E+009;1.576293408870697E-001;-7.159648090600967E-002;-2.522634807974100E-003;5.584490019828081E-003;
2.420166666666667E+009;1.563336253166199E-001;-7.282409816980362E-002;-2.366688102483749E-003;5.739273969084024E-003;
2.420333333333334E+009;1.553032249212265E-001;-7.391724735498428E-002;-2.085071522742510E-003;5.638189148157835E-003;
2.420500000000000E+009;1.544194519519806E-001;-7.515797764062882E-002;-1.846586703322828E-003;5.621764343231916E-003;
2.420666666666667E+009;1.534044146537781E-001;-7.638750225305557E-002;-1.675594598054886E-003;5.814460571855307E-003;
2.420833333333334E+009;1.523183733224869E-001;-7.788253575563431E-002;-1.235372386872768E-003;5.815315060317516E-003;
2.421000000000000E+009;1.514099985361099E-001;-7.921633124351502E-002;-1.132914912886918E-003;5.940905772149563E-003;
2.421166666666667E+009;1.507533490657806E-001;-8.093187958002091E-002;-7.284601451829076E-004;5.912822671234608E-003;
2.421333333333334E+009;1.500818431377411E-001;-8.255220949649811E-002;-6.535509019158781E-004;6.077509373426437E-003;
2.421500000000000E+009;1.492909640073776E-001;-8.380433917045593E-002;-2.813611354213208E-004;5.984090734273195E-003;
2.421666666666667E+009;1.487290412187576E-001;-8.561918139457703E-002;-7.891948916949332E-005;5.913620349019766E-003;
2.421833333333334E+009;1.482841521501541E-001;-8.722014725208283E-002;1.259902201127261E-004;5.904102697968483E-003;
2.422000000000000E+009;1.477739363908768E-001;-8.899991214275360E-002;3.691364836413413E-004;5.766696762293577E-003;
2.422166666666667E+009;1.476686596870422E-001;-9.089445322751999E-002;5.985700408928096E-004;5.748281255364418E-003;
2.422333333333334E+009;1.473811417818070E-001;-9.243385493755341E-002;7.912411238066852E-004;5.760643165558577E-003;
2.422500000000000E+009;1.470810323953629E-001;-9.410090744495392E-002;1.085341791622341E-003;5.740894470363855E-003;
2.422666666666667E+009;1.466499269008637E-001;-9.597903490066528E-002;1.392099540680647E-003;5.559331271797419E-003;
2.422833333333334E+009;1.470044404268265E-001;-9.768408536911011E-002;1.632005907595158E-003;5.459709092974663E-003;
2.423000000000000E+009;1.468587070703507E-001;-9.914947301149368E-002;1.832681940868497E-003;5.273959599435329E-003;
2.423166666666667E+009;1.470537930727005E-001;-1.008905619382858E-001;1.980274450033903E-003;4.965136758983135E-003;
2.423333333333334E+009;1.472412049770355E-001;-1.023304909467697E-001;2.315131248906255E-003;4.816401749849320E-003;
2.423500000000000E+009;1.474052816629410E-001;-1.039126664400101E-001;2.405821578577161E-003;4.646874498575926E-003;
2.423666666666667E+009;1.475153118371964E-001;-1.056038513779640E-001;2.607815200462937E-003;4.422682803124189E-003;
2.423833333333334E+009;1.479038745164871E-001;-1.070390120148659E-001;2.800366142764688E-003;4.360773600637913E-003;
2.424000000000000E+009;1.480876654386520E-001;-1.082636117935181E-001;2.861617365851998E-003;4.070005379617214E-003;
2.424166666666667E+009;1.482737511396408E-001;-1.095414161682129E-001;2.987978048622608E-003;4.044032189995050E-003;
2.424333333333334E+009;1.488776355981827E-001;-1.109270676970482E-001;2.908964641392231E-003;3.707914846017957E-003;
2.424500000000000E+009;1.492773592472076E-001;-1.121259480714798E-001;3.166633658111095E-003;3.538443706929684E-003;
2.424666666666667E+009;1.496715694665909E-001;-1.128767579793930E-001;3.030603518709540E-003;3.417656524106860E-003;
2.424833333333334E+009;1.499072164297104E-001;-1.141230687499046E-001;3.177906153723598E-003;3.066674340516329E-003;
2.425000000000000E+009;1.502447277307510E-001;-1.150024682283402E-001;3.407315583899617E-003;3.052162937819958E-003;
2.425166666666667E+009;1.505055576562882E-001;-1.158494502305985E-001;3.332133870571852E-003;2.787415869534016E-003;
2.425333333333334E+009;1.508463621139526E-001;-1.166513338685036E-001;3.353998530656099E-003;2.583313034847379E-003;
2.425500000000000E+009;1.513111293315888E-001;-1.174733117222786E-001;3.498330013826489E-003;2.395329764112830E-003;
2.425666666666667E+009;1.512571275234222E-001;-1.180839687585831E-001;3.448093542829156E-003;2.337259007617831E-003;
2.425833333333334E+009;1.516444087028503E-001;-1.186823174357414E-001;3.419640008360148E-003;2.191388979554176E-003;
2.426000000000000E+009;1.516396403312683E-001;-1.191767230629921E-001;3.511983202770352E-003;1.914207590743899E-003;
2.426166666666667E+009;1.518848240375519E-001;-1.195729449391365E-001;3.462627064436674E-003;1.911889761686325E-003;
2.426333333333334E+009;1.517145931720734E-001;-1.199190318584442E-001;3.481804160401225E-003;1.597104826942086E-003;
2.426500000000000E+009;1.518563926219940E-001;-1.201160848140717E-001;3.447697963565588E-003;1.349796191789210E-003;
2.426666666666667E+009;1.518359184265137E-001;-1.203796565532684E-001;3.463069209828973E-003;1.405952498316765E-003;
2.426833333333334E+009;1.515265703201294E-001;-1.206310242414475E-001;3.295055357739329E-003;9.726432035677135E-004;
2.427000000000000E+009;1.512384563684464E-001;-1.209193393588066E-001;3.267237916588783E-003;1.014842418953776E-003;
2.427166666666667E+009;1.509107053279877E-001;-1.207544505596161E-001;3.321089781820774E-003;9.659525239840150E-004;
2.427333333333334E+009;1.503064930438995E-001;-1.210870742797852E-001;3.249327884986997E-003;6.830586935393512E-004;
2.427500000000000E+009;1.500622034072876E-001;-1.212642490863800E-001;3.228779649361968E-003;5.437687505036593E-004;
2.427666666666667E+009;1.492666006088257E-001;-1.213338002562523E-001;3.127321833744645E-003;6.218506023287773E-004;
