# Hz S RI R 50
2400000000.0000000000 0.167869642376899691482705634371 0.040392704308032989501953125000 0.001545603969134389920475625146 -0.001442487933672965006587363135 0 0 0 0 
2400166666.6666665077 0.168692320585250910003338731258 0.039724387228488922119140625000 0.001662066089920700030085898291 -0.001382671645842493014094687354 0 0 0 0 
2400333333.3333334923 0.169126018881797790527343750000 0.038904167711734771728515625000 0.001544613740406930012943886865 -0.001524708932265639088274311597 0 0 0 0 
2400500000.0000000000 0.169672310352325411697549384371 0.038014750927686691284179687500 0.001561695476993917985203408350 -0.001677206018939614079119038159 0 0 0 0 
2400666666.6666665077 0.170028954744338989257812500000 0.037172719836235053325612653907 0.001778811332769691944122314453 -0.001784879015758634047267294775 0 0 0 0 
2400833333.3333334923 0.170487985014915494064169365629 0.036401651799678802490234375000 0.001737962360493839003919291919 -0.002049670554697514014003134619 0 0 0 0 
2401000000.0000000000 0.170747503638267489334268134371 0.035356950014829642559011091407 0.001641687122173606915714882959 -0.001947599230334162928937602466 0 0 0 0 
2401166666.6666665077 0.170851975679397610763388115629 0.034432202577590942382812500000 0.001817481825128198103663779150 -0.002106621395796536965611123193 0 0 0 0 
2401333333.3333334923 0.171083673834800692459268134371 0.033883191645145423198659528907 0.001774780801497400023816752856 -0.002207176294177771048304892432 0 0 0 0 
2401500000.0000000000 0.171342641115188598632812500000 0.032956548035144812847097028907 0.001728003844618797085405659253 -0.002510163234546781019923544775 0 0 0 0 
2401666666.6666665077 0.171512067317962701995526231258 0.032206762582063681865651716407 0.001596482587046921036363911206 -0.002508546924218534989597939600 0 0 0 0 
2401833333.3333334923 0.171676531434059087555255018742 0.031328242272138602519948591407 0.001579506206326187090632773291 -0.002763286465778946876525878906 0 0 0 0 
2402000000.0000000000 0.171619534492492703536825615629 0.030583241954445838928222656250 0.001508867950178683020948100513 -0.002958609955385326905491494287 0 0 0 0 
2402166666.6666665077 0.171816080808639498611611884371 0.029508536681532859802246093750 0.001432630349881947040557861328 -0.003173101460561155839207314600 0 0 0 0 
2402333333.3333334923 0.171847820281982394119424384371 0.028600802645087238657017891796 0.001307959435507654926897358472 -0.003178959479555488066432333838 0 0 0 0 
2402500000.0000000000 0.172092318534851101974325615629 0.027758624404668811452845389454 0.001028987113386393027064658057 -0.003366830991581081910374306787 0 0 0 0 
2402666666.6666665077 0.171744242310523986816406250000 0.026966469362378120422363281250 0.000833923695608973503112792969 -0.003338285489007831053492880713 0 0 0 0 
2402833333.3333334923 0.171958193182945306975994981258 0.025824539363384250295618826954 0.000729324645362794399261474609 -0.003466780064627528190612792969 0 0 0 0 
2403000000.0000000000 0.171811506152152987381143134371 0.024842521175742149353027343750 0.000567587267141789197921752930 -0.003713015699759126143214560400 0 0 0 0 
2403166666.6666665077 0.171766698360443087478799384371 0.023544149473309520376185233204 0.000499720161315053701400756836 -0.003671323647722601890563964844 0 0 0 0 
2403333333.3333334923 0.171616062521934509277343750000 0.022572454065084460866907889454 0.000171570529346354305744171143 -0.003784461179748177962062216650 0 0 0 0 
2403500000.0000000000 0.171229287981986999511718750000 0.021408870816230770456334298046 0.000125812104670330909177503043 -0.003891998436301947073695517432 0 0 0 0 
2403666666.6666665077 0.171366542577743502517861884371 0.020100109279155731201171875000 -0.000162001160788349807262420654 -0.003745005233213305907008505713 0 0 0 0 
2403833333.3333334923 0.171264201402664212325888115629 0.018995096907019618642786795704 -0.000260969740338623523712158203 -0.003724920796230434937718056787 0 0 0 0 
2404000000.0000000000 0.171114847064018305022869981258 0.017619971185922619211217110546 -0.000538459280505776405334472656 -0.003707892261445521874668740381 0 0 0 0 
2404166666.6666665077 0.170868054032325689117755018742 0.016396835446357730520228201954 -0.000825879164040088653564453125 -0.003758460516110063032862997900 0 0 0 0 
2404333333.3333334923 0.170801237225532503982705634371 0.015136109665036199742327305273 -0.000915802200324833393096923828 -0.003670873353257774873020791162 0 0 0 0 
2404500000.0000000000 0.170459970831871004959268134371 0.013584262691438199824323085352 -0.001227185362949966950657509912 -0.003652245970442891120910644531 0 0 0 0 
2404666666.6666665077 0.170462012290954589843750000000 0.012165299616754060227363787305 -0.001156495069153606891632080078 -0.003358266549184917969944619287 0 0 0 0 
2404833333.3333334923 0.170353055000305203536825615629 0.010724075138568879908551600977 -0.001348541234619915919062949072 -0.003391507314518094062805175781 0 0 0 0 
2405000000.0000000000 0.170359626412391690353231865629 0.009243829175829887390136718750 -0.001666695461608469919917441260 -0.003272639587521553039550781250 0 0 0 0 
2405166666.6666665077 0.170280784368514986892861884371 0.007701603230088949203491210938 -0.001627959194593131975886679541 -0.003171571297571063041687011719 0 0 0 0 
2405333333.3333334923 0.170258566737174987792968750000 0.006017473060637713345999433301 -0.001801070640794933059095073169 -0.003250750247389078140258789062 0 0 0 0 
2405500000.0000000000 0.170204773545265197753906250000 0.004521505441516637802124023438 -0.002050305483862758116481161963 -0.002993389964103699164149618994 0 0 0 0 
2405666666.6666665077 0.170118153095245389083700615629 0.003144725691527127785923623193 -0.001875697635114192962646484375 -0.002998942974954843954799033057 0 0 0 0 
2405833333.3333334923 0.169926911592483492752236884371 0.001421677879989146969438862378 -0.002095621777698398070094443213 -0.002854762598872185187098837744 0 0 0 0 
2406000000.0000000000 0.169871523976325988769531250000 -0.000360989535693079178959447040 -0.002348428126424551010131835938 -0.002888157963752747015712118994 0 0 0 0 
2406166666.6666665077 0.169594928622245788574218750000 -0.001760021201334893920301127856 -0.002513754181563853783848427881 -0.002478386508300900892970419775 0 0 0 0 
2406333333.3333334923 0.169594839215278597732705634371 -0.003537070704624056816101074219 -0.002642574254423379898071289062 -0.002262631198391317887547158350 0 0 0 0 
2406500000.0000000000 0.169417202472686795333700615629 -0.005080038681626319885253906250 -0.002604975365102291107177734375 -0.002168429316952825026271201025 0 0 0 0 
2406666666.6666665077 0.169225245714187594314736884371 -0.006576311774551867571358965137 -0.002763419644907116889953613281 -0.001961541594937444166896201025 0 0 0 0 
2406833333.3333334923 0.169071555137634305099325615629 -0.008253382518887519836425781250 -0.002769127720966935157775878906 -0.001705729984678328037261962891 0 0 0 0 
2407000000.0000000000 0.168957650661468505859375000000 -0.009614047594368457794189453125 -0.002666584681719541983363486182 -0.001556427683681250052211142432 0 0 0 0 
2407166666.6666665077 0.168834432959556607345419365629 -0.010986797511577609670618826954 -0.002657850505784153938293457031 -0.001298620365560054995893168872 0 0 0 0 
2407333333.3333334923 0.168614849448204012771768134371 -0.012593147344887260091761405079 -0.002689714543521403832676552881 -0.001134968129917979023577045972 0 0 0 0 
2407500000.0000000000 0.168314859271049499511718750000 -0.013792281039059160405169102148 -0.002551930025219916863682412256 -0.000854745623655617237091064453 0 0 0 0 
2407666666.6666665077 0.168328762054443387130575615629 -0.014936336316168309992780116602 -0.002454750472679733796360634912 -0.000785768497735261917114257812 0 0 0 0 
2407833333.3333334923 0.168061360716819790939169365629 -0.016155889257788661611536795704 -0.002295496407896279855015420068 -0.000648028275463730096817016602 0 0 0 0 
2408000000.0000000000 0.168111115694045992752236884371 -0.017374601215124130249023437500 -0.002051483606919645829441689600 -0.000600185303483158349990844727 0 0 0 0 
2408166666.6666665077 0.167807891964912386795205634371 -0.018338277935981750488281250000 -0.002007232047617435889003134619 -0.000643259088974446058273315430 0 0 0 0 
2408333333.3333334923 0.168019503355026300628338731258 -0.019153505563735958444615548046 -0.002019809326156973838806152344 -0.000555487175006419420242309570 0 0 0 0 
2408500000.0000000000 0.167952582240104703048544365629 -0.020399633795022961008092110546 -0.001839463016949594020843505859 -0.000644820567686110734939575195 0 0 0 0 
2408666666.6666665077 0.168091401457786587814169365629 -0.021280972287058830261230468750 -0.001750280498526989979984902490 -0.000649789755698293447494506836 0 0 0 0 
2408833333.3333334923 0.168015211820602389236611884371 -0.022199779748916629446009451954 -0.001792972092516720078111958081 -0.000567476381547749042510986328 0 0 0 0 
2409000000.0000000000 0.168357506394386291503906250000 -0.023196494206786159170130545704 -0.001671778620220720984815288013 -0.000640722108073532581329345703 0 0 0 0 
2409166666.6666665077 0.168460965156555203536825615629 -0.023908613249659538269042968750 -0.001610131002962589047075581128 -0.000689653854351490736007690430 0 0 0 0 
2409333333.3333334923 0.168650001287460299392861884371 -0.024944659322500228881835937500 -0.001698127365671098015428852612 -0.000572073040530085563659667969 0 0 0 0 
2409500000.0000000000 0.168736711144447298904580634371 -0.025928050279617309570312500000 -0.001624108757823706106898642432 -0.000674840353894978761672973633 0 0 0 0 
2409666666.6666665077 0.168921381235122708419638115629 -0.026736725121736529958704764454 -0.001578041934408247904536581885 -0.000669425120577216148376464844 0 0 0 0 
2409833333.3333334923 0.168757900595665005782919365629 -0.027524022385478019714355468750 -0.001514974865131079933763813550 -0.000662439910229295492172241211 0 0 0 0 
2410000000.0000000000 0.169123008847236605545205634371 -0.028434416279196739196777343750 -0.001518834731541574001312255859 -0.000576571561396121978759765625 0 0 0 0 
2410166666.6666665077 0.169165924191474886795205634371 -0.029304631054401401174525076954 -0.001551727298647165081621479565 -0.000630941300187259912490844727 0 0 0 0 
2410333333.3333334923 0.169229105114936800857705634371 -0.030236404389142990112304687500 -0.001395284663885832049726176685 -0.000746868434362113475799560547 0 0 0 0 
2410500000.0000000000 0.169249475002288790603799384371 -0.030914675444364551198939139454 -0.001485348097048700072644877856 -0.000663252780213952064514160156 0 0 0 0 
2410666666.6666665077 0.168942734599113492111044365629 -0.032141603529453277587890625000 -0.001236218959093094088910746997 -0.000821547640953212976455688477 0 0 0 0 
2410833333.3333334923 0.169157728552818298339843750000 -0.032765235751867287372629533593 -0.001299637719057499928715371240 -0.000781822949647903442382812500 0 0 0 0 
2411000000.0000000000 0.168860271573066711425781250000 -0.033799812197685241699218750000 -0.001318317023105918927433632959 -0.000868519069626927375793457031 0 0 0 0 
2411166666.6666665077 0.168749004602432306487713731258 -0.034654226154088967060129533593 -0.001223182771354913928388286060 -0.000988942803815007209777832031 0 0 0 0 
2411333333.3333334923 0.168586999177932711502236884371 -0.035521458834409706806223283593 -0.001302274642512202046037983472 -0.000847934687044471502304077148 0 0 0 0 
2411500000.0000000000 0.168416589498519897460937500000 -0.036534283310174942016601562500 -0.001431535929441452026367187500 -0.001029881881549953980686806787 0 0 0 0 
2411666666.6666665077 0.168341577053070096114950615629 -0.037338800728321082378347028907 -0.001477623474784194989445351709 -0.000963825325015932321548461914 0 0 0 0 
2411833333.3333334923 0.168058708310127313811932481258 -0.037918098270893096923828125000 -0.001591504900716244957567524487 -0.001333222608081996007206582178 0 0 0 0 
2412000000.0000000000 0.167913362383842496017294365629 -0.039082419127225882793386091407 -0.001475207973271607918980263818 -0.001266974490135907909990620190 0 0 0 0 
2412166666.6666665077 0.167361319065093994140625000000 -0.039958424866199493408203125000 -0.001797068398445845083949423682 -0.001497746328823267979862832178 0 0 0 0 
2412333333.3333334923 0.167456209659576388260049384371 -0.040658414363861077045481096093 -0.001787972403690218925476074219 -0.001481463201344012997270893628 0 0 0 0 
2412500000.0000000000 0.166888222098350497146768134371 -0.041645180433988571166992187500 -0.001856788643635808987858437646 -0.001300743664614856026293110425 0 0 0 0 
2412666666.6666665077 0.166700646281242398361044365629 -0.042536273598670959472656250000 -0.002196643268689513206481933594 -0.001502477447502315044403076172 0 0 0 0 
2412833333.3333334923 0.166233390569686889648437500000 -0.043398991227149963378906250000 -0.002471949439495801925659179688 -0.001340878079645336107966757666 0 0 0 0 
2413000000.0000000000 0.165809303522110013107138115629 -0.044558525085449218750000000000 -0.002420692006126046180725097656 -0.001357451314106584028956747900 0 0 0 0 
2413166666.6666665077 0.165257588028907803634481865629 -0.045530635863542556762695312500 -0.002635829616338015036342001807 -0.001330163097009062983869243091 0 0 0 0 
2413333333.3333334923 0.164745464920997591873330634371 -0.046474169939756393432617187500 -0.002871348289772868156433105469 -0.001189039321616291999816894531 0 0 0 0 
2413500000.0000000000 0.164228320121765108963174384371 -0.047528710216283798217773437500 -0.003022548742592335180995322119 -0.001093068858608603911158896338 0 0 0 0 
2413666666.6666665077 0.163972228765487698654013115629 -0.048655670136213302612304687500 -0.003124287351965903802158974756 -0.001144602079875767014147114331 0 0 0 0 
2413833333.3333334923 0.163281649351119995117187500000 -0.049523241817951202392578125000 -0.003272554371505976156947470557 -0.000774009909946471452713012695 0 0 0 0 
2414000000.0000000000 0.162679046392440795898437500000 -0.050566811114549636840820312500 -0.003279434982687234878540039062 -0.000625822518486529588699340820 0 0 0 0 
2414166666.6666665077 0.162458196282386807540731865629 -0.051380135118961327289621721093 -0.003407072741538286209106445312 -0.000408659368986263925403040753 0 0 0 0 
2414333333.3333334923 0.162061348557472201248330634371 -0.052435554563999182964284528907 -0.003562000812962650819065713037 -0.000388879998354241306155604230 0 0 0 0 
2414500000.0000000000 0.161775410175323486328125000000 -0.053374771028757102275807966407 -0.003562768688425422148463583838 -0.000345428328728303313255310059 0 0 0 0 
2414666666.6666665077 0.161390244960784912109375000000 -0.054240629076957702636718750000 -0.003551354631781578063964843750 0.000027921742002945389935766526 0 0 0 0 
2414833333.3333334923 0.160956993699073791503906250000 -0.055301107466220862651784528907 -0.003606765298172831969020224463 0.000019137189156026579439640045 0 0 0 0 
2415000000.0000000000 0.160669013857841491699218750000 -0.056261729449033737182617187500 -0.003876473987475038008448935400 0.000197113608010113212183275766 0 0 0 0 
2415166666.6666665077 0.160448431968688992599325615629 -0.057488493621349341655690778907 -0.003827753942459822134730673682 0.000343862571753561496734619141 0 0 0 0 
2415333333.3333334923 0.160376220941543606857138115629 -0.058410383760929107666015625000 -0.003834291826933621926548623193 0.000447491736849770004123133527 0 0 0 0 
2415500000.0000000000 0.160115510225295992752236884371 -0.059761364012956619262695312500 -0.003713469486683607101440429688 0.000791762315202504396438598633 0 0 0 0 
2415666666.6666665077 0.159960672259330805022869981258 -0.060668330639600746845285783593 -0.003913355525583028793334960938 0.000954423972871154546737670898 0 0 0 0 
2415833333.3333334923 0.159795224666595486739950615629 -0.061953119933605187152902971093 -0.003654600353911519050598144531 0.001103560556657612106920551831 0 0 0 0 
2416000000.0000000000 0.159460335969924899002236884371 -0.063257917761802673339843750000 -0.003630540566518903212306357275 0.001374366926029324965236044775 0 0 0 0 
2416166666.6666665077 0.159360110759735107421875000000 -0.064400762319564819335937500000 -0.003619432449340819878819131006 0.001460341038182378032087016528 0 0 0 0 
2416333333.3333334923 0.159111604094505310058593750000 -0.065598152577877044677734375000 -0.003709503682330251173732138525 0.001762044150382279916050576318 0 0 0 0 
2416500000.0000000000 0.158852100372314508636151231258 -0.066883370280265808105468750000 -0.003410232253372668786289834131 0.001930226222611963965772319263 0 0 0 0 
2416666666.6666665077 0.158577784895896911621093750000 -0.067972727119922637939453125000 -0.003551088506355882124659872900 0.002174410736188292937037802588 0 0 0 0 
2416833333.3333334923 0.158325403928756713867187500000 -0.069304123520851135253906250000 -0.003241240046918392181396484375 0.002211651997640728950500488281 0 0 0 0 
2417000000.0000000000 0.157803222537040710449218750000 -0.070418849587440490722656250000 -0.003078010864555836157557822119 0.002425560494884849028346396338 0 0 0 0 
2417166666.6666665077 0.157464280724525507171307481258 -0.071413330733776092529296875000 -0.002937964629381895065307617188 0.002592244418337941169738769531 0 0 0 0 
2417333333.3333334923 0.157243326306343106368856865629 -0.072439469397068023681640625000 -0.002842040732502936883213662256 0.002669836860150098800659179688 0 0 0 0 
2417500000.0000000000 0.156898707151412991622763115629 -0.073667347431182861328125000000 -0.002782026305794715881347656250 0.002721861470490694046020507812 0 0 0 0 
2417666666.6666665077 0.156716108322143610198651231258 -0.074485175311565399169921875000 -0.002618071390315889878513955225 0.002906820503994822935817099463 0 0 0 0 
2417833333.3333334923 0.156335502862930297851562500000 -0.075407840311527252197265625000 -0.002513246377930045127868652344 0.002874426310881971879246377100 0 0 0 0 
2418000000.0000000000 0.155921995639800997635049384371 -0.076348565518856048583984375000 -0.002157118869945406913757324219 0.002877029357478023009059286963 0 0 0 0 
2418166666.6666665077 0.155642658472061212737713731258 -0.077115938067436218261718750000 -0.002119510900229216055629111182 0.003184689441695808930637978662 0 0 0 0 
2418333333.3333334923 0.155705764889717102050781250000 -0.077949546277523040771484375000 -0.001965506235137581825256347656 0.003160768654197454886195517432 0 0 0 0 
2418500000.0000000000 0.155322507023811312576455634371 -0.078681282699108123779296875000 -0.001874946407042443969129252856 0.003085396019741892814636230469 0 0 0 0 
2418666666.6666665077 0.155163064599037198165731865629 -0.079647682607173919677734375000 -0.001604813383892178969142294775 0.003167251357808709144592285156 0 0 0 0 
2418833333.3333334923 0.154738172888755798339843750000 -0.080571614205837249755859375000 -0.001507722656242548985722207178 0.003168530529364943938014365088 0 0 0 0 
2419000000.0000000000 0.154321387410163907150106865629 -0.081138670444488525390625000000 -0.001346849836409091949462890625 0.003126360243186355070826865088 0 0 0 0 
2419166666.6666665077 0.153994917869567898849325615629 -0.081787660717964172363281250000 -0.001293206820264459089991904150 0.003235019277781248092651367188 0 0 0 0 
2419333333.3333334923 0.153691649436950711349325615629 -0.082478158175945281982421875000 -0.001288472209125757000566792065 0.003010269254446030096766806494 0 0 0 0 
2419500000.0000000000 0.153486579656601007659588731258 -0.083110332489013671875000000000 -0.001087836921215056939366006006 0.003108207369223237037658691406 0 0 0 0 
2419666666.6666665077 0.153150901198387201507244981258 -0.083956867456436157226562500000 -0.001022717915475368933436728369 0.002842755755409597916844033350 0 0 0 0 
2419833333.3333334923 0.152738898992538507659588731258 -0.084287352859973907470703125000 -0.000964200939051806926727294922 0.003073534695431590080261230469 0 0 0 0 
