# Version 1.00
#
freq[Hz];re:Trc1_S11;im:Trc1_S11;re:Trc2_S21;im:Trc2_S21;
2.400000000000000E+009;1.554919034242630E-001;1.106861382722855E-001;9.673537570051849E-004;4.601802676916122E-003;
2.400166666666667E+009;1.551224440336227E-001;1.083300784230232E-001;1.028254628181458E-003;4.394148010760546E-003;
2.400333333333334E+009;1.546964049339294E-001;1.062373146414757E-001;1.159034785814583E-003;4.540897905826569E-003;
2.400500000000000E+009;1.543901860713959E-001;1.034961715340614E-001;1.202160143293440E-003;4.418481141328812E-003;
2.400666666666667E+009;1.542112976312637E-001;1.010383963584900E-001;1.335615641437471E-003;4.390168003737927E-003;
2.400833333333334E+009;1.538479179143906E-001;9.826778620481491E-002;1.342873438261449E-003;4.343528766185045E-003;
2.401000000000000E+009;1.536902785301209E-001;9.523551911115646E-002;1.592574990354478E-003;4.234501626342535E-003;
2.401166666666667E+009;1.535426527261734E-001;9.254009276628494E-002;1.503800740465522E-003;4.305727314203978E-003;
2.401333333333334E+009;1.536668986082077E-001;8.959534019231796E-002;1.641094917431474E-003;4.255313426256180E-003;
2.401500000000000E+009;1.539056748151779E-001;8.648975193500519E-002;1.880451571196318E-003;4.306723829358816E-003;
2.401666666666667E+009;1.540772169828415E-001;8.356516808271408E-002;2.079114550724626E-003;4.292999859899283E-003;
2.401833333333334E+009;1.543161720037460E-001;8.064164221286774E-002;2.140955999493599E-003;4.364286083728075E-003;
2.402000000000000E+009;1.550481915473938E-001;7.778508961200714E-002;2.483332529664040E-003;4.254292696714401E-003;
2.402166666666667E+009;1.557275652885437E-001;7.480418682098389E-002;2.542729256674647E-003;4.273033700883389E-003;
2.402333333333334E+009;1.563551574945450E-001;7.188021391630173E-002;2.991263987496495E-003;4.249238409101963E-003;
2.402500000000000E+009;1.572559922933579E-001;6.915526837110519E-002;3.091569291427732E-003;4.154130350798369E-003;
2.402666666666667E+009;1.584168672561646E-001;6.665168702602387E-002;3.381432266905904E-003;3.752527991309762E-003;
2.402833333333334E+009;1.595781594514847E-001;6.385494023561478E-002;3.466431517153978E-003;3.841117955744267E-003;
2.403000000000000E+009;1.608819812536240E-001;6.142647191882134E-002;3.692301455885172E-003;3.619618946686387E-003;
2.403166666666667E+009;1.626783907413483E-001;5.889322981238365E-002;4.004308488219976E-003;3.403812646865845E-003;
2.403333333333334E+009;1.640979796648026E-001;5.660015717148781E-002;4.200771450996399E-003;3.138342406600714E-003;
2.403500000000000E+009;1.659006178379059E-001;5.429481714963913E-002;4.486498422920704E-003;2.908821217715740E-003;
2.403666666666667E+009;1.677885800600052E-001;5.210142210125923E-002;4.410289227962494E-003;2.390675479546189E-003;
2.403833333333334E+009;1.694779843091965E-001;5.015563592314720E-002;4.614559467881918E-003;1.924215350300074E-003;
2.404000000000000E+009;1.710701286792755E-001;4.794684052467346E-002;4.642118234187365E-003;1.498253201134503E-003;
2.404166666666667E+009;1.730887442827225E-001;4.646218195557594E-002;4.659149330109358E-003;1.302450662478805E-003;
2.404333333333334E+009;1.747590601444244E-001;4.468292370438576E-002;4.310211166739464E-003;8.787943515926600E-004;
2.404500000000000E+009;1.765832006931305E-001;4.298285767436028E-002;4.268395714461803E-003;6.864824099466205E-004;
2.404666666666667E+009;1.784534454345703E-001;4.194653034210205E-002;4.146195482462645E-003;5.005519487895072E-004;
2.404833333333334E+009;1.804876625537872E-001;4.052486270666122E-002;4.004390910267830E-003;2.221911418018863E-004;
2.405000000000000E+009;1.820306926965714E-001;4.001297056674957E-002;3.734030527994037E-003;9.962968761101365E-005;
2.405166666666667E+009;1.836156249046326E-001;3.912474215030670E-002;3.754783188924193E-003;-1.691623765509576E-005;
2.405333333333334E+009;1.853034943342209E-001;3.864083439111710E-002;3.539253724738956E-003;-8.166858606273308E-005;
2.405500000000000E+009;1.869440674781799E-001;3.806327655911446E-002;3.446007147431374E-003;-4.799196904059500E-005;
2.405666666666667E+009;1.884710043668747E-001;3.760189563035965E-002;3.353832289576531E-003;-3.484096378087997E-004;
2.405833333333334E+009;1.901577562093735E-001;3.733095154166222E-002;3.185317851603031E-003;-4.199171962682158E-004;
2.406000000000000E+009;1.913845092058182E-001;3.725956752896309E-002;3.133290680125356E-003;-3.677792847156525E-004;
2.406166666666667E+009;1.927279531955719E-001;3.724534437060356E-002;3.131318837404251E-003;-4.292301309760660E-004;
2.406333333333334E+009;1.938528865575790E-001;3.732686489820480E-002;3.110764548182488E-003;-5.282112397253513E-004;
2.406500000000000E+009;1.948936283588409E-001;3.749781101942062E-002;3.047150326892734E-003;-5.783588858321309E-004;
2.406666666666667E+009;1.957841813564301E-001;3.754628822207451E-002;2.836351282894611E-003;-7.335440604947507E-004;
2.406833333333334E+009;1.966207772493362E-001;3.781915828585625E-002;2.716730348765850E-003;-7.549865404143930E-004;
2.407000000000000E+009;1.971643120050430E-001;3.830781206488609E-002;2.567429561167955E-003;-9.156356099992991E-004;
2.407166666666667E+009;1.978285163640976E-001;3.843644261360169E-002;2.459933282807469E-003;-9.079676237888634E-004;
2.407333333333334E+009;1.978738307952881E-001;3.875389695167542E-002;2.227616962045431E-003;-9.925755439326167E-004;
2.407500000000000E+009;1.981095969676971E-001;3.908368945121765E-002;2.301503904163837E-003;-1.034273067489266E-003;
2.407666666666667E+009;1.981606781482697E-001;3.934769332408905E-002;1.966814277693629E-003;-1.070136902853847E-003;
2.407833333333334E+009;1.978453993797302E-001;3.950938582420349E-002;1.895703142508864E-003;-1.036842819303274E-003;
2.408000000000000E+009;1.978733986616135E-001;3.972744941711426E-002;1.813633833080530E-003;-8.770074928179383E-004;
2.408166666666667E+009;1.974006891250610E-001;3.982347995042801E-002;1.706278417259455E-003;-8.645569323562086E-004;
2.408333333333334E+009;1.969606429338455E-001;3.952504694461823E-002;1.561877434141934E-003;-8.357036276720464E-004;
2.408500000000000E+009;1.963776350021362E-001;3.954675793647766E-002;1.562225283123553E-003;-7.280570571310818E-004;
2.408666666666667E+009;1.957112848758698E-001;3.937164694070816E-002;1.446746988222003E-003;-6.167732062749565E-004;
2.408833333333334E+009;1.949156671762466E-001;3.903191909193993E-002;1.367109944112599E-003;-2.701895718928427E-004;
2.409000000000000E+009;1.939471662044525E-001;3.836344927549362E-002;1.434387406334281E-003;-2.472530177328736E-004;
2.409166666666667E+009;1.927968710660934E-001;3.767529502511025E-002;1.333263469859958E-003;-1.177803933387622E-004;
2.409333333333334E+009;1.919791400432587E-001;3.712115064263344E-002;1.577866496518254E-003;-7.407081284327433E-005;
2.409500000000000E+009;1.907751560211182E-001;3.608820214867592E-002;1.658335211686790E-003;2.400051016593352E-005;
2.409666666666667E+009;1.894950270652771E-001;3.495766222476959E-002;1.707975869067013E-003;1.493503077654168E-004;
2.409833333333334E+009;1.883001029491425E-001;3.370407968759537E-002;1.774656353518367E-003;2.074926887871698E-004;
2.410000000000000E+009;1.871619671583176E-001;3.244759514927864E-002;1.889620209112763E-003;2.527189499232918E-004;
2.410166666666667E+009;1.859745532274246E-001;3.074753098189831E-002;1.983711495995522E-003;2.039325918303803E-004;
2.410333333333334E+009;1.848381459712982E-001;2.907486259937286E-002;2.116554649546742E-003;3.007412888109684E-004;
2.410500000000000E+009;1.836569905281067E-001;2.736835740506649E-002;2.145752310752869E-003;2.418581570964307E-004;
2.410666666666667E+009;1.823175251483917E-001;2.517037466168404E-002;2.235890366137028E-003;1.671321224421263E-004;
2.410833333333334E+009;1.814773231744766E-001;2.303738705813885E-002;2.337220124900341E-003;2.284430374857038E-004;
2.411000000000000E+009;1.805095076560974E-001;2.079838886857033E-002;2.495395950973034E-003;2.289966942043975E-004;
2.411166666666667E+009;1.796465963125229E-001;1.865884847939014E-002;2.544842660427094E-003;-3.924595512216911E-005;
2.411333333333334E+009;1.788849383592606E-001;1.615469530224800E-002;2.620493527501822E-003;4.464633093448356E-005;
2.411500000000000E+009;1.780025959014893E-001;1.385731436312199E-002;2.559353131800890E-003;-4.890923719358398E-006;
2.411666666666667E+009;1.778500825166702E-001;1.139206625521183E-002;2.740475814789534E-003;7.508294856961584E-006;
2.411833333333334E+009;1.774399876594544E-001;8.855639025568962E-003;2.868226030841470E-003;1.232326758326963E-005;
2.412000000000000E+009;1.773066818714142E-001;6.203383207321167E-003;2.779054455459118E-003;-2.532527832954656E-005;
2.412166666666667E+009;1.772480159997940E-001;3.661558963358402E-003;3.093145787715912E-003;-2.188474172726274E-004;
2.412333333333334E+009;1.770639568567276E-001;1.071868697181344E-003;3.265040926635265E-003;-1.309074577875435E-004;
2.412500000000000E+009;1.775564849376679E-001;-1.642699120566249E-003;3.260456258431077E-003;-1.098126813303679E-004;
2.412666666666667E+009;1.779628098011017E-001;-4.220749251544476E-003;3.489490132778883E-003;-3.589205734897405E-004;
2.412833333333334E+009;1.785173267126083E-001;-6.864740978926420E-003;3.852021647617221E-003;-4.380608734209091E-004;
2.413000000000000E+009;1.792197972536087E-001;-9.389549493789673E-003;3.916718065738678E-003;-5.559928831644356E-004;
2.413166666666667E+009;1.799089461565018E-001;-1.191482506692410E-002;4.035920836031437E-003;-9.206036338582635E-004;
2.413333333333334E+009;1.809567362070084E-001;-1.454453822225332E-002;4.081772174686194E-003;-9.917378192767501E-004;
2.413500000000000E+009;1.817484200000763E-001;-1.696644723415375E-002;4.186113364994526E-003;-1.534179551526904E-003;
2.413666666666667E+009;1.830084621906281E-001;-1.944377459585667E-002;4.544981289654970E-003;-1.757510588504374E-003;
2.413833333333334E+009;1.841353178024292E-001;-2.168674580752850E-002;4.540143068879843E-003;-2.153858775272965E-003;
2.414000000000000E+009;1.853233575820923E-001;-2.381452545523644E-002;4.473915323615074E-003;-2.510829130187631E-003;
2.414166666666667E+009;1.867351979017258E-001;-2.604429982602596E-002;4.284838214516640E-003;-2.876816084608436E-003;
2.414333333333334E+009;1.880000680685043E-001;-2.813658118247986E-002;4.199925344437361E-003;-3.299567382782698E-003;
2.414500000000000E+009;1.895289868116379E-001;-2.982490323483944E-002;3.874336136505008E-003;-3.603007644414902E-003;
2.414666666666667E+009;1.909483075141907E-001;-3.167297318577766E-002;3.689925186336041E-003;-3.823748789727688E-003;
2.414833333333334E+009;1.920830458402634E-001;-3.312889486551285E-002;3.587393788620830E-003;-4.221107345074415E-003;
2.415000000000000E+009;1.934998035430908E-001;-3.467191383242607E-002;3.380277892574668E-003;-4.417748190462589E-003;
2.415166666666667E+009;1.950132250785828E-001;-3.605220466852188E-002;2.966776955872774E-003;-4.640102386474609E-003;
2.415333333333334E+009;1.963700205087662E-001;-3.706566989421845E-002;2.699010539799929E-003;-4.740526434034109E-003;
2.415500000000000E+009;1.978824585676193E-001;-3.796128556132317E-002;2.403523540124297E-003;-4.874018486589193E-003;
2.415666666666667E+009;1.991490274667740E-001;-3.892984613776207E-002;2.123848767951131E-003;-4.966641776263714E-003;
2.415833333333334E+009;2.003762573003769E-001;-3.964852914214134E-002;1.876598689705133E-003;-5.217570345848799E-003;
2.416000000000000E+009;2.012166082859039E-001;-4.036923870444298E-002;1.652439357712865E-003;-5.286833737045527E-003;
2.416166666666667E+009;2.024827152490616E-001;-4.094963893294334E-002;1.218045945279300E-003;-5.491887684911490E-003;
2.416333333333334E+009;2.033270001411438E-001;-4.133316129446030E-002;1.120192580856383E-003;-5.487384274601936E-003;
2.416500000000000E+009;2.040707617998123E-001;-4.151993617415428E-002;7.625669823028147E-004;-5.544768646359444E-003;
2.416666666666667E+009;2.045658528804779E-001;-4.198342189192772E-002;4.988284781575203E-004;-5.608010571449995E-003;
2.416833333333334E+009;2.051139026880264E-001;-4.197600483894348E-002;1.696876424830407E-004;-5.631476175040007E-003;
2.417000000000000E+009;2.055456340312958E-001;-4.203431680798531E-002;-2.603651082608849E-004;-5.532693117856979E-003;
2.417166666666667E+009;2.055287063121796E-001;-4.191951453685761E-002;-6.226117839105427E-004;-5.616249516606331E-003;
2.417333333333334E+009;2.055381238460541E-001;-4.147955775260925E-002;-7.579618250019848E-004;-5.610862281173468E-003;
2.417500000000000E+009;2.054422646760941E-001;-4.147366434335709E-002;-1.151344040408731E-003;-5.483138840645552E-003;
2.417666666666667E+009;2.051983922719955E-001;-4.126792401075363E-002;-1.369475037790835E-003;-5.486692767590284E-003;
2.417833333333334E+009;2.050036936998367E-001;-4.086240008473396E-002;-1.732945907860994E-003;-5.189230665564537E-003;
2.418000000000000E+009;2.044812589883804E-001;-4.041143879294395E-002;-2.056620549410582E-003;-5.039239302277565E-003;
2.418166666666667E+009;2.038441300392151E-001;-4.015905037522316E-002;-2.254088176414371E-003;-4.947307519614697E-003;
2.418333333333334E+009;2.030929476022720E-001;-3.988545387983322E-002;-2.533865161240101E-003;-4.604832734912634E-003;
2.418500000000000E+009;2.022687047719955E-001;-3.965507820248604E-002;-2.763951662927866E-003;-4.322963301092386E-003;
2.418666666666667E+009;2.013936638832092E-001;-3.936451673507690E-002;-2.787649631500244E-003;-4.106848966330290E-003;
2.418833333333334E+009;2.001544684171677E-001;-3.917967528104782E-002;-3.010385204106569E-003;-3.917542286217213E-003;
2.419000000000000E+009;1.987760215997696E-001;-3.925075754523277E-002;-3.139724722132087E-003;-3.497831989079714E-003;
2.419166666666667E+009;1.976144760847092E-001;-3.928817063570023E-002;-3.164006862789393E-003;-3.479484468698502E-003;
2.419333333333334E+009;1.961341798305512E-001;-3.960493952035904E-002;-3.279277589172125E-003;-3.036097390577197E-003;
2.419500000000000E+009;1.946682184934616E-001;-3.977413102984428E-002;-3.114938968792558E-003;-2.813199302181602E-003;
2.419666666666667E+009;1.930410414934158E-001;-4.035127907991409E-002;-3.375368192791939E-003;-2.542681060731411E-003;
2.419833333333334E+009;1.913320273160934E-001;-4.082620888948441E-002;-3.396691754460335E-003;-2.444314304739237E-003;
2.420000000000000E+009;1.897002309560776E-001;-4.163709655404091E-002;-3.033364890143275E-003;-2.284608548507094E-003;
2.420166666666667E+009;1.878653168678284E-001;-4.237833991646767E-002;-3.231295151636004E-003;-2.039736369624734E-003;
2.420333333333334E+009;1.861521750688553E-001;-4.344125092029572E-002;-3.022441407665610E-003;-1.824510283768177E-003;
2.420500000000000E+009;1.842724084854126E-001;-4.464571550488472E-002;-3.010920016095042E-003;-1.710141077637672E-003;
2.420666666666667E+009;1.825591176748276E-001;-4.557787254452705E-002;-2.911302261054516E-003;-1.606543315574527E-003;
2.420833333333334E+009;1.807070076465607E-001;-4.704906791448593E-002;-2.865365240722895E-003;-1.560598844662309E-003;
2.421000000000000E+009;1.789735257625580E-001;-4.846353083848953E-002;-2.773738466203213E-003;-1.317450427450240E-003;
2.421166666666667E+009;1.773332953453064E-001;-5.023160576820374E-002;-2.706011291593313E-003;-1.411766512319446E-003;
2.421333333333334E+009;1.755536496639252E-001;-5.174706876277924E-002;-2.620591782033444E-003;-1.337930327281356E-003;
2.421500000000000E+009;1.740884631872177E-001;-5.372808128595352E-002;-2.519913250580430E-003;-1.453199191018939E-003;
2.421666666666667E+009;1.725877374410629E-001;-5.567710474133492E-002;-2.505839569494128E-003;-1.321112853474915E-003;
2.421833333333334E+009;1.711728572845459E-001;-5.759494751691818E-002;-2.493049483746290E-003;-1.227478031069040E-003;
2.422000000000000E+009;1.698524057865143E-001;-5.961546674370766E-002;-2.528381533920765E-003;-1.224314793944359E-003;
2.422166666666667E+009;1.688203066587448E-001;-6.185790523886681E-002;-2.560807392001152E-003;-1.214117743074894E-003;
2.422333333333334E+009;1.676660478115082E-001;-6.412149220705032E-002;-2.552721416577697E-003;-1.163671491667628E-003;
2.422500000000000E+009;1.666457951068878E-001;-6.612481176853180E-002;-2.423426602035761E-003;-1.228742068633437E-003;
2.422666666666667E+009;1.658321768045425E-001;-6.845497339963913E-002;-2.617259277030826E-003;-9.829085320234299E-004;
2.422833333333334E+009;1.652053594589233E-001;-7.070192694664002E-002;-2.534652827307582E-003;-1.087281387299299E-003;
2.423000000000000E+009;1.644199788570404E-001;-7.298015803098679E-002;-2.458680421113968E-003;-1.076787826605141E-003;
2.423166666666667E+009;1.639403998851776E-001;-7.516092061996460E-002;-2.473244676366448E-003;-1.095748855732381E-003;
2.423333333333334E+009;1.637269556522369E-001;-7.738943397998810E-002;-2.564301248639822E-003;-8.969965274445713E-004;
2.423500000000000E+009;1.636409610509872E-001;-7.941243797540665E-002;-2.510704100131989E-003;-8.751043933443725E-004;
2.423666666666667E+009;1.633911728858948E-001;-8.180771023035049E-002;-2.406747546046972E-003;-7.658713147975504E-004;
2.423833333333334E+009;1.633713394403458E-001;-8.371751755475998E-002;-2.395666437223554E-003;-6.929486989974976E-004;
2.424000000000000E+009;1.635287404060364E-001;-8.590658009052277E-002;-2.387106185778976E-003;-6.864913157187402E-004;
2.424166666666667E+009;1.635849028825760E-001;-8.763748407363892E-002;-2.401171252131462E-003;-8.784150122664869E-004;
2.424333333333334E+009;1.638848334550858E-001;-8.940584212541580E-002;-2.432818291708827E-003;-8.841570233926177E-004;
2.424500000000000E+009;1.643380075693131E-001;-9.147147089242935E-002;-2.270755125209689E-003;-8.612311212345958E-004;
2.424666666666667E+009;1.647552400827408E-001;-9.310088306665421E-002;-2.280818764120340E-003;-8.857265347614884E-004;
2.424833333333334E+009;1.653274744749069E-001;-9.474577009677887E-002;-2.450887346640229E-003;-8.454246562905610E-004;
2.425000000000000E+009;1.657916009426117E-001;-9.605748206377029E-002;-2.619799459353089E-003;-9.736993233673275E-004;
2.425166666666667E+009;1.662731617689133E-001;-9.742600470781326E-002;-2.683949656784535E-003;-9.680712246336043E-004;
2.425333333333334E+009;1.666500121355057E-001;-9.868641197681427E-002;-2.814052393659949E-003;-8.142255246639252E-004;
2.425500000000000E+009;1.672828793525696E-001;-9.969040751457214E-002;-2.876689657568932E-003;-8.018861408345401E-004;
2.425666666666667E+009;1.678802371025085E-001;-1.005795896053314E-001;-3.017475828528404E-003;-7.984865223988891E-004;
2.425833333333334E+009;1.683534234762192E-001;-1.015519276261330E-001;-3.198197111487389E-003;-7.890655542723835E-004;
2.426000000000000E+009;1.690141409635544E-001;-1.022214889526367E-001;-3.546887543052435E-003;-6.421104189939797E-004;
2.426166666666667E+009;1.695084422826767E-001;-1.026967391371727E-001;-3.386355005204678E-003;-6.067755748517811E-004;
2.426333333333334E+009;1.699344664812088E-001;-1.033573225140572E-001;-3.509779227897525E-003;-2.828193537425250E-004;
2.426500000000000E+009;1.705431044101715E-001;-1.037318706512451E-001;-3.616761649027467E-003;1.209372749144677E-005;
2.426666666666667E+009;1.710129082202911E-001;-1.039269417524338E-001;-3.611788852140307E-003;1.377680746372789E-004;
2.426833333333334E+009;1.714900732040405E-001;-1.042923256754875E-001;-3.758609993383288E-003;2.887020527850837E-004;
2.427000000000000E+009;1.717555224895477E-001;-1.045305579900742E-001;-3.758247010409832E-003;2.234838029835373E-004;
2.427166666666667E+009;1.719195991754532E-001;-1.045497432351112E-001;-3.726810682564974E-003;5.468419985845685E-004;
2.427333333333334E+009;1.720459163188934E-001;-1.047989353537560E-001;-3.727287752553821E-003;6.047248607501388E-004;
2.427500000000000E+009;1.720664501190186E-001;-1.047788560390472E-001;-3.623030148446560E-003;6.927289068698883E-004;
2.427666666666667E+009;1.719533503055573E-001;-1.048839092254639E-001;-3.640930168330669E-003;8.285527001135051E-004;
