# Version 1.00
#
freq[Hz];re:Trc1_S11;im:Trc1_S11;re:Trc2_S21;im:Trc2_S21;
2.400000000000000E+009;1.691673994064331E-001;4.577510431408882E-002;-3.156322345603257E-004;-5.384433083236218E-003;
2.400166666666667E+009;1.703428775072098E-001;4.502221196889877E-002;-4.299637803342193E-004;-5.226497538387775E-003;
2.400333333333334E+009;1.712022125720978E-001;4.376740381121635E-002;-5.443455302156508E-004;-5.286427680402994E-003;
2.400500000000000E+009;1.721780151128769E-001;4.290631040930748E-002;-6.046614726074040E-004;-5.409812554717064E-003;
2.400666666666667E+009;1.730362325906754E-001;4.175214841961861E-002;-8.274315041489899E-004;-5.143418442457914E-003;
2.400833333333334E+009;1.741045862436295E-001;4.127205163240433E-002;-9.310739114880562E-004;-4.920518957078457E-003;
2.401000000000000E+009;1.747896671295166E-001;4.046778753399849E-002;-1.053511630743742E-003;-5.092372186481953E-003;
2.401166666666667E+009;1.755490750074387E-001;3.976589068770409E-002;-1.260303659364581E-003;-4.848903045058250E-003;
2.401333333333334E+009;1.761787086725235E-001;3.909908980131149E-002;-1.395538216456771E-003;-4.689292982220650E-003;
2.401500000000000E+009;1.770476996898651E-001;3.856755793094635E-002;-1.440185820683837E-003;-4.645669832825661E-003;
2.401666666666667E+009;1.775439530611038E-001;3.804273158311844E-002;-1.756370184011757E-003;-4.532563965767622E-003;
2.401833333333334E+009;1.780767291784287E-001;3.741857409477234E-002;-1.813968294300139E-003;-4.513893742114306E-003;
2.402000000000000E+009;1.785700768232346E-001;3.694331645965576E-002;-2.080563688650727E-003;-4.464400466531515E-003;
2.402166666666667E+009;1.789384037256241E-001;3.622189909219742E-002;-2.010876312851906E-003;-4.290024749934673E-003;
2.402333333333334E+009;1.793968975543976E-001;3.572842851281166E-002;-2.453047083690763E-003;-4.015151411294937E-003;
2.402500000000000E+009;1.799884438514710E-001;3.501175716519356E-002;-2.239857101812959E-003;-3.835120005533099E-003;
2.402666666666667E+009;1.800436228513718E-001;3.461105749011040E-002;-2.410768996924162E-003;-3.754497272893786E-003;
2.402833333333334E+009;1.800294965505600E-001;3.389595448970795E-002;-2.505552256479859E-003;-3.555837785825133E-003;
2.403000000000000E+009;1.801898032426834E-001;3.321236744523048E-002;-2.457265974953771E-003;-3.334991633892059E-003;
2.403166666666667E+009;1.801280230283737E-001;3.240193799138069E-002;-2.558983163908124E-003;-3.441978245973587E-003;
2.403333333333334E+009;1.799160689115524E-001;3.167217224836350E-002;-2.500657690688968E-003;-3.420496359467506E-003;
2.403500000000000E+009;1.795477122068405E-001;3.072661161422730E-002;-2.526182914152741E-003;-3.187352092936635E-003;
2.403666666666667E+009;1.795883029699326E-001;2.970889583230019E-002;-2.498395275324583E-003;-3.117255633696914E-003;
2.403833333333334E+009;1.792711913585663E-001;2.863164432346821E-002;-2.373980823904276E-003;-3.142041387036443E-003;
2.404000000000000E+009;1.788191348314285E-001;2.767536975443363E-002;-2.521892776712775E-003;-3.063596086576581E-003;
2.404166666666667E+009;1.783475875854492E-001;2.650520950555801E-002;-2.415627706795931E-003;-3.023321041837335E-003;
2.404333333333334E+009;1.778793632984161E-001;2.534542977809906E-002;-2.575180958956480E-003;-3.127724397927523E-003;
2.404500000000000E+009;1.772920936346054E-001;2.391437813639641E-002;-2.643316052854061E-003;-3.058144124224782E-003;
2.404666666666667E+009;1.767096966505051E-001;2.260529249906540E-002;-2.684593200683594E-003;-3.103341907262802E-003;
2.404833333333334E+009;1.762151569128037E-001;2.101418375968933E-002;-2.739522838965058E-003;-3.225738648325205E-003;
2.405000000000000E+009;1.757467091083527E-001;1.941625215113163E-002;-2.818633103743196E-003;-3.043279983103275E-003;
2.405166666666667E+009;1.752322316169739E-001;1.789758913218975E-002;-2.904676599428058E-003;-2.856217557564378E-003;
2.405333333333334E+009;1.746524870395660E-001;1.611195877194405E-002;-3.149075899273157E-003;-2.793302061036229E-003;
2.405500000000000E+009;1.743531227111816E-001;1.456821337342262E-002;-3.243150655180216E-003;-3.047561272978783E-003;
2.405666666666667E+009;1.738654375076294E-001;1.281409990042448E-002;-3.347130957990885E-003;-2.879516687244177E-003;
2.405833333333334E+009;1.733282655477524E-001;1.106107980012894E-002;-3.519414225593209E-003;-2.671176800504327E-003;
2.406000000000000E+009;1.732648909091950E-001;9.038930758833885E-003;-3.606755984947085E-003;-2.793294843286276E-003;
2.406166666666667E+009;1.728205233812332E-001;7.184826303273439E-003;-3.732434939593077E-003;-2.671574009582400E-003;
2.406333333333334E+009;1.727615743875504E-001;5.140807945281267E-003;-3.832488786429167E-003;-2.511222148314118E-003;
2.406500000000000E+009;1.726134419441223E-001;3.047778736799955E-003;-3.854521550238133E-003;-2.398584736511111E-003;
2.406666666666667E+009;1.724036782979965E-001;1.094109145924449E-003;-4.201048985123634E-003;-2.249264856800437E-003;
2.406833333333334E+009;1.723233163356781E-001;-9.817505488172174E-004;-4.271395504474640E-003;-2.146949060261250E-003;
2.407000000000000E+009;1.724231094121933E-001;-3.120659152045846E-003;-4.346210975199938E-003;-1.949237193912268E-003;
2.407166666666667E+009;1.727031469345093E-001;-5.065654870122671E-003;-4.389714915305376E-003;-1.873479341156781E-003;
2.407333333333334E+009;1.726956814527512E-001;-7.506447844207287E-003;-4.560153931379318E-003;-1.679113600403070E-003;
2.407500000000000E+009;1.729348450899124E-001;-9.603587910532951E-003;-4.713019356131554E-003;-1.424360089004040E-003;
2.407666666666667E+009;1.732773333787918E-001;-1.160292979329824E-002;-4.908744711428881E-003;-1.263550948351622E-003;
2.407833333333334E+009;1.733369827270508E-001;-1.372599322348833E-002;-4.831595811992884E-003;-8.538224501535296E-004;
2.408000000000000E+009;1.739856898784638E-001;-1.594482921063900E-002;-4.919391125440598E-003;-7.895756280049682E-004;
2.408166666666667E+009;1.743282675743103E-001;-1.775821857154369E-002;-4.866191651672125E-003;-4.248449695296586E-004;
2.408333333333334E+009;1.749577075242996E-001;-1.987581513822079E-002;-5.006145685911179E-003;-2.095057134283707E-004;
2.408500000000000E+009;1.752010583877564E-001;-2.179787866771221E-002;-4.766002297401428E-003;9.705357661005110E-005;
2.408666666666667E+009;1.758175045251846E-001;-2.373566478490830E-002;-4.895457532256842E-003;3.501548198983073E-004;
2.408833333333334E+009;1.761807948350906E-001;-2.544427663087845E-002;-4.621349740773439E-003;6.127945380285382E-004;
2.409000000000000E+009;1.766807138919830E-001;-2.724528312683106E-002;-4.723345395177603E-003;8.291482226923108E-004;
2.409166666666667E+009;1.770897358655930E-001;-2.877545915544033E-002;-4.493981599807739E-003;9.980838513001800E-004;
2.409333333333334E+009;1.775380074977875E-001;-3.030670993030071E-002;-4.371746908873320E-003;1.117535517551005E-003;
2.409500000000000E+009;1.781172156333923E-001;-3.164689615368843E-002;-4.423703067004681E-003;1.372728031128645E-003;
2.409666666666667E+009;1.785813868045807E-001;-3.283375501632690E-002;-4.134748596698046E-003;1.393408747389913E-003;
2.409833333333334E+009;1.789237558841705E-001;-3.388334810733795E-002;-3.917065449059010E-003;1.420083222910762E-003;
2.410000000000000E+009;1.794919222593308E-001;-3.489995375275612E-002;-3.952668514102697E-003;1.553970039822161E-003;
2.410166666666667E+009;1.800557523965836E-001;-3.590930998325348E-002;-3.639722708612680E-003;1.745763700455427E-003;
2.410333333333334E+009;1.803519725799561E-001;-3.669234737753868E-002;-3.604338271543384E-003;1.866581966169179E-003;
2.410500000000000E+009;1.808978021144867E-001;-3.740148618817329E-002;-3.290084889158607E-003;1.956447027623653E-003;
2.410666666666667E+009;1.811770647764206E-001;-3.817041218280792E-002;-3.360817441716790E-003;1.911169267259538E-003;
2.410833333333334E+009;1.816525608301163E-001;-3.856878355145454E-002;-3.121393499895930E-003;2.060577739030123E-003;
2.411000000000000E+009;1.819288134574890E-001;-3.927608951926231E-002;-3.016435774043202E-003;2.153204986825585E-003;
2.411166666666667E+009;1.820573508739471E-001;-3.974404186010361E-002;-2.937665907666087E-003;1.975631341338158E-003;
2.411333333333334E+009;1.822815537452698E-001;-4.023187234997749E-002;-2.669316949322820E-003;2.020536456257105E-003;
2.411500000000000E+009;1.824729442596436E-001;-4.081023856997490E-002;-2.660984871909022E-003;2.036772901192308E-003;
2.411666666666667E+009;1.824178546667099E-001;-4.100312665104866E-002;-2.761735813692212E-003;2.096374751999974E-003;
2.411833333333334E+009;1.821797490119934E-001;-4.146776348352432E-002;-2.517361193895340E-003;2.049505943432450E-003;
2.412000000000000E+009;1.822184473276138E-001;-4.183605313301086E-002;-2.421711338683963E-003;2.058060374110937E-003;
2.412166666666667E+009;1.817805469036102E-001;-4.222846403717995E-002;-2.370063448324800E-003;2.019044477492571E-003;
2.412333333333334E+009;1.814365237951279E-001;-4.238070175051689E-002;-2.384364604949951E-003;2.036528661847115E-003;
2.412500000000000E+009;1.810764968395233E-001;-4.262497276067734E-002;-2.196576911956072E-003;1.894494751468301E-003;
2.412666666666667E+009;1.803598254919052E-001;-4.314949735999107E-002;-2.493806881830096E-003;1.961368136107922E-003;
2.412833333333334E+009;1.796323806047440E-001;-4.352590069174767E-002;-2.248837612569332E-003;1.970838988199830E-003;
2.413000000000000E+009;1.788487285375595E-001;-4.371197521686554E-002;-2.232597675174475E-003;2.034622011706233E-003;
2.413166666666667E+009;1.780702173709869E-001;-4.398994520306587E-002;-2.407881896942854E-003;2.037128666415811E-003;
2.413333333333334E+009;1.769161671400070E-001;-4.451272264122963E-002;-2.372980117797852E-003;2.007075352594256E-003;
2.413500000000000E+009;1.760154962539673E-001;-4.499256610870361E-002;-2.354330848902464E-003;2.026850590482354E-003;
2.413666666666667E+009;1.750110983848572E-001;-4.544710740447044E-002;-2.464164048433304E-003;2.136241877451539E-003;
2.413833333333334E+009;1.738021671772003E-001;-4.598172008991242E-002;-2.432806417346001E-003;2.301970729604363E-003;
2.414000000000000E+009;1.725727766752243E-001;-4.656877368688583E-002;-2.467939630150795E-003;2.376934513449669E-003;
2.414166666666667E+009;1.716376096010208E-001;-4.737818986177445E-002;-2.497114008292556E-003;2.480708062648773E-003;
2.414333333333334E+009;1.703029125928879E-001;-4.802172631025314E-002;-2.425456885248423E-003;2.409050939604640E-003;
2.414500000000000E+009;1.691164374351502E-001;-4.890313372015953E-002;-2.395975869148970E-003;2.632065443322063E-003;
2.414666666666667E+009;1.679157167673111E-001;-4.973233491182327E-002;-2.251321682706475E-003;2.794841304421425E-003;
2.414833333333334E+009;1.665737181901932E-001;-5.085488781332970E-002;-2.119878539815545E-003;2.838448388502002E-003;
2.415000000000000E+009;1.651618927717209E-001;-5.197231844067574E-002;-2.177125541493297E-003;3.042632946744561E-003;
2.415166666666667E+009;1.639428138732910E-001;-5.317652598023415E-002;-2.152072964236140E-003;3.176714759320021E-003;
2.415333333333334E+009;1.628541052341461E-001;-5.457659438252449E-002;-2.017759019508958E-003;3.204589476808906E-003;
2.415500000000000E+009;1.617234796285629E-001;-5.586766079068184E-002;-1.791527611203492E-003;3.274327376857400E-003;
2.415666666666667E+009;1.607042849063873E-001;-5.722727626562119E-002;-1.800231053493917E-003;3.178108250722289E-003;
2.415833333333334E+009;1.596675068140030E-001;-5.897283181548119E-002;-1.552537898533046E-003;3.523549297824502E-003;
2.416000000000000E+009;1.583950668573380E-001;-6.061307713389397E-002;-1.598004950210452E-003;3.497208002954722E-003;
2.416166666666667E+009;1.575110405683518E-001;-6.244055554270744E-002;-1.381000387482345E-003;3.429006319493055E-003;
2.416333333333334E+009;1.565233021974564E-001;-6.420056521892548E-002;-1.323336968198419E-003;3.691603429615498E-003;
2.416500000000000E+009;1.555215120315552E-001;-6.609148532152176E-002;-1.029633916914463E-003;3.650379600003362E-003;
2.416666666666667E+009;1.546713262796402E-001;-6.793700158596039E-002;-1.207107794471085E-003;3.493060590699315E-003;
2.416833333333334E+009;1.539601981639862E-001;-7.001903653144836E-002;-7.556364871561527E-004;3.654483007267118E-003;
2.417000000000000E+009;1.529918015003204E-001;-7.194266468286514E-002;-8.347250404767692E-004;3.571649082005024E-003;
2.417166666666667E+009;1.524468660354614E-001;-7.377709448337555E-002;-6.697372882626951E-004;3.641898510977626E-003;
2.417333333333334E+009;1.518091112375259E-001;-7.573154568672180E-002;-5.807559937238693E-004;3.726337105035782E-003;
2.417500000000000E+009;1.512069404125214E-001;-7.785339653491974E-002;-4.815646680071950E-004;3.821389051154256E-003;
2.417666666666667E+009;1.509397625923157E-001;-7.957763969898224E-002;-4.869290860369802E-004;3.654927015304565E-003;
2.417833333333334E+009;1.505539417266846E-001;-8.154351264238358E-002;-2.942948485724628E-004;3.831147681921721E-003;
2.418000000000000E+009;1.500898748636246E-001;-8.355394005775452E-002;-3.841138677671552E-004;3.955615218728781E-003;
2.418166666666667E+009;1.498864144086838E-001;-8.508094400167465E-002;-1.418981846654788E-004;3.910612780600786E-003;
2.418333333333334E+009;1.498477607965469E-001;-8.694242686033249E-002;-1.539919467177242E-004;4.051372408866882E-003;
2.418500000000000E+009;1.496174037456513E-001;-8.868659287691116E-002;9.502965258434415E-005;4.009846597909927E-003;
2.418666666666667E+009;1.497242450714111E-001;-9.019494801759720E-002;2.076779055641964E-004;4.043770022690296E-003;
2.418833333333334E+009;1.495980322360992E-001;-9.158235788345337E-002;3.930848033633083E-004;4.176365677267313E-003;
2.419000000000000E+009;1.496124565601349E-001;-9.302819520235062E-002;5.150819197297096E-004;4.112137481570244E-003;
2.419166666666667E+009;1.496543139219284E-001;-9.424564242362976E-002;9.583914652466774E-004;4.174446687102318E-003;
2.419333333333334E+009;1.496295928955078E-001;-9.524437785148621E-002;1.009441912174225E-003;4.102601204067469E-003;
2.419500000000000E+009;1.499791443347931E-001;-9.628500789403915E-002;1.070315949618816E-003;4.018778912723064E-003;
2.419666666666667E+009;1.503009647130966E-001;-9.737943112850189E-002;1.404587994329631E-003;3.985444083809853E-003;
2.419833333333334E+009;1.502947509288788E-001;-9.802245348691940E-002;1.469660317525268E-003;3.894688561558723E-003;
2.420000000000000E+009;1.508026272058487E-001;-9.872620552778244E-002;1.714472193270922E-003;3.926062956452370E-003;
2.420166666666667E+009;1.509957462549210E-001;-9.939954429864883E-002;1.905043725855649E-003;3.812247887253761E-003;
2.420333333333334E+009;1.512914896011353E-001;-9.975984692573547E-002;2.082089427858591E-003;3.753731725737453E-003;
2.420500000000000E+009;1.519107222557068E-001;-9.989404678344727E-002;2.108029788360000E-003;3.443751251325011E-003;
2.420666666666667E+009;1.520414948463440E-001;-1.002035215497017E-001;2.351544564589858E-003;3.494883188977838E-003;
2.420833333333334E+009;1.522127687931061E-001;-1.004235073924065E-001;2.422505291178823E-003;3.589015686884522E-003;
2.421000000000000E+009;1.525805741548538E-001;-1.005226224660873E-001;2.491963095963001E-003;3.156211925670505E-003;
2.421166666666667E+009;1.526781916618347E-001;-1.004359275102615E-001;2.702256664633751E-003;3.009058535099030E-003;
2.421333333333334E+009;1.529233008623123E-001;-1.003169640898705E-001;2.657480537891388E-003;2.931994851678610E-003;
2.421500000000000E+009;1.527524143457413E-001;-1.001202538609505E-001;2.713378053158522E-003;2.691317582502961E-003;
2.421666666666667E+009;1.530973315238953E-001;-1.000874117016792E-001;2.886297879740596E-003;2.760474570095539E-003;
2.421833333333334E+009;1.530772298574448E-001;-9.968830645084381E-002;2.828988945111632E-003;2.577850827947259E-003;
2.422000000000000E+009;1.527994722127914E-001;-9.938184171915054E-002;3.038628958165646E-003;2.448810730129480E-003;
2.422166666666667E+009;1.524553894996643E-001;-9.931257367134094E-002;2.966862870380282E-003;2.322663553059101E-003;
2.422333333333334E+009;1.524006724357605E-001;-9.899293631315231E-002;3.089613048359752E-003;2.275157254189253E-003;
2.422500000000000E+009;1.520078033208847E-001;-9.861223399639130E-002;3.088930388912559E-003;2.164005301892757E-003;
2.422666666666667E+009;1.512132436037064E-001;-9.802676737308502E-002;3.237277036532760E-003;2.103869337588549E-003;
2.422833333333334E+009;1.505151838064194E-001;-9.785056859254837E-002;3.091563005000353E-003;1.828006468713284E-003;
2.423000000000000E+009;1.498382240533829E-001;-9.745898842811585E-002;3.311523934826255E-003;1.905477605760098E-003;
2.423166666666667E+009;1.489870995283127E-001;-9.715872257947922E-002;3.178225364536047E-003;1.794428913854063E-003;
2.423333333333334E+009;1.480010300874710E-001;-9.668260067701340E-002;3.281829180195928E-003;1.683513750322163E-003;
2.423500000000000E+009;1.468217074871063E-001;-9.644295275211334E-002;3.209970891475678E-003;1.535053830593824E-003;
2.423666666666667E+009;1.455466896295548E-001;-9.629013389348984E-002;3.315942129120231E-003;1.468962989747524E-003;
2.423833333333334E+009;1.445594429969788E-001;-9.596540033817291E-002;3.349431790411472E-003;1.331994193606079E-003;
2.424000000000000E+009;1.430704891681671E-001;-9.560728818178177E-002;3.382486058399081E-003;1.257284544408321E-003;
2.424166666666667E+009;1.416152417659760E-001;-9.552782773971558E-002;3.329230239614844E-003;1.173251192085445E-003;
2.424333333333334E+009;1.403031498193741E-001;-9.544911235570908E-002;3.358585061505437E-003;1.042695832438767E-003;
2.424500000000000E+009;1.389172971248627E-001;-9.552691876888275E-002;3.318486735224724E-003;1.168109476566315E-003;
2.424666666666667E+009;1.375631988048554E-001;-9.533704072237015E-002;3.316302783787251E-003;9.287052671425045E-004;
2.424833333333334E+009;1.357351243495941E-001;-9.572332352399826E-002;3.468362381681800E-003;8.860521484166384E-004;
2.425000000000000E+009;1.343374550342560E-001;-9.610167145729065E-002;3.360581351444125E-003;8.473088964819908E-004;
2.425166666666667E+009;1.327265501022339E-001;-9.655497223138809E-002;3.381975693628192E-003;9.406383032910526E-004;
2.425333333333334E+009;1.312319785356522E-001;-9.705567359924316E-002;3.542055608704686E-003;7.554416079074144E-004;
2.425500000000000E+009;1.298646479845047E-001;-9.778415411710739E-002;3.267362713813782E-003;6.856825202703476E-004;
2.425666666666667E+009;1.282288283109665E-001;-9.845872968435288E-002;3.389100544154644E-003;6.154780276119709E-004;
2.425833333333334E+009;1.266930252313614E-001;-9.932487457990646E-002;3.648742567747831E-003;5.896245711483061E-004;
2.426000000000000E+009;1.253247559070587E-001;-1.005120277404785E-001;3.628583624958992E-003;4.419859324116260E-004;
2.426166666666667E+009;1.241591721773148E-001;-1.015413999557495E-001;3.718602703884244E-003;4.091667069587857E-004;
2.426333333333334E+009;1.226361691951752E-001;-1.028044223785400E-001;3.862402401864529E-003;1.561750104883686E-004;
2.426500000000000E+009;1.213984563946724E-001;-1.040527001023293E-001;3.745576599612832E-003;-1.750651244947221E-005;
2.426666666666667E+009;1.203603744506836E-001;-1.054234579205513E-001;3.857055446133018E-003;-3.609005216276273E-005;
2.426833333333334E+009;1.190958321094513E-001;-1.069020330905914E-001;3.752478631213307E-003;-2.888297894969583E-004;
2.427000000000000E+009;1.179261133074760E-001;-1.086926534771919E-001;3.667615586891770E-003;-3.875535330735147E-004;
2.427166666666667E+009;1.170476004481316E-001;-1.100783050060272E-001;3.814243711531162E-003;-4.967343411408365E-004;
2.427333333333334E+009;1.159732565283775E-001;-1.119005307555199E-001;3.598577808588743E-003;-6.668088608421385E-004;
2.427500000000000E+009;1.152849048376083E-001;-1.136107742786408E-001;3.501764731481671E-003;-9.428548510186374E-004;
2.427666666666667E+009;1.145406737923622E-001;-1.153773069381714E-001;3.458502935245633E-003;-9.626729879528284E-004;
