# Version 1.00
#
freq[Hz];re:Trc1_S11;im:Trc1_S11;re:Trc2_S21;im:Trc2_S21;
2.400000000000000E+009;1.550892293453217E-001;1.062724292278290E-001;-3.480570856481791E-003;-1.736429869197309E-003;
2.400166666666667E+009;1.549426019191742E-001;1.040055453777313E-001;-3.425658214837313E-003;-1.557348761707544E-003;
2.400333333333334E+009;1.550134569406509E-001;1.016260683536530E-001;-3.438927931711078E-003;-1.511866459622979E-003;
2.400500000000000E+009;1.549584865570068E-001;9.887339174747467E-002;-3.392317565158010E-003;-1.258743577636778E-003;
2.400666666666667E+009;1.550589352846146E-001;9.639884531497955E-002;-3.447970142588019E-003;-1.295976922847331E-003;
2.400833333333334E+009;1.549996733665466E-001;9.348623454570770E-002;-3.483424196019769E-003;-1.209550886414945E-003;
2.401000000000000E+009;1.552299857139587E-001;9.088439494371414E-002;-3.469517221674323E-003;-1.026890357024968E-003;
2.401166666666667E+009;1.554027944803238E-001;8.791995048522949E-002;-3.439879976212978E-003;-1.139074680395424E-003;
2.401333333333334E+009;1.557447016239166E-001;8.520120382308960E-002;-3.513299860060215E-003;-9.947326034307480E-004;
2.401500000000000E+009;1.562199443578720E-001;8.239524066448212E-002;-3.457666141912341E-003;-9.194049634970725E-004;
2.401666666666667E+009;1.564733386039734E-001;7.953152805566788E-002;-3.423226764425635E-003;-8.502744021825492E-004;
2.401833333333334E+009;1.570235043764114E-001;7.670955359935761E-002;-3.606982994824648E-003;-8.870389428921044E-004;
2.402000000000000E+009;1.580189466476440E-001;7.420903444290161E-002;-3.446989925578237E-003;-7.726527401246131E-004;
2.402166666666667E+009;1.588089615106583E-001;7.168801873922348E-002;-3.558224299922586E-003;-7.942874217405915E-004;
2.402333333333334E+009;1.597373783588409E-001;6.907462328672409E-002;-3.473681397736073E-003;-5.615373374894261E-004;
2.402500000000000E+009;1.609961092472076E-001;6.660272926092148E-002;-3.668326651677489E-003;-6.690132431685925E-004;
2.402666666666667E+009;1.622082740068436E-001;6.424441188573837E-002;-3.765035420656204E-003;-6.658532074652612E-004;
2.402833333333334E+009;1.634584069252014E-001;6.173516064882278E-002;-3.891128348186612E-003;-6.535810534842312E-004;
2.403000000000000E+009;1.649969816207886E-001;5.953998863697052E-002;-3.977598156780005E-003;-3.806738823186606E-004;
2.403166666666667E+009;1.666365265846252E-001;5.736149474978447E-002;-4.057775717228651E-003;-1.143799272540491E-005;
2.403333333333334E+009;1.680209636688232E-001;5.521546676754952E-002;-4.101265221834183E-003;1.145909045590088E-004;
2.403500000000000E+009;1.698843091726303E-001;5.300753563642502E-002;-4.142892081290484E-003;1.443786459276453E-004;
2.403666666666667E+009;1.717582046985626E-001;5.131496861577034E-002;-4.241068381816149E-003;4.813474079128355E-004;
2.403833333333334E+009;1.731940060853958E-001;4.939024150371552E-002;-4.270028322935104E-003;7.196072256192565E-004;
2.404000000000000E+009;1.747736036777496E-001;4.768363386392593E-002;-4.135700408369303E-003;1.035328838042915E-003;
2.404166666666667E+009;1.765087991952896E-001;4.606939852237701E-002;-4.204248078167439E-003;1.041647279635072E-003;
2.404333333333334E+009;1.781179159879684E-001;4.478250071406364E-002;-3.971282858401537E-003;1.297667389735580E-003;
2.404500000000000E+009;1.798045486211777E-001;4.328067973256111E-002;-3.754365956410766E-003;1.396830426529050E-003;
2.404666666666667E+009;1.812804043292999E-001;4.226944968104363E-002;-3.801966318860650E-003;1.699636457487941E-003;
2.404833333333334E+009;1.829396039247513E-001;4.119649529457092E-002;-3.756177378818393E-003;1.936545828357339E-003;
2.405000000000000E+009;1.842082142829895E-001;4.061278700828552E-002;-3.678870387375355E-003;1.803642371669412E-003;
2.405166666666667E+009;1.857356280088425E-001;3.990502655506134E-002;-3.434366779401898E-003;1.983347116038203E-003;
2.405333333333334E+009;1.872132420539856E-001;3.935788944363594E-002;-3.437792882323265E-003;2.031429205089808E-003;
2.405500000000000E+009;1.884544342756271E-001;3.891155496239662E-002;-3.354593645781279E-003;2.158415736630559E-003;
2.405666666666667E+009;1.896646916866303E-001;3.831049427390099E-002;-3.273429349064827E-003;2.216214546933770E-003;
2.405833333333334E+009;1.910528391599655E-001;3.812411800026894E-002;-3.168299328535795E-003;2.348455833271146E-003;
2.406000000000000E+009;1.918421983718872E-001;3.798140585422516E-002;-3.025047946721315E-003;2.582114888355136E-003;
2.406166666666667E+009;1.928752511739731E-001;3.779693692922592E-002;-3.020510310307145E-003;2.597678685560823E-003;
2.406333333333334E+009;1.936392933130264E-001;3.786240890622139E-002;-2.878373023122549E-003;2.653886331245303E-003;
2.406500000000000E+009;1.943633705377579E-001;3.776639699935913E-002;-2.815834479406476E-003;2.799261128529906E-003;
2.406666666666667E+009;1.949644684791565E-001;3.790558874607086E-002;-2.655638381838799E-003;2.832960104569793E-003;
2.406833333333334E+009;1.954195946455002E-001;3.783058002591133E-002;-2.582576824352145E-003;2.788288053125143E-003;
2.407000000000000E+009;1.956870555877686E-001;3.800550103187561E-002;-2.382183214649558E-003;3.084094263613224E-003;
2.407166666666667E+009;1.961091756820679E-001;3.783948719501495E-002;-2.092994283884764E-003;3.096141619607806E-003;
2.407333333333334E+009;1.960805803537369E-001;3.794347494840622E-002;-2.196155488491058E-003;3.140254877507687E-003;
2.407500000000000E+009;1.958778053522110E-001;3.790247440338135E-002;-2.025891328230500E-003;3.409048309549689E-003;
2.407666666666667E+009;1.958703845739365E-001;3.777103498578072E-002;-2.003595000132918E-003;3.199253696948290E-003;
2.407833333333334E+009;1.953018605709076E-001;3.754713386297226E-002;-1.777869067154825E-003;3.196488134562969E-003;
2.408000000000000E+009;1.951909065246582E-001;3.745957091450691E-002;-1.691886340267956E-003;3.386367578059435E-003;
2.408166666666667E+009;1.945006102323532E-001;3.713425248861313E-002;-1.558913034386933E-003;3.337123664095998E-003;
2.408333333333334E+009;1.940904408693314E-001;3.651345521211624E-002;-1.437512692064047E-003;3.399218199774623E-003;
2.408500000000000E+009;1.934148371219635E-001;3.623368218541145E-002;-1.306896214373410E-003;3.302981611341238E-003;
2.408666666666667E+009;1.926917582750320E-001;3.554637357592583E-002;-1.155542093329132E-003;3.545524785295129E-003;
2.408833333333334E+009;1.920318156480789E-001;3.488429635763168E-002;-9.276948403567076E-004;3.514063777402043E-003;
2.409000000000000E+009;1.910804361104965E-001;3.391641005873680E-002;-8.616396808065474E-004;3.408598480746150E-003;
2.409166666666667E+009;1.902283281087875E-001;3.284681588411331E-002;-7.545168627984822E-004;3.624429460614920E-003;
2.409333333333334E+009;1.892448812723160E-001;3.189543634653091E-002;-6.699922960251570E-004;3.531479509547353E-003;
2.409500000000000E+009;1.880239546298981E-001;3.054895065724850E-002;-5.562814767472446E-004;3.439036430791020E-003;
2.409666666666667E+009;1.871589124202728E-001;2.897905185818672E-002;-3.888758947141469E-004;3.581170924007893E-003;
2.409833333333334E+009;1.861049234867096E-001;2.773465402424336E-002;-1.478454360039905E-004;3.568555926904082E-003;
2.410000000000000E+009;1.850779205560684E-001;2.601163275539875E-002;-5.863523983862251E-005;3.464420326054096E-003;
2.410166666666667E+009;1.841807812452316E-001;2.408859133720398E-002;2.008648516493850E-005;3.377545159310103E-003;
2.410333333333334E+009;1.831719130277634E-001;2.250452712178230E-002;9.109938400797546E-005;3.441207110881805E-003;
2.410500000000000E+009;1.823025792837143E-001;2.043958008289337E-002;1.384335046168417E-004;3.448165953159332E-003;
2.410666666666667E+009;1.813798248767853E-001;1.825210079550743E-002;1.495198375778273E-004;3.412549616768956E-003;
2.410833333333334E+009;1.808361858129501E-001;1.612965762615204E-002;1.335433771600947E-004;3.274147398769856E-003;
2.411000000000000E+009;1.800543367862701E-001;1.406054850667715E-002;2.587445778772235E-004;3.294885158538818E-003;
2.411166666666667E+009;1.795288026332855E-001;1.160965301096439E-002;3.467981005087495E-004;3.563469741493464E-003;
2.411333333333334E+009;1.790764480829239E-001;9.164590388536453E-003;5.365012912079692E-004;3.357796696946025E-003;
2.411500000000000E+009;1.786448508501053E-001;6.783664692193270E-003;6.414594827219844E-004;3.294568508863449E-003;
2.411666666666667E+009;1.783555746078491E-001;4.587244242429733E-003;6.494998233392835E-004;3.227301640436053E-003;
2.411833333333334E+009;1.782167851924896E-001;2.089698100462556E-003;7.794846897013485E-004;3.295929171144962E-003;
2.412000000000000E+009;1.783427000045776E-001;-4.551277088467032E-004;6.960547179915011E-004;3.178675426170230E-003;
2.412166666666667E+009;1.784639954566956E-001;-2.723735757172108E-003;7.971419254317880E-004;3.146777860820293E-003;
2.412333333333334E+009;1.784950196743012E-001;-5.270830355584621E-003;1.055779168382287E-003;3.182502230629325E-003;
2.412500000000000E+009;1.790108531713486E-001;-7.620398886501789E-003;1.062964205630124E-003;3.099604044109583E-003;
2.412666666666667E+009;1.796947866678238E-001;-1.002856716513634E-002;1.040089759044349E-003;3.086538519710302E-003;
2.412833333333334E+009;1.802253574132919E-001;-1.239856798201799E-002;1.095201936550438E-003;3.082056296989322E-003;
2.413000000000000E+009;1.811391711235046E-001;-1.482446119189262E-002;1.180627616122365E-003;3.162721404805780E-003;
2.413166666666667E+009;1.818059980869293E-001;-1.689668372273445E-002;1.216528587974608E-003;3.012174740433693E-003;
2.413333333333334E+009;1.828469485044479E-001;-1.912355981767178E-002;1.365336123853922E-003;3.052131738513708E-003;
2.413500000000000E+009;1.837210804224014E-001;-2.146585285663605E-002;1.387847121804953E-003;2.912256401032209E-003;
2.413666666666667E+009;1.849623620510101E-001;-2.362935990095139E-002;1.439374289475381E-003;3.294717287644744E-003;
2.413833333333334E+009;1.860338896512985E-001;-2.546332217752934E-002;1.761136809363961E-003;3.299433970823884E-003;
2.414000000000000E+009;1.869923621416092E-001;-2.744462899863720E-002;1.789621892385185E-003;3.276844974607229E-003;
2.414166666666667E+009;1.882016062736511E-001;-2.910625189542770E-002;1.921579707413912E-003;3.334417939186096E-003;
2.414333333333334E+009;1.893246620893478E-001;-3.101711347699165E-002;1.991757424548268E-003;3.316011978313327E-003;
2.414500000000000E+009;1.906447112560272E-001;-3.222829475998879E-002;2.372537273913622E-003;3.104949137195945E-003;
2.414666666666667E+009;1.916582137346268E-001;-3.386549651622772E-002;2.673872979357839E-003;3.107432043179870E-003;
2.414833333333334E+009;1.930446028709412E-001;-3.535807505249977E-002;2.888491842895746E-003;2.909141359850764E-003;
2.415000000000000E+009;1.938749253749847E-001;-3.655029833316803E-002;3.022334072738886E-003;2.878547878935933E-003;
2.415166666666667E+009;1.950180530548096E-001;-3.751825541257858E-002;3.131143283098936E-003;2.616905141621828E-003;
2.415333333333334E+009;1.962026208639145E-001;-3.830862790346146E-002;3.464443376287818E-003;2.494479762390256E-003;
2.415500000000000E+009;1.973299980163574E-001;-3.912008553743362E-002;3.302177647128701E-003;2.388843568041921E-003;
2.415666666666667E+009;1.983361095190048E-001;-3.985135629773140E-002;3.478422062471509E-003;2.172164618968964E-003;
2.415833333333334E+009;1.991509944200516E-001;-4.033350944519043E-002;3.623949363827705E-003;2.040003426373005E-003;
2.416000000000000E+009;1.998366713523865E-001;-4.090138524770737E-002;3.703119698911905E-003;1.694908482022584E-003;
2.416166666666667E+009;2.005765885114670E-001;-4.139554500579834E-002;3.803632222115994E-003;1.737381913699210E-003;
2.416333333333334E+009;2.011874467134476E-001;-4.172137007117271E-002;3.679651534184814E-003;1.623753109015524E-003;
2.416500000000000E+009;2.016617804765701E-001;-4.201404750347138E-002;3.801346290856600E-003;1.358063775114715E-003;
2.416666666666667E+009;2.019202411174774E-001;-4.222266748547554E-002;3.864317201077938E-003;1.222569146193564E-003;
2.416833333333334E+009;2.020998448133469E-001;-4.228094965219498E-002;4.017933737486601E-003;1.021187403239310E-003;
2.417000000000000E+009;2.021730691194534E-001;-4.238870367407799E-002;3.962600603699684E-003;7.332140812650323E-004;
2.417166666666667E+009;2.018629908561707E-001;-4.230891168117523E-002;4.019436426460743E-003;7.584731210954487E-004;
2.417333333333334E+009;2.016897797584534E-001;-4.210894554853439E-002;4.138930235058069E-003;5.091146449558437E-004;
2.417500000000000E+009;2.013940811157227E-001;-4.214287176728249E-002;4.151850007474423E-003;3.084265044890344E-004;
2.417666666666667E+009;2.008234411478043E-001;-4.186939448118210E-002;4.165221937000752E-003;1.456099707866088E-004;
2.417833333333334E+009;2.004891932010651E-001;-4.180219024419785E-002;4.253846593201160E-003;-1.928338169818744E-004;
2.418000000000000E+009;1.998363584280014E-001;-4.152330756187439E-002;4.077957943081856E-003;-3.129388787783682E-004;
2.418166666666667E+009;1.990202963352203E-001;-4.145598039031029E-002;3.950956277549267E-003;-5.709194228984416E-004;
2.418333333333334E+009;1.980609893798828E-001;-4.139375686645508E-002;3.933173138648272E-003;-7.600103272125125E-004;
2.418500000000000E+009;1.969821453094482E-001;-4.136770591139793E-002;3.815298201516271E-003;-8.341809734702110E-004;
2.418666666666667E+009;1.960935145616531E-001;-4.137422516942024E-002;3.961151931434870E-003;-1.041469979099929E-003;
2.418833333333334E+009;1.948658078908920E-001;-4.167429730296135E-002;3.828179324045777E-003;-1.178743317723274E-003;
2.419000000000000E+009;1.935289502143860E-001;-4.185402020812035E-002;3.626440186053515E-003;-1.354091917164624E-003;
2.419166666666667E+009;1.922893375158310E-001;-4.204662144184113E-002;3.562801284715533E-003;-1.417489256709814E-003;
2.419333333333334E+009;1.910103112459183E-001;-4.273422807455063E-002;3.537843702360988E-003;-1.592761371284723E-003;
2.419500000000000E+009;1.895032972097397E-001;-4.316970333456993E-002;3.416392020881176E-003;-1.743073225952685E-003;
2.419666666666667E+009;1.880047470331192E-001;-4.408199340105057E-002;3.279467811807990E-003;-1.937398803420365E-003;
2.419833333333334E+009;1.864537000656128E-001;-4.475481063127518E-002;3.139519365504384E-003;-2.021679421886802E-003;
2.420000000000000E+009;1.848966032266617E-001;-4.551300406455994E-002;3.047099569812417E-003;-2.006786642596126E-003;
2.420166666666667E+009;1.832935810089111E-001;-4.648466035723686E-002;2.960338722914457E-003;-2.019299659878016E-003;
2.420333333333334E+009;1.818408966064453E-001;-4.780000075697899E-002;2.888978458940983E-003;-2.267447300255299E-003;
2.420500000000000E+009;1.800219267606735E-001;-4.905885085463524E-002;2.745004370808601E-003;-2.286442089825869E-003;
2.420666666666667E+009;1.786907613277435E-001;-5.017212778329849E-002;2.624711021780968E-003;-2.382591599598527E-003;
2.420833333333334E+009;1.771458089351654E-001;-5.175557732582092E-002;2.509494079276919E-003;-2.417216543108225E-003;
2.421000000000000E+009;1.756545156240463E-001;-5.327006801962853E-002;2.396684139966965E-003;-2.571224933490157E-003;
2.421166666666667E+009;1.742948293685913E-001;-5.506826192140579E-002;2.220930997282267E-003;-2.387957181781530E-003;
2.421333333333334E+009;1.724419593811035E-001;-5.656596645712853E-002;2.117791445925832E-003;-2.641730010509491E-003;
2.421500000000000E+009;1.714620888233185E-001;-5.859717726707459E-002;2.004262059926987E-003;-2.560232300311327E-003;
2.421666666666667E+009;1.701948493719101E-001;-6.042651087045670E-002;2.004876965656877E-003;-2.616759156808257E-003;
2.421833333333334E+009;1.692115068435669E-001;-6.224884465336800E-002;1.859588548541069E-003;-2.717279363423586E-003;
2.422000000000000E+009;1.679729223251343E-001;-6.433258950710297E-002;1.940484158694744E-003;-2.734787762165070E-003;
2.422166666666667E+009;1.672561168670654E-001;-6.643027812242508E-002;1.657178159803152E-003;-2.765110693871975E-003;
2.422333333333334E+009;1.663561761379242E-001;-6.829401850700378E-002;1.545876497402787E-003;-2.752939006313682E-003;
2.422500000000000E+009;1.655789464712143E-001;-7.019554078578949E-002;1.539040124043822E-003;-2.912867581471801E-003;
2.422666666666667E+009;1.649337559938431E-001;-7.227966934442520E-002;1.423125970177352E-003;-2.816959284245968E-003;
2.422833333333334E+009;1.642939448356628E-001;-7.433189451694489E-002;1.323329634033144E-003;-2.876461483538151E-003;
2.423000000000000E+009;1.639098376035690E-001;-7.632162421941757E-002;1.113084144890308E-003;-3.036575857549906E-003;
2.423166666666667E+009;1.635871976613998E-001;-7.824608683586121E-002;9.218960185535252E-004;-3.059827489778400E-003;
2.423333333333334E+009;1.632234752178192E-001;-8.017646521329880E-002;9.603060898371041E-004;-3.032846143469214E-003;
2.423500000000000E+009;1.633253991603851E-001;-8.195538073778153E-002;9.367278544232249E-004;-3.162773326039314E-003;
2.423666666666667E+009;1.632388234138489E-001;-8.386079221963882E-002;8.166900370270014E-004;-3.048521466553211E-003;
2.423833333333334E+009;1.631307601928711E-001;-8.560249954462051E-002;5.450023454613984E-004;-3.141892608255148E-003;
2.424000000000000E+009;1.632132083177567E-001;-8.732949942350388E-002;3.464898327365518E-004;-3.094227984547615E-003;
2.424166666666667E+009;1.633825004100800E-001;-8.875224739313126E-002;1.302623859373853E-004;-3.073955420404673E-003;
2.424333333333334E+009;1.636205017566681E-001;-9.045142680406570E-002;2.311481366632506E-004;-2.944708103314042E-003;
2.424500000000000E+009;1.639832705259323E-001;-9.222873300313950E-002;8.853597682900727E-005;-3.045238787308335E-003;
2.424666666666667E+009;1.641912013292313E-001;-9.341752529144287E-002;-2.776123292278498E-004;-3.025057725608349E-003;
2.424833333333334E+009;1.648127287626267E-001;-9.464389085769653E-002;-5.145327668287791E-005;-2.911471296101809E-003;
2.425000000000000E+009;1.650947630405426E-001;-9.588027000427246E-002;-3.071549290325493E-004;-2.980971476063132E-003;
2.425166666666667E+009;1.653045564889908E-001;-9.688517451286316E-002;-4.346857313066721E-004;-2.759414026513696E-003;
2.425333333333334E+009;1.656382828950882E-001;-9.780385345220566E-002;-5.203914479352534E-004;-2.850691555067897E-003;
2.425500000000000E+009;1.661780029535294E-001;-9.885368496179581E-002;-5.538258701562882E-004;-2.957480493932962E-003;
2.425666666666667E+009;1.664805263280869E-001;-9.939230978488922E-002;-7.219433318823576E-004;-2.717646071687341E-003;
2.425833333333334E+009;1.667991429567337E-001;-1.002421006560326E-001;-7.493842858821154E-004;-2.667492255568504E-003;
2.426000000000000E+009;1.671368926763535E-001;-1.006371825933456E-001;-8.451007888652384E-004;-2.703211037442088E-003;
2.426166666666667E+009;1.675982624292374E-001;-1.011569723486900E-001;-1.032512751407921E-003;-2.718466101214290E-003;
2.426333333333334E+009;1.675903499126434E-001;-1.016394346952438E-001;-1.276512048207223E-003;-2.546189585700631E-003;
2.426500000000000E+009;1.680356115102768E-001;-1.017892658710480E-001;-1.277717761695385E-003;-2.674330491572619E-003;
2.426666666666667E+009;1.681538671255112E-001;-1.022076979279518E-001;-1.320478972047567E-003;-2.639542100951076E-003;
2.426833333333334E+009;1.683481037616730E-001;-1.024762764573097E-001;-1.359948422759771E-003;-2.233684062957764E-003;
2.427000000000000E+009;1.683313101530075E-001;-1.027005165815353E-001;-1.421370194293559E-003;-2.348741982132196E-003;
2.427166666666667E+009;1.684006899595261E-001;-1.027788072824478E-001;-1.489351387135685E-003;-2.082736231386662E-003;
2.427333333333334E+009;1.681598573923111E-001;-1.030202805995941E-001;-1.429895753972232E-003;-2.035045530647039E-003;
2.427500000000000E+009;1.679228991270065E-001;-1.032637208700180E-001;-1.659533474594355E-003;-2.000345150008798E-003;
2.427666666666667E+009;1.674875169992447E-001;-1.033148095011711E-001;-1.531561138108373E-003;-1.922923838719726E-003;
2.427833333333334E+009;1.672380268573761E-001;-1.033843159675598E-001;-1.696387305855751E-003;-1.781622064299882E-003;
