# Hz S RI R 
2400000000.0000000000 0.156619369983673095703125000000 0.059404678642749793315847028907 0.000999337527900934219360351562 0.003339748596772551970240927588 0 0 0 0 
2400166666.6666665077 0.156887054443359402755575615629 0.057593479752540588378906250000 0.001099725486710668043849326025 0.003075313521549106077906943213 0 0 0 0 
2400333333.3333334923 0.156754851341247586349325615629 0.055607896298170089721679687500 0.001257277210243046066881489331 0.003195333061739801926853798975 0 0 0 0 
2400500000.0000000000 0.157186746597290011306924384371 0.053590420633554458618164062500 0.001374859246425331072566367041 0.003022448625415564017054892432 0 0 0 0 
2400666666.6666665077 0.157260328531265286544638115629 0.051620122045278549194335937500 0.001443779678083956024767231519 0.002962788101285696029663085938 0 0 0 0 
2400833333.3333334923 0.157711222767829895019531250000 0.049612473696470260620117187500 0.001466410118155180974247597803 0.003012395929545164108276367188 0 0 0 0 
2401000000.0000000000 0.157819196581840487381143134371 0.047537632286548621440847028907 0.001552450819872319915174174731 0.002729752566665410995483398438 0 0 0 0 
2401166666.6666665077 0.158314943313598605056924384371 0.045313384383916861797292341407 0.001815192401409148953081440503 0.002762570278719068007228232275 0 0 0 0 
2401333333.3333334923 0.158613219857215909103231865629 0.043458845466375350952148437500 0.001777428784407675049425434644 0.002801678376272321181056357275 0 0 0 0 
2401500000.0000000000 0.159482792019844110686932481258 0.041430387645959847187082658593 0.001782760373316705010057758862 0.002613113494589924812316894531 0 0 0 0 
2401666666.6666665077 0.159909754991531399825888115629 0.039588827639818191528320312500 0.001724039553664624907849955981 0.002486612880602478981018066406 0 0 0 0 
2401833333.3333334923 0.160439148545265197753906250000 0.037665102630853652954101562500 0.001855848124250770048854208838 0.002570034237578510804417275537 0 0 0 0 
2402000000.0000000000 0.161058768630027798751669365629 0.035788074135780327533762346093 0.002002661814913154082057333838 0.002430427819490433172938681494 0 0 0 0 
2402166666.6666665077 0.161868095397949190994424384371 0.034060154110193252563476562500 0.001870006788522005081176757812 0.002400278812274336814880371094 0 0 0 0 
2402333333.3333334923 0.162350192666053799728231865629 0.032375484704971306537668596093 0.002019241917878388924839638818 0.002445417689159512953517294775 0 0 0 0 
2402500000.0000000000 0.163460925221443204025106865629 0.030806539580225951457936872657 0.002029336756095290184020996094 0.002223154529929161071777343750 0 0 0 0 
2402666666.6666665077 0.164324283599853487869424384371 0.029365787282586101186732108204 0.002013681456446648077723837744 0.002386162057518959045410156250 0 0 0 0 
2402833333.3333334923 0.165102884173393305022869981258 0.028048915788531299936314766796 0.002142450772225857214686728369 0.002262076362967491149902343750 0 0 0 0 
2403000000.0000000000 0.166171059012412997146768134371 0.026665611192584041250208670704 0.002058474346995354132411337744 0.002263962058350443840026855469 0 0 0 0 
2403166666.6666665077 0.166897878050804110428018134371 0.025056419894099239004114920704 0.002095460426062345938441611182 0.002144920639693737030029296875 0 0 0 0 
2403333333.3333334923 0.167947441339492797851562500000 0.024146663025021549570103829296 0.002174183726310729980468750000 0.002184969605877995924708701025 0 0 0 0 
2403500000.0000000000 0.168712064623832702636718750000 0.022943018004298210144042968750 0.002179868519306182861328125000 0.002060381695628166198730468750 0 0 0 0 
2403666666.6666665077 0.169720292091369601150674384371 0.021795256063342090951939766796 0.002222553128376603126525878906 0.001908016158267856077906943213 0 0 0 0 
2403833333.3333334923 0.170710071921348599532919365629 0.020877158269286159170130545704 0.002339272759854793982264853369 0.002129544969648122787475585938 0 0 0 0 
2404000000.0000000000 0.171545043587684603592080634371 0.019921747967600818979283516796 0.002385253785178064866306923975 0.002107728039845823807957314600 0 0 0 0 
2404166666.6666665077 0.172532320022583007812500000000 0.018990797922015190124511718750 0.002439684234559535980224609375 0.001983150141313672065734863281 0 0 0 0 
2404333333.3333334923 0.173329725861549405196981865629 0.018383448943495750427246093750 0.002284684451296925978419638525 0.002034681383520365195033408057 0 0 0 0 
2404500000.0000000000 0.174031719565391512771768134371 0.017694238573312759399414062500 0.002311629476025701002833701025 0.001925226068124175071716308594 0 0 0 0 
2404666666.6666665077 0.174950525164604187011718750000 0.016995707526803020132044608204 0.002442533615976572036743164062 0.002093451097607613043544150244 0 0 0 0 
2404833333.3333334923 0.175611704587936401367187500000 0.016363833099603649484654610546 0.002464117715135217146632529150 0.001917333924211561896680522388 0 0 0 0 
2405000000.0000000000 0.176340296864509610275106865629 0.015903308987617489206334298046 0.002562960609793663024902343750 0.001813587616197765090345073169 0 0 0 0 
2405166666.6666665077 0.176923215389251708984375000000 0.015398789197206500661829764454 0.002587628317996859984156943213 0.001901186886243521950365376050 0 0 0 0 
2405333333.3333334923 0.177622795104980496505575615629 0.014960308559238910675048828125 0.002567080548033117814304970850 0.001871120999567211107966757666 0 0 0 0 
2405500000.0000000000 0.178069099783897399902343750000 0.014713945798575879878034022852 0.002784593496471643014195107568 0.001814638148061930916429829175 0 0 0 0 
2405666666.6666665077 0.178498297929763793945312500000 0.014401014894247060257881365430 0.002697410760447382926940917969 0.001847201958298682949663471753 0 0 0 0 
2405833333.3333334923 0.178690388798713711837606865629 0.014106472954154019791572771680 0.003042511409148573875427246094 0.001811099704355001015904091943 0 0 0 0 
2406000000.0000000000 0.179036095738411005218182481258 0.013562979176640510559082031250 0.002967708976939320997950888525 0.001808859291486442089080810547 0 0 0 0 
2406166666.6666665077 0.179208800196647588531817518742 0.013503785245120530564277849805 0.002965763676911592917201376807 0.001840431708842515945434570312 0 0 0 0 
2406333333.3333334923 0.179538071155548095703125000000 0.013116821646690370387067225977 0.003050085157155991034266806494 0.001800984842702745957615517725 0 0 0 0 
2406500000.0000000000 0.179431259632110595703125000000 0.012685468420386309187919415820 0.003130278550088406042811728369 0.001768535352312027974369668115 0 0 0 0 
2406666666.6666665077 0.179168388247489901443643134371 0.012473287060856819152832031250 0.003298219060525298118591308594 0.001739470986649394035339355469 0 0 0 0 
2406833333.3333334923 0.179198324680328396896200615629 0.011977593414485459763496599805 0.003401595633476973013636923682 0.001412985962815582969068217700 0 0 0 0 
2407000000.0000000000 0.179151818156242398361044365629 0.011501163244247439992884451954 0.003368837758898735046386718750 0.001298399874940514998195029150 0 0 0 0 
2407166666.6666665077 0.178980171680450411697549384371 0.011123668402433400589912615430 0.003683384740725160078761435400 0.001539611024782062010524130713 0 0 0 0 
2407333333.3333334923 0.178615659475326510330361884371 0.010587905533611769240409650195 0.003605339210480452017543173682 0.001343600917607546069501567310 0 0 0 0 
2407500000.0000000000 0.178087353706359891036825615629 0.009944052435457706451416015625 0.003742705099284648895263671875 0.001363942981697618961334228516 0 0 0 0 
2407666666.6666665077 0.177733153104782104492187500000 0.009226328693330287933349609375 0.003915480803698301315307617188 0.001157607301138340993168496240 0 0 0 0 
2407833333.3333334923 0.177271008491516113281250000000 0.008488281629979610443115234375 0.003917139954864978790283203125 0.000972329638898372650146484375 0 0 0 0 
2408000000.0000000000 0.176681250333786010742187500000 0.007707981392741203308105468750 0.004036590456962584581857012012 0.000970375840552151203155517578 0 0 0 0 
2408166666.6666665077 0.176149562001228304763955634371 0.006981911603361368179321289062 0.004072562325745820999145507812 0.000836856255773454904556274414 0 0 0 0 
2408333333.3333334923 0.175687968730926513671875000000 0.005921250209212303161621093750 0.004207759164273738861083984375 0.000806666212156414985656738281 0 0 0 0 
2408500000.0000000000 0.175083309412002591232138115629 0.004790171515196561813354492188 0.004307971335947513580322265625 0.000708516628947108983993530273 0 0 0 0 
2408666666.6666665077 0.174404203891754205901776231258 0.003697602543979883193969726562 0.004385977052152156829833984375 0.000459346163552254384190159930 0 0 0 0 
2408833333.3333334923 0.173645883798599187652911268742 0.002513457788154482841491699219 0.004444505553692579269409179688 0.000518926535733044147491455078 0 0 0 0 
2409000000.0000000000 0.172956138849258395095986884371 0.001151623902842402891871786963 0.004577004350721836090087890625 0.000262902205577120184898376465 0 0 0 0 
2409166666.6666665077 0.172417387366294888595419365629 -0.000142168049933388802126207895 0.004589427728205919265747070312 0.000126769227790646309226435529 0 0 0 0 
2409333333.3333334923 0.171870619058609008789062500000 -0.001662792288698256015777587891 0.004556879401206970214843750000 0.000015224848539219239558083381 0 0 0 0 
2409500000.0000000000 0.171370029449462890625000000000 -0.003250348148867487907409667969 0.004671524278819561004638671875 -0.000076784148404840379953384399 0 0 0 0 
2409666666.6666665077 0.170525074005127008636151231258 -0.004924173001199960708618164062 0.004706748761236667633056640625 -0.000301125808618962818950098859 0 0 0 0 
2409833333.3333334923 0.169910997152328491210937500000 -0.006376223638653755187988281250 0.004771572072058916091918945312 -0.000508997007273137569427490234 0 0 0 0 
2410000000.0000000000 0.169675976037979098220986884371 -0.008066455833613872528076171875 0.004827221855521202087402343750 -0.000584433728363364934921264648 0 0 0 0 
2410166666.6666665077 0.169142439961433410644531250000 -0.009808347560465335845947265625 0.004832277540117502212524414062 -0.000872395117767155170440673828 0 0 0 0 
2410333333.3333334923 0.168705716729164095779580634371 -0.011644890531897550065010271680 0.004876893945038318634033203125 -0.001120037864893675067304301685 0 0 0 0 
2410500000.0000000000 0.168489068746566800216513115629 -0.013545029796659949911097342579 0.004866187926381826400756835938 -0.001253394992090762095210410010 0 0 0 0 
2410666666.6666665077 0.168164506554603604415731865629 -0.015491123311221599578857421875 0.004870914388447999954223632812 -0.001420867629349231936811137622 0 0 0 0 
2410833333.3333334923 0.167977869510650607010049384371 -0.017290782183408740652064139454 0.004892767872661352157592773438 -0.001764538697898387908935546875 0 0 0 0 
2411000000.0000000000 0.167770862579345703125000000000 -0.019287437200546271587331403907 0.004716966301202774047851562500 -0.001908436417579651095746684497 0 0 0 0 
2411166666.6666665077 0.167730346322059603592080634371 -0.021254643797874450683593750000 0.004783897195011377334594726562 -0.002062083920463920073268271338 0 0 0 0 
2411333333.3333334923 0.167614161968231201171875000000 -0.023165324702858928335169608204 0.004825172945857048034667968750 -0.002249830635264515876770019531 0 0 0 0 
2411500000.0000000000 0.167830631136894198318643134371 -0.025144398212432861328125000000 0.004711398854851722717285156250 -0.002437273971736431121826171875 0 0 0 0 
2411666666.6666665077 0.167973086237907409667968750000 -0.027034454047679901123046875000 0.004546249751001597318167402051 -0.002769851125776768164393759619 0 0 0 0 
2411833333.3333334923 0.168289810419082613845986884371 -0.028875924646854400634765625000 0.004495720379054546356201171875 -0.002989434404298663139343261719 0 0 0 0 
2412000000.0000000000 0.168656200170516995529013115629 -0.030821716412901878356933593750 0.004492835141718387603759765625 -0.003237347584217786788940429688 0 0 0 0 
2412166666.6666665077 0.168886005878448486328125000000 -0.032745886594057083129882812500 0.004312225151807069778442382812 -0.003205576911568642096278525244 0 0 0 0 
2412333333.3333334923 0.169486403465270996093750000000 -0.034416984766721732402761091407 0.003980096429586411389822675488 -0.003521600970998405976536416162 0 0 0 0 
2412500000.0000000000 0.169659167528152493575888115629 -0.036086462438106536865234375000 0.003999631851911544799804687500 -0.003678461769595741791966103662 0 0 0 0 
2412666666.6666665077 0.170235678553581210037393134371 -0.038078587502241141582448591407 0.003760780440643430189845419775 -0.003675671294331551031825400244 0 0 0 0 
2412833333.3333334923 0.170851364731788607498330634371 -0.039705693721771240234375000000 0.003793277777731419043300009619 -0.004071996081620454788208007812 0 0 0 0 
2413000000.0000000000 0.171352252364158602615518134371 -0.041162829846143722534179687500 0.003408293705433607101440429688 -0.004156890325248241424560546875 0 0 0 0 
2413166666.6666665077 0.171835467219352694412393134371 -0.042853631079196929931640625000 0.003304775571450591087341308594 -0.004196922760456801328177167676 0 0 0 0 
2413333333.3333334923 0.172353968024253900725994981258 -0.044208884239196777343750000000 0.003217977937310934066772460938 -0.004291230347007513046264648438 0 0 0 0 
2413500000.0000000000 0.173204198479652404785156250000 -0.045791648328304290771484375000 0.002935459371656178994419716943 -0.004572515841573476791381835938 0 0 0 0 
2413666666.6666665077 0.173832014203071594238281250000 -0.047270398586988449096679687500 0.002833936829119921164271689307 -0.004584815818816423416137695312 0 0 0 0 
2413833333.3333334923 0.174200132489204406738281250000 -0.048373214900493621826171875000 0.002492517465725541114807128906 -0.004501434974372386932373046875 0 0 0 0 
2414000000.0000000000 0.174703061580657986739950615629 -0.049516055732965469360351562500 0.002304790075868368148803710938 -0.004688133485615252581124590137 0 0 0 0 
2414166666.6666665077 0.175341010093688992599325615629 -0.050550006330013282085378278907 0.002246977528557180924656533350 -0.004610025789588689804077148438 0 0 0 0 
2414333333.3333334923 0.175822094082832308670205634371 -0.051582917571067810058593750000 0.001997925108298658890965127100 -0.004762653261423110961914062500 0 0 0 0 
2414500000.0000000000 0.176540821790695190429687500000 -0.052401419728994369506835937500 0.001725348178297281048418354565 -0.004888728260993958386892987988 0 0 0 0 
2414666666.6666665077 0.176845282316207913497763115629 -0.053284037858247756958007812500 0.001596798305399715900421142578 -0.004882609006017447385306073926 0 0 0 0 
2414833333.3333334923 0.177219882607459994217080634371 -0.054125778377056121826171875000 0.001422906061634420914890908350 -0.004966534208506345748901367188 0 0 0 0 
2415000000.0000000000 0.177486792206764193435830634371 -0.054581839591264731670339216407 0.001206520362757145924809121240 -0.004888581577688455581665039062 0 0 0 0 
2415166666.6666665077 0.177852511405944796463174384371 -0.055318653583526611328125000000 0.001164935179986060099360800635 -0.004981965757906436920166015625 0 0 0 0 
2415333333.3333334923 0.178328335285186795333700615629 -0.055812146514654159545898437500 0.001028907485306262969970703125 -0.005070935934782028198242187500 0 0 0 0 
2415500000.0000000000 0.178331673145294189453125000000 -0.056206539273262016986887346093 0.000776767497882246971130371094 -0.004936032462865114212036132812 0 0 0 0 
2415666666.6666665077 0.178351804614067105392294365629 -0.056665558367967612529714216407 0.000449491693871095776557922363 -0.004971210379153490066528320312 0 0 0 0 
2415833333.3333334923 0.178523853421211187164630018742 -0.057082653045654296875000000000 0.000394253729609772617190760480 -0.004858905449509620666503906250 0 0 0 0 
2416000000.0000000000 0.178238630294799804687500000000 -0.057300690561532967304270158593 0.000211726321140304207801818848 -0.004929712973535060882568359375 0 0 0 0 
2416166666.6666665077 0.178336769342422513107138115629 -0.057724710553884513164479841407 -0.000036251851270208142023494108 -0.004913456737995147705078125000 0 0 0 0 
2416333333.3333334923 0.177823454141616793533486884371 -0.057827334851026541973073591407 -0.000074605100962799042463302612 -0.004856233485043048858642578125 0 0 0 0 
2416500000.0000000000 0.177629441022872897049111884371 -0.058166380971670150756835937500 -0.000307521841023117303848266602 -0.004915579687803983688354492188 0 0 0 0 
2416666666.6666665077 0.177246078848838806152343750000 -0.058309990912675857543945312500 -0.000330947048496455008357447491 -0.004649629350751638412475585938 0 0 0 0 
2416833333.3333334923 0.176804125308990506271200615629 -0.058570984750986099243164062500 -0.000525595038197934627532958984 -0.004716470837593078613281250000 0 0 0 0 
2417000000.0000000000 0.175970539450645502288494981258 -0.058965474367141716693918596093 -0.000709871470462530851364135742 -0.004609149415045976638793945312 0 0 0 0 
2417166666.6666665077 0.175311923027038601974325615629 -0.059139046818017959594726562500 -0.000705405662301927804946899414 -0.004593304358422756195068359375 0 0 0 0 
2417333333.3333334923 0.174647629261016901214276231258 -0.059331659227609627460520158593 -0.001022500451654196002362895435 -0.004522194154560565948486328125 0 0 0 0 
2417500000.0000000000 0.173726066946983309646768134371 -0.059788405895233147357981096093 -0.000951741705648601055145263672 -0.004465535748749971389770507812 0 0 0 0 
2417666666.6666665077 0.172966986894607488434161268742 -0.060006447136402130126953125000 -0.001196572789922357039210654150 -0.004545927047729492187500000000 0 0 0 0 
2417833333.3333334923 0.171932309865951510330361884371 -0.060500368475914001464843750000 -0.001350750564597547054290771484 -0.004491954576224088668823242188 0 0 0 0 
2418000000.0000000000 0.170775502920150812347088731258 -0.061060491949319839477539062500 -0.001327569829300045967102050781 -0.004348989576101303100585937500 0 0 0 0 
2418166666.6666665077 0.169581547379493713378906250000 -0.061353974044322967529296875000 -0.001469085691496730067609477466 -0.004450726322829723358154296875 0 0 0 0 
2418333333.3333334923 0.168820604681968688964843750000 -0.062035366892814643169362653907 -0.001631485880352556922315288013 -0.004246925003826618194580078125 0 0 0 0 
2418500000.0000000000 0.167474821209907503982705634371 -0.062470462173223502422292341407 -0.001689846627414226965663290869 -0.004300451371818780899047851562 0 0 0 0 
2418666666.6666665077 0.166360750794410705566406250000 -0.063178591430187225341796875000 -0.001670268480665981986402202075 -0.004273795057088136672973632812 0 0 0 0 
2418833333.3333334923 0.165053725242614801604901231258 -0.064105704426765441894531250000 -0.001760548213496804020525288159 -0.004040917381644248962402343750 0 0 0 0 
2419000000.0000000000 0.163654878735542297363281250000 -0.065037772059440612792968750000 -0.001940891030244529030443501050 -0.004118583165109158429617597363 0 0 0 0 
2419166666.6666665077 0.162588551640510586837606865629 -0.065715096890926361083984375000 -0.002042324049398303031921386719 -0.004092064686119556427001953125 0 0 0 0 
2419333333.3333334923 0.161218181252479608733807481258 -0.066534139215946197509765625000 -0.002062810119241476058959960938 -0.004060096573084592819213867188 0 0 0 0 
2419500000.0000000000 0.160055950284004211425781250000 -0.067768976092338562011718750000 -0.002277303952723741965052939307 -0.004059717059135437011718750000 0 0 0 0 
2419666666.6666665077 0.159139558672904996017294365629 -0.068926401436328887939453125000 -0.002386169508099555969238281250 -0.003858512733131647109985351562 0 0 0 0 
2419833333.3333334923 0.157841265201568603515625000000 -0.069944262504577636718750000000 -0.002447743434458971023559570312 -0.003972574137151241302490234375 0 0 0 0 
