# Hz S RI R 50
2400000000.0000000000 0.167580336332321194747763115629 0.041137617081403732299804687500 0.002801357768476008935215615381 -0.000609304814133793115615844727 0 0 0 0 
2400166666.6666665077 0.168195232748985290527343750000 0.040360257029533393169362653907 0.002619776176288723945617675781 -0.000475213630124926621287745343 0 0 0 0 
2400333333.3333334923 0.168689176440239008147869981258 0.039413511753082282329518903907 0.002781087066978216171264648438 -0.000600837753154337406158447266 0 0 0 0 
2400500000.0000000000 0.169207170605659512618856865629 0.038522556424140930175781250000 0.002879669191315770149230957031 -0.000548331416212022304534912109 0 0 0 0 
2400666666.6666665077 0.169447496533393887618856865629 0.037456434220075607299804687500 0.002707227133214474158046103369 -0.000446435966296121478080749512 0 0 0 0 
2400833333.3333334923 0.169995635747909601409588731258 0.036977812647819519042968750000 0.002758088288828731016871786963 -0.000430678861448541283607482910 0 0 0 0 
2401000000.0000000000 0.170237436890602111816406250000 0.035790283232927322387695312500 0.002709533087909222082850790869 -0.000558529165573418140411376953 0 0 0 0 
2401166666.6666665077 0.170438706874847412109375000000 0.034859415143728263164479841407 0.003094872226938604874851845850 -0.000646486238110810518264770508 0 0 0 0 
2401333333.3333334923 0.170705735683441189864950615629 0.034041743725538246845285783593 0.003006556071341038183925009619 -0.000753325060941278934478759766 0 0 0 0 
2401500000.0000000000 0.171037316322326687911825615629 0.032973084598779678344726562500 0.002995663788169621987583779443 -0.000805280520580708980560302734 0 0 0 0 
2401666666.6666665077 0.171028956770896911621093750000 0.032357309013605117797851562500 0.003173536621034144921543740381 -0.000822830887045711278915405273 0 0 0 0 
2401833333.3333334923 0.171145930886268587967080634371 0.031369753181934356689453125000 0.003225147025659679932835244287 -0.000882091408129781484603881836 0 0 0 0 
2402000000.0000000000 0.171178981661796597579794365629 0.030602917075157168996790701954 0.002906403969973326163050986182 -0.001082917675375937981846474756 0 0 0 0 
2402166666.6666665077 0.171231985092163113693075615629 0.029396388679742809640904610546 0.003306030062958598136901855469 -0.001174712786450982093811035156 0 0 0 0 
2402333333.3333334923 0.171239167451858492752236884371 0.028571886941790580749511718750 0.003210187191143631935119628906 -0.001291903667151927947998046875 0 0 0 0 
2402500000.0000000000 0.171260625123977688888388115629 0.027483623474836349487304687500 0.003303154371678829193115234375 -0.001448431168682873032213520581 0 0 0 0 
2402666666.6666665077 0.171347737312316894531250000000 0.026528332382440570486048514454 0.003030246589332818984985351562 -0.001521191326901317076442099463 0 0 0 0 
2402833333.3333334923 0.171296373009681701660156250000 0.025509323924779888498326485546 0.003163644578307867050170898438 -0.001554637216031550927403115381 0 0 0 0 
2403000000.0000000000 0.171364277601242093185263115629 0.024422965943813320505162423046 0.003242412582039833068847656250 -0.001801985665224492983577109229 0 0 0 0 
2403166666.6666665077 0.171383738517761202713174384371 0.023115925490856170654296875000 0.003036058275029062791111611475 -0.002061208477243781089782714844 0 0 0 0 
2403333333.3333334923 0.171269521117210388183593750000 0.022224832326173778879185860546 0.003183242166414856910705566406 -0.002025836147367953820469521631 0 0 0 0 
2403500000.0000000000 0.171006977558135986328125000000 0.021079055964946750295618826954 0.003057943191379309134242392432 -0.002232780912891029877903603662 0 0 0 0 
2403666666.6666665077 0.170811668038368197342080634371 0.019883563742041591299036795704 0.003125982359051703973057412256 -0.002386185573413968086242675781 0 0 0 0 
2403833333.3333334923 0.170947581529617309570312500000 0.018484504893422130239466483204 0.002903774613514543013331747900 -0.002598286839202045960667275537 0 0 0 0 
2404000000.0000000000 0.170798406004905700683593750000 0.017306681722402569162388985546 0.002693314570933579964878701318 -0.002608460607007145881652832031 0 0 0 0 
2404166666.6666665077 0.170850545167923001388388115629 0.015974860638380050659179687500 0.002592458156868814988377236475 -0.002612941898405551910400390625 0 0 0 0 
2404333333.3333334923 0.170577019453048706054687500000 0.014683923684060570108433907421 0.002646369393914937973022460938 -0.002774984342977405028102255713 0 0 0 0 
2404500000.0000000000 0.170455962419509887695312500000 0.013056740164756780106514177930 0.002455431269481778144836425781 -0.002974279923364520072937011719 0 0 0 0 
2404666666.6666665077 0.170383200049400301834268134371 0.011949985288083549844762032421 0.002295790007337927818298339844 -0.002995706163346766991856240381 0 0 0 0 
2404833333.3333334923 0.170414626598358209808026231258 0.010336004197597500192662423046 0.002184133045375347137451171875 -0.003148732241243124008178710938 0 0 0 0 
2405000000.0000000000 0.170364692807197598556356865629 0.008878930471837520599365234375 0.001887311576865613894221640479 -0.003280192380771040916442871094 0 0 0 0 
2405166666.6666665077 0.170410722494125393966513115629 0.007387029472738504409790039062 0.002103691454976797103881835938 -0.003194462275132536888122558594 0 0 0 0 
2405333333.3333334923 0.170486837625503512283486884371 0.005810220725834369659423828125 0.001800769008696079037309956128 -0.003358801361173390908482216943 0 0 0 0 
2405500000.0000000000 0.170359894633293207366619981258 0.004452576860785484313964843750 0.001695825485512614033342670972 -0.003466003574430942969081259619 0 0 0 0 
2405666666.6666665077 0.170348286628723089020098768742 0.002779940143227577209472656250 0.001380861387588083960889506763 -0.003393596271052957014796591650 0 0 0 0 
2405833333.3333334923 0.170229569077491788009481865629 0.001463201944716274955152202075 0.001225963816978036923649453271 -0.003399267094209789796116494287 0 0 0 0 
2406000000.0000000000 0.170229539275169400314169365629 -0.000384265731554478406906127930 0.001236031064763664982439350659 -0.003421848639845848083496093750 0 0 0 0 
2406166666.6666665077 0.169993609189987210372763115629 -0.001843848614953458092333149487 0.001004096819087862968444824219 -0.003476235782727599143981933594 0 0 0 0 
2406333333.3333334923 0.170160084962844904143963731258 -0.003431821241974831061122275244 0.000903384236153215169906616211 -0.003396227024495602087733603369 0 0 0 0 
2406500000.0000000000 0.169821843504905700683593750000 -0.005098898895084857940673828125 0.000780725735239684581756591797 -0.003580128308385611014125204932 0 0 0 0 
2406666666.6666665077 0.169548183679580688476562500000 -0.006503088865429162979125976562 0.000520730274729430675506591797 -0.003502618055790663199183798682 0 0 0 0 
2406833333.3333334923 0.169502735137939508636151231258 -0.008029300719499588012695312500 0.000359039782779291326373499738 -0.003348383121192454858067177881 0 0 0 0 
2407000000.0000000000 0.169325396418571499923544365629 -0.009435161016881465911865234375 0.000158348542754538411467951642 -0.003151657991111278967616415869 0 0 0 0 
2407166666.6666665077 0.169406265020370511154013115629 -0.010740231722593309229840663477 0.000272213103016838377148228778 -0.003367759287357329888584756006 0 0 0 0 
2407333333.3333334923 0.169065505266189602950888115629 -0.012245981954038139688512032421 0.000056322867749258882623126371 -0.003219230100512505011317587744 0 0 0 0 
2407500000.0000000000 0.168751344084739712814169365629 -0.013460783287882810074775896680 -0.000124500103993341299608507700 -0.003129298333078622817993164062 0 0 0 0 
2407666666.6666665077 0.168627128005027798751669365629 -0.014558676630258560180664062500 -0.000050581831601448357105255127 -0.002968002343550324006321572412 0 0 0 0 
2407833333.3333334923 0.168486446142196710784588731258 -0.015736434608697891235351562500 -0.000165343342814594507217407227 -0.002890627831220626831054687500 0 0 0 0 
2408000000.0000000000 0.168270096182823208907919365629 -0.016898207366466518747349923046 -0.000215064923395402702406206674 -0.002795232227072120146510458838 0 0 0 0 
2408166666.6666665077 0.168129771947860690017861884371 -0.017638633027672771108607108204 -0.000331000046571716720431727277 -0.002762374002486466927769326318 0 0 0 0 
2408333333.3333334923 0.168271660804748507400674384371 -0.018779313191771510732630545704 -0.000280451145954430103302001953 -0.002586046699434518814086914062 0 0 0 0 
2408500000.0000000000 0.168154641985893305022869981258 -0.019753322005271911621093750000 -0.000466485827928408980369567871 -0.002547601470723748207092285156 0 0 0 0 
2408666666.6666665077 0.168045595288276700118856865629 -0.020677523687481880187988281250 -0.000385090272175148075253087177 -0.002419767901301383972167968750 0 0 0 0 
2408833333.3333334923 0.168099999427795410156250000000 -0.021438207477331161499023437500 -0.000243821559706702801302233286 -0.002309208735823630852940224756 0 0 0 0 
2409000000.0000000000 0.168120220303535489181356865629 -0.022377902641892429697056954296 -0.000192314328160136910990038461 -0.002318078186362981796264648438 0 0 0 0 
2409166666.6666665077 0.168355956673622103592080634371 -0.023171614855527881277064139454 -0.000133671259391121593400678091 -0.002222336595878005027770996094 0 0 0 0 
2409333333.3333334923 0.168577373027801513671875000000 -0.023929256945848468435267264454 -0.000206583164981566396638593130 -0.001971574965864419937133789062 0 0 0 0 
2409500000.0000000000 0.168761238455772399902343750000 -0.025055376812815669668177420704 -0.000022121186702861450612545013 -0.002257946180179715156555175781 0 0 0 0 
2409666666.6666665077 0.168682351708412198165731865629 -0.025732744485139850271204764454 0.000054783169616712257266044617 -0.002264820272102952003479003906 0 0 0 0 
2409833333.3333334923 0.168727353215217590332031250000 -0.026680292561650279653528983204 0.000114388392830733196295876775 -0.002218762412667274908778525244 0 0 0 0 
2410000000.0000000000 0.168931469321250887771768134371 -0.027577592059969898569127266796 0.000258039421169087290763854980 -0.002202160190790892081019736182 0 0 0 0 
2410166666.6666665077 0.168983280658721896072549384371 -0.028512373566627498971959298046 0.000122449258924461901187896729 -0.002447443315759301185607910156 0 0 0 0 
2410333333.3333334923 0.168948233127593994140625000000 -0.029251988977193828928013985546 0.000217003369471058303683680402 -0.002548441523686050935032509912 0 0 0 0 
2410500000.0000000000 0.168874964118003900725994981258 -0.030373709276318550109863281250 0.000174239452462643412038525992 -0.002665109699591993851902627100 0 0 0 0 
2410666666.6666665077 0.168799087405204800704794365629 -0.031398128718137741088867187500 0.000000254190979376289813633467 -0.002698107622563838958740234375 0 0 0 0 
2410833333.3333334923 0.168811589479446411132812500000 -0.032203957438468933105468750000 0.000055415224778698757290840149 -0.002835583873093128204345703125 0 0 0 0 
2411000000.0000000000 0.168538883328437805175781250000 -0.033189807087182998657226562500 -0.000022890451873536221683025360 -0.002906256355345249176025390625 0 0 0 0 
2411166666.6666665077 0.168317005038261413574218750000 -0.033999126404523849487304687500 -0.000077442215115297585725784302 -0.002896907273679972128627158057 0 0 0 0 
2411333333.3333334923 0.168387338519096402267294365629 -0.035072937607765197753906250000 -0.000244291732087731415599268781 -0.002942807739600539207458496094 0 0 0 0 
2411500000.0000000000 0.167909950017929104904013115629 -0.036019083112478263164479841407 -0.000434586312621831893920898438 -0.003107124473899602890014648438 0 0 0 0 
2411666666.6666665077 0.167938202619552612304687500000 -0.036784470081329352642018903907 -0.000403896789066493511199951172 -0.003046961268410087065455771338 0 0 0 0 
2411833333.3333334923 0.167611911892890902420205634371 -0.037656497210264212871511091407 -0.000505683710798621177673339844 -0.003063200041651726202723837744 0 0 0 0 
2412000000.0000000000 0.167434915900230407714843750000 -0.038609977811574942851979841407 -0.000711282540578395128250122070 -0.003116392763331532912013388525 0 0 0 0 
2412166666.6666665077 0.167097479104995699783486884371 -0.039595454931259162212331403907 -0.000464724755147472023963928223 -0.002967798151075839996337890625 0 0 0 0 
2412333333.3333334923 0.166953355073928805252236884371 -0.040444131940603263164479841407 -0.000709825020749121904373168945 -0.002985114930197596983668661963 0 0 0 0 
2412500000.0000000000 0.166466429829597500900106865629 -0.041322916746139533306081403907 -0.000719328003469854593276977539 -0.003150841221213341192958212744 0 0 0 0 
2412666666.6666665077 0.166086867451667813400106865629 -0.042592260986566536640207658593 -0.000794920022599399089813232422 -0.003080263035371900038478232275 0 0 0 0 
2412833333.3333334923 0.165833920240402193924111884371 -0.043489281088113791728932966407 -0.000835712067782878875732421875 -0.003186765126883984045741415869 0 0 0 0 
2413000000.0000000000 0.165283054113388089279013115629 -0.044543147087097167968750000000 -0.000838472566101700067520141602 -0.003227037144824862913844443213 0 0 0 0 
2413166666.6666665077 0.164962634444236810882244981258 -0.045545171946287162090261091407 -0.000899405335076153278350830078 -0.003289813874289392991306923975 0 0 0 0 
2413333333.3333334923 0.164582550525665310958700615629 -0.046549856662750237201731096093 -0.001040956121869385025621723706 -0.003246585140004754066467285156 0 0 0 0 
2413500000.0000000000 0.164109453558921786209268134371 -0.047458548098802573467214216407 -0.001170740928500890948651957935 -0.003509409260004758834838867188 0 0 0 0 
2413666666.6666665077 0.163939595222473089020098768742 -0.048690315335988998413085937500 -0.001327298581600188992143940503 -0.003606839338317513899562216650 0 0 0 0 
2413833333.3333334923 0.163274466991424588302450615629 -0.049710299819707870483398437500 -0.001502129249274730899213481372 -0.003808497218415141105651855469 0 0 0 0 
2414000000.0000000000 0.162663802504539489746093750000 -0.050708975642919540405273437500 -0.001677240710705518939374614185 -0.003810476278886198997497558594 0 0 0 0 
2414166666.6666665077 0.162392586469650296310263115629 -0.051691170781850821758229841407 -0.001997148618102074103114462744 -0.003922122996300458908081054688 0 0 0 0 
2414333333.3333334923 0.162167459726333590408486884371 -0.052770975977182388305664062500 -0.002188123296946287155151367188 -0.004069604445248842239379882812 0 0 0 0 
2414500000.0000000000 0.161861285567283602615518134371 -0.053625963628292076801340471093 -0.002445487538352609114405966650 -0.003958056215196847915649414062 0 0 0 0 
2414666666.6666665077 0.161507397890090886871661268742 -0.054656054824590682983398437500 -0.002910705516114830970764160156 -0.003966987133026123046875000000 0 0 0 0 
2414833333.3333334923 0.161152407526969909667968750000 -0.055786874145269386982004533593 -0.003186952322721480889561318506 -0.003874656511470675902125693213 0 0 0 0 
2415000000.0000000000 0.161022201180458096603231865629 -0.056596186012029647827148437500 -0.003550360212102531953098916162 -0.003843902843073010010960244287 0 0 0 0 
2415166666.6666665077 0.160825818777084406097088731258 -0.057704053819179541851003278907 -0.003801617072895168824436806787 -0.003510972019284964041468954932 0 0 0 0 
2415333333.3333334923 0.160723984241485595703125000000 -0.058974049985408782958984375000 -0.004034610465168952941894531250 -0.003259221557527780966517783057 0 0 0 0 
2415500000.0000000000 0.160671949386596707443075615629 -0.059962771832942962646484375000 -0.004201819188892841339111328125 -0.003066752571612596945521689307 0 0 0 0 
2415666666.6666665077 0.160405114293098505218182481258 -0.061055913567543029785156250000 -0.004492244683206081390380859375 -0.002730538370087742805480957031 0 0 0 0 
2415833333.3333334923 0.160222202539443997482138115629 -0.062278781086206443096120466407 -0.004762904252856969833374023438 -0.002488730475306510925292968750 0 0 0 0 
2416000000.0000000000 0.159882664680481012542401231258 -0.063498586416244506835937500000 -0.004891315009444952011108398438 -0.002063712337985634803771972656 0 0 0 0 
2416166666.6666665077 0.159958198666572598556356865629 -0.064755715429782867431640625000 -0.005021183751523494720458984375 -0.001824152888730167908909463037 0 0 0 0 
2416333333.3333334923 0.159599930047988891601562500000 -0.065867915749549865722656250000 -0.004858864005655050277709960938 -0.001416194369085133075714111328 0 0 0 0 
2416500000.0000000000 0.159449383616447504241619981258 -0.067043796181678771972656250000 -0.005013505928218364715576171875 -0.001001680502668022892595600659 0 0 0 0 
2416666666.6666665077 0.159102857112884493728799384371 -0.068126849830150604248046875000 -0.005076447501778602600097656250 -0.000764059717766940593719482422 0 0 0 0 
2416833333.3333334923 0.158844888210296603103799384371 -0.069349624216556549072265625000 -0.005042397417128086090087890625 -0.000404360122047364711761474609 0 0 0 0 
2417000000.0000000000 0.158347427845001192947549384371 -0.070554688572883605957031250000 -0.004915542434900999069213867188 -0.000174812928889878094196319580 0 0 0 0 
2417166666.6666665077 0.158133104443550109863281250000 -0.071368671953678131103515625000 -0.004848121199756860733032226562 0.000123288613394834101200103760 0 0 0 0 
2417333333.3333334923 0.157776668667793301681356865629 -0.072474181652069091796875000000 -0.004579789470881223678588867188 0.000322364357998594587475377216 0 0 0 0 
2417500000.0000000000 0.157385334372520502288494981258 -0.073466323316097259521484375000 -0.004416568204760552319998456738 0.000441086624050512909889221191 0 0 0 0 
2417666666.6666665077 0.157271519303321810623330634371 -0.074288286268711090087890625000 -0.004109445493668317794799804688 0.000785263720899820327758789062 0 0 0 0 
2417833333.3333334923 0.156858280301094110686932481258 -0.075088053941726684570312500000 -0.004119088407605887326712323926 0.000877272861544042825698852539 0 0 0 0 
2418000000.0000000000 0.156363442540168789962606865629 -0.076108910143375396728515625000 -0.003799589117988944053649902344 0.000985077000223100185394287109 0 0 0 0 
2418166666.6666665077 0.156148612499237088302450615629 -0.076716527342796325683593750000 -0.003649216145277022881748818506 0.001119646476581692912458110278 0 0 0 0 
2418333333.3333334923 0.156057298183441189864950615629 -0.077570013701915740966796875000 -0.003480093553662300109863281250 0.000976903713308274745941162109 0 0 0 0 
2418500000.0000000000 0.155786082148551913162393134371 -0.078249514102935791015625000000 -0.003292874200269579887390136719 0.001221471233293413899065327222 0 0 0 0 
2418666666.6666665077 0.155402123928070096114950615629 -0.079233556985855102539062500000 -0.002985421335324645042419433594 0.001174299744889139912248920972 0 0 0 0 
2418833333.3333334923 0.154984936118125887771768134371 -0.079831764101982116699218750000 -0.003101991955190896987915039062 0.001117410254664719104766845703 0 0 0 0 
2419000000.0000000000 0.154614061117172213455361884371 -0.080419175326824188232421875000 -0.002968273591250181198120117188 0.001016427180729805989506386865 0 0 0 0 
2419166666.6666665077 0.154299288988113403320312500000 -0.081250868737697601318359375000 -0.002730650128796697096583701025 0.001053356099873780987383198315 0 0 0 0 
2419333333.3333334923 0.153828114271163912674111884371 -0.081790879368782043457031250000 -0.002665214240550994873046875000 0.000978254131041467189788818359 0 0 0 0 
2419500000.0000000000 0.153496652841567993164062500000 -0.082495652139186859130859375000 -0.002846001647412776947021484375 0.000935539952479302883148193359 0 0 0 0 
2419666666.6666665077 0.153245717287063598632812500000 -0.083137676119804382324218750000 -0.002572946716099977926967001807 0.001036110683344304995295859229 0 0 0 0 
2419833333.3333334923 0.152733862400054903885049384371 -0.083627246320247650146484375000 -0.002718870295211673216578818213 0.000950181158259510993957519531 0 0 0 0 
