# Hz S RI R 50
2400000000.0000000000 0.173412129282951410491619981258 0.048664525151252746582031250000 0.002304107416421175003051757812 0.006099451798945665359497070312 0 0 0 0 
2400166666.6666665077 0.173980847001075689117755018742 0.048255417495965957641601562500 0.002587436698377131982090615381 0.005963857751339673995971679688 0 0 0 0 
2400333333.3333334923 0.174343377351760892013388115629 0.047393172979354858398437500000 0.002642728621140121979954384912 0.006057491991668939590454101562 0 0 0 0 
2400500000.0000000000 0.174826100468635586837606865629 0.046736445277929312969167341407 0.002756617963314055962803506006 0.005790777504444122314453125000 0 0 0 0 
2400666666.6666665077 0.175171479582786587814169365629 0.045877538621425628662109375000 0.002919177059084177017211914062 0.005872511304914951324462890625 0 0 0 0 
2400833333.3333334923 0.175585120916366604904013115629 0.045537479221820831298828125000 0.003045966848731040954589843750 0.005746856797486543655395507812 0 0 0 0 
2401000000.0000000000 0.175681367516517611404580634371 0.044794499874114990234375000000 0.003368007717654109001159667969 0.005784851964563131332397460938 0 0 0 0 
2401166666.6666665077 0.175826728343963595291299384371 0.044071756303310387348215471093 0.003478195751085876984837197412 0.005809226538985967636108398438 0 0 0 0 
2401333333.3333334923 0.175936445593833895584268134371 0.043398130685091018676757812500 0.003675801446661353111267089844 0.005561946425586938858032226562 0 0 0 0 
2401500000.0000000000 0.176163852214813204666299384371 0.042663719505071640014648437500 0.003853071248158812956569052588 0.005485941655933856964111328125 0 0 0 0 
2401666666.6666665077 0.176134765148162786285723768742 0.042300626635551452636718750000 0.003999875858426094055175781250 0.005417822860181331634521484375 0 0 0 0 
2401833333.3333334923 0.176064535975456210037393134371 0.041509903967380516742746721093 0.004245087038725615415091230176 0.005102930124849081039428710938 0 0 0 0 
2402000000.0000000000 0.175996869802475003341513115629 0.040778491646051406860351562500 0.004545833449810743331909179688 0.005265980027616024017333984375 0 0 0 0 
2402166666.6666665077 0.175868779420852688888388115629 0.039507292211055762554128278907 0.004816656000912190351004316113 0.004875830840319395065307617188 0 0 0 0 
2402333333.3333334923 0.175579607486724909026776231258 0.038909547030925750732421875000 0.004959923215210437774658203125 0.004809730686247348785400390625 0 0 0 0 
2402500000.0000000000 0.175582870841026306152343750000 0.037918593734502792358398437500 0.005113293416798114776611328125 0.004565709736198186874389648438 0 0 0 0 
2402666666.6666665077 0.175361514091491699218750000000 0.036720871925353996967356096093 0.005194227211177349090576171875 0.004321856889873743057250976562 0 0 0 0 
2402833333.3333334923 0.175044283270835904220419365629 0.035650555044412612915039062500 0.005450042895972728729248046875 0.004025142174214124679565429688 0 0 0 0 
2403000000.0000000000 0.174812361598014803787393134371 0.034415356814861297607421875000 0.005490241572260856628417968750 0.003654290456324816183802939307 0 0 0 0 
2403166666.6666665077 0.174446418881416293045205634371 0.033036097884178161621093750000 0.005394493695348501205444335938 0.003493187949061394171473837744 0 0 0 0 
2403333333.3333334923 0.174117445945739801604901231258 0.031709812581539147113840471093 0.005556980613619089126586914062 0.003193140961229801177978515625 0 0 0 0 
2403500000.0000000000 0.173741310834884588043536268742 0.030115939676761630666712576954 0.005561937112361192703247070312 0.002888798713684082031250000000 0 0 0 0 
2403666666.6666665077 0.173231303691864013671875000000 0.028493652120232578622838204296 0.005466160830110312375540448926 0.002774184104055165810825966943 0 0 0 0 
2403833333.3333334923 0.173042297363281305511151231258 0.026915518566966060293177420704 0.005381182767450810346121503613 0.002407070249319076971766806494 0 0 0 0 
2404000000.0000000000 0.172601342201232910156250000000 0.025221463292837139474888985546 0.005514112766832113265991210938 0.002131960354745388031005859375 0 0 0 0 
2404166666.6666665077 0.172241598367691012283486884371 0.023412602022290229797363281250 0.005407056305557489395141601562 0.002032459015026689009425497900 0 0 0 0 
2404333333.3333334923 0.171825230121612604339276231258 0.021646538749337199819544608204 0.005265219137072563171386718750 0.001811344176530838012695312500 0 0 0 0 
2404500000.0000000000 0.171441599726676913162393134371 0.019675346091389659536341483204 0.005175858270376920700073242188 0.001688682357780634923222207178 0 0 0 0 
2404666666.6666665077 0.171113029122352600097656250000 0.017797213047742840158482735546 0.004859539214521647366995527051 0.001647106721065938906428671729 0 0 0 0 
2404833333.3333334923 0.170935794711113003829794365629 0.015831753611564639699915701954 0.004856974817812442779541015625 0.001444628462195395989658974756 0 0 0 0 
2405000000.0000000000 0.170391649007797213455361884371 0.013994839973747730255126953125 0.004701489582657814025878906250 0.001148056122474371953251504053 0 0 0 0 
2405166666.6666665077 0.170551642775535611251669365629 0.012331173755228519439697265625 0.004211373627185822400564862988 0.001051895436830819086787558447 0 0 0 0 
2405333333.3333334923 0.170104876160621587555255018742 0.009884765371680259704589843750 0.004451655317097902297973632812 0.000779347377829253673553466797 0 0 0 0 
2405500000.0000000000 0.170708626508712796310263115629 0.006925041787326335906982421875 0.004894423764199019345755292676 0.001800064928829669952392578125 0 0 0 0 
2405666666.6666665077 0.171553507447242709060830634371 0.006016972009092569351196289062 0.003751891432330011887791298975 0.001938794041052461104152060400 0 0 0 0 
2405833333.3333334923 0.169832855463028009612713731258 0.004274159669876098632812500000 0.004239077214151620864868164062 0.000521788490004837512969970703 0 0 0 0 
2406000000.0000000000 0.171544805169105502029580634371 0.001913528423756361007690429688 0.003689282340928912162780761719 0.001888580271042882962467812646 0 0 0 0 
2406166666.6666665077 0.170850753784179687500000000000 -0.000169569742865860489293775015 0.004092199262231588363647460938 0.001299511641263962008832621997 0 0 0 0 
2406333333.3333334923 0.172026067972183199783486884371 -0.002572332974523305892944335938 0.004291898105293512344360351562 0.002103156177327036857604980469 0 0 0 0 
2406500000.0000000000 0.172083273530006408691406250000 -0.004078813828527927398681640625 0.004007739014923573407644941113 0.001612214138731360001804970850 0 0 0 0 
2406666666.6666665077 0.171786844730377197265625000000 -0.006520983763039112091064453125 0.004602185450494289398193359375 0.001356668537482619068743061597 0 0 0 0 
2406833333.3333334923 0.172759950160980196853799384371 -0.008260782808065414428710937500 0.004370063543319702148437500000 0.001584716374054550907732319409 0 0 0 0 
2407000000.0000000000 0.173827886581420898437500000000 -0.010639134794473649806012538477 0.004785265773534774780273437500 0.002114417497068644003627158057 0 0 0 0 
2407166666.6666665077 0.174477055668830899337606865629 -0.012405543588101860391637032421 0.005062332842499017715454101562 0.002020755782723426818847656250 0 0 0 0 
2407333333.3333334923 0.174836874008178710937500000000 -0.014464900828897949564000313671 0.005418484564870595932006835938 0.001987002789974213080165243994 0 0 0 0 
2407500000.0000000000 0.175409108400344904143963731258 -0.015884028747677799570103829296 0.005419224500656127929687500000 0.001600917894393206076381064307 0 0 0 0 
2407666666.6666665077 0.175733998417854309082031250000 -0.017262650653719898569127266796 0.005361426621675491333007812500 0.000991436303593218326568603516 0 0 0 0 
2407833333.3333334923 0.176739796996116610428018134371 -0.018942514434456828725794608204 0.005294356495141983032226562500 0.001358575420454144911525107275 0 0 0 0 
2408000000.0000000000 0.178076475858688410003338731258 -0.021456751972436908376673514454 0.006407250184565783414358808301 0.001635921420529484965680766528 0 0 0 0 
2408166666.6666665077 0.178114235401153592208700615629 -0.022301914170384410512903983204 0.006058770231902599334716796875 0.000771851220633834600448608398 0 0 0 0 
2408333333.3333334923 0.179144114255905206878338731258 -0.023922421038150790822962576954 0.006218359339982271194458007812 0.000764185504522174596786499023 0 0 0 0 
2408500000.0000000000 0.179535165429115295410156250000 -0.025439051911234859121302420704 0.006370270624756813049316406250 0.000264825444901362115710657941 0 0 0 0 
2408666666.6666665077 0.180234938859939602950888115629 -0.026588857173919681203821951954 0.006602394394576550397391034863 0.000118079769890755401410241399 0 0 0 0 
2408833333.3333334923 0.180589556694030789474325615629 -0.027819056063890460622767264454 0.006498260889202356338500976562 -0.000256939063547179102897644043 0 0 0 0 
2409000000.0000000000 0.181148111820221002776776231258 -0.028865611180663108825683593750 0.006546427961438894271850585938 -0.000529976910911500453948974609 0 0 0 0 
2409166666.6666665077 0.181623652577400207519531250000 -0.029983226209878921508789062500 0.006552173756062985333914472363 -0.000808547018095850944519042969 0 0 0 0 
2409333333.3333334923 0.182017773389816311935263115629 -0.030778272077441218984583670704 0.006504481658339500427246093750 -0.001122876419685781002044677734 0 0 0 0 
2409500000.0000000000 0.182287633419036892989950615629 -0.031793646514415740966796875000 0.006305679678916931152343750000 -0.001300632255151868083356547778 0 0 0 0 
2409666666.6666665077 0.182758852839469909667968750000 -0.032259352505207061767578125000 0.006336749531328678131103515625 -0.001579481991939247088191367041 0 0 0 0 
2409833333.3333334923 0.182740598917007501800213731258 -0.032796237617731087421457658593 0.006216790992766618728637695312 -0.001773567521013319926020956885 0 0 0 0 
2410000000.0000000000 0.183180689811706487457598768742 -0.033184681087732322002370466407 0.006226623896509408950805664062 -0.002067626686766744093654013525 0 0 0 0 
2410166666.6666665077 0.183344483375549288650674384371 -0.033788051456212997436523437500 0.006002354435622692108154296875 -0.002323043532669543786289834131 0 0 0 0 
2410333333.3333334923 0.183403432369232205489950615629 -0.034140411764383322978932966407 0.005841038655489683151245117188 -0.002497066743671894073486328125 0 0 0 0 
2410500000.0000000000 0.183500662446022005935830634371 -0.034598127007484442974050153907 0.005777279846370220184326171875 -0.002632080111652613119838095557 0 0 0 0 
2410666666.6666665077 0.183338552713394192794638115629 -0.035043127834796912456472028907 0.005678150337189435958862304688 -0.002826651791110634803771972656 0 0 0 0 
2410833333.3333334923 0.183252125978469904143963731258 -0.035244688391685492778737653907 0.005354784429073333740234375000 -0.003183541120961308912989951025 0 0 0 0 
2411000000.0000000000 0.183091133832931490799111884371 -0.035368274897336959838867187500 0.005344879347831010818481445312 -0.003482908708974719047546386719 0 0 0 0 
2411166666.6666665077 0.182923227548599187652911268742 -0.035914704203605651855468750000 0.005104394163936376571655273438 -0.003407354466617106957676552881 0 0 0 0 
2411333333.3333334923 0.182429969310760498046875000000 -0.035937316715717322612722028907 0.004987528081983327865600585938 -0.003643620293587446212768554688 0 0 0 0 
2411500000.0000000000 0.181904509663581903655682481258 -0.036472436040639877319335937500 0.004798033274710178375244140625 -0.003678357228636742071864462744 0 0 0 0 
2411666666.6666665077 0.181572049856185913085937500000 -0.036931328475475311279296875000 0.004603785928338766098022460938 -0.003779150312766433195826865088 0 0 0 0 
2411833333.3333334923 0.180780947208404513260049384371 -0.036965813487768173217773437500 0.004478937014937400817871093750 -0.003971099853515625000000000000 0 0 0 0 
2412000000.0000000000 0.180187240242958096603231865629 -0.037372536957263946533203125000 0.004243711475282908353323652051 -0.004012654535472393035888671875 0 0 0 0 
2412166666.6666665077 0.179309800267219487945880018742 -0.037799127399921417236328125000 0.003946989309042692184448242188 -0.004058290738612413406372070312 0 0 0 0 
2412333333.3333334923 0.178440436720848111251669365629 -0.038541615009307861328125000000 0.003785065840929747061488486182 -0.004188526421785354614257812500 0 0 0 0 
2412500000.0000000000 0.177364692091941805740518134371 -0.038869556039571762084960937500 0.003565536113455892042872763525 -0.004075723700225353240966796875 0 0 0 0 
2412666666.6666665077 0.176121488213539095779580634371 -0.039657387882471091533620466407 0.003309441264718770980834960938 -0.003994924481958150863647460938 0 0 0 0 
2412833333.3333334923 0.175327271223068209549111884371 -0.040274564176797866821289062500 0.003142751520499587059020996094 -0.004141969606280326843261718750 0 0 0 0 
2413000000.0000000000 0.174050182104110690017861884371 -0.040968328714370727539062500000 0.002935458673164248900172568213 -0.003995395731180906295776367188 0 0 0 0 
2413166666.6666665077 0.172749981284141512771768134371 -0.041846755892038352275807966407 0.002889644820243120193481445312 -0.004050345160067082318777753613 0 0 0 0 
2413333333.3333334923 0.171484276652336092849893134371 -0.042710445821285247802734375000 0.002634331583976746039149618994 -0.003780727041885257200953818213 0 0 0 0 
2413500000.0000000000 0.170303493738174410720986884371 -0.043586771935224533081054687500 0.002660555532202125029322958838 -0.003729084972292184829711914062 0 0 0 0 
2413666666.6666665077 0.168893247842788696289062500000 -0.044590864330530166625976562500 0.002556717954576015906092978369 -0.003834983566775918006896972656 0 0 0 0 
2413833333.3333334923 0.167762458324432400802450615629 -0.045702464878559112548828125000 0.002441358054056764082667685400 -0.003650826867669820785522460938 0 0 0 0 
2414000000.0000000000 0.166219159960746792892294365629 -0.046786263585090637207031250000 0.002554519334807991981506347656 -0.003474707482382655143737792969 0 0 0 0 
2414166666.6666665077 0.165133386850357111175213731258 -0.048090308904647827148437500000 0.002554591745138167901280068506 -0.003647336969152092933654785156 0 0 0 0 
2414333333.3333334923 0.164014041423797607421875000000 -0.049467794597148902202565778907 0.002400157041847705841064453125 -0.003286054590716958045959472656 0 0 0 0 
2414500000.0000000000 0.162895619869232205489950615629 -0.050745613873004913330078125000 0.002407258376479148864746093750 -0.003435474354773759841918945312 0 0 0 0 
2414666666.6666665077 0.161828070878982488434161268742 -0.052209287881851203227956403907 0.002440953394398092789890908350 -0.003302234690636395974400185693 0 0 0 0 
2414833333.3333334923 0.160536140203476007659588731258 -0.053918614983558661724050153907 0.002655025804415345191955566406 -0.003236328018829226927516318213 0 0 0 0 
2415000000.0000000000 0.159482017159462002853231865629 -0.055396243929862983013112653907 0.002459575654938817024230957031 -0.003275319701060653166529990088 0 0 0 0 
2415166666.6666665077 0.158654198050498990157919365629 -0.057188414037227630615234375000 0.002790668746456503868103027344 -0.003360577393323183059692382812 0 0 0 0 
2415333333.3333334923 0.157785236835479708572549384371 -0.059013005346059799194335937500 0.002815233776345849037170410156 -0.003413741244003177122828818213 0 0 0 0 
2415500000.0000000000 0.156847268342971801757812500000 -0.060712631791830062866210937500 0.002736799186095594926121377100 -0.003639995353296399116516113281 0 0 0 0 
2415666666.6666665077 0.156120151281356811523437500000 -0.062641434371471405029296875000 0.002791121602058411078212118994 -0.003590425942093133926391601562 0 0 0 0 
2415833333.3333334923 0.155453741550445612151776231258 -0.064541712403297424316406250000 0.002760973526164888901951455225 -0.003706547664478421211242675781 0 0 0 0 
2416000000.0000000000 0.154826551675796508789062500000 -0.066480480134487152099609375000 0.002908257534727454185485839844 -0.003887595608830451965332031250 0 0 0 0 
2416166666.6666665077 0.154462382197380093673544365629 -0.068438403308391571044921875000 0.002887486480176448822021484375 -0.004011129029095172882080078125 0 0 0 0 
2416333333.3333334923 0.153795734047889709472656250000 -0.070250853896141052246093750000 0.002895666984841227965113974463 -0.004125207662582398328299237988 0 0 0 0 
2416500000.0000000000 0.153337419033050509353799384371 -0.072415634989738464355468750000 0.002780998358502984046936035156 -0.004234365187585353851318359375 0 0 0 0 
2416666666.6666665077 0.152995809912681607345419365629 -0.074351400136947631835937500000 0.002672728849574923949000693213 -0.004275985062122344970703125000 0 0 0 0 
2416833333.3333334923 0.152765095233917208572549384371 -0.076419122517108917236328125000 0.002579280640929936928990029443 -0.004604211077094078063964843750 0 0 0 0 
2417000000.0000000000 0.152463495731353787521200615629 -0.078280173242092132568359375000 0.002602541120722889900207519531 -0.004516108892858028411865234375 0 0 0 0 
2417166666.6666665077 0.152210623025894192794638115629 -0.080017685890197753906250000000 0.002516243606805800957920693506 -0.004706099163740873336791992188 0 0 0 0 
2417333333.3333334923 0.152186647057533291915731865629 -0.081749200820922851562500000000 0.002478196052834392027613974463 -0.005012643989175558090209960938 0 0 0 0 
2417500000.0000000000 0.152158290147781399825888115629 -0.083654426038265228271484375000 0.002282587112858891920802451025 -0.005145500414073467254638671875 0 0 0 0 
2417666666.6666665077 0.152201861143112210372763115629 -0.085331439971923828125000000000 0.002235576743260025978088378906 -0.005160086788237094879150390625 0 0 0 0 
2417833333.3333334923 0.152108728885650607010049384371 -0.086834654211997985839843750000 0.002109673107042909102198935400 -0.005165855400264263153076171875 0 0 0 0 
2418000000.0000000000 0.152137339115142794510049384371 -0.088372446596622467041015625000 0.001884003402665258104439760523 -0.005317396018654108047485351562 0 0 0 0 
2418166666.6666665077 0.152173891663551302810830634371 -0.089651666581630706787109375000 0.001849712920375168106676411206 -0.005514610558748245239257812500 0 0 0 0 
2418333333.3333334923 0.152573421597480801681356865629 -0.091012857854366302490234375000 0.001581159420311450958251953125 -0.005637616384774447354788495801 0 0 0 0 
2418500000.0000000000 0.152656570076942388336505018742 -0.092204175889492034912109375000 0.001423330861143768050550151294 -0.005653795786201953887939453125 0 0 0 0 
2418666666.6666665077 0.152896776795387295821981865629 -0.093261532485485076904296875000 0.001480528619140387015101767432 -0.005754381883889436721801757812 0 0 0 0 
2418833333.3333334923 0.152850970625877408126669365629 -0.094343625009059906005859375000 0.001296359347179532051086425781 -0.005811491515487433347220136426 0 0 0 0 
2419000000.0000000000 0.153045326471328707595986884371 -0.095250204205513000488281250000 0.001141986693255603096605610425 -0.005934738088399171829223632812 0 0 0 0 
2419166666.6666665077 0.153394877910614013671875000000 -0.095944724977016448974609375000 0.000859797932207584381103515625 -0.005952850915491580963134765625 0 0 0 0 
2419333333.3333334923 0.153356745839119013030682481258 -0.096335954964160919189453125000 0.000720807875040918588638305664 -0.006057172548025847348684980176 0 0 0 0 
2419500000.0000000000 0.153662860393524197677450615629 -0.097020208835601806640625000000 0.000741092429962009191513061523 -0.006094491109251976013183593750 0 0 0 0 
2419666666.6666665077 0.153914287686347989181356865629 -0.097395256161689758300781250000 0.000509412901010364294052124023 -0.006196062080562114715576171875 0 0 0 0 
2419833333.3333334923 0.153925165534019497970419365629 -0.097723081707954406738281250000 0.000315626733936369419097900391 -0.006267170421779155731201171875 0 0 0 0 
