# Hz S RI R 
2400000000.0000000000 0.155664309859275790115518134371 0.110608093440532698203959682814 -0.000757291738409548997879028320 0.000542922411113977432250976562 0 0 0 0 
2400166666.6666665077 0.155080527067184503753338731258 0.108362101018428802490234375000 -0.000642500643152743577957153320 0.000630161492154002189636230469 0 0 0 0 
2400333333.3333334923 0.154916912317276000976562500000 0.106205858290195506721254048443 -0.000521806767210364341735839844 0.000624872569460421800613403320 0 0 0 0 
2400500000.0000000000 0.154573753476142911056356865629 0.103538751602172893195863423443 -0.000335201242705807089805603027 0.000748530728742480278015136719 0 0 0 0 
2400666666.6666665077 0.154298886656761197189169365629 0.100987955927848802040180942186 -0.000304520101053640300601405011 0.000718427181709557771682739258 0 0 0 0 
2400833333.3333334923 0.153871417045593289474325615629 0.098087541759014129638671875000 -0.000165398858371190699651995248 0.000787546334322541952133178711 0 0 0 0 
2401000000.0000000000 0.153896212577819796463174384371 0.095349095761775970458984375000 -0.000206336873816326287671765738 0.000851047516334801912307739258 0 0 0 0 
2401166666.6666665077 0.153593257069587707519531250000 0.092418298125267028808593750000 0.000016105339454952630808557204 0.000961798185016959905624389648 0 0 0 0 
2401333333.3333334923 0.153772398829460088531817518742 0.089597575366497039794921875000 0.000041415085433982312679290771 0.000792478211224079132080078125 0 0 0 0 
2401500000.0000000000 0.153908804059028597732705634371 0.086516827344894409179687500000 0.000135053734993562102317810059 0.000832253135740756988525390625 0 0 0 0 
2401666666.6666665077 0.154082939028739901443643134371 0.083527944982051849365234375000 0.000147675687912851599141797476 0.000915068958420306444168090820 0 0 0 0 
2401833333.3333334923 0.154578343033790588378906250000 0.080682747066020965576171875000 0.000155249639647081494331359863 0.000993783003650605678558349609 0 0 0 0 
2402000000.0000000000 0.155185773968696594238281250000 0.077575862407684326171875000000 0.000107308675069361898020067758 0.000952704926021397113800048828 0 0 0 0 
2402166666.6666665077 0.155750975012779208084268134371 0.074892111122608184814453125000 0.000378508761059492826461791992 0.001156495301984250979182577979 0 0 0 0 
2402333333.3333334923 0.156719863414764404296875000000 0.071784757077693939208984375000 0.000439287308836355805397033691 0.001274144859053194956538535010 0 0 0 0 
2402500000.0000000000 0.157435283064842196365518134371 0.069152608513832092285156250000 0.000463024305645376389652806415 0.001151680015027523040771484375 0 0 0 0 
2402666666.6666665077 0.158545657992363003829794365629 0.066598989069461822509765625000 0.000494693813379853963851928711 0.001235593226738274097442626953 0 0 0 0 
2402833333.3333334923 0.159982934594154413421307481258 0.063779599964618682861328125000 0.000880820211023092269897460938 0.001216203439980745098711323315 0 0 0 0 
2403000000.0000000000 0.161155715584754888336505018742 0.061318855732679367065429687500 0.001155278412625194029567099463 0.001185285160318017005920410156 0 0 0 0 
2403166666.6666665077 0.163011223077774103362713731258 0.058657966554164893413503278907 0.001130697899498045010807656396 0.001188294496387243054033588940 0 0 0 0 
2403333333.3333334923 0.164525270462036105056924384371 0.056296315044164657592773437500 0.001439105137251317934748984229 0.001061764894984662966487265479 0 0 0 0 
2403500000.0000000000 0.166214495897293090820312500000 0.053993143141269676898996721093 0.001690776553004980087280273438 0.001087893731892108917236328125 0 0 0 0 
2403666666.6666665077 0.167970597743988009353799384371 0.051749516278505332256276716407 0.001931295031681657054303813403 0.000735011592041701078414916992 0 0 0 0 
2403833333.3333334923 0.169655054807662991622763115629 0.049537695944309241558034528907 0.002125134225934743881225585938 0.000653610506560653448104858398 0 0 0 0 
2404000000.0000000000 0.171303480863571194747763115629 0.047694031149148941040039062500 0.002324551343917847113368368994 0.000426109094405546784400939941 0 0 0 0 
2404166666.6666665077 0.173343360424041803558026231258 0.046028029173612601543386091407 0.002303776331245899200439453125 0.000154798544826917404502314435 0 0 0 0 
2404333333.3333334923 0.175039574503898592849893134371 0.044295337051153182983398437500 0.002464133780449628829956054688 -0.000195439381059259203359326773 0 0 0 0 
2404500000.0000000000 0.176855489611625699142294365629 0.042719025164842612529714216407 0.002380341989919542832615517725 -0.000402566860429942607879638672 0 0 0 0 
2404666666.6666665077 0.178698167204856900314169365629 0.041470695286989212036132812500 0.002300662454217671914341591943 -0.000798829190898686647415161133 0 0 0 0 
2404833333.3333334923 0.180645719170570401290731865629 0.040299400687217712402343750000 0.002337957732379436926600790869 -0.001090343459509313106536865234 0 0 0 0 
2405000000.0000000000 0.182115703821182306487713731258 0.039335165172815322875976562500 0.002060623839497565789463662256 -0.001315338537096977017046284253 0 0 0 0 
2405166666.6666665077 0.183999300003051813323651231258 0.038683444261550903320312500000 0.001881971373222768089891743237 -0.001382678863592446067212748950 0 0 0 0 
2405333333.3333334923 0.185494124889373807052450615629 0.038053099066019058227539062500 0.001610146136954426982282329028 -0.001812155940569937012316059644 0 0 0 0 
2405500000.0000000000 0.187191948294639587402343750000 0.037554524838924407958984375000 0.001607404905371367931365966797 -0.001741757499985397078870463794 0 0 0 0 
2405666666.6666665077 0.188627123832702608963174384371 0.037088807672262191772460937500 0.001324055716395377895952534253 -0.002100317040458322005030966650 0 0 0 0 
2405833333.3333334923 0.190116345882415799239950615629 0.037023220211267471313476562500 0.000827784417197108268737792969 -0.002109026769176125960109091650 0 0 0 0 
2406000000.0000000000 0.191386297345161410232705634371 0.036761790513992309570312500000 0.000797167478594928979873657227 -0.002062870189547539191005087744 0 0 0 0 
2406166666.6666665077 0.192752763628959711272869981258 0.036746621131896972656250000000 0.000798607827164232730865478516 -0.002313278615474700927734375000 0 0 0 0 
2406333333.3333334923 0.193805351853370694259481865629 0.036896873265504837036132812500 0.000485473312437534278065282001 -0.002183918841183186011073447119 0 0 0 0 
2406500000.0000000000 0.194711074233055086990518134371 0.037165399640798568725585937500 0.000342388753779232501983642578 -0.002334599383175373077392578125 0 0 0 0 
2406666666.6666665077 0.195734962821006802657919365629 0.037266861647367477416992187500 0.000079882222053129225969314575 -0.002360344165936111970188759912 0 0 0 0 
2406833333.3333334923 0.196590140461921691894531250000 0.037503495812416076660156250000 -0.000191593673662282499388018198 -0.002299556042999029159545898438 0 0 0 0 
2407000000.0000000000 0.196996524930000305175781250000 0.038005452603101730346679687500 -0.000375758070731535608142298566 -0.002180329756811261177062988281 0 0 0 0 
2407166666.6666665077 0.197671920061111505706463731258 0.037966422736644751811940778907 -0.000569559284485876560211181641 -0.002173567190766334967372275244 0 0 0 0 
2407333333.3333334923 0.197704777121543912032919365629 0.038515765219926827167551408593 -0.000794199237134307622909545898 -0.002147120656445622010471963037 0 0 0 0 
2407500000.0000000000 0.197824358940124511718750000000 0.038968268781900412822682966407 -0.000951472786255180835723876953 -0.001901479554362595081329345703 0 0 0 0 
2407666666.6666665077 0.198032528162002591232138115629 0.039188604801893227314035783593 -0.001016843947581947066663432544 -0.001805089414119720892665243994 0 0 0 0 
2407833333.3333334923 0.197633221745491000076455634371 0.039221480488777160644531250000 -0.001172126503661274909973144531 -0.001816211850382388071772910010 0 0 0 0 
2408000000.0000000000 0.197624847292900113204794365629 0.039504796266555793071706403907 -0.001244490966200828985926962744 -0.001689172931946814060211181641 0 0 0 0 
2408166666.6666665077 0.197186946868896512130575615629 0.039599709212779998779296875000 -0.001567515195347368934034038013 -0.001395762665197253010393452222 0 0 0 0 
2408333333.3333334923 0.196785256266593905349893134371 0.039472721517086029052734375000 -0.001552497386001050905940390479 -0.001548810396343470053431845557 0 0 0 0 
2408500000.0000000000 0.196105062961578396896200615629 0.039396990090608596801757812500 -0.001568368403241038105608295972 -0.001275029499083756966831826318 0 0 0 0 
2408666666.6666665077 0.195493817329406710525674384371 0.039404373615980148315429687500 -0.001571254688315093950984335791 -0.001203862717375159046770405347 0 0 0 0 
2408833333.3333334923 0.194649562239646911621093750000 0.039008148014545440673828125000 -0.001746311085298656983616494287 -0.001127356546930968978284526294 0 0 0 0 
2409000000.0000000000 0.193686634302139309982138115629 0.038422126322984702373464216407 -0.001807117601856589100481342847 -0.000912912946660071611404418945 0 0 0 0 
2409166666.6666665077 0.192620366811752291580361884371 0.037699986249208450317382812500 -0.001839155331254004998448037256 -0.000870010175276547670364379883 0 0 0 0 
2409333333.3333334923 0.191624909639358492752236884371 0.037113945931196212768554687500 -0.002012382028624414963963173975 -0.000787232595030218362808227539 0 0 0 0 
2409500000.0000000000 0.190446943044662503341513115629 0.036155242472887039184570312500 -0.002116252901032567024230957031 -0.000562334957066923379898071289 0 0 0 0 
2409666666.6666665077 0.189350098371505709549111884371 0.034919638186693191528320312500 -0.002091875066980720000026083838 -0.000406292558182030916213989258 0 0 0 0 
2409833333.3333334923 0.188090950250625610351562500000 0.033782225102186203002929687500 -0.002256123814731835885288857568 -0.000132377914269454804345807486 0 0 0 0 
2410000000.0000000000 0.186798334121704101562500000000 0.032384209334850311279296875000 -0.002246140735223888917210244287 -0.000075193805969320237636566162 0 0 0 0 
2410166666.6666665077 0.185611784458160400390625000000 0.030757827684283260000208670704 -0.002205637982115149931666708838 0.000113585527287796099059520583 0 0 0 0 
2410333333.3333334923 0.184543401002883911132812500000 0.029155530035495761526087576954 -0.002308008493855596022364951025 0.000325904082274064421653747559 0 0 0 0 
2410500000.0000000000 0.183341845870018005371093750000 0.027474438771605491638183593750 -0.002321938285604118867161416162 0.000694495218340307474136352539 0 0 0 0 
2410666666.6666665077 0.182170107960700988769531250000 0.025251194834709170949915701954 -0.002196092624217271804809570312 0.000783213879913091659545898438 0 0 0 0 
2410833333.3333334923 0.181343272328376797775106865629 0.023204220458865169179896170704 -0.002088238485157490210292197119 0.000848104245960712432861328125 0 0 0 0 
2411000000.0000000000 0.180476129055023193359375000000 0.020954098552465438842773437500 -0.001941005466505884907366108472 0.001086560310795902989031147534 0 0 0 0 
2411166666.6666665077 0.179601520299911499023437500000 0.018892573192715648305872733204 -0.001916138920933007977129292065 0.001228371635079384066938090747 0 0 0 0 
2411333333.3333334923 0.178830012679100008865518134371 0.016318360343575481069544608204 -0.001788363093510269901872944409 0.001399258500896394035936665112 0 0 0 0 
2411500000.0000000000 0.178003266453743008712606865629 0.013941106386482720810859881055 -0.001601188792847096920013427734 0.001633208710700273947474814307 0 0 0 0 
2411666666.6666665077 0.177735880017280606368856865629 0.011544222012162210291852382227 -0.001527438173070549964904785156 0.001683697453700006008148193359 0 0 0 0 
2411833333.3333334923 0.177274897694587707519531250000 0.009073642082512378692626953125 -0.001265634200535715059993124854 0.001898272195830940983415913159 0 0 0 0 
2412000000.0000000000 0.177284181118011502364950615629 0.006305869668722152709960937500 -0.001150297583080827973009419019 0.001953388797119259834289550781 0 0 0 0 
2412166666.6666665077 0.177197962999343899825888115629 0.003828036133199930191040039062 -0.001002665609121323065516806494 0.002126488601788878007176064600 0 0 0 0 
2412333333.3333334923 0.177345082163810702224893134371 0.001093144295737146897556923975 -0.000843803049065172672271728516 0.002229903591796755790710449219 0 0 0 0 
2412500000.0000000000 0.177517697215080288986044365629 -0.001461615902371705012080527197 -0.000675397808663547039031982422 0.002254494931548833847045898438 0 0 0 0 
2412666666.6666665077 0.177998512983322088043536268742 -0.004255058243870735168457031250 -0.000403823738452047109603881836 0.002217146102339028878452920068 0 0 0 0 
2412833333.3333334923 0.178502231836318997482138115629 -0.006895880680531263351440429688 -0.000129424704937264296129503793 0.002257673302665352821350097656 0 0 0 0 
2413000000.0000000000 0.179300636053085299392861884371 -0.009583435021340847015380859375 0.000107026178739033598773418288 0.002367413369938731193542480469 0 0 0 0 
2413166666.6666665077 0.179845973849296597579794365629 -0.011979678645730020350446132227 0.000426087208325043320655822754 0.002296118997037411169764853369 0 0 0 0 
2413333333.3333334923 0.181024387478828402420205634371 -0.014567243866622449702252772852 0.000644966668915003538131713867 0.002156422473490238189697265625 0 0 0 0 
2413500000.0000000000 0.181745201349258395095986884371 -0.016998447477817538869837576954 0.000714251131284981966018676758 0.002298907143995165824890136719 0 0 0 0 
2413666666.6666665077 0.183059304952621487716513115629 -0.019579555839300159109095389454 0.000955425610300153493881225586 0.002063186140730977058410644531 0 0 0 0 
2413833333.3333334923 0.184216514229774502853231865629 -0.021686712279915809631347656250 0.001353510189801454977748251807 0.001864467281848191998125385815 0 0 0 0 
2414000000.0000000000 0.185330718755722101409588731258 -0.023866645991802219045618826954 0.001407118164934217929840087891 0.001576179056428373076795268481 0 0 0 0 
2414166666.6666665077 0.186707675457000704666299384371 -0.025943914428353309631347656250 0.001462439191527665095088339697 0.001393974991515279033063579028 0 0 0 0 
2414333333.3333334923 0.187965705990791293045205634371 -0.028258441016077998769739920704 0.001704316353425384001490927588 0.001097522210329771041870117188 0 0 0 0 
2414500000.0000000000 0.189469039440155001541299384371 -0.030001444742083549499511718750 0.001755599048919975974439311450 0.001074640545994042916538857568 0 0 0 0 
2414666666.6666665077 0.190798014402389498611611884371 -0.031635969877243041992187500000 0.001681788940913975021959614331 0.000837103871162980794906616211 0 0 0 0 
2414833333.3333334923 0.192246228456497192382812500000 -0.033288564532995217060129533593 0.001901632873341440937639545972 0.000505218864418566226959228516 0 0 0 0 
2415000000.0000000000 0.193552583456039400955361884371 -0.034723486751317977905273437500 0.001794084440916777090785361182 0.000448897772002965211868286133 0 0 0 0 
2415166666.6666665077 0.194945737719535799881143134371 -0.036039493978023529052734375000 0.001564019708894192955614399487 0.000354629475623369216918945312 0 0 0 0 
2415333333.3333334923 0.196433886885643005371093750000 -0.037120405584573752666432966407 0.001558483112603425979614257812 0.000135439069708809310763758527 0 0 0 0 
2415500000.0000000000 0.197814479470252990722656250000 -0.037917349487543113017995466407 0.001505119027569890022277832031 0.000090375964646227657794952393 0 0 0 0 
2415666666.6666665077 0.199229598045349093338174384371 -0.039131056517362601543386091407 0.001365274307318032004712748950 -0.000236233361647464307859697885 0 0 0 0 
2415833333.3333334923 0.200229585170745905120526231258 -0.039847500622272491455078125000 0.001434918842278420925140380859 -0.000261562177911400794982910156 0 0 0 0 
2416000000.0000000000 0.201415717601776095291299384371 -0.040411584079265587543527971093 0.001294075744226574897766113281 -0.000422860233811661601066589355 0 0 0 0 
2416166666.6666665077 0.202375054359436007400674384371 -0.041041463613510131835937500000 0.001191926887258887074114155347 -0.000427769962698221206665039062 0 0 0 0 
2416333333.3333334923 0.203347131609916687011718750000 -0.041404910385608673095703125000 0.001076061627827584960340190356 -0.000603514956310391426086425781 0 0 0 0 
2416500000.0000000000 0.204110339283943204025106865629 -0.041717920452356338500976562500 0.001028687576763332106946635669 -0.000724894169252365827560424805 0 0 0 0 
2416666666.6666665077 0.204817250370979309082031250000 -0.042011667042970657348632812500 0.000779664027504622936248779297 -0.000731560692656785249710083008 0 0 0 0 
2416833333.3333334923 0.205233246088028009612713731258 -0.042014949023723602294921875000 0.000852641067467629909515380859 -0.000843431975226849317550659180 0 0 0 0 
2417000000.0000000000 0.205590978264808710296307481258 -0.042090103030204772949218750000 0.000690359156578779220581054688 -0.000817246327642351388931274414 0 0 0 0 
2417166666.6666665077 0.205592229962348910232705634371 -0.041927337646484381938893903907 0.000536848267074674367904663086 -0.000863149121869355440139770508 0 0 0 0 
2417333333.3333334923 0.205633088946342496017294365629 -0.041631918400526046752929687500 0.000465005781734362190395909442 -0.000859622145071625709533691406 0 0 0 0 
2417500000.0000000000 0.205641672015190096756143134371 -0.041552785784006118774414062500 0.000462885480374097824096679688 -0.000872559496201574802398681641 0 0 0 0 
2417666666.6666665077 0.205333918333053588867187500000 -0.041141770780086517333984375000 0.000241049361648038002565661020 -0.000785218086093664169311523438 0 0 0 0 
2417833333.3333334923 0.205091029405593899825888115629 -0.040814146399497992778737653907 0.000255309860222041606903076172 -0.000780532602220773696899414062 0 0 0 0 
2418000000.0000000000 0.204572573304176302810830634371 -0.040478907525539398193359375000 0.000145641897688619792461395264 -0.000789184123277664184570312500 0 0 0 0 
2418166666.6666665077 0.203978702425956698318643134371 -0.040145259350538246845285783593 0.000031504685466643422842025757 -0.000786653195973485708236694336 0 0 0 0 
2418333333.3333334923 0.203277066349983187576455634371 -0.039821125566959381103515625000 -0.000025815652406890879979337386 -0.000824199581984430551528930664 0 0 0 0 
2418500000.0000000000 0.202321365475654602050781250000 -0.039673462510108947753906250000 -0.000113400237751193303935466627 -0.000766780285630375146865844727 0 0 0 0 
2418666666.6666665077 0.201497137546539306640625000000 -0.039341364055871956562082658593 -0.000066499895183369517326354980 -0.000850387266837060451507568359 0 0 0 0 
2418833333.3333334923 0.200477078557014493087606865629 -0.039215736091136932373046875000 -0.000220427362364716800764360971 -0.000834796170238405466079711914 0 0 0 0 
2419000000.0000000000 0.199049055576324490646200615629 -0.039249919354915618896484375000 -0.000280896929325535893440246582 -0.000785383395850658416748046875 0 0 0 0 
2419166666.6666665077 0.197828382253646906097088731258 -0.039255186915397637104074846093 -0.000247261428739875609248560773 -0.000793666578829288482666015625 0 0 0 0 
2419333333.3333334923 0.196545735001563998123330634371 -0.039692997932434082031250000000 -0.000456590554676949977874755859 -0.000680427008774131536483764648 0 0 0 0 
2419500000.0000000000 0.194874033331871004959268134371 -0.039837829768657677387277971093 -0.000553157180547714233398437500 -0.000573577883187681436538696289 0 0 0 0 
2419666666.6666665077 0.193108826875686701018963731258 -0.040378030389547348022460937500 -0.000711049768142402172088623047 -0.000682289828546345233917236328 0 0 0 0 
2419833333.3333334923 0.191561743617057800292968750000 -0.040790047496557242656667341407 -0.000712236855179071426391601562 -0.000416951079387217814296168195 0 0 0 0 
