# Version 1.00
#
freq[Hz];re:Trc1_S11;im:Trc1_S11;re:Trc2_S21;im:Trc2_S21;
2.400000000000000E+009;1.551883667707443E-001;1.064019650220871E-001;-2.423968631774187E-003;-7.063576485961676E-003;
2.400166666666667E+009;1.548604965209961E-001;1.038117557764053E-001;-2.662848448380828E-003;-6.970745977014303E-003;
2.400333333333334E+009;1.550487726926804E-001;1.016991734504700E-001;-2.802157076075673E-003;-6.689107045531273E-003;
2.400500000000000E+009;1.548674702644348E-001;9.902669489383698E-002;-2.956678625196219E-003;-6.492993328720331E-003;
2.400666666666667E+009;1.551613509654999E-001;9.648338705301285E-002;-3.168011317029595E-003;-6.164193619042635E-003;
2.400833333333334E+009;1.549624055624008E-001;9.353643655776978E-002;-3.211432136595249E-003;-6.014961283653975E-003;
2.401000000000000E+009;1.553039699792862E-001;9.101016074419022E-002;-3.521770937368274E-003;-5.957876797765493E-003;
2.401166666666667E+009;1.553633511066437E-001;8.812558650970459E-002;-3.654406871646643E-003;-5.679647438228130E-003;
2.401333333333334E+009;1.557671576738358E-001;8.526559919118881E-002;-3.841776866465807E-003;-5.576928146183491E-003;
2.401500000000000E+009;1.561543941497803E-001;8.256360143423080E-002;-3.984191920608282E-003;-5.520531442016363E-003;
2.401666666666667E+009;1.567011028528214E-001;7.969395071268082E-002;-4.059481900185347E-003;-5.418759305030108E-003;
2.401833333333334E+009;1.572209596633911E-001;7.701700180768967E-002;-4.163908772170544E-003;-5.216254852712154E-003;
2.402000000000000E+009;1.580385416746140E-001;7.418150454759598E-002;-4.362939391285181E-003;-5.169049836695194E-003;
2.402166666666667E+009;1.589562296867371E-001;7.188937067985535E-002;-4.497793037444353E-003;-4.988004453480244E-003;
2.402333333333334E+009;1.598334759473801E-001;6.909056752920151E-002;-4.841646179556847E-003;-4.867012146860361E-003;
2.402500000000000E+009;1.610606461763382E-001;6.658331304788590E-002;-4.797129891812801E-003;-4.698602482676506E-003;
2.402666666666667E+009;1.619907468557358E-001;6.425499916076660E-002;-5.051994230598211E-003;-4.540494643151760E-003;
2.402833333333334E+009;1.633952856063843E-001;6.188464909791946E-002;-5.331900436431170E-003;-4.471652675420046E-003;
2.403000000000000E+009;1.648687869310379E-001;5.962437391281128E-002;-5.573740694671869E-003;-4.373786039650440E-003;
2.403166666666667E+009;1.666003465652466E-001;5.752737447619438E-002;-5.729257129132748E-003;-3.847671439871192E-003;
2.403333333333334E+009;1.678799539804459E-001;5.522430688142777E-002;-5.922665819525719E-003;-3.727093571797013E-003;
2.403500000000000E+009;1.697555929422379E-001;5.320687592029572E-002;-6.091480609029532E-003;-3.454457968473434E-003;
2.403666666666667E+009;1.713661104440689E-001;5.125574022531509E-002;-6.168783642351627E-003;-3.016102360561490E-003;
2.403833333333334E+009;1.730972677469254E-001;4.948873072862625E-002;-6.279564928263426E-003;-2.553979167714715E-003;
2.404000000000000E+009;1.746182292699814E-001;4.787587001919746E-002;-6.317659746855497E-003;-1.958814216777682E-003;
2.404166666666667E+009;1.763992458581924E-001;4.636849835515022E-002;-6.317321676760912E-003;-1.848148531280458E-003;
2.404333333333334E+009;1.780708581209183E-001;4.485317319631577E-002;-6.292132660746574E-003;-1.415529754012823E-003;
2.404500000000000E+009;1.796777844429016E-001;4.356673732399941E-002;-6.052894983440638E-003;-1.012677676044405E-003;
2.404666666666667E+009;1.813558191061020E-001;4.241660237312317E-002;-5.915369838476181E-003;-9.016295080073178E-004;
2.404833333333334E+009;1.829673945903778E-001;4.129502922296524E-002;-5.710963159799576E-003;-5.498224054463208E-004;
2.405000000000000E+009;1.841194331645966E-001;4.076330736279488E-002;-5.704579874873161E-003;-4.364608903415501E-004;
2.405166666666667E+009;1.855815947055817E-001;3.991783037781715E-002;-5.352089181542397E-003;-1.876656606327742E-004;
2.405333333333334E+009;1.870231777429581E-001;3.943511843681335E-002;-5.343852564692497E-003;-4.170527972746640E-005;
2.405500000000000E+009;1.884488612413406E-001;3.895405307412148E-002;-5.013845395296812E-003;3.277032010373659E-005;
2.405666666666667E+009;1.896549910306931E-001;3.865449130535126E-002;-5.040717311203480E-003;3.341879637446255E-004;
2.405833333333334E+009;1.909760534763336E-001;3.833402693271637E-002;-4.926051944494247E-003;4.488183185458183E-004;
2.406000000000000E+009;1.918620318174362E-001;3.831828758120537E-002;-4.727819934487343E-003;4.207734600640833E-004;
2.406166666666667E+009;1.929312348365784E-001;3.792871534824371E-002;-4.631165415048599E-003;6.182316574268043E-004;
2.406333333333334E+009;1.938338726758957E-001;3.801280632615089E-002;-4.495022352784872E-003;7.276090909726918E-004;
2.406500000000000E+009;1.944512873888016E-001;3.805742785334587E-002;-4.354112781584263E-003;8.340246859006584E-004;
2.406666666666667E+009;1.950895041227341E-001;3.800728544592857E-002;-4.164581187069416E-003;9.098262526094914E-004;
2.406833333333334E+009;1.956735700368881E-001;3.800626099109650E-002;-4.008200019598007E-003;9.155243751592934E-004;
2.407000000000000E+009;1.959039717912674E-001;3.802908211946487E-002;-3.875171765685082E-003;1.012207008898258E-003;
2.407166666666667E+009;1.961132884025574E-001;3.785359486937523E-002;-3.773255739361048E-003;9.959033923223615E-004;
2.407333333333334E+009;1.960876137018204E-001;3.793589770793915E-002;-3.541817655786872E-003;1.117323408834636E-003;
2.407500000000000E+009;1.960867643356323E-001;3.801050037145615E-002;-3.480721265077591E-003;1.129532116465271E-003;
2.407666666666667E+009;1.961204558610916E-001;3.786852583289146E-002;-3.207864938303828E-003;9.181916248053312E-004;
2.407833333333334E+009;1.956180781126022E-001;3.774238377809525E-002;-3.198404330760241E-003;1.057801069691777E-003;
2.408000000000000E+009;1.954363584518433E-001;3.752630576491356E-002;-3.047127043828368E-003;9.151572594419122E-004;
2.408166666666667E+009;1.947316527366638E-001;3.720202669501305E-002;-2.993692876771092E-003;7.435823208652437E-004;
2.408333333333334E+009;1.943735480308533E-001;3.659980744123459E-002;-3.020826261490583E-003;6.369293550960720E-004;
2.408500000000000E+009;1.935675293207169E-001;3.633908554911614E-002;-2.913065021857619E-003;5.555890384130180E-004;
2.408666666666667E+009;1.929934620857239E-001;3.572630137205124E-002;-2.921625506132841E-003;5.998075939714909E-004;
2.408833333333334E+009;1.923587322235107E-001;3.491011261940002E-002;-2.912829397246242E-003;5.767682450823486E-004;
2.409000000000000E+009;1.914017498493195E-001;3.388055786490440E-002;-3.014114452525973E-003;2.702931233216077E-004;
2.409166666666667E+009;1.903558522462845E-001;3.296316042542458E-002;-3.043029224500060E-003;1.396736188326031E-004;
2.409333333333334E+009;1.896160989999771E-001;3.192823752760887E-002;-3.035684581845999E-003;1.014428053167649E-004;
2.409500000000000E+009;1.883279979228973E-001;3.055948391556740E-002;-3.214436816051602E-003;2.755051536951214E-004;
2.409666666666667E+009;1.874346733093262E-001;2.905788272619247E-002;-3.267265623435378E-003;9.585265070199966E-005;
2.409833333333334E+009;1.864206790924072E-001;2.780343405902386E-002;-3.531784517690539E-003;2.620427403599024E-004;
2.410000000000000E+009;1.854900866746903E-001;2.599583379924297E-002;-3.560808021575213E-003;2.297237952006981E-004;
2.410166666666667E+009;1.844167113304138E-001;2.433601766824722E-002;-3.605908481404185E-003;2.365498075960204E-004;
2.410333333333334E+009;1.836913079023361E-001;2.234322950243950E-002;-3.746811999008060E-003;4.094569012522697E-004;
2.410500000000000E+009;1.825423389673233E-001;2.055489644408226E-002;-3.666554810479283E-003;4.811243561562151E-004;
2.410666666666667E+009;1.817207634449005E-001;1.829348690807819E-002;-3.684836206957698E-003;7.394079584628344E-004;
2.410833333333334E+009;1.810914874076843E-001;1.615373790264130E-002;-3.910738974809647E-003;6.726976716890931E-004;
2.411000000000000E+009;1.803283691406250E-001;1.385277230292559E-002;-3.852089168503881E-003;7.231794879771769E-004;
2.411166666666667E+009;1.797736287117004E-001;1.171405613422394E-002;-3.952054306864739E-003;8.236906724050641E-004;
2.411333333333334E+009;1.791472434997559E-001;9.128335863351822E-003;-3.946842625737190E-003;8.603631868027151E-004;
2.411500000000000E+009;1.788324564695358E-001;6.896403618156910E-003;-4.087056964635849E-003;7.820252212695777E-004;
2.411666666666667E+009;1.786885857582092E-001;4.537047352641821E-003;-4.006146918982267E-003;9.384413133375347E-004;
2.411833333333334E+009;1.783034652471542E-001;2.015026984736323E-003;-4.168346058577299E-003;9.165719966404140E-004;
2.412000000000000E+009;1.783827692270279E-001;-3.939887974411249E-004;-4.302261397242546E-003;1.118681160733104E-003;
2.412166666666667E+009;1.785684674978256E-001;-2.726629143580794E-003;-4.311689175665379E-003;1.208277884870768E-003;
2.412333333333334E+009;1.786403506994247E-001;-5.419563502073288E-003;-4.334704484790564E-003;1.242748228833079E-003;
2.412500000000000E+009;1.791709810495377E-001;-7.514707278460264E-003;-4.520310554653406E-003;1.390686025843024E-003;
2.412666666666667E+009;1.797470152378082E-001;-1.001930609345436E-002;-4.770117811858654E-003;1.544793485663831E-003;
2.412833333333334E+009;1.805243194103241E-001;-1.248399261385202E-002;-4.796011373400688E-003;1.776233431883156E-003;
2.413000000000000E+009;1.810341626405716E-001;-1.474920567125082E-002;-4.762002732604742E-003;1.897512236610055E-003;
2.413166666666667E+009;1.818439215421677E-001;-1.692491397261620E-002;-5.030419211834669E-003;2.247286727651954E-003;
2.413333333333334E+009;1.830249875783920E-001;-1.921002753078938E-002;-5.281594581902027E-003;2.426717896014452E-003;
2.413500000000000E+009;1.838586777448654E-001;-2.129959873855114E-002;-5.172288510948420E-003;2.679882803931832E-003;
2.413666666666667E+009;1.850134432315826E-001;-2.346069179475308E-002;-5.307216662913561E-003;3.120179753750563E-003;
2.413833333333334E+009;1.860551685094833E-001;-2.531907707452774E-002;-5.114728584885597E-003;3.335299203172326E-003;
2.414000000000000E+009;1.872667223215103E-001;-2.742587029933929E-002;-5.053064785897732E-003;3.852452151477337E-003;
2.414166666666667E+009;1.884515881538391E-001;-2.899905480444431E-002;-4.863005597144365E-003;4.155130125582218E-003;
2.414333333333334E+009;1.895364522933960E-001;-3.091743960976601E-002;-4.755239933729172E-003;4.524401389062405E-003;
2.414500000000000E+009;1.908360719680786E-001;-3.231384605169296E-002;-4.547745920717716E-003;4.947182722389698E-003;
2.414666666666667E+009;1.920235306024551E-001;-3.386567905545235E-002;-4.208859056234360E-003;5.133706610649824E-003;
2.414833333333334E+009;1.929823458194733E-001;-3.529175743460655E-002;-3.783496795222163E-003;5.410750862210989E-003;
2.415000000000000E+009;1.941791176795960E-001;-3.651044517755508E-002;-3.530020825564861E-003;5.822096485644579E-003;
2.415166666666667E+009;1.953487247228622E-001;-3.763590008020401E-002;-3.215747652575374E-003;5.949995946139097E-003;
2.415333333333334E+009;1.965554505586624E-001;-3.851158916950226E-002;-2.875853097066283E-003;6.033204495906830E-003;
2.415500000000000E+009;1.975525468587875E-001;-3.920164331793785E-002;-2.519045025110245E-003;6.025343202054501E-003;
2.415666666666667E+009;1.984969675540924E-001;-4.002910479903221E-002;-2.210154663771391E-003;6.363579072058201E-003;
2.415833333333334E+009;1.994334906339645E-001;-4.070850089192390E-002;-1.837301184423268E-003;6.158681586384773E-003;
2.416000000000000E+009;2.001000344753265E-001;-4.132840782403946E-002;-1.599295996129513E-003;6.335688754916191E-003;
2.416166666666667E+009;2.008562386035919E-001;-4.196245223283768E-002;-1.178878359496594E-003;6.307171657681465E-003;
2.416333333333334E+009;2.014449536800385E-001;-4.213391616940498E-002;-9.900589939206839E-004;6.399829871952534E-003;
2.416500000000000E+009;2.018590867519379E-001;-4.247680306434631E-002;-6.994629511609674E-004;6.298392079770565E-003;
2.416666666666667E+009;2.021685987710953E-001;-4.273892566561699E-002;-2.574287937022746E-004;6.217458751052618E-003;
2.416833333333334E+009;2.022203654050827E-001;-4.280563816428185E-002;7.953796739457175E-006;6.320090964436531E-003;
2.417000000000000E+009;2.023600339889526E-001;-4.297057539224625E-002;2.690459368750453E-004;6.163637619465590E-003;
2.417166666666667E+009;2.020424753427506E-001;-4.296394810080528E-002;6.082294275984168E-004;5.961887072771788E-003;
2.417333333333334E+009;2.017419338226318E-001;-4.270091280341148E-002;8.069685427471995E-004;5.918145179748535E-003;
2.417500000000000E+009;2.014914453029633E-001;-4.286662861704826E-002;9.968116646632552E-004;5.695370957255364E-003;
2.417666666666667E+009;2.009499520063400E-001;-4.253929108381271E-002;1.263610785827041E-003;5.555728450417519E-003;
2.417833333333334E+009;2.003729790449143E-001;-4.238636419177055E-002;1.426147529855371E-003;5.394915584474802E-003;
2.418000000000000E+009;1.996954530477524E-001;-4.220081493258476E-002;1.659677946008742E-003;5.276269279420376E-003;
2.418166666666667E+009;1.988919675350189E-001;-4.201482608914375E-002;1.865403377451003E-003;5.033064167946577E-003;
2.418333333333334E+009;1.979646533727646E-001;-4.194870218634605E-002;2.037736820057035E-003;4.728965926915407E-003;
2.418500000000000E+009;1.969518214464188E-001;-4.206198826432228E-002;2.037279075011611E-003;4.563902970403433E-003;
2.418666666666667E+009;1.960448920726776E-001;-4.183093085885048E-002;2.075164811685681E-003;4.261270631104708E-003;
2.418833333333334E+009;1.947526037693024E-001;-4.208821430802345E-002;2.138294745236635E-003;4.083395004272461E-003;
2.419000000000000E+009;1.933653056621552E-001;-4.232302680611610E-002;2.198051894083619E-003;3.980109933763742E-003;
2.419166666666667E+009;1.921481043100357E-001;-4.257873073220253E-002;2.373866736888886E-003;3.823642851784825E-003;
2.419333333333334E+009;1.906378716230393E-001;-4.319947212934494E-002;2.363158855587244E-003;3.576670074835420E-003;
2.419500000000000E+009;1.892856061458588E-001;-4.358974844217300E-002;2.203541109338403E-003;3.475962672382593E-003;
2.419666666666667E+009;1.876741200685501E-001;-4.440978169441223E-002;2.320932457223535E-003;3.150265663862228E-003;
2.419833333333334E+009;1.860952228307724E-001;-4.492448642849922E-002;2.334319986402988E-003;3.109949640929699E-003;
2.420000000000000E+009;1.845021545886993E-001;-4.589746892452240E-002;2.155466005206108E-003;3.045715857297182E-003;
2.420166666666667E+009;1.828860640525818E-001;-4.686522856354713E-002;2.109458902850747E-003;2.871622098609805E-003;
2.420333333333334E+009;1.813296526670456E-001;-4.814229160547257E-002;1.952705322764814E-003;2.752953208982945E-003;
2.420500000000000E+009;1.796840578317642E-001;-4.923357069492340E-002;1.867324113845825E-003;2.727750455960631E-003;
2.420666666666667E+009;1.781384944915772E-001;-5.038657411932945E-002;1.884269877336919E-003;2.704635029658675E-003;
2.420833333333334E+009;1.766781359910965E-001;-5.198946222662926E-002;1.739631989039481E-003;2.623258624225855E-003;
2.421000000000000E+009;1.751171499490738E-001;-5.360554531216621E-002;1.737048267386854E-003;2.512183040380478E-003;
2.421166666666667E+009;1.739234328269959E-001;-5.524361878633499E-002;1.583409612067044E-003;2.517947461456060E-003;
2.421333333333334E+009;1.722377836704254E-001;-5.659919977188110E-002;1.630907063372433E-003;2.635668730363250E-003;
2.421500000000000E+009;1.709784567356110E-001;-5.865407735109329E-002;1.407849253155291E-003;2.577192848548293E-003;
2.421666666666667E+009;1.696439981460571E-001;-6.049767509102821E-002;1.584826037287712E-003;2.596565987914801E-003;
2.421833333333334E+009;1.686785072088242E-001;-6.230236962437630E-002;1.363335875794292E-003;2.584733068943024E-003;
2.422000000000000E+009;1.675779521465302E-001;-6.405290961265564E-002;1.402975060045719E-003;2.679229248315096E-003;
2.422166666666667E+009;1.669688373804092E-001;-6.617980450391769E-002;1.425822847522795E-003;2.756776753813028E-003;
2.422333333333334E+009;1.657191067934036E-001;-6.805188208818436E-002;1.402482739649713E-003;2.858030144125223E-003;
2.422500000000000E+009;1.651386916637421E-001;-7.009632140398026E-002;1.312166335992515E-003;2.944156760349870E-003;
2.422666666666667E+009;1.643808037042618E-001;-7.212005555629730E-002;1.483113854192197E-003;2.995417919009924E-003;
2.422833333333334E+009;1.640650629997253E-001;-7.408159971237183E-002;1.496581360697746E-003;2.985505154356360E-003;
2.423000000000000E+009;1.634643822908402E-001;-7.612805068492889E-002;1.431318465620279E-003;3.035087836906314E-003;
2.423166666666667E+009;1.633094698190689E-001;-7.803493738174439E-002;1.587057136930525E-003;3.071710467338562E-003;
2.423333333333334E+009;1.628125011920929E-001;-8.010665327310562E-002;1.678580185398459E-003;3.056207904592156E-003;
2.423500000000000E+009;1.628565490245819E-001;-8.184107393026352E-002;2.009019954130054E-003;3.202987136319280E-003;
2.423666666666667E+009;1.629525721073151E-001;-8.360629528760910E-002;1.875841175206006E-003;3.226377535611391E-003;
2.423833333333334E+009;1.627040654420853E-001;-8.528673648834229E-002;1.817712211050093E-003;3.215166740119457E-003;
2.424000000000000E+009;1.629998832941055E-001;-8.714357018470764E-002;1.935292850248516E-003;3.336499677971005E-003;
2.424166666666667E+009;1.630782485008240E-001;-8.861043304204941E-002;2.022315980866551E-003;3.454444464296103E-003;
2.424333333333334E+009;1.633316427469254E-001;-9.007479250431061E-002;2.167331054806709E-003;3.439356572926045E-003;
2.424500000000000E+009;1.636945158243179E-001;-9.186968952417374E-002;2.311422489583492E-003;3.386232769116759E-003;
2.424666666666667E+009;1.638815999031067E-001;-9.306930750608444E-002;2.459517214447260E-003;3.712633624672890E-003;
2.424833333333334E+009;1.644103974103928E-001;-9.444795548915863E-002;2.640500431880355E-003;3.635478438809514E-003;
2.425000000000000E+009;1.648032814264298E-001;-9.560718387365341E-002;2.741788513958454E-003;3.714199177920818E-003;
2.425166666666667E+009;1.651318073272705E-001;-9.659858047962189E-002;3.114845370873809E-003;3.704549977555871E-003;
2.425333333333334E+009;1.654992997646332E-001;-9.757954627275467E-002;3.242697333917022E-003;3.757143625989556E-003;
2.425500000000000E+009;1.658933460712433E-001;-9.857928752899170E-002;3.579011885449290E-003;3.608666360378265E-003;
2.425666666666667E+009;1.663371473550797E-001;-9.918174147605896E-002;3.838782431557775E-003;3.589414060115814E-003;
2.425833333333334E+009;1.665843427181244E-001;-9.994955360889435E-002;3.828831249848008E-003;3.473330056294799E-003;
2.426000000000000E+009;1.669187545776367E-001;-1.004109233617783E-001;4.242288880050182E-003;3.345013363286853E-003;
2.426166666666667E+009;1.673821806907654E-001;-1.009317189455032E-001;4.449060652405024E-003;3.365975338965654E-003;
2.426333333333334E+009;1.674879193305969E-001;-1.014569103717804E-001;4.744106903672218E-003;3.096892265602946E-003;
2.426500000000000E+009;1.678246557712555E-001;-1.017382815480232E-001;4.763597156852484E-003;3.000989556312561E-003;
2.426666666666667E+009;1.680085361003876E-001;-1.020295396447182E-001;4.917480051517487E-003;2.671259921044111E-003;
2.426833333333334E+009;1.682479530572891E-001;-1.023716107010841E-001;5.078120622783899E-003;2.487023128196597E-003;
2.427000000000000E+009;1.683029532432556E-001;-1.025404259562492E-001;5.242460407316685E-003;2.373395022004843E-003;
2.427166666666667E+009;1.682590991258621E-001;-1.025854945182800E-001;5.297496449202299E-003;2.201160648837686E-003;
2.427333333333334E+009;1.680959910154343E-001;-1.028997525572777E-001;5.493827629834414E-003;1.909537240862846E-003;
2.427500000000000E+009;1.677848994731903E-001;-1.031098440289497E-001;5.599851720035076E-003;1.666483236476779E-003;
2.427666666666667E+009;1.675304472446442E-001;-1.031974405050278E-001;5.727189127355814E-003;1.610929728485644E-003;
2.427833333333334E+009;1.671098768711090E-001;-1.033760234713554E-001;5.756532307714224E-003;1.462270040065050E-003;
