# Hz S RI R 
2400000000.0000000000 0.173377126455307006835937500000 0.049506008625030517578125000000 0.005217329598963260650634765625 0.003229656023904681205749511719 0 0 0 0 
2400166666.6666665077 0.173995673656463595291299384371 0.048979900777339942241628278907 0.005273421760648488998413085938 0.002965207910165191130397177588 0 0 0 0 
2400333333.3333334923 0.174396663904190091232138115629 0.048338614404201507568359375000 0.005321013741195201873779296875 0.002888945629820228056666708838 0 0 0 0 
2400500000.0000000000 0.174802973866462707519531250000 0.047558635473251342773437500000 0.005386589094996452331542968750 0.002669413806870580153224326025 0 0 0 0 
2400666666.6666665077 0.174827709794044494628906250000 0.046840168535709381103515625000 0.005417949520051479339599609375 0.002452516928315163092372275244 0 0 0 0 
2400833333.3333334923 0.175140619277954101562500000000 0.046392519026994712139089216407 0.005606273189187049865722656250 0.002226543845608830885646201025 0 0 0 0 
2401000000.0000000000 0.175194412469863891601562500000 0.045741509646177291870117187500 0.005534436088055372238159179688 0.002291908254846930937526083838 0 0 0 0 
2401166666.6666665077 0.175503373146057101150674384371 0.044892180711030960083007812500 0.005665295757353305816650390625 0.002128357766196132139918661963 0 0 0 0 
2401333333.3333334923 0.175310745835304288009481865629 0.044242240488529212261159528907 0.005594125948846340179443359375 0.001943500246852635903599404443 0 0 0 0 
2401500000.0000000000 0.175472036004066495040731865629 0.043631225824356079101562500000 0.005693758837878704071044921875 0.001653670100495219013811420972 0 0 0 0 
2401666666.6666665077 0.175468087196350097656250000000 0.042988013476133346557617187500 0.005805272608995437622070312500 0.001541542471386492035509419019 0 0 0 0 
2401833333.3333334923 0.175534024834632901290731865629 0.042107105255126953125000000000 0.005891903303563594818115234375 0.001441027852706610939623188550 0 0 0 0 
2402000000.0000000000 0.175071209669113186935263115629 0.041225746273994452739675153907 0.005983262322843074798583984375 0.001111809397116303010227822412 0 0 0 0 
2402166666.6666665077 0.175106674432754488845986884371 0.040114443749189376831054687500 0.006085994187742471694946289062 0.000926843727938830852508544922 0 0 0 0 
2402333333.3333334923 0.174567654728889493087606865629 0.039365582168102257465402971093 0.005984446499496698379516601562 0.000781006703618913888931274414 0 0 0 0 
2402500000.0000000000 0.174656420946121188064736884371 0.038198024034500122070312500000 0.006065275520086289319510175488 0.000730519415810704231262207031 0 0 0 0 
2402666666.6666665077 0.174263760447502108474893134371 0.037063498049974441528320312500 0.006207079626619815826416015625 0.000389611552236601710319519043 0 0 0 0 
2402833333.3333334923 0.173948600888252313811932481258 0.035857800394296653057057966407 0.006115406751632690429687500000 0.000046039720473345369100570679 0 0 0 0 
2403000000.0000000000 0.173583760857582092285156250000 0.034644804894924156879465471093 0.005968219134956598281860351562 -0.000117366260383278104379931039 0 0 0 0 
2403166666.6666665077 0.173363700509071405608807481258 0.033023156225681311870534528907 0.006088310386985540390014648438 -0.000259357155300676822662353516 0 0 0 0 
2403333333.3333334923 0.172913938760757501800213731258 0.031646002084016799926757812500 0.006158475764095783233642578125 -0.000560010783374309539794921875 0 0 0 0 
2403500000.0000000000 0.172489404678344698806924384371 0.030203714966773990285853201954 0.006092539057135581970214843750 -0.000668479653540998697280883789 0 0 0 0 
2403666666.6666665077 0.172172307968139703948651231258 0.028423460200428959238072579296 0.006133066490292549133300781250 -0.001107455464079976081848144531 0 0 0 0 
2403833333.3333334923 0.171908050775528009612713731258 0.026638669893145561218261718750 0.005919492803514003753662109375 -0.001230579917319118976593017578 0 0 0 0 
2404000000.0000000000 0.171381101012229891678018134371 0.024884458631277080881138985546 0.005951124709099531173706054688 -0.001524560269899666092516254956 0 0 0 0 
2404166666.6666665077 0.171034350991249112228231865629 0.022961473092436790466308593750 0.005937925074249505996704101562 -0.001706039183773099942448281396 0 0 0 0 
2404333333.3333334923 0.170759707689285306075888115629 0.021261669695377349853515625000 0.005702769383788108825683593750 -0.001880722003988922075984335791 0 0 0 0 
2404500000.0000000000 0.170414492487907409667968750000 0.019197527319192889821986014454 0.005499920807778835296630859375 -0.002065831329673529104945517432 0 0 0 0 
2404666666.6666665077 0.170138344168662997146768134371 0.017108656466007229196568673046 0.005362821277230978012084960938 -0.002210405189543962912318564307 0 0 0 0 
2404833333.3333334923 0.170080900192260686676348768742 0.015145703218877320725410662305 0.005376491229981184005737304688 -0.002512055682018398804905556787 0 0 0 0 
2405000000.0000000000 0.169967353343963595291299384371 0.013193936087191110093086443555 0.005109255667775869369506835938 -0.002539162291213870048522949219 0 0 0 0 
2405166666.6666665077 0.169794097542762811858807481258 0.011167871765792369842529296875 0.004913063254207372665405273438 -0.002732219174504280090332031250 0 0 0 0 
2405333333.3333334923 0.169730558991432189941406250000 0.008888608776032924652099609375 0.004798778798431158065795898438 -0.002809618832543491883518838037 0 0 0 0 
2405500000.0000000000 0.169930070638656588455361884371 0.007012666668742895126342773438 0.004748184699565172195434570312 -0.003071371698752046065089560400 0 0 0 0 
2405666666.6666665077 0.170045018196106012542401231258 0.005037192720919848355765058301 0.004506827797740697860717773438 -0.003127525327727199034449911963 0 0 0 0 
2405833333.3333334923 0.170070514082908602615518134371 0.002924887463450431823730468750 0.004472090397030115127563476562 -0.003158588195219635963439941406 0 0 0 0 
2406000000.0000000000 0.170488357543945312500000000000 0.000757664849516004323959350586 0.004313894547522068023681640625 -0.003302589058876038031337118994 0 0 0 0 
2406166666.6666665077 0.170764327049255398849325615629 -0.001070981496013700962066650391 0.004181374330073595046997070312 -0.003481143154203892187831259619 0 0 0 0 
2406333333.3333334923 0.171307235956191988845986884371 -0.003055672161281108856201171875 0.004025001078844069567208574512 -0.003624422010034323172328329932 0 0 0 0 
2406500000.0000000000 0.171638190746307400802450615629 -0.005067500751465559005737304688 0.003739488078281282944920205225 -0.003632524283602834181544638525 0 0 0 0 
2406666666.6666665077 0.172093018889427212814169365629 -0.007062508724629878997802734375 0.003885957412421702904942177881 -0.003717818763107060952427529443 0 0 0 0 
2406833333.3333334923 0.172856360673904391189736884371 -0.009012890979647636413574218750 0.003798778401687740845921181787 -0.003818540833890438079833984375 0 0 0 0 
2407000000.0000000000 0.173644527792930603027343750000 -0.010803343728184700012207031250 0.003553901799023150964024209131 -0.003899987554177641868591308594 0 0 0 0 
2407166666.6666665077 0.174331665039062500000000000000 -0.012535075657069679605504219921 0.003348983358591794967651367188 -0.003986340481787919998168945312 0 0 0 0 
2407333333.3333334923 0.174952328205108587066973768742 -0.014357454143464570481270037305 0.003345998702570796012878417969 -0.004126905929297208786010742188 0 0 0 0 
2407500000.0000000000 0.175719350576400812347088731258 -0.016118509694933891296386718750 0.003254372626543045043945312500 -0.004167877603322268399710370801 0 0 0 0 
2407666666.6666665077 0.176643267273902893066406250000 -0.017646847292780879629114920704 0.003032206790521740913391113281 -0.004206362180411815643310546875 0 0 0 0 
2407833333.3333334923 0.177167683839798001388388115629 -0.019353516399860378610631173046 0.002956171985715628103968954932 -0.004322298336774110794067382812 0 0 0 0 
2408000000.0000000000 0.178012892603874206542968750000 -0.021097201853990558279017264454 0.002619994105771183967590332031 -0.004570922348648309707641601562 0 0 0 0 
2408166666.6666665077 0.178791120648384094238281250000 -0.022405609488487240182896798046 0.002510942053049803213832236182 -0.004665717016905546188354492188 0 0 0 0 
2408333333.3333334923 0.179630771279334994217080634371 -0.023846739903092380868931954296 0.002358495723456143899204873193 -0.004728299565613269805908203125 0 0 0 0 
2408500000.0000000000 0.180258825421333312988281250000 -0.025081997737288478506068045704 0.002010077703744173049926757812 -0.004786419682204723358154296875 0 0 0 0 
2408666666.6666665077 0.180900946259498596191406250000 -0.026514464989304539072056954296 0.001877695089206099943873740088 -0.004862006753683090209960937500 0 0 0 0 
2408833333.3333334923 0.181279182434082003494424384371 -0.027528911828994750976562500000 0.001710977056063712076899863135 -0.004753955639898777008056640625 0 0 0 0 
2409000000.0000000000 0.181742563843727111816406250000 -0.028531666845083240163782889454 0.001355293206870556094525981372 -0.004781850613653659820556640625 0 0 0 0 
2409166666.6666665077 0.182282164692878695388955634371 -0.029343688860535621643066406250 0.001221238402649760029436420972 -0.004925221204757690429687500000 0 0 0 0 
2409333333.3333334923 0.182727888226509094238281250000 -0.030226450413465499877929687500 0.001132572884671390056610107422 -0.004872414749115706357474042676 0 0 0 0 
2409500000.0000000000 0.183034792542457608321981865629 -0.031016986817121509206751639454 0.000938853481784462928771972656 -0.004582494031637907028198242188 0 0 0 0 
2409666666.6666665077 0.183146744966507013518963731258 -0.031512919813394553447682966407 0.000748831254895776510238647461 -0.004685669671744108200073242188 0 0 0 0 
2409833333.3333334923 0.183348715305328396896200615629 -0.032134089618921279907226562500 0.000564158312045037746429443359 -0.004632875788956880569458007812 0 0 0 0 
2410000000.0000000000 0.183681860566139193435830634371 -0.032496642321348190307617187500 0.000482295145047828609317225323 -0.004453155212104321393484784863 0 0 0 0 
2410166666.6666665077 0.183635503053665188888388115629 -0.032861523330211639404296875000 0.000324151158565655404895228253 -0.004504249896854162216186523438 0 0 0 0 
2410333333.3333334923 0.183668404817581204513388115629 -0.033406537026166922832448591407 0.000350899237673729712336939679 -0.004274819977581501007080078125 0 0 0 0 
2410500000.0000000000 0.183652833104133605957031250000 -0.033479928970336907123606096093 0.000145632075145840590626317157 -0.004257847554981709393973066113 0 0 0 0 
2410666666.6666665077 0.183573558926582308670205634371 -0.033884901553392410278320312500 0.000069351110141724348068237305 -0.004314851947128772735595703125 0 0 0 0 
2410833333.3333334923 0.183439090847969110686932481258 -0.034055929630994796752929687500 -0.000095935276476666331291198730 -0.004276963882148265838623046875 0 0 0 0 
2411000000.0000000000 0.183116823434829711914062500000 -0.034278143197298049926757812500 -0.000010976077646773770788704225 -0.004126891959458590421194745801 0 0 0 0 
2411166666.6666665077 0.182838410139083890060263115629 -0.034750781953334808349609375000 -0.000111473731521982699632644653 -0.004199097398668527603149414062 0 0 0 0 
2411333333.3333334923 0.182380035519599886795205634371 -0.034977275878190987323801408593 -0.000298375613056123310893458234 -0.004201478790491819381713867188 0 0 0 0 
2411500000.0000000000 0.181894019246101407150106865629 -0.035411998629570007324218750000 -0.000435492605902254581451416016 -0.004085647873580455780029296875 0 0 0 0 
2411666666.6666665077 0.181136608123779296875000000000 -0.035642582923173897480051408593 -0.000431091524660587310791015625 -0.004013641737401484575753496387 0 0 0 0 
2411833333.3333334923 0.180594071745872497558593750000 -0.035872936248779296875000000000 -0.000545971619430929422378540039 -0.004062082152813673019409179688 0 0 0 0 
2412000000.0000000000 0.179674804210662786285723768742 -0.036314062774181372905690778907 -0.000589306000620126724243164062 -0.004087487235665321350097656250 0 0 0 0 
2412166666.6666665077 0.178727656602859497070312500000 -0.037052545696496956562082658593 -0.000665838830173015594482421875 -0.004085168242454528808593750000 0 0 0 0 
2412333333.3333334923 0.178050667047500610351562500000 -0.037474792450666427612304687500 -0.000776114815380424261093139648 -0.004017293453216552734375000000 0 0 0 0 
2412500000.0000000000 0.176828950643539400955361884371 -0.038028515875339508056640625000 -0.000918441393878310918807983398 -0.003846050938591361045837402344 0 0 0 0 
2412666666.6666665077 0.175870165228843688964843750000 -0.038913920521736151958425153907 -0.000964460894465446472167968750 -0.003975936677306891355032636426 0 0 0 0 
2412833333.3333334923 0.174726471304893493652343750000 -0.039557509124279022216796875000 -0.001028377097100020105477358179 -0.003932811319828032579903887012 0 0 0 0 
2413000000.0000000000 0.173280522227287292480468750000 -0.040170382708311080932617187500 -0.001147910137660800976994179834 -0.003820850048214197158813476562 0 0 0 0 
2413166666.6666665077 0.172037288546562194824218750000 -0.041117198765277862548828125000 -0.001223062514327466921565390479 -0.003857275238260626792907714844 0 0 0 0 
2413333333.3333334923 0.170671015977859497070312500000 -0.042081207036972052837331403907 -0.001382162561640142960789345850 -0.003850834676995873884913779150 0 0 0 0 
2413500000.0000000000 0.169649764895439203460369981258 -0.043103650212287902832031250000 -0.001330460188910365104675292969 -0.003785120788961648941040039062 0 0 0 0 
2413666666.6666665077 0.168255612254142788986044365629 -0.044342573732137680053710937500 -0.001531998510472476916072226416 -0.003726125461980700926539755713 0 0 0 0 
2413833333.3333334923 0.166818663477897588531817518742 -0.045394234359264366840402971093 -0.001485685468651354096056294019 -0.003774386364966630935668945312 0 0 0 0 
2414000000.0000000000 0.165472283959388705154580634371 -0.046708144247531890869140625000 -0.001631634426303208091138530200 -0.003540708916261792182922363281 0 0 0 0 
2414166666.6666665077 0.164328485727310208419638115629 -0.048009421676397316669504533593 -0.001660437323153018951416015625 -0.003607991617172956900355673682 0 0 0 0 
2414333333.3333334923 0.163270518183708190917968750000 -0.049538210034370422363281250000 -0.001795921125449239990831684644 -0.003550109919160604910609579932 0 0 0 0 
2414500000.0000000000 0.162253305315971402267294365629 -0.051024314016103751445729841407 -0.001783210667781532027600932544 -0.003549124812707304954528808594 0 0 0 0 
2414666666.6666665077 0.161095485091209411621093750000 -0.052525065839290618896484375000 -0.001849264139309525923487997900 -0.003331608138978480859043740381 0 0 0 0 
2414833333.3333334923 0.159842520952224703689736884371 -0.054220262914896011352539062500 -0.002105366904288529916050576318 -0.003277909941971302032470703125 0 0 0 0 
2415000000.0000000000 0.158925071358680697342080634371 -0.055853232741355902934987653907 -0.002189348218962550163269042969 -0.003387639299035071892979287256 0 0 0 0 
2415166666.6666665077 0.157996773719787597656250000000 -0.057556938380002982402761091407 -0.002228831406682730154750204932 -0.003295652335509657859802246094 0 0 0 0 
2415333333.3333334923 0.157350286841392489334268134371 -0.059412926435470581054687500000 -0.002273812424391508102416992188 -0.003363473108038305802586220850 0 0 0 0 
2415500000.0000000000 0.156446307897567804534588731258 -0.061264544725418090820312500000 -0.002486247569322586059570312500 -0.003154633333906530900242470850 0 0 0 0 
2415666666.6666665077 0.155665457248687688629473768742 -0.063119627535343170166015625000 -0.002508483827114104790928506006 -0.002947988687083125114440917969 0 0 0 0 
2415833333.3333334923 0.155195459723472595214843750000 -0.065114118158817291259765625000 -0.002502809511497617201564169775 -0.003126978874206542968750000000 0 0 0 0 
2416000000.0000000000 0.154468342661857604980468750000 -0.067185349762439727783203125000 -0.002578261541202663941624306787 -0.002939476864412426948547363281 0 0 0 0 
2416166666.6666665077 0.154111012816429110428018134371 -0.069142766296863555908203125000 -0.002664951607584952874424599756 -0.002882081316784023804905556787 0 0 0 0 
2416333333.3333334923 0.153648301959037808517294365629 -0.071051619946956634521484375000 -0.002854826161637901826145791162 -0.002801540074869989915135048975 0 0 0 0 
2416500000.0000000000 0.153300508856773404220419365629 -0.073061823844909667968750000000 -0.002908508991822599931004189600 -0.002819940214976667924168252100 0 0 0 0 
2416666666.6666665077 0.152898535132408086578692518742 -0.074942708015441894531250000000 -0.003043053438887000083923339844 -0.002706393832340836958644247900 0 0 0 0 
2416833333.3333334923 0.152679786086082486251669365629 -0.077096104621887207031250000000 -0.003020451869815587997436523438 -0.002546680625528097152709960938 0 0 0 0 
2417000000.0000000000 0.152404576539993286132812500000 -0.078946374356746673583984375000 -0.003050942206755280928370810400 -0.002540011890232563018798828125 0 0 0 0 
2417166666.6666665077 0.152284398674964904785156250000 -0.080774880945682525634765625000 -0.003081019502133131027221679688 -0.002381478669121861891505576025 0 0 0 0 
2417333333.3333334923 0.152237847447395296951455634371 -0.082471184432506561279296875000 -0.003256374504417181015014648438 -0.002318323124200106100795126807 0 0 0 0 
2417500000.0000000000 0.152279093861579895019531250000 -0.084322713315486907958984375000 -0.003326156642287970022914267432 -0.002029664115980267958400107275 0 0 0 0 
2417666666.6666665077 0.152259394526481600662393134371 -0.085782423615455627441406250000 -0.003491519019007682800292968750 -0.002095513977110385894775390625 0 0 0 0 
2417833333.3333334923 0.152371898293495205978231865629 -0.087274506688117980957031250000 -0.003563457168638706207275390625 -0.002058656886219977898838662256 0 0 0 0 
2418000000.0000000000 0.152287498116493197342080634371 -0.088855005800724029541015625000 -0.003505959175527095794677734375 -0.001835303031839429898502968896 0 0 0 0 
2418166666.6666665077 0.152513682842254610916299384371 -0.090021491050720214843750000000 -0.003706622170284390015843056787 -0.001854300731793045997619628906 0 0 0 0 
2418333333.3333334923 0.152855932712554903885049384371 -0.091407433152198791503906250000 -0.003794375108554958863499306787 -0.001699613872915505929234170068 0 0 0 0 
2418500000.0000000000 0.152883216738700894454794365629 -0.092388063669204711914062500000 -0.003874412970617413954493857275 -0.001508651883341372013092041016 0 0 0 0 
2418666666.6666665077 0.153149798512458801269531250000 -0.093523353338241577148437500000 -0.003956936765462160110473632812 -0.001433935947716235897661518628 0 0 0 0 
2418833333.3333334923 0.153279960155487088302450615629 -0.094343982636928558349609375000 -0.003960025962442159652709960938 -0.001242263475432991981506347656 0 0 0 0 
2419000000.0000000000 0.153225630521774291992187500000 -0.095029227435588836669921875000 -0.004099764395505189895629882812 -0.001071778358891605897190713037 0 0 0 0 
2419166666.6666665077 0.153642460703849792480468750000 -0.095715597271919250488281250000 -0.004058823920786380767822265625 -0.000826141214929521083831787109 0 0 0 0 
2419333333.3333334923 0.153669595718383789062500000000 -0.095991142094135284423828125000 -0.004015440121293067932128906250 -0.000606110959779471158981323242 0 0 0 0 
2419500000.0000000000 0.153925716876983587066973768742 -0.096679300069808959960937500000 -0.004110616631805896759033203125 -0.000537583604454994201660156250 0 0 0 0 
2419666666.6666665077 0.154171705245971707443075615629 -0.096997968852519989013671875000 -0.004031771793961524963378906250 -0.000329044531099498326152247296 0 0 0 0 
2419833333.3333334923 0.154160678386688204666299384371 -0.097120672464370727539062500000 -0.003943141084164381027221679688 -0.000064593055867590010166168213 0 0 0 0 
