# Version 1.00
#
freq[Hz];re:Trc1_S11;im:Trc1_S11;re:Trc2_S21;im:Trc2_S21;
2.400000000000000E+009;1.553228497505188E-001;1.113360002636910E-001;-4.695655778050423E-003;2.684594830498099E-003;
2.400166666666667E+009;1.547931730747223E-001;1.090446412563324E-001;-4.712432157248259E-003;2.889157505705953E-003;
2.400333333333334E+009;1.545981913805008E-001;1.066239401698113E-001;-4.634191282093525E-003;3.100351896136999E-003;
2.400500000000000E+009;1.542773544788361E-001;1.041591018438339E-001;-4.478822462260723E-003;3.244294319301844E-003;
2.400666666666667E+009;1.540688276290894E-001;1.017742678523064E-001;-4.439470823854208E-003;3.592561464756727E-003;
2.400833333333334E+009;1.537427902221680E-001;9.873592853546143E-002;-4.376057069748640E-003;3.801308572292328E-003;
2.401000000000000E+009;1.536849886178970E-001;9.587947279214859E-002;-4.054794553667307E-003;3.865823382511735E-003;
2.401166666666667E+009;1.534665375947952E-001;9.307565540075302E-002;-4.029780626296997E-003;4.063595551997423E-003;
2.401333333333334E+009;1.535452753305435E-001;9.010022133588791E-002;-3.862904384732246E-003;4.200409166514874E-003;
2.401500000000000E+009;1.537849307060242E-001;8.707778155803680E-002;-3.802585881203413E-003;4.287948831915855E-003;
2.401666666666667E+009;1.537940204143524E-001;8.409535139799118E-002;-3.709964919835329E-003;4.439778625965118E-003;
2.401833333333334E+009;1.541122049093247E-001;8.123665302991867E-002;-3.600178984925151E-003;4.620300140231848E-003;
2.402000000000000E+009;1.548268347978592E-001;7.835128158330917E-002;-3.418724285438657E-003;4.642552696168423E-003;
2.402166666666667E+009;1.555264294147492E-001;7.557455450296402E-002;-3.139885608106852E-003;4.899126943200827E-003;
2.402333333333334E+009;1.561174541711807E-001;7.260362803936005E-002;-3.025841899216175E-003;5.029205232858658E-003;
2.402500000000000E+009;1.571620851755142E-001;6.990503519773483E-002;-2.974339760839939E-003;5.020565353333950E-003;
2.402666666666667E+009;1.582368314266205E-001;6.737037748098373E-002;-2.666752785444260E-003;5.222301930189133E-003;
2.402833333333334E+009;1.593954861164093E-001;6.471344083547592E-002;-2.581317210569978E-003;5.469984840601683E-003;
2.403000000000000E+009;1.607832163572311E-001;6.226445361971855E-002;-2.415643539279699E-003;5.520052276551724E-003;
2.403166666666667E+009;1.625874787569046E-001;5.970545113086700E-002;-2.154503017663956E-003;5.667249206453562E-003;
2.403333333333334E+009;1.639366447925568E-001;5.724379047751427E-002;-2.102946396917105E-003;5.685040261596441E-003;
2.403500000000000E+009;1.658484935760498E-001;5.497205257415772E-002;-1.916146255098283E-003;5.769171286374331E-003;
2.403666666666667E+009;1.676442176103592E-001;5.295261740684509E-002;-1.565938931889832E-003;5.977519787847996E-003;
2.403833333333334E+009;1.694003194570541E-001;5.085708573460579E-002;-1.599197508767247E-003;6.093650124967098E-003;
2.404000000000000E+009;1.709665209054947E-001;4.893232136964798E-002;-1.223211293108761E-003;6.252132821828127E-003;
2.404166666666667E+009;1.729211360216141E-001;4.726945608854294E-002;-1.083488343283534E-003;6.460211239755154E-003;
2.404333333333334E+009;1.747647523880005E-001;4.549324512481690E-002;-7.435315637849271E-004;6.440746132284403E-003;
2.404500000000000E+009;1.767166405916214E-001;4.386566951870918E-002;-4.233359068166465E-004;6.734301336109638E-003;
2.404666666666667E+009;1.784761846065521E-001;4.269033297896385E-002;-7.027750689303502E-005;6.666575092822313E-003;
2.404833333333334E+009;1.804507374763489E-001;4.166698455810547E-002;2.344081731280312E-004;6.699941586703062E-003;
2.405000000000000E+009;1.819715499877930E-001;4.060614109039307E-002;4.682801954913884E-004;6.438148207962513E-003;
2.405166666666667E+009;1.837450116872788E-001;3.979013487696648E-002;9.559966856613755E-004;6.775755900889635E-003;
2.405333333333334E+009;1.853667944669724E-001;3.925862908363342E-002;1.348143327049911E-003;6.536741275340319E-003;
2.405500000000000E+009;1.870814859867096E-001;3.873353824019432E-002;1.622604206204414E-003;6.687128916382790E-003;
2.405666666666667E+009;1.885979920625687E-001;3.836721554398537E-002;1.782309496775270E-003;6.566384807229042E-003;
2.405833333333334E+009;1.902799904346466E-001;3.812612220644951E-002;2.203653100878000E-003;6.323945708572865E-003;
2.406000000000000E+009;1.914608627557755E-001;3.805484250187874E-002;2.462911652401090E-003;6.276323925703764E-003;
2.406166666666667E+009;1.926357597112656E-001;3.799151629209518E-002;2.811904298141599E-003;5.954121239483357E-003;
2.406333333333334E+009;1.939954310655594E-001;3.807863593101502E-002;3.186991438269615E-003;5.797135177999735E-003;
2.406500000000000E+009;1.949971765279770E-001;3.821016103029251E-002;3.216991433873773E-003;5.695626139640808E-003;
2.406666666666667E+009;1.958720237016678E-001;3.858343139290810E-002;3.719174535945058E-003;5.434572696685791E-003;
2.406833333333334E+009;1.967381834983826E-001;3.873126208782196E-002;3.695807186886668E-003;5.202692467719317E-003;
2.407000000000000E+009;1.971976906061173E-001;3.914900869131088E-002;3.739439183846116E-003;4.861680790781975E-003;
2.407166666666667E+009;1.979523599147797E-001;3.925237432122231E-002;3.989260643720627E-003;4.827276337891817E-003;
2.407333333333334E+009;1.980930566787720E-001;3.959628939628601E-002;4.031869117170572E-003;4.671439994126558E-003;
2.407500000000000E+009;1.982158422470093E-001;4.006459563970566E-002;4.259979352355003E-003;4.426438827067614E-003;
2.407666666666667E+009;1.985133439302445E-001;4.018663987517357E-002;4.291446879506111E-003;4.195357207208872E-003;
2.407833333333334E+009;1.982861161231995E-001;4.048398137092590E-002;4.550834652036429E-003;4.076815210282803E-003;
2.408000000000000E+009;1.982541680335999E-001;4.061326384544373E-002;4.618704784661531E-003;3.927635028958321E-003;
2.408166666666667E+009;1.977788656949997E-001;4.058474302291870E-002;4.775817040354013E-003;3.711574943736196E-003;
2.408333333333334E+009;1.974925994873047E-001;4.048885777592659E-002;4.813615698367357E-003;3.225412219762802E-003;
2.408500000000000E+009;1.968384832143784E-001;4.052757471799851E-002;4.927912261337042E-003;3.052519168704748E-003;
2.408666666666667E+009;1.962646842002869E-001;4.028155654668808E-002;4.961547907441855E-003;2.959003206342459E-003;
2.408833333333334E+009;1.955695748329163E-001;3.982279449701309E-002;5.003232508897781E-003;2.676105359569192E-003;
2.409000000000000E+009;1.946480125188828E-001;3.928797319531441E-002;5.120730493217707E-003;2.446839353069663E-003;
2.409166666666667E+009;1.937394887208939E-001;3.858251869678497E-002;5.067037884145975E-003;2.172376727685332E-003;
2.409333333333334E+009;1.927138417959213E-001;3.773325681686401E-002;4.835103638470173E-003;2.171674743294716E-003;
2.409500000000000E+009;1.913412809371948E-001;3.684118762612343E-002;4.954316187649965E-003;1.929942634887993E-003;
2.409666666666667E+009;1.903584897518158E-001;3.559598699212074E-002;4.924448207020760E-003;1.637506531551480E-003;
2.409833333333334E+009;1.890195012092590E-001;3.451059013605118E-002;4.853065125644207E-003;1.455781050026417E-003;
2.410000000000000E+009;1.879959851503372E-001;3.297424316406250E-002;4.754533991217613E-003;1.333892112597823E-003;
2.410166666666667E+009;1.868289262056351E-001;3.111862391233444E-002;4.732344765216112E-003;1.216612756252289E-003;
2.410333333333334E+009;1.857250183820725E-001;2.960658259689808E-002;4.805351607501507E-003;1.255929470062256E-003;
2.410500000000000E+009;1.844975501298904E-001;2.775792405009270E-002;4.735514521598816E-003;1.018083072267473E-003;
2.410666666666667E+009;1.833836883306503E-001;2.542850747704506E-002;4.826767835766077E-003;9.762481204234064E-004;
2.410833333333334E+009;1.825513839721680E-001;2.344565652310848E-002;4.764131270349026E-003;8.002411341294646E-004;
2.411000000000000E+009;1.816292852163315E-001;2.124452404677868E-002;4.839139524847269E-003;8.004031260497868E-004;
2.411166666666667E+009;1.805594563484192E-001;1.907232776284218E-002;4.854656755924225E-003;6.412735674530268E-004;
2.411333333333334E+009;1.799610257148743E-001;1.648589409887791E-002;4.754149820655584E-003;4.458289186004549E-004;
2.411500000000000E+009;1.792164295911789E-001;1.404231786727905E-002;4.711540415883064E-003;3.097176377195865E-004;
2.411666666666667E+009;1.789220124483109E-001;1.155362185090780E-002;4.749690182507038E-003;1.397338492097333E-004;
2.411833333333334E+009;1.783681660890579E-001;8.975324220955372E-003;4.669862333685160E-003;1.263602025574073E-004;
2.412000000000000E+009;1.782582253217697E-001;6.382548250257969E-003;4.706159699708223E-003;1.167246955446899E-004;
2.412166666666667E+009;1.782357245683670E-001;3.893082495778799E-003;4.599282518029213E-003;-8.742190402699634E-005;
2.412333333333334E+009;1.782129257917404E-001;1.162114553153515E-003;4.691037815064192E-003;-3.516738070175052E-004;
2.412500000000000E+009;1.786887794733048E-001;-1.588791492395103E-003;4.666911438107491E-003;-3.778298269025981E-004;
2.412666666666667E+009;1.790866553783417E-001;-4.313652869313955E-003;4.755634348839521E-003;-4.169293097220361E-004;
2.412833333333334E+009;1.796100884675980E-001;-6.936531513929367E-003;4.675865173339844E-003;-5.789367132820189E-004;
2.413000000000000E+009;1.802630573511124E-001;-9.505655616521835E-003;4.617101047188044E-003;-8.599486900493503E-004;
2.413166666666667E+009;1.809729784727097E-001;-1.209837011992931E-002;4.537738393992186E-003;-8.395727491006255E-004;
2.413333333333334E+009;1.819191128015518E-001;-1.474453508853912E-002;4.808497615158558E-003;-1.020778669044375E-003;
2.413500000000000E+009;1.828915625810623E-001;-1.715980283915997E-002;4.642159212380648E-003;-1.203854219056666E-003;
2.413666666666667E+009;1.841457188129425E-001;-1.988093741238117E-002;4.595593083649874E-003;-1.365603762678802E-003;
2.413833333333334E+009;1.851053386926651E-001;-2.209876850247383E-002;4.598531872034073E-003;-1.391064492054284E-003;
2.414000000000000E+009;1.863299310207367E-001;-2.435150370001793E-002;4.409747198224068E-003;-1.832640497013927E-003;
2.414166666666667E+009;1.875797659158707E-001;-2.641596086323261E-002;4.410255700349808E-003;-1.798652345314622E-003;
2.414333333333334E+009;1.888423115015030E-001;-2.866180054843426E-002;4.458825569599867E-003;-1.881748437881470E-003;
2.414500000000000E+009;1.902533024549484E-001;-3.039562515914440E-002;4.173204302787781E-003;-2.157111652195454E-003;
2.414666666666667E+009;1.915207654237747E-001;-3.211992233991623E-002;4.144786857068539E-003;-2.206321805715561E-003;
2.414833333333334E+009;1.927677094936371E-001;-3.371948376297951E-002;4.038683138787746E-003;-2.513831481337547E-003;
2.415000000000000E+009;1.940990686416626E-001;-3.522734716534615E-002;3.995000850409269E-003;-2.610542112961412E-003;
2.415166666666667E+009;1.956582665443420E-001;-3.643872588872910E-002;3.867805935442448E-003;-2.550711622461677E-003;
2.415333333333334E+009;1.969371587038040E-001;-3.763038665056229E-002;3.789504058659077E-003;-2.748091472312808E-003;
2.415500000000000E+009;1.983252614736557E-001;-3.843205422163010E-002;3.815901698544622E-003;-2.834676299244165E-003;
2.415666666666667E+009;1.994043737649918E-001;-3.950728103518486E-002;3.733496181666851E-003;-3.025591839104891E-003;
2.415833333333334E+009;2.006537020206451E-001;-4.028369486331940E-002;3.383440431207418E-003;-3.124701557680965E-003;
2.416000000000000E+009;2.017832845449448E-001;-4.097360000014305E-002;3.349417587742209E-003;-3.300103591755033E-003;
2.416166666666667E+009;2.027400732040405E-001;-4.164071753621101E-002;3.184638684615493E-003;-3.357341978698969E-003;
2.416333333333334E+009;2.036991268396378E-001;-4.180057346820831E-002;3.089141799136996E-003;-3.509020898491144E-003;
2.416500000000000E+009;2.043616473674774E-001;-4.215672984719276E-002;2.928090514615178E-003;-3.732032375410199E-003;
2.416666666666667E+009;2.049855589866638E-001;-4.258733242750168E-002;2.577699255198240E-003;-4.021137021481991E-003;
2.416833333333334E+009;2.055097371339798E-001;-4.249957203865051E-002;2.536123851314187E-003;-3.956950269639492E-003;
2.417000000000000E+009;2.059197276830673E-001;-4.255652800202370E-002;2.297680126503110E-003;-3.947035875171423E-003;
2.417166666666667E+009;2.058244347572327E-001;-4.238817840814591E-002;2.035299548879266E-003;-4.084600135684013E-003;
2.417333333333334E+009;2.059021592140198E-001;-4.217041283845902E-002;2.027385868132114E-003;-4.039165098220110E-003;
2.417500000000000E+009;2.057677209377289E-001;-4.209556058049202E-002;1.800723141059279E-003;-4.107496701180935E-003;
2.417666666666667E+009;2.054100334644318E-001;-4.169274494051933E-002;1.538282376714051E-003;-3.876599250361323E-003;
2.417833333333334E+009;2.052634507417679E-001;-4.138394445180893E-002;1.409174059517682E-003;-4.062171559780836E-003;
2.418000000000000E+009;2.047246098518372E-001;-4.097412154078484E-002;1.511439913883805E-003;-3.879418596625328E-003;
2.418166666666667E+009;2.040988653898239E-001;-4.071613028645515E-002;1.308837439864874E-003;-4.009694792330265E-003;
2.418333333333334E+009;2.033047229051590E-001;-4.031429812312126E-002;1.171078765764833E-003;-3.909884020686150E-003;
2.418500000000000E+009;2.024209350347519E-001;-4.017163440585136E-002;1.012975932098925E-003;-3.834517439827323E-003;
2.418666666666667E+009;2.015284001827240E-001;-4.004877805709839E-002;1.118764746934176E-003;-4.007257055491209E-003;
2.418833333333334E+009;2.002574801445007E-001;-3.987188637256622E-002;9.262585081160069E-004;-3.937845118343830E-003;
2.419000000000000E+009;1.990773379802704E-001;-3.973942622542381E-002;7.629978936165571E-004;-3.931760787963867E-003;
2.419166666666667E+009;1.976753473281860E-001;-3.990973904728890E-002;6.273324252106249E-004;-3.933529369533062E-003;
2.419333333333334E+009;1.962611228227615E-001;-4.018525406718254E-002;5.264462670311332E-004;-4.092428833246231E-003;
2.419500000000000E+009;1.947077959775925E-001;-4.047026857733727E-002;4.150299355387688E-004;-4.062411375343800E-003;
2.419666666666667E+009;1.932288706302643E-001;-4.095266014337540E-002;2.790030848700553E-004;-4.099543672055006E-003;
2.419833333333334E+009;1.913075596094132E-001;-4.138964414596558E-002;6.899917934788391E-005;-4.081764724105597E-003;
2.420000000000000E+009;1.896347701549530E-001;-4.220886528491974E-002;6.632135045947507E-005;-4.121174104511738E-003;
2.420166666666667E+009;1.879225671291351E-001;-4.295244812965393E-002;-1.224117295350879E-004;-4.131500143557787E-003;
2.420333333333334E+009;1.862386018037796E-001;-4.398453608155251E-002;-3.182120854035020E-004;-4.103409126400948E-003;
2.420500000000000E+009;1.841610670089722E-001;-4.511421918869019E-002;-4.715258255600929E-004;-4.019302316009998E-003;
2.420666666666667E+009;1.824987679719925E-001;-4.606377333402634E-002;-4.254335945006460E-004;-3.982651513069868E-003;
2.420833333333334E+009;1.807446032762528E-001;-4.760942608118057E-002;-6.438399432227016E-004;-3.923190291970968E-003;
2.421000000000000E+009;1.790388375520706E-001;-4.888157919049263E-002;-7.261342252604663E-004;-3.813774557784200E-003;
2.421166666666667E+009;1.773409992456436E-001;-5.065301060676575E-002;-9.334419737569988E-004;-3.884291509166360E-003;
2.421333333333334E+009;1.753868013620377E-001;-5.212267488241196E-002;-8.339690393768251E-004;-3.579032607376576E-003;
2.421500000000000E+009;1.741620898246765E-001;-5.412079766392708E-002;-1.038817921653390E-003;-3.633413696661592E-003;
2.421666666666667E+009;1.724664568901062E-001;-5.608728528022766E-002;-1.094768405891955E-003;-3.648369340226054E-003;
2.421833333333334E+009;1.711861342191696E-001;-5.794506147503853E-002;-1.253402791917324E-003;-3.582691308110952E-003;
2.422000000000000E+009;1.698345243930817E-001;-5.991134047508240E-002;-1.417391817085445E-003;-3.554190276190639E-003;
2.422166666666667E+009;1.687169373035431E-001;-6.224467977881432E-002;-1.366089330986142E-003;-3.425549482926726E-003;
2.422333333333334E+009;1.674994975328445E-001;-6.429809331893921E-002;-1.454651472158730E-003;-3.506769891828299E-003;
2.422500000000000E+009;1.666860431432724E-001;-6.642729789018631E-002;-1.613374799489975E-003;-3.319998038932681E-003;
2.422666666666667E+009;1.657892167568207E-001;-6.856501847505570E-002;-1.657347776927054E-003;-3.424608614295721E-003;
2.422833333333334E+009;1.651014536619186E-001;-7.093913108110428E-002;-1.589163439348340E-003;-3.198067424818873E-003;
2.423000000000000E+009;1.645680367946625E-001;-7.323300838470459E-002;-1.845588441938162E-003;-3.126377938315272E-003;
2.423166666666667E+009;1.639258712530136E-001;-7.525470852851868E-002;-1.918325433507562E-003;-3.113703336566687E-003;
2.423333333333334E+009;1.636934727430344E-001;-7.765363901853561E-002;-2.008616225793958E-003;-3.104655072093010E-003;
2.423500000000000E+009;1.634013056755066E-001;-7.981612533330917E-002;-2.181621966883540E-003;-2.887623384594917E-003;
2.423666666666667E+009;1.634780317544937E-001;-8.188429474830627E-002;-2.239116001874209E-003;-2.948634792119265E-003;
2.423833333333334E+009;1.633361876010895E-001;-8.389306068420410E-002;-2.446118043735623E-003;-2.851447788998485E-003;
2.424000000000000E+009;1.633127033710480E-001;-8.602240681648254E-002;-2.312421333044767E-003;-2.765487413853407E-003;
2.424166666666667E+009;1.634359359741211E-001;-8.779525011777878E-002;-2.615493955090642E-003;-2.707171952351928E-003;
2.424333333333334E+009;1.638062000274658E-001;-8.960756659507752E-002;-2.536125015467405E-003;-2.655619289726019E-003;
2.424500000000000E+009;1.641362309455872E-001;-9.162168204784393E-002;-2.871843986213207E-003;-2.415964147076011E-003;
2.424666666666667E+009;1.644587665796280E-001;-9.330590069293976E-002;-2.916893223300576E-003;-2.349040471017361E-003;
2.424833333333334E+009;1.651567071676254E-001;-9.474807977676392E-002;-3.071288811042905E-003;-2.158525167033076E-003;
2.425000000000000E+009;1.654954403638840E-001;-9.622912108898163E-002;-2.916129771620035E-003;-1.964505296200514E-003;
2.425166666666667E+009;1.660315245389938E-001;-9.746674448251724E-002;-3.127254080027342E-003;-1.870588981546462E-003;
2.425333333333334E+009;1.665171533823013E-001;-9.879004955291748E-002;-2.995122456923127E-003;-1.559649128466845E-003;
2.425500000000000E+009;1.670718342065811E-001;-9.992219507694244E-002;-3.099128371104598E-003;-1.565061626024544E-003;
2.425666666666667E+009;1.678087562322617E-001;-1.006847545504570E-001;-3.134419675916433E-003;-1.399951521307230E-003;
2.425833333333334E+009;1.681036949157715E-001;-1.015821397304535E-001;-2.999294083565474E-003;-1.296891830861569E-003;
2.426000000000000E+009;1.688631027936935E-001;-1.021853238344193E-001;-2.942141843959689E-003;-1.063942210748792E-003;
2.426166666666667E+009;1.694979667663574E-001;-1.029131263494492E-001;-2.894873963668943E-003;-8.919469546526671E-004;
2.426333333333334E+009;1.698884814977646E-001;-1.035297438502312E-001;-3.011418273672462E-003;-9.016655385494232E-004;
2.426500000000000E+009;1.704693585634232E-001;-1.037163063883781E-001;-2.935863099992275E-003;-7.375146378763020E-004;
2.426666666666667E+009;1.708694100379944E-001;-1.042223051190376E-001;-2.984856953844428E-003;-5.902392440475524E-004;
2.426833333333334E+009;1.714703589677811E-001;-1.044927090406418E-001;-2.897212747484446E-003;-6.493715336546302E-004;
2.427000000000000E+009;1.715737283229828E-001;-1.046307533979416E-001;-2.835399005562067E-003;-4.068543494213373E-004;
2.427166666666667E+009;1.719215959310532E-001;-1.047020927071571E-001;-2.912728581577539E-003;-6.377003155648708E-004;
2.427333333333334E+009;1.719904541969299E-001;-1.049605384469032E-001;-2.824975410476327E-003;-2.942658029496670E-004;
2.427500000000000E+009;1.719757616519928E-001;-1.050140485167503E-001;-2.789335558190942E-003;-3.587091632653028E-004;
2.427666666666667E+009;1.717788130044937E-001;-1.049633547663689E-001;-2.675672061741352E-003;-3.657353809103370E-004;
2.427833333333334E+009;1.717281043529511E-001;-1.050221994519234E-001;-2.685474697500467E-003;-2.237109874840826E-004;
