# Version 1.00
#
freq[Hz];re:Trc1_S11;im:Trc1_S11;re:Trc2_S21;im:Trc2_S21;
2.400000000000000E+009;1.557194292545319E-001;1.111599653959274E-001;-4.787838552147150E-003;2.527724253013730E-003;
2.400166666666667E+009;1.552851945161820E-001;1.087562292814255E-001;-4.680892918258905E-003;2.710158238187432E-003;
2.400333333333334E+009;1.550118923187256E-001;1.064595356583595E-001;-4.616684745997191E-003;3.036899724975228E-003;
2.400500000000000E+009;1.546982675790787E-001;1.037926077842712E-001;-4.508431535214186E-003;3.192172152921557E-003;
2.400666666666667E+009;1.543647050857544E-001;1.013498157262802E-001;-4.285048227757216E-003;3.404306713491678E-003;
2.400833333333334E+009;1.539746224880219E-001;9.834928065538406E-002;-4.227753728628159E-003;3.609144594520330E-003;
2.401000000000000E+009;1.541959643363953E-001;9.564067423343658E-002;-4.299314226955175E-003;3.834596835076809E-003;
2.401166666666667E+009;1.536989510059357E-001;9.257524460554123E-002;-3.991066943854094E-003;4.058264661580324E-003;
2.401333333333334E+009;1.537565737962723E-001;8.999550342559815E-002;-3.851325949653983E-003;4.137678071856499E-003;
2.401500000000000E+009;1.538837254047394E-001;8.676800876855850E-002;-3.728537121787667E-003;4.266813397407532E-003;
2.401666666666667E+009;1.540784686803818E-001;8.372455835342407E-002;-3.676893888041377E-003;4.336665850132704E-003;
2.401833333333334E+009;1.543662697076798E-001;8.092390745878220E-002;-3.481454448774457E-003;4.656386561691761E-003;
2.402000000000000E+009;1.550422906875610E-001;7.801342755556107E-002;-3.343211952596903E-003;4.609159193933010E-003;
2.402166666666667E+009;1.556601226329804E-001;7.513987272977829E-002;-3.195931669324637E-003;4.643660504370928E-003;
2.402333333333334E+009;1.563475579023361E-001;7.217805087566376E-002;-3.051591571420431E-003;4.893050063401461E-003;
2.402500000000000E+009;1.573880463838577E-001;6.939958035945892E-002;-2.915585413575172E-003;4.989259876310825E-003;
2.402666666666667E+009;1.583728194236755E-001;6.696531176567078E-002;-2.822021488100290E-003;5.138725042343140E-003;
2.402833333333334E+009;1.596940457820892E-001;6.426022946834564E-002;-2.616762882098556E-003;5.173748359084129E-003;
2.403000000000000E+009;1.610365509986877E-001;6.161326542496681E-002;-2.543863840401173E-003;5.226371344178915E-003;
2.403166666666667E+009;1.628677397966385E-001;5.913731455802918E-002;-2.294635633006692E-003;5.520053673535585E-003;
2.403333333333334E+009;1.642428487539291E-001;5.681766569614410E-002;-2.168808365240693E-003;5.422265268862248E-003;
2.403500000000000E+009;1.658834964036942E-001;5.446404218673706E-002;-1.836524228565395E-003;5.841882899403572E-003;
2.403666666666667E+009;1.679500639438629E-001;5.234650149941444E-002;-1.790532609447837E-003;5.757094826549292E-003;
2.403833333333334E+009;1.695606559514999E-001;5.044447630643845E-002;-1.625430188141763E-003;6.022095680236816E-003;
2.404000000000000E+009;1.710903197526932E-001;4.822257906198502E-002;-1.439428539015353E-003;6.046462338417769E-003;
2.404166666666667E+009;1.731710433959961E-001;4.665578901767731E-002;-9.103380725719035E-004;6.185377482324839E-003;
2.404333333333334E+009;1.750700324773789E-001;4.489857330918312E-002;-7.963515236042440E-004;6.356454920023680E-003;
2.404500000000000E+009;1.766556054353714E-001;4.337327927350998E-002;-6.611777353100479E-004;6.492516957223415E-003;
2.404666666666667E+009;1.786553710699081E-001;4.219279438257217E-002;-2.848070580512285E-004;6.565896794199944E-003;
2.404833333333334E+009;1.805689781904221E-001;4.076966270804405E-002;1.155908739747247E-005;6.535134743899107E-003;
2.405000000000000E+009;1.821187883615494E-001;4.010760411620140E-002;4.523945099208504E-004;6.674254313111305E-003;
2.405166666666667E+009;1.838229596614838E-001;3.935497254133225E-002;8.254179265350103E-004;6.511229556053877E-003;
2.405333333333334E+009;1.854140311479569E-001;3.884103521704674E-002;1.121643814258277E-003;6.640830542892218E-003;
2.405500000000000E+009;1.872430592775345E-001;3.827326744794846E-002;1.406867988407612E-003;6.479294970631599E-003;
2.405666666666667E+009;1.886109411716461E-001;3.780034929513931E-002;1.799122779630125E-003;6.261402741074562E-003;
2.405833333333334E+009;1.901233941316605E-001;3.776522353291512E-002;2.279638312757015E-003;6.099135149270296E-003;
2.406000000000000E+009;1.913412064313889E-001;3.755696117877960E-002;2.388436114415526E-003;6.031410302966833E-003;
2.406166666666667E+009;1.926887780427933E-001;3.746167197823525E-002;2.769894665107131E-003;5.961130838841200E-003;
2.406333333333334E+009;1.939495652914047E-001;3.765062242746353E-002;2.833471633493900E-003;5.556229036301374E-003;
2.406500000000000E+009;1.950655132532120E-001;3.765299916267395E-002;3.179955761879683E-003;5.419855471700430E-003;
2.406666666666667E+009;1.956972479820252E-001;3.808527439832687E-002;3.367398399859667E-003;5.508595611900091E-003;
2.406833333333334E+009;1.964465975761414E-001;3.827665373682976E-002;3.341920208185911E-003;5.264025647193193E-003;
2.407000000000000E+009;1.970836520195007E-001;3.872025012969971E-002;3.784225787967444E-003;5.070430226624012E-003;
2.407166666666667E+009;1.976216286420822E-001;3.868269920349121E-002;3.861981444060803E-003;4.887054208666086E-003;
2.407333333333334E+009;1.978586614131928E-001;3.915813937783241E-002;3.813679330050945E-003;4.638114012777805E-003;
2.407500000000000E+009;1.980543732643127E-001;3.957933187484741E-002;4.036211874336004E-003;4.425440914928913E-003;
2.407666666666667E+009;1.983250081539154E-001;3.976678475737572E-002;4.145414568483830E-003;4.190531093627214E-003;
2.407833333333334E+009;1.978671103715897E-001;4.003806412220001E-002;4.379315301775932E-003;4.149567335844040E-003;
2.408000000000000E+009;1.980270594358444E-001;4.016121476888657E-002;4.513907711952925E-003;3.948040306568146E-003;
2.408166666666667E+009;1.976592838764191E-001;4.025953635573387E-002;4.515505861490965E-003;3.709045471623540E-003;
2.408333333333334E+009;1.972276121377945E-001;4.006058722734451E-002;4.662680905312300E-003;3.511563641950488E-003;
2.408500000000000E+009;1.965156644582748E-001;4.012878984212875E-002;4.772773478180170E-003;3.187994239851832E-003;
2.408666666666667E+009;1.959769129753113E-001;3.981128334999085E-002;4.913531709462404E-003;3.085340606048703E-003;
2.408833333333334E+009;1.952669322490692E-001;3.938835486769676E-002;4.872959107160568E-003;2.772100968286395E-003;
2.409000000000000E+009;1.943409740924835E-001;3.889643773436546E-002;4.992164205759764E-003;2.556987572461367E-003;
2.409166666666667E+009;1.933157294988632E-001;3.824694082140923E-002;4.854485858231783E-003;2.211362356320024E-003;
2.409333333333334E+009;1.923073530197144E-001;3.753610700368881E-002;4.848340991884470E-003;2.006395021453500E-003;
2.409500000000000E+009;1.911356896162033E-001;3.651860728859901E-002;4.811300896108151E-003;1.945083611644805E-003;
2.409666666666667E+009;1.900196820497513E-001;3.527402877807617E-002;4.794425796717405E-003;1.639156136661768E-003;
2.409833333333334E+009;1.889182925224304E-001;3.416087850928307E-002;4.595231264829636E-003;1.589593943208456E-003;
2.410000000000000E+009;1.876848489046097E-001;3.258803486824036E-002;4.785791039466858E-003;1.496061100624502E-003;
2.410166666666667E+009;1.865579336881638E-001;3.097620047628880E-002;4.680085461586714E-003;1.415533595718443E-003;
2.410333333333334E+009;1.852245330810547E-001;2.936372160911560E-002;4.828231874853373E-003;1.229395857080817E-003;
2.410500000000000E+009;1.841929256916046E-001;2.740365825593472E-002;4.605254624038935E-003;1.098807668313384E-003;
2.410666666666667E+009;1.829053610563278E-001;2.532185241580010E-002;4.608600866049528E-003;1.106551615521312E-003;
2.410833333333334E+009;1.821287423372269E-001;2.335308864712715E-002;4.740933887660503E-003;9.777777595445514E-004;
2.411000000000000E+009;1.811414211988449E-001;2.106830291450024E-002;4.523791838437319E-003;8.813401218503714E-004;
2.411166666666667E+009;1.802102029323578E-001;1.888735033571720E-002;4.696761257946491E-003;7.143238908611238E-004;
2.411333333333334E+009;1.794843822717667E-001;1.641269214451313E-002;4.638812039047480E-003;6.591222481802106E-004;
2.411500000000000E+009;1.787816435098648E-001;1.390192564576864E-002;4.602550063282251E-003;4.170986067038029E-004;
2.411666666666667E+009;1.782840043306351E-001;1.144595630466938E-002;4.560918547213078E-003;2.897258382290602E-004;
2.411833333333334E+009;1.778643876314163E-001;9.007644839584827E-003;4.661288578063250E-003;2.454866189509630E-004;
2.412000000000000E+009;1.778589040040970E-001;6.250904407352209E-003;4.507545381784439E-003;1.316879788646475E-004;
2.412166666666667E+009;1.777211725711823E-001;3.857986768707633E-003;4.553013015538454E-003;5.861825411557220E-005;
2.412333333333334E+009;1.778413951396942E-001;1.068860641680658E-003;4.529547411948443E-003;-1.577307739353273E-005;
2.412500000000000E+009;1.779974400997162E-001;-1.554712420329452E-003;4.616044461727142E-003;-3.901739546563476E-004;
2.412666666666667E+009;1.785298436880112E-001;-4.309257492423058E-003;4.560298752039671E-003;-4.083354433532804E-004;
2.412833333333334E+009;1.789967715740204E-001;-6.984106730669737E-003;4.522382747381926E-003;-5.201203166507185E-004;
2.413000000000000E+009;1.798090785741806E-001;-9.450942277908325E-003;4.587994422763586E-003;-6.349663599394262E-004;
2.413166666666667E+009;1.804539859294891E-001;-1.195718534290791E-002;4.533172119408846E-003;-6.544924108311534E-004;
2.413333333333334E+009;1.814829558134079E-001;-1.452574040740728E-002;4.537295084446669E-003;-8.700591279193759E-004;
2.413500000000000E+009;1.823417991399765E-001;-1.710053160786629E-002;4.482795018702745E-003;-1.138357794843614E-003;
2.413666666666667E+009;1.835824400186539E-001;-1.954476162791252E-002;4.564420785754919E-003;-1.093041501007974E-003;
2.413833333333334E+009;1.846377849578857E-001;-2.181270346045494E-002;4.615830257534981E-003;-1.401279703713954E-003;
2.414000000000000E+009;1.858050227165222E-001;-2.425013855099678E-002;4.515971057116985E-003;-1.502919360063970E-003;
2.414166666666667E+009;1.871595233678818E-001;-2.620388008654118E-002;4.224026110023260E-003;-1.712261117063463E-003;
2.414333333333334E+009;1.884799152612686E-001;-2.852040529251099E-002;4.232035018503666E-003;-1.904743257910013E-003;
2.414500000000000E+009;1.898437291383743E-001;-3.024589456617832E-002;4.224182106554508E-003;-1.874960027635098E-003;
2.414666666666667E+009;1.912290006875992E-001;-3.176649287343025E-002;3.991084173321724E-003;-2.073245123028755E-003;
2.414833333333334E+009;1.925412267446518E-001;-3.342557325959206E-002;4.009983502328396E-003;-2.275104168802500E-003;
2.415000000000000E+009;1.938305944204330E-001;-3.502807393670082E-002;3.948680125176907E-003;-2.424861537292600E-003;
2.415166666666667E+009;1.952948272228241E-001;-3.624385595321655E-002;3.901631338521838E-003;-2.542125759646297E-003;
2.415333333333334E+009;1.967174261808395E-001;-3.747193142771721E-002;3.777171950787306E-003;-2.597099402919412E-003;
2.415500000000000E+009;1.979612857103348E-001;-3.841589391231537E-002;3.664698451757431E-003;-2.785791642963886E-003;
2.415666666666667E+009;1.993085741996765E-001;-3.923390805721283E-002;3.552075242623687E-003;-2.854603575542569E-003;
2.415833333333334E+009;2.004750370979309E-001;-3.998958691954613E-002;3.547832602635026E-003;-2.979443175718188E-003;
2.416000000000000E+009;2.014694064855576E-001;-4.075143486261368E-002;3.387366887181997E-003;-3.178814426064491E-003;
2.416166666666667E+009;2.026250213384628E-001;-4.135615378618240E-002;3.263483056798577E-003;-3.261101432144642E-003;
2.416333333333334E+009;2.035416215658188E-001;-4.172157868742943E-002;3.124003298580647E-003;-3.415346378460527E-003;
2.416500000000000E+009;2.043144851922989E-001;-4.203195497393608E-002;3.104162169620395E-003;-3.673697588965297E-003;
2.416666666666667E+009;2.049239128828049E-001;-4.227872937917709E-002;2.805930795148015E-003;-3.680871333926916E-003;
2.416833333333334E+009;2.053723931312561E-001;-4.230096191167831E-002;2.577795414254069E-003;-3.934718202799559E-003;
2.417000000000000E+009;2.057012021541596E-001;-4.237896949052811E-002;2.407270250841975E-003;-3.970340825617313E-003;
2.417166666666667E+009;2.058305591344833E-001;-4.230055585503578E-002;2.134806243702769E-003;-4.000666085630655E-003;
2.417333333333334E+009;2.057887017726898E-001;-4.194440692663193E-002;2.126387553289533E-003;-3.874324727803469E-003;
2.417500000000000E+009;2.056985348463059E-001;-4.190392047166824E-002;1.860666438005865E-003;-3.970528952777386E-003;
2.417666666666667E+009;2.054343074560165E-001;-4.163657873868942E-002;1.615790184587240E-003;-3.852627240121365E-003;
2.417833333333334E+009;2.051271498203278E-001;-4.118459299206734E-002;1.484004198573530E-003;-3.857393981888890E-003;
2.418000000000000E+009;2.046736478805542E-001;-4.075803980231285E-002;1.414505532011390E-003;-3.713296959176660E-003;
2.418166666666667E+009;2.040027678012848E-001;-4.064529389142990E-002;1.343347830697894E-003;-3.789178794249892E-003;
2.418333333333334E+009;2.032473385334015E-001;-4.020596295595169E-002;1.221428276039660E-003;-3.774526761844754E-003;
2.418500000000000E+009;2.023930549621582E-001;-4.008696600794792E-002;1.239272649399936E-003;-3.821016289293766E-003;
2.418666666666667E+009;2.014744430780411E-001;-3.967807069420815E-002;1.091931364499033E-003;-3.954329993575811E-003;
2.418833333333334E+009;2.002504020929337E-001;-3.967735171318054E-002;9.657775517553091E-004;-3.910265397280455E-003;
2.419000000000000E+009;1.990259289741516E-001;-3.970808535814285E-002;9.553990676067770E-004;-3.890184219926596E-003;
2.419166666666667E+009;1.977413147687912E-001;-3.983452543616295E-002;7.946018013171852E-004;-3.948822151869535E-003;
2.419333333333334E+009;1.962977498769760E-001;-3.992814198136330E-002;7.173737394623458E-004;-3.900041338056326E-003;
2.419500000000000E+009;1.948873996734619E-001;-4.025552794337273E-002;4.906876129098237E-004;-4.031391814351082E-003;
2.419666666666667E+009;1.931717544794083E-001;-4.082855209708214E-002;4.202318668831140E-004;-4.092325456440449E-003;
2.419833333333334E+009;1.914389729499817E-001;-4.141737893223763E-002;2.547112526372075E-004;-4.080207087099552E-003;
2.420000000000000E+009;1.897145658731461E-001;-4.200942441821098E-002;6.417519034584984E-005;-4.040808882564306E-003;
2.420166666666667E+009;1.878521442413330E-001;-4.286095872521401E-002;-1.154858455265639E-005;-4.056827630847693E-003;
2.420333333333334E+009;1.861263662576675E-001;-4.384789243340492E-002;-1.108832220779732E-004;-4.124455619603396E-003;
2.420500000000000E+009;1.842629611492157E-001;-4.494838789105415E-002;-2.856270002666861E-004;-3.933367785066366E-003;
2.420666666666667E+009;1.824636608362198E-001;-4.593106731772423E-002;-4.186396545264870E-004;-3.859226126223803E-003;
2.420833333333334E+009;1.806777864694595E-001;-4.748386144638062E-002;-3.346491430420429E-004;-3.855684539303184E-003;
2.421000000000000E+009;1.788856387138367E-001;-4.875024780631065E-002;-6.945147179067135E-004;-3.761539934203029E-003;
2.421166666666667E+009;1.772900968790054E-001;-5.054556205868721E-002;-6.873065722174943E-004;-3.814389696344733E-003;
2.421333333333334E+009;1.754991859197617E-001;-5.200649797916412E-002;-7.195131620392203E-004;-3.606301499530673E-003;
2.421500000000000E+009;1.740837395191193E-001;-5.402403697371483E-002;-8.169729262590408E-004;-3.579802345484495E-003;
2.421666666666667E+009;1.724509596824646E-001;-5.589507892727852E-002;-1.102406415157020E-003;-3.483713138848543E-003;
2.421833333333334E+009;1.711043119430542E-001;-5.788052082061768E-002;-1.142431516200304E-003;-3.449396928772330E-003;
2.422000000000000E+009;1.697962135076523E-001;-5.990250036120415E-002;-1.141556771472096E-003;-3.348461119458079E-003;
2.422166666666667E+009;1.686812639236450E-001;-6.212722882628441E-002;-1.257443334907293E-003;-3.332447493448854E-003;
2.422333333333334E+009;1.674593985080719E-001;-6.416879594326019E-002;-1.291903550736606E-003;-3.269650274887681E-003;
2.422500000000000E+009;1.665953248739243E-001;-6.631540507078171E-002;-1.435249112546444E-003;-3.227289300411940E-003;
2.422666666666667E+009;1.656748801469803E-001;-6.857885420322418E-002;-1.372937345877290E-003;-3.214967204257846E-003;
2.422833333333334E+009;1.650419384241104E-001;-7.094188034534454E-002;-1.625732867978513E-003;-3.058142494410276E-003;
2.423000000000000E+009;1.643117517232895E-001;-7.300146669149399E-002;-1.630210899747908E-003;-3.190345363691449E-003;
2.423166666666667E+009;1.639520078897476E-001;-7.539157569408417E-002;-1.723170280456543E-003;-3.010113025084138E-003;
2.423333333333334E+009;1.635988205671310E-001;-7.752352207899094E-002;-1.843739766627550E-003;-3.089084522798657E-003;
2.423500000000000E+009;1.634760648012161E-001;-7.976414263248444E-002;-1.897143432870507E-003;-2.999653806909919E-003;
2.423666666666667E+009;1.634925007820129E-001;-8.187085390090942E-002;-1.955896383151412E-003;-3.033095737919211E-003;
2.423833333333334E+009;1.632203459739685E-001;-8.389401435852051E-002;-2.223866526037455E-003;-2.995688002556562E-003;
2.424000000000000E+009;1.634296923875809E-001;-8.601666986942291E-002;-2.228342229500413E-003;-2.666571876034141E-003;
2.424166666666667E+009;1.634936183691025E-001;-8.793774992227554E-002;-2.315013902261853E-003;-2.749627223238349E-003;
2.424333333333334E+009;1.637384295463562E-001;-8.981493860483170E-002;-2.566547365859151E-003;-2.611183095723391E-003;
2.424500000000000E+009;1.640000492334366E-001;-9.165897965431213E-002;-2.628845395520330E-003;-2.529186196625233E-003;
2.424666666666667E+009;1.644657105207443E-001;-9.321711212396622E-002;-2.698953263461590E-003;-2.371426904574037E-003;
2.424833333333334E+009;1.649571806192398E-001;-9.490271657705307E-002;-2.716282149776816E-003;-2.188306534662843E-003;
2.425000000000000E+009;1.654508709907532E-001;-9.634406864643097E-002;-2.888127230107784E-003;-2.068872330710292E-003;
2.425166666666667E+009;1.659381687641144E-001;-9.749957919120789E-002;-2.762560267001391E-003;-1.985996495932341E-003;
2.425333333333334E+009;1.664930284023285E-001;-9.872964024543762E-002;-2.973505994305015E-003;-1.641820883378387E-003;
2.425500000000000E+009;1.671095639467239E-001;-9.996698796749115E-002;-2.838260261341929E-003;-1.567716361023486E-003;
2.425666666666667E+009;1.676203459501267E-001;-1.007012501358986E-001;-2.884132321923971E-003;-1.485333312302828E-003;
2.425833333333334E+009;1.681028157472611E-001;-1.017256155610085E-001;-2.788285491988063E-003;-1.365432050079107E-003;
2.426000000000000E+009;1.687031090259552E-001;-1.023637577891350E-001;-2.785473130643368E-003;-1.347100362181664E-003;
2.426166666666667E+009;1.693069487810135E-001;-1.030072271823883E-001;-2.812339924275875E-003;-9.984170319512487E-004;
2.426333333333334E+009;1.696807742118835E-001;-1.035337150096893E-001;-2.670286688953638E-003;-1.058813300915062E-003;
2.426500000000000E+009;1.702581048011780E-001;-1.037304773926735E-001;-2.780538983643055E-003;-9.136607404798269E-004;
2.426666666666667E+009;1.706322878599167E-001;-1.041300594806671E-001;-2.699149539694190E-003;-9.769244352355599E-004;
2.426833333333334E+009;1.711144298315048E-001;-1.044029220938683E-001;-2.641248283907771E-003;-9.400990093126893E-004;
2.427000000000000E+009;1.713559031486511E-001;-1.046158224344254E-001;-2.662227489054203E-003;-7.376679568551481E-004;
2.427166666666667E+009;1.715933382511139E-001;-1.046180203557015E-001;-2.565788105130196E-003;-7.457030587829649E-004;
2.427333333333334E+009;1.717058271169663E-001;-1.048333048820496E-001;-2.638762118294835E-003;-6.719045923091471E-004;
2.427500000000000E+009;1.717155873775482E-001;-1.048438921570778E-001;-2.574918325990439E-003;-4.649777838494629E-004;
2.427666666666667E+009;1.716488152742386E-001;-1.047761365771294E-001;-2.615254372358322E-003;-5.352454609237611E-004;
2.427833333333334E+009;1.715268492698669E-001;-1.048512086272240E-001;-2.740581287071109E-003;-3.862443845719099E-004;
