# Hz S RI R 
2400000000.0000000000 0.162259742617607088943643134371 0.056374371051788330078125000000 -0.001312705338932574012159038013 0.003338085487484931945800781250 0 0 0 0 
2400166666.6666665077 0.162347942590713500976562500000 0.055004231631755828857421875000 -0.001156557584181427955627441406 0.003474509343504906134364462744 0 0 0 0 
2400333333.3333334923 0.162239283323287991622763115629 0.053257752209901809692382812500 -0.001151038333773612976074218750 0.003641203977167605920078896631 0 0 0 0 
2400500000.0000000000 0.162656918168067904373330634371 0.051563400775194168090820312500 -0.000996681279502809047698974609 0.003764173248782753944396972656 0 0 0 0 
2400666666.6666665077 0.162489637732505798339843750000 0.049898665398359298706054687500 -0.001001173513941467025159526294 0.003991906996816396713256835938 0 0 0 0 
2400833333.3333334923 0.162716135382652310470419365629 0.048358470201492309570312500000 -0.000712383305653929710388183594 0.004149645566940307617187500000 0 0 0 0 
2401000000.0000000000 0.162690296769142206390057481258 0.046458624303340911865234375000 -0.000667748914565891027450561523 0.004264589864760637283325195312 0 0 0 0 
2401166666.6666665077 0.163126319646835299392861884371 0.044571943581104278564453125000 -0.000343976571457460522651672363 0.004296835977584123611450195312 0 0 0 0 
2401333333.3333334923 0.163167074322700500488281250000 0.043006539344787597656250000000 -0.000158829570864327306121271954 0.004544582683593034744262695312 0 0 0 0 
2401500000.0000000000 0.163583651185035705566406250000 0.041032504290342330932617187500 -0.000071986170951277017593383789 0.004418154712766408920288085938 0 0 0 0 
2401666666.6666665077 0.163705810904502896407919365629 0.039389513432979576801340471093 0.000261826993664726614952087402 0.004726172890514135360717773438 0 0 0 0 
2401833333.3333334923 0.164082691073417691329794365629 0.037486683577299118041992187500 0.000366060587111860513687133789 0.004672094713896512985229492188 0 0 0 0 
2402000000.0000000000 0.164325892925262506683026231258 0.035802751779556267475168596093 0.000758397742174565792083740234 0.004757951013743877410888671875 0 0 0 0 
2402166666.6666665077 0.164774239063262911697549384371 0.033982295542955398559570312500 0.001020201132632791996002197266 0.004769232589751482009887695312 0 0 0 0 
2402333333.3333334923 0.165115147829055786132812500000 0.032479461282491677021067033593 0.001083916868083178997039794922 0.004687226377427577972412109375 0 0 0 0 
2402500000.0000000000 0.165708020329475402832031250000 0.031046988442540168762207031250 0.001467127120122313933131552588 0.004775479435920715332031250000 0 0 0 0 
2402666666.6666665077 0.166120603680610712249432481258 0.029486041516065601003626639454 0.001696071005426347038866352612 0.004683442879468202590942382812 0 0 0 0 
2402833333.3333334923 0.166625574231147793868856865629 0.028047408908605579030970389454 0.002046938287094234986546181787 0.004625212866812944412231445312 0 0 0 0 
2403000000.0000000000 0.167141467332839993575888115629 0.026575779542326930654505545704 0.002129626227542757987976074219 0.004458719864487648010253906250 0 0 0 0 
2403166666.6666665077 0.167721375823020907303018134371 0.025212984532117840158482735546 0.002511191880330442948582314600 0.004471377003937959671020507812 0 0 0 0 
2403333333.3333334923 0.168364733457565307617187500000 0.023958511650562289846400076954 0.002615981036797165870666503906 0.004449610598385334014892578125 0 0 0 0 
2403500000.0000000000 0.168882817029953002929687500000 0.022617824375629428518275076954 0.002835023915395141081569052588 0.004149885382503271102905273438 0 0 0 0 
2403666666.6666665077 0.169455945491790799239950615629 0.021376604214310649526575858204 0.003003117395564914183375693213 0.004236875567585229873657226562 0 0 0 0 
2403833333.3333334923 0.170110866427421597579794365629 0.020079351961612701416015625000 0.003265154315158724784851074219 0.003886434016749262809753417969 0 0 0 0 
2404000000.0000000000 0.170727103948593111892861884371 0.019064586609601971017857735546 0.003606406273320316834690713037 0.003631687955930829048156738281 0 0 0 0 
2404166666.6666665077 0.171276941895484896560830634371 0.017823645845055580139160156250 0.003652143059298396110534667969 0.003589006606489419937133789062 0 0 0 0 
2404333333.3333334923 0.171921923756599398513955634371 0.016996245831251140939732735546 0.003678812878206371827366494287 0.003289887681603432135341025244 0 0 0 0 
2404500000.0000000000 0.172572210431098910232705634371 0.015675108879804611206054687500 0.003910087514668703079223632812 0.003393740626052021980285644531 0 0 0 0 
2404666666.6666665077 0.173203662037849398513955634371 0.015199028886854650324811366602 0.004114773124456405639648437500 0.003038721624761819839477539062 0 0 0 0 
2404833333.3333334923 0.173507258296012906173544365629 0.014337689615786080796211443555 0.004193346947431564331054687500 0.002779294969514011903050088037 0 0 0 0 
2405000000.0000000000 0.174374744296073913574218750000 0.013469236902892589569091796875 0.004185349680483341217041015625 0.002548344200477004051208496094 0 0 0 0 
2405166666.6666665077 0.174633249640464810470419365629 0.012696599587798120326032069727 0.004287483636289834976196289062 0.002195478882640600204467773438 0 0 0 0 
2405333333.3333334923 0.175243139266967801193075615629 0.011948820203542709350585937500 0.004497470334172248840332031250 0.002020217711105943159816122900 0 0 0 0 
2405500000.0000000000 0.175588592886924688141192518742 0.011432118713855739938756173046 0.004507794976234436035156250000 0.002026353962719440893885947119 0 0 0 0 
2405666666.6666665077 0.176194518804550198654013115629 0.010885747149586679285993007227 0.004494334105402231216430664062 0.001639569061808288097381591797 0 0 0 0 
2405833333.3333334923 0.176271870732307406326455634371 0.010322187095880510157575038477 0.004454365465790033340454101562 0.001538056647405027909519814600 0 0 0 0 
2406000000.0000000000 0.176838725805282592773437500000 0.009535876102745532989501953125 0.004691905807703732576852129199 0.001334395026788115935084677588 0 0 0 0 
2406166666.6666665077 0.176936656236648587325888115629 0.009297865442931652069091796875 0.004540809430181980133056640625 0.001347507582977413914324116284 0 0 0 0 
2406333333.3333334923 0.177403509616851806640625000000 0.008830656297504901885986328125 0.004621291533112525939941406250 0.000959701079409569501876831055 0 0 0 0 
2406500000.0000000000 0.177443355321884210784588731258 0.008131140843033790588378906250 0.004400100558996201428885175488 0.000959435070399194955825805664 0 0 0 0 
2406666666.6666665077 0.177384570240974398513955634371 0.007666943594813346862792968750 0.004493562970310449600219726562 0.000715774658601731061935424805 0 0 0 0 
2406833333.3333334923 0.177545040845870999435263115629 0.007153595332056283950805664062 0.004579825792461633682250976562 0.000529076904058456420898437500 0 0 0 0 
2407000000.0000000000 0.177666902542114313323651231258 0.006533390842378140363211347363 0.004541567992419003572945879199 0.000468759244540706276893615723 0 0 0 0 
2407166666.6666665077 0.177700102329254205901776231258 0.006082597188651561737060546875 0.004576149396598339080810546875 0.000256169674685224890708923340 0 0 0 0 
2407333333.3333334923 0.177436426281928988357705634371 0.005458945408463478088378906250 0.004475666210055351257324218750 0.000071426016802433878183364868 0 0 0 0 
2407500000.0000000000 0.177459269762039212325888115629 0.004745297133922576904296875000 0.004450837150216102600097656250 -0.000119690317660570103995738844 0 0 0 0 
2407666666.6666665077 0.177134007215499905685263115629 0.004284161143004894256591796875 0.004466014914214611053466796875 -0.000259216933045536279678344727 0 0 0 0 
2407833333.3333334923 0.176938310265541104415731865629 0.003395019099116324944737099756 0.004579744767397642135620117188 -0.000532743113581091165542602539 0 0 0 0 
2408000000.0000000000 0.176763340830802889724893134371 0.002501973416656256155726767432 0.004497655667364597320556640625 -0.000568972667679190635681152344 0 0 0 0 
2408166666.6666665077 0.176356226205825805664062500000 0.002058458747342228889465332031 0.004243530798703432083129882812 -0.000725856807548552751541137695 0 0 0 0 
2408333333.3333334923 0.176207229495048495193643134371 0.000995492329820990562438964844 0.004386038985103368759155273438 -0.000829989265184849500656127930 0 0 0 0 
2408500000.0000000000 0.175770357251167297363281250000 0.000061356091464404016733169556 0.004211123567074537277221679688 -0.001045969780534506060956645435 0 0 0 0 
2408666666.6666665077 0.175343111157417297363281250000 -0.000964289589319378137588500977 0.004163229372352361679077148438 -0.001111237448640167930005717700 0 0 0 0 
2408833333.3333334923 0.174883872270584106445312500000 -0.001969712087884544892552041162 0.004073180258274078369140625000 -0.001201165723614395098445273291 0 0 0 0 
2409000000.0000000000 0.174296543002128601074218750000 -0.003075495595112442970275878906 0.004016784019768238067626953125 -0.001565724494867027022718120044 0 0 0 0 
2409166666.6666665077 0.173921778798103304763955634371 -0.004251273348927497863769531250 0.003991004545241594314575195312 -0.001506814267486334063886332935 0 0 0 0 
2409333333.3333334923 0.173363044857978793045205634371 -0.005569871980696916580200195312 0.003835297189652920202967978369 -0.001670581754297018051147460938 0 0 0 0 
2409500000.0000000000 0.172930210828781100174111884371 -0.006959208752959966659545898438 0.003757567610591650009155273438 -0.001805299660190939903259277344 0 0 0 0 
2409666666.6666665077 0.172388345003128107268963731258 -0.008309462107717990875244140625 0.003678892273455857796909951318 -0.001884564524516463062883686597 0 0 0 0 
2409833333.3333334923 0.171842992305755587478799384371 -0.009489881806075572967529296875 0.003629492362961173057556152344 -0.001924998476170002980473183740 0 0 0 0 
2410000000.0000000000 0.171483621001243591308593750000 -0.011022354476153850555419921875 0.003656371030956507162806845557 -0.002011101925745605988743447412 0 0 0 0 
2410166666.6666665077 0.170999974012374905685263115629 -0.012464603409171099226981915820 0.003443587338551878929138183594 -0.002181743271648883819580078125 0 0 0 0 
2410333333.3333334923 0.170605406165123013595419365629 -0.014176344498991969717005545704 0.003440952859818934960606240381 -0.002091401722282170815708779443 0 0 0 0 
2410500000.0000000000 0.170297414064407404143963731258 -0.015592221170663830148717110546 0.003420499153435229821446084131 -0.002273804508149623870849609375 0 0 0 0 
2410666666.6666665077 0.169938191771507290939169365629 -0.017313651740550998342493826954 0.003215287812054156823399209131 -0.002299707848578691916224814307 0 0 0 0 
2410833333.3333334923 0.169662639498710604568643134371 -0.019017605111002918588658516796 0.003156506689265369935276650537 -0.002462794072926044897792197119 0 0 0 0 
2411000000.0000000000 0.169457346200942993164062500000 -0.020758578553795821453054060157 0.003109567333012818856480263818 -0.002654768759384750886204384912 0 0 0 0 
2411166666.6666665077 0.169161990284919711013955634371 -0.022543411701917648315429687500 0.003110992955043911933898925781 -0.002608829876407980918884277344 0 0 0 0 
2411333333.3333334923 0.169134914875030489822549384371 -0.024210449308156970632532889454 0.002942265011370182037353515625 -0.002746340818703175024745322119 0 0 0 0 
2411500000.0000000000 0.168957903981208801269531250000 -0.026186127215623859060267264454 0.002910217968747020201442099463 -0.002814437961205840110778808594 0 0 0 0 
2411666666.6666665077 0.169068291783332796951455634371 -0.027718655765056610107421875000 0.002816347172483801841735839844 -0.002882077824324368996861123193 0 0 0 0 
2411833333.3333334923 0.169095605611801202972088731258 -0.029536789283156398427943045704 0.002782508498057723045349121094 -0.002923336578533052964451455225 0 0 0 0 
2412000000.0000000000 0.169107154011726407150106865629 -0.031441323459148406982421875000 0.002697295509278773827793740381 -0.003149646334350109100341796875 0 0 0 0 
2412166666.6666665077 0.169089064002037103850994981258 -0.033174064010381698608398437500 0.002600553212687373161315917969 -0.003299132455140351815464638818 0 0 0 0 
2412333333.3333334923 0.169542297720909090896768134371 -0.034822564572095870971679687500 0.002450807951390742821934365381 -0.003298430470749735832214355469 0 0 0 0 
2412500000.0000000000 0.169519066810607910156250000000 -0.036488689482212066650390625000 0.002567133866250514984130859375 -0.003492506220936775207519531250 0 0 0 0 
2412666666.6666665077 0.169920042157173212249432481258 -0.038412921130657202983815778907 0.002345419488847256140467978369 -0.003729252610355616049525595557 0 0 0 0 
2412833333.3333334923 0.170092403888702392578125000000 -0.039988234639167792583425153907 0.002089058281853795051574707031 -0.003843891434371470971348427881 0 0 0 0 
2413000000.0000000000 0.170403748750686701018963731258 -0.041551347821950912475585937500 0.002109509194269775910618447412 -0.003818625351414084000828408350 0 0 0 0 
2413166666.6666665077 0.170676335692405700683593750000 -0.043245505541563027118723283593 0.001744920504279434897779155200 -0.004051829222589731216430664062 0 0 0 0 
2413333333.3333334923 0.170923188328743008712606865629 -0.044856429100036621093750000000 0.001610461389645934104919433594 -0.004035162739455699920654296875 0 0 0 0 
2413500000.0000000000 0.171372294425964410979901231258 -0.046212941408157348632812500000 0.001480669132433831908582377856 -0.004157416056841611862182617188 0 0 0 0 
2413666666.6666665077 0.171872913837432889083700615629 -0.047621715813875198364257812500 0.001130191143602133014081645435 -0.004254547879099845886230468750 0 0 0 0 
2413833333.3333334923 0.172150418162345886230468750000 -0.049064904451370239257812500000 0.001055444823578000068664550781 -0.004204506054520606994628906250 0 0 0 0 
2414000000.0000000000 0.172509565949440002441406250000 -0.050454519689083099365234375000 0.000987128587439656257629394531 -0.004225160926580429077148437500 0 0 0 0 
2414166666.6666665077 0.172951325774192810058593750000 -0.051591556519269943237304687500 0.000645101245027035474777221680 -0.004284650087356567382812500000 0 0 0 0 
2414333333.3333334923 0.173385620117187500000000000000 -0.052704349160194396972656250000 0.000393583904951810782581883563 -0.004197987727820873260498046875 0 0 0 0 
2414500000.0000000000 0.173748314380645807464276231258 -0.053903121501207351684570312500 0.000141462922329083112165173941 -0.004284549504518508911132812500 0 0 0 0 
2414666666.6666665077 0.174189746379852294921875000000 -0.054893240332603461528737653907 -0.000093804228527005761861801147 -0.004308126401156187057495117188 0 0 0 0 
2414833333.3333334923 0.174363374710083007812500000000 -0.055803693830966949462890625000 -0.000171149265952408286646166391 -0.004282657522708177566528320312 0 0 0 0 
2415000000.0000000000 0.174680739641189602950888115629 -0.056675314903259277343750000000 -0.000370919529814273118972778320 -0.004145661834627389907836914062 0 0 0 0 
2415166666.6666665077 0.175032109022140502929687500000 -0.057263739407062530517578125000 -0.000659669400192797183990478516 -0.004050811752676963806152343750 0 0 0 0 
2415333333.3333334923 0.175373390316963195800781250000 -0.058278329670429229736328125000 -0.000804855430033057928085327148 -0.003934007138013839721679687500 0 0 0 0 
2415500000.0000000000 0.175593525171279907226562500000 -0.058825649321079247211496721093 -0.000870201853103935718536376953 -0.004021268337965011596679687500 0 0 0 0 
2415666666.6666665077 0.175682544708252008636151231258 -0.059264618903398506855051408593 -0.001093597733415663025499653394 -0.003900655545294284820556640625 0 0 0 0 
2415833333.3333334923 0.175802782177925109863281250000 -0.060025252401828772808034528907 -0.001374314771965146064758300781 -0.003785651409998536109924316406 0 0 0 0 
2416000000.0000000000 0.175602599978446988204794365629 -0.060395952314138412475585937500 -0.001440052874386311011073447119 -0.003474818076938391165492392432 0 0 0 0 
2416166666.6666665077 0.175905138254165704925213731258 -0.060880035161972052837331403907 -0.001688011339865624904632568359 -0.003448876785114407973048544775 0 0 0 0 
2416333333.3333334923 0.175729200243949890136718750000 -0.061252944171428680419921875000 -0.001887962454929948069928813403 -0.003462177934125065803527832031 0 0 0 0 
2416500000.0000000000 0.175523832440376309493856865629 -0.061779685318470001220703125000 -0.001818732474930583997013711084 -0.003206359455361961884739541162 0 0 0 0 
2416666666.6666665077 0.175368964672088595291299384371 -0.062006108462810523296315778907 -0.002030610106885433197021484375 -0.003091476624831556840183877100 0 0 0 0 
2416833333.3333334923 0.175074189901351900955361884371 -0.062495928257703781127929687500 -0.001944732735864818096160888672 -0.002793811960145831108093261719 0 0 0 0 
2417000000.0000000000 0.174513891339302090743856865629 -0.062738515436649322509765625000 -0.002157505368813871903660439600 -0.002705508610233664946315146338 0 0 0 0 
2417166666.6666665077 0.174030691385269192794638115629 -0.062923379242420196533203125000 -0.002169248880818486213684082031 -0.002448547864332795143127441406 0 0 0 0 
2417333333.3333334923 0.173485592007636996170205634371 -0.063273496925830841064453125000 -0.002220003167167305946350097656 -0.002337872982025146918055868994 0 0 0 0 
2417500000.0000000000 0.172832638025283813476562500000 -0.063744068145751953125000000000 -0.002346838824450970129725790869 -0.002115515759214758872985839844 0 0 0 0 
2417666666.6666665077 0.172345116734504699707031250000 -0.063967652618885040283203125000 -0.002312994329258799986598349463 -0.002071704715490341186523437500 0 0 0 0 
2417833333.3333334923 0.171575978398323086837606865629 -0.064332522451877593994140625000 -0.002413799520581961111781454932 -0.001854500733315945105311728369 0 0 0 0 
2418000000.0000000000 0.170659109950065612792968750000 -0.064758621156215667724609375000 -0.002418077317997812791111611475 -0.001686709118075669028638530200 0 0 0 0 
2418166666.6666665077 0.169752061367034912109375000000 -0.065153434872627258300781250000 -0.002187253441661595864536904443 -0.001598308677785098986384726416 0 0 0 0 
2418333333.3333334923 0.169062405824661310393963731258 -0.065490260720252990722656250000 -0.002368773566558957099914550781 -0.001492674578912555954576801831 0 0 0 0 
2418500000.0000000000 0.168012276291847201248330634371 -0.065945826470851898193359375000 -0.002308583352714776992797851562 -0.001355051412247120900395058740 0 0 0 0 
2418666666.6666665077 0.167146578431129511077557481258 -0.066660024225711822509765625000 -0.002266685478389263153076171875 -0.001289292937144637107849121094 0 0 0 0 
2418833333.3333334923 0.165850281715393094161825615629 -0.067230932414531707763671875000 -0.002169923391193151907679892432 -0.001062572700902820067164755713 0 0 0 0 
2419000000.0000000000 0.164843812584876986404580634371 -0.067684449255466461181640625000 -0.002219698159024118943455361475 -0.000974031456280499696731567383 0 0 0 0 
2419166666.6666665077 0.163613334298133905608807481258 -0.068338781595230102539062500000 -0.002134996233507990837097167969 -0.000909023103304207324981689453 0 0 0 0 
2419333333.3333334923 0.162512823939323397537393134371 -0.068934850394725799560546875000 -0.002000969136133790016174316406 -0.000718025490641593933105468750 0 0 0 0 
2419500000.0000000000 0.161256596446037292480468750000 -0.069927573204040527343750000000 -0.001982567133381963209864951025 -0.000748397549614310264587402344 0 0 0 0 
2419666666.6666665077 0.160356983542442294021768134371 -0.070771679282188415527343750000 -0.002016085665673017935511923682 -0.000550882483366876840591430664 0 0 0 0 
2419833333.3333334923 0.159080415964126586914062500000 -0.071576431393623352050781250000 -0.001796225318685173988342285156 -0.000384766608476638793945312500 0 0 0 0 
