# Hz S RI R 
2400000000.0000000000 0.157310843467712402343750000000 0.062765397131443023681640625000 -0.002471837447956203980686806787 0.002043470507487655119654990088 0 0 0 0 
2400166666.6666665077 0.157370895147323608398437500000 0.061075296252965927124023437500 -0.002402565442025661902186728369 0.001880414434708655097364116138 0 0 0 0 
2400333333.3333334923 0.157248288393020602127236884371 0.059130664914846420288085937500 -0.002412867499515413804295205225 0.001943084178492427089093852466 0 0 0 0 
2400500000.0000000000 0.157104164361953707595986884371 0.057049673050642006610910783593 -0.002395337680354713959934853662 0.001777171972207725048065185547 0 0 0 0 
2400666666.6666665077 0.157052293419838007171307481258 0.055166047066450119018554687500 -0.002202705712988973097560263525 0.002122842706739902930018759619 0 0 0 0 
2400833333.3333334923 0.157294884324073791503906250000 0.053259607404470436786692033593 -0.002272134181112051010131835938 0.002188679762184619903564453125 0 0 0 0 
2401000000.0000000000 0.157286405563354492187500000000 0.051244623959064476703684221093 -0.002117617754265666007995605469 0.002206238219514489173889160156 0 0 0 0 
2401166666.6666665077 0.157574281096458407303018134371 0.049054831266403198242187500000 -0.002025561872869729995727539062 0.002219271380454301834106445312 0 0 0 0 
2401333333.3333334923 0.157707080245018005371093750000 0.046737667173147201538085937500 -0.002160500502213836149928427588 0.002158448100090026855468750000 0 0 0 0 
2401500000.0000000000 0.158059373497963007171307481258 0.044809322804212570190429687500 -0.001853215391747653918025351416 0.002252819715067743821385048975 0 0 0 0 
2401666666.6666665077 0.158370256423950195312500000000 0.042826469987630837177317033593 -0.001896260771900414986851357568 0.002381414873525499863865517725 0 0 0 0 
2401833333.3333334923 0.158755883574485806564169365629 0.040588676929473876953125000000 -0.001890686107799411036847758716 0.002511853352189064025878906250 0 0 0 0 
2402000000.0000000000 0.159175381064415005782919365629 0.038776535540819168090820312500 -0.001994388643652201132533408057 0.002540362067520618005039834131 0 0 0 0 
2402166666.6666665077 0.159800559282302911956463731258 0.036731127649545669555664062500 -0.001724743051454425074933696216 0.002473360160365701155421591650 0 0 0 0 
2402333333.3333334923 0.160341128706932095626669365629 0.034752856940031051635742187500 -0.001779259182512759945513081128 0.002689269604161382155177451025 0 0 0 0 
2402500000.0000000000 0.161344274878501892089843750000 0.033101879060268402099609375000 -0.001382626709528266949894570459 0.002711113542318344116210937500 0 0 0 0 
2402666666.6666665077 0.161931499838829012771768134371 0.031218666583299640310267264454 -0.001646323944441973946214985425 0.002796674612909555001499795068 0 0 0 0 
2402833333.3333334923 0.162747025489807101150674384371 0.029550066217780109750767891796 -0.001701560104265809059143066406 0.002841117791831492944004677881 0 0 0 0 
2403000000.0000000000 0.163477092981338500976562500000 0.027938105165958411479909528907 -0.001425500609911978027941059644 0.002953063929453492164611816406 0 0 0 0 
2403166666.6666665077 0.164486750960350008865518134371 0.026303395628929141653040701954 -0.001386626390740274949314736475 0.003145362483337521986720419775 0 0 0 0 
2403333333.3333334923 0.165519699454307611663494981258 0.024991476908326148986816406250 -0.001367579679936171011683798682 0.003172379452735186056849814307 0 0 0 0 
2403500000.0000000000 0.166427388787269592285156250000 0.023673925548791888845423514454 -0.001201483188197016932843852466 0.003225189168006182150599814307 0 0 0 0 
2403666666.6666665077 0.167355239391326904296875000000 0.022152209654450420034388358204 -0.001194551237858832099317241138 0.003150684060528873963596963037 0 0 0 0 
2403833333.3333334923 0.168389961123466491699218750000 0.020904205739498138427734375000 -0.001119442051276565031764365088 0.003350167069584130807163857568 0 0 0 0 
2404000000.0000000000 0.169518783688545199295205634371 0.019950045272707939147949218750 -0.000831113837193697690963745117 0.003592689055949449972865439307 0 0 0 0 
2404166666.6666665077 0.170409470796585110763388115629 0.018786787986755371093750000000 -0.000795554195065051317214965820 0.003561685327440499825718545068 0 0 0 0 
2404333333.3333334923 0.171345189213752802093182481258 0.017747307196259498596191406250 -0.000641802442260086536407470703 0.003514300566166638894322060693 0 0 0 0 
2404500000.0000000000 0.172500550746917696853799384371 0.016650021076202389108678048046 -0.000442309945356100797653198242 0.003599481657147407965419150244 0 0 0 0 
2404666666.6666665077 0.173374772071838406661825615629 0.016020936891436580312708670704 -0.000350995076587423682212829590 0.003639599308371543884277343750 0 0 0 0 
2404833333.3333334923 0.174244999885559109786825615629 0.015218305401504039764404296875 -0.000189922764548100503996172495 0.003606421174481511116027832031 0 0 0 0 
2405000000.0000000000 0.175160422921180697342080634371 0.014643592759966850280761718750 0.000018554239431978199968134233 0.003648040350526570840122841943 0 0 0 0 
2405166666.6666665077 0.176014333963394192794638115629 0.013814688660204410552978515625 0.000198337453184649402469080792 0.003770307172089815139770507812 0 0 0 0 
2405333333.3333334923 0.176920324563980102539062500000 0.013371544890105720865269844921 0.000309112481772899573475438251 0.003799063386395574049708701025 0 0 0 0 
2405500000.0000000000 0.177561119198799105545205634371 0.012999910861253740138043788477 0.000605208915658295154571533203 0.003817077958956360816955566406 0 0 0 0 
2405666666.6666665077 0.178244531154632596114950615629 0.012528780847787860525111014454 0.000657244119793176651000976562 0.003867825493216515021083212744 0 0 0 0 
2405833333.3333334923 0.178691402077674893478231865629 0.012302118353545669210413748829 0.001007431419566273906110454028 0.003650549100711942152736044775 0 0 0 0 
2406000000.0000000000 0.179367616772651700118856865629 0.011804024688899520528773123829 0.001107800519093870899797749097 0.003726685885339974923374795068 0 0 0 0 
2406166666.6666665077 0.179589644074440002441406250000 0.011627078056335449218750000000 0.001175912213511765003204345703 0.003609847743064165115356445312 0 0 0 0 
2406333333.3333334923 0.180186912417411804199218750000 0.011359825730323789769182774023 0.001376705826260149912593222510 0.003711543045938014984130859375 0 0 0 0 
2406500000.0000000000 0.180450960993766812423544365629 0.010997735895216470200508318555 0.001549773034639656977412558447 0.003541318932548164887669228662 0 0 0 0 
2406666666.6666665077 0.180435135960578890701455634371 0.010955138131976129359235194727 0.001800494035705924034118652344 0.003452307544648646874668740381 0 0 0 0 
2406833333.3333334923 0.180639088153839111328125000000 0.010520400479435920715332031250 0.001876012654975057081935263525 0.003418941050767898993251181494 0 0 0 0 
2407000000.0000000000 0.180808693170547513107138115629 0.010238247923552989959716796875 0.002220457885414361953735351562 0.003259343327954411940333701025 0 0 0 0 
2407166666.6666665077 0.180906146764755304534588731258 0.010025190189480779820452305273 0.002253750571981071992161416162 0.003131571691483259201049804688 0 0 0 0 
2407333333.3333334923 0.180678725242614801604901231258 0.009440883994102478027343750000 0.002394917886704206900355673682 0.003099469700828195051905966650 0 0 0 0 
2407500000.0000000000 0.180471375584602411468182481258 0.009136487729847431182861328125 0.002491357736289501190185546875 0.002954609226435422897338867188 0 0 0 0 
2407666666.6666665077 0.180258154869079589843750000000 0.008914131671190261840820312500 0.002595863305032252831699990381 0.002899265149608253998997353662 0 0 0 0 
2407833333.3333334923 0.179780274629592895507812500000 0.008138437755405902862548828125 0.002690641675144433975219726562 0.002695862203836441040039062500 0 0 0 0 
2408000000.0000000000 0.179526999592781094650106865629 0.007528466638177633285522460938 0.002691943198442459106445312500 0.002610498107969760894775390625 0 0 0 0 
2408166666.6666665077 0.178869292140006991287393134371 0.007050175219774246215820312500 0.002720166929066181182861328125 0.002401034114882349967956542969 0 0 0 0 
2408333333.3333334923 0.178528755903243990799111884371 0.006258810870349407196044921875 0.002979877870529890060424804688 0.002185245975852013067958212744 0 0 0 0 
2408500000.0000000000 0.177958458662033108810263115629 0.005375156179070472717285156250 0.002824863651767373085021972656 0.002205681754276155991795205225 0 0 0 0 
2408666666.6666665077 0.177340984344482394119424384371 0.004472006112337112426757812500 0.002903250744566320939304970850 0.002071370137855411009547568213 0 0 0 0 
2408833333.3333334923 0.176535919308662386795205634371 0.003603233490139245986938476562 0.003086133860051631927490234375 0.001865517697297037081477499854 0 0 0 0 
2409000000.0000000000 0.175986722111701993087606865629 0.002462326083332300186157226562 0.003155031241476535797119140625 0.001764221931807697036145854419 0 0 0 0 
2409166666.6666665077 0.175397560000419588943643134371 0.001330317114479840018628764575 0.003233466995880008177516318213 0.001582404365763067982317280347 0 0 0 0 
2409333333.3333334923 0.174632698297500610351562500000 0.000119268508569803102455954280 0.003277059644460678100585937500 0.001404379843734204985974955981 0 0 0 0 
2409500000.0000000000 0.173770278692245511154013115629 -0.001364256022498012022731161963 0.003282985184341669082641601562 0.001278230920433998107910156250 0 0 0 0 
2409666666.6666665077 0.173194304108619689941406250000 -0.002752196742221713066101074219 0.003087374614551662965061806787 0.001214845338836312077165913159 0 0 0 0 
2409833333.3333334923 0.172292098402976989746093750000 -0.004081583581864833831787109375 0.003320381743833423094508505713 0.001263844547793268940569233472 0 0 0 0 
2410000000.0000000000 0.171861901879310607910156250000 -0.005656098946928977966308593750 0.003418004373088479042053222656 0.000869942537974566221237182617 0 0 0 0 
2410166666.6666665077 0.171203762292861910720986884371 -0.007382637821137905120849609375 0.003323781071230769157409667969 0.000748726481106132268905639648 0 0 0 0 
2410333333.3333334923 0.170576423406601007659588731258 -0.009072719141840934753417968750 0.003488336689770222143885947119 0.000683958060108125209808349609 0 0 0 0 
2410500000.0000000000 0.170201882719993591308593750000 -0.010754101909697059286097342579 0.003456688253208994865417480469 0.000409267639042809605598449707 0 0 0 0 
2410666666.6666665077 0.169501900672912597656250000000 -0.012602960690855979919433593750 0.003496185410767794089076376807 0.000406028673751279711723327637 0 0 0 0 
2410833333.3333334923 0.169150024652481106857138115629 -0.014384087175130840646763985546 0.003465726040303707122802734375 0.000186994715477339896276751108 0 0 0 0 
2411000000.0000000000 0.168789550662040710449218750000 -0.016370022669434550893763358204 0.003362312912940979003906250000 0.000088751927250996232032775879 0 0 0 0 
2411166666.6666665077 0.168455466628074701507244981258 -0.018431166186928749084472656250 0.003380327019840478897094726562 -0.000058714806073112413287162781 0 0 0 0 
2411333333.3333334923 0.168229132890701293945312500000 -0.020255899056792259216308593750 0.003234561765566467805149697412 -0.000225352676352485987261095590 0 0 0 0 
2411500000.0000000000 0.168036103248596191406250000000 -0.022437080740928649902343750000 0.003284379607066512107849121094 -0.000225291893002577098921099252 0 0 0 0 
2411666666.6666665077 0.168112933635711697677450615629 -0.024395972490310668945312500000 0.003280299715697764916660927881 -0.000489138124976307153701782227 0 0 0 0 
2411833333.3333334923 0.168113172054290799239950615629 -0.026224441826343539846400076954 0.003286773571744561195373535156 -0.000599348102696239948272705078 0 0 0 0 
2412000000.0000000000 0.168076336383819607833700615629 -0.028468344360589981079101562500 0.003168617142364383177516318213 -0.000813224876765161752700805664 0 0 0 0 
2412166666.6666665077 0.168232798576355008224325615629 -0.030353032052516940725306326954 0.003120873123407363891601562500 -0.001033697510138154029846191406 0 0 0 0 
2412333333.3333334923 0.168422073125839205642861884371 -0.032299384474754326557199846093 0.003054918954148889021632529150 -0.001023849705234169960021972656 0 0 0 0 
2412500000.0000000000 0.168715223670005798339843750000 -0.034199584275484092021901716407 0.003011975903064012961146689307 -0.001201779930852354006526327979 0 0 0 0 
2412666666.6666665077 0.169092267751693697830361884371 -0.036168891936540596698801408593 0.002946899039670825004577636719 -0.001344194170087575912475585938 0 0 0 0 
2412833333.3333334923 0.169440969824791010100994981258 -0.037978041917085647583007812500 0.002777332440018653869628906250 -0.001562823890708386898040771484 0 0 0 0 
2413000000.0000000000 0.169696673750877408126669365629 -0.039794877171516418457031250000 0.002775643719360231919529580225 -0.001487661618739366965052939307 0 0 0 0 
2413166666.6666665077 0.170249864459037808517294365629 -0.041398577392101287841796875000 0.002486693672835826873779296875 -0.001607943908311427073237753760 0 0 0 0 
2413333333.3333334923 0.170730203390121487716513115629 -0.043253850191831588745117187500 0.002418133663013577894923544775 -0.001761957304552198106881166773 0 0 0 0 
2413500000.0000000000 0.171385243535041809082031250000 -0.044851977378129959106445312500 0.002309540053829551176783896338 -0.001722628599964082024217915112 0 0 0 0 
2413666666.6666665077 0.171825364232063293457031250000 -0.046509161591529853130300153907 0.002175983274355531172511435400 -0.001791309565305710055707621997 0 0 0 0 
2413833333.3333334923 0.172506004571914700607138115629 -0.047813374549150466918945312500 0.002146120648831129074096679688 -0.001776923658326267979265522534 0 0 0 0 
2414000000.0000000000 0.172820284962654113769531250000 -0.049425270408391952514648437500 0.001971148885786532922032021631 -0.002060777507722378210780478369 0 0 0 0 
2414166666.6666665077 0.173733651638031005859375000000 -0.050483372062444686889648437500 0.001802181708626449108123779297 -0.001959485467523335976841591943 0 0 0 0 
2414333333.3333334923 0.174183547496795709808026231258 -0.051884882152080542827565778907 0.001633079489693046049830771338 -0.002171887084841728210449218750 0 0 0 0 
2414500000.0000000000 0.174984171986579895019531250000 -0.052858375012874603271484375000 0.001488375244662166075465536963 -0.002174942754209042029139853369 0 0 0 0 
2414666666.6666665077 0.175282552838325500488281250000 -0.053918309509754180908203125000 0.001431469689123332934138632666 -0.002222325885668396949768066406 0 0 0 0 
2414833333.3333334923 0.175940006971359308440838731258 -0.055082213133573532104492187500 0.001311707892455161051509238135 -0.002240908797830342812779091943 0 0 0 0 
2415000000.0000000000 0.176370695233345003982705634371 -0.055777296423912048339843750000 0.001199572929181158976313925635 -0.002155552851036190986633300781 0 0 0 0 
2415166666.6666665077 0.176807522773742703536825615629 -0.056476213037967681884765625000 0.001141520566307008049608540112 -0.002023234963417052788975381006 0 0 0 0 
2415333333.3333334923 0.177240461111068697830361884371 -0.057194087654352188110351562500 0.001006519305519760088679648291 -0.002096780342981218858006142725 0 0 0 0 
2415500000.0000000000 0.177617415785789489746093750000 -0.057814817875623703002929687500 0.000883728673215955495834350586 -0.002255532192066311836242675781 0 0 0 0 
2415666666.6666665077 0.177797690033912686446981865629 -0.058316182345151901245117187500 0.000822521280497312654196584436 -0.002154377754777669906616210938 0 0 0 0 
2415833333.3333334923 0.178095385432243402679119981258 -0.058827627450227737426757812500 0.000660277786664664853751027795 -0.002081032143905758857727050781 0 0 0 0 
2416000000.0000000000 0.177973225712776211837606865629 -0.059249036014080047607421875000 0.000780144822783768177032470703 -0.002174083376303315162658691406 0 0 0 0 
2416166666.6666665077 0.178352236747741699218750000000 -0.059491630643606192851979841407 0.000487282290123403126567286359 -0.002164114965125917954685830225 0 0 0 0 
2416333333.3333334923 0.178226530551910400390625000000 -0.059786234050989151000976562500 0.000415640301071107387542724609 -0.001942284870892762920976948315 0 0 0 0 
2416500000.0000000000 0.178094342350959805587606865629 -0.060046967118978500366210937500 0.000329431000864133184582310809 -0.001905663288198411898372031104 0 0 0 0 
2416666666.6666665077 0.177889436483383206466513115629 -0.060138147324323647235910783593 0.000423749996116384918063563214 -0.001948178163729608058929443359 0 0 0 0 
2416833333.3333334923 0.177551686763763399978799384371 -0.060526426881551742553710937500 0.000172704720171168500750941144 -0.001886621583253145001055073315 0 0 0 0 
2417000000.0000000000 0.177077576518058804611044365629 -0.060800660401582717895507812500 0.000117862487968523095972599168 -0.001817594049498439051984477466 0 0 0 0 
2417166666.6666665077 0.176580622792244013030682481258 -0.060701113194227218627929687500 0.000060454447520896792411804199 -0.001702112378552556037902832031 0 0 0 0 
2417333333.3333334923 0.176109030842781094650106865629 -0.060980696231126792217214216407 -0.000012221605175000149756669998 -0.001749126473441720008850097656 0 0 0 0 
2417500000.0000000000 0.175440967082977294921875000000 -0.061374027281999588012695312500 0.000025774217647267508914674453 -0.001721275621093810038325644385 0 0 0 0 
2417666666.6666665077 0.174673542380333002288494981258 -0.061374355107545852661132812500 -0.000072932234616018831729888916 -0.001889184466563164970995258862 0 0 0 0 
2417833333.3333334923 0.173942893743514986892861884371 -0.061630353331565856933593750000 -0.000075202959123998880386352539 -0.001699756481684743924381875146 0 0 0 0 
2418000000.0000000000 0.172880217432975796798544365629 -0.061954490840435028076171875000 -0.000203833929845131906584063120 -0.001723245484754442951799702222 0 0 0 0 
2418166666.6666665077 0.171951785683631896972656250000 -0.062164988368749618530273437500 -0.000052759951358893892984797819 -0.001751690986566245989558554541 0 0 0 0 
2418333333.3333334923 0.171111106872558593750000000000 -0.062620609998703002929687500000 -0.000143085606396198299810132437 -0.001594981877133250019670795972 0 0 0 0 
2418500000.0000000000 0.169834986329078702071981865629 -0.062954388558864593505859375000 -0.000159251285367645296171465463 -0.001579554751515388922450400244 0 0 0 0 
2418666666.6666665077 0.168951719999313410003338731258 -0.063532151281833648681640625000 -0.000299216917483136112063807355 -0.001657153945416212081909179688 0 0 0 0 
2418833333.3333334923 0.167414501309394808670205634371 -0.064011633396148681640625000000 -0.000264620903180912082821446552 -0.001581887481734157042262411963 0 0 0 0 
2419000000.0000000000 0.166244089603424100021200615629 -0.064563997089862823486328125000 -0.000336940720444545204013270245 -0.001531756366603076891658163916 0 0 0 0 
2419166666.6666665077 0.165179014205932589431924384371 -0.065232470631599426269531250000 -0.000525045790709555149078369141 -0.001540884491987525983097695459 0 0 0 0 
2419333333.3333334923 0.163848370313644409179687500000 -0.065884530544281005859375000000 -0.000328146910760551691055297852 -0.001555905328132211945177387769 0 0 0 0 
2419500000.0000000000 0.162547200918197604080361884371 -0.066743277013301849365234375000 -0.000505846575833857059478759766 -0.001461003441363573074340820312 0 0 0 0 
2419666666.6666665077 0.161486133933067294021768134371 -0.067722812294960021972656250000 -0.000458362832432612776756286621 -0.001299870316870511011836386572 0 0 0 0 
2419833333.3333334923 0.160062059760093688964843750000 -0.068584494292736053466796875000 -0.000393093883758410811424255371 -0.001408946001902223067042685400 0 0 0 0 
