# Hz S RI R 50
2400000000.0000000000 0.157486602663993807693643134371 0.063041418790817260742187500000 0.000270402408204972689777928485 0.002666465239599347114562988281 0 0 0 0 
2400166666.6666665077 0.157403022050857488434161268742 0.061463296413421630859375000000 0.000405580562073737382888793945 0.002721663564443587823155068506 0 0 0 0 
2400333333.3333334923 0.157297626137733487228231865629 0.059364795684814453125000000000 0.000462171214167028719752711163 0.002798259258270264105555868994 0 0 0 0 
2400500000.0000000000 0.157260134816169711013955634371 0.057400438934564590454101562500 0.000623944215476512908935546875 0.002872306387871503829956054688 0 0 0 0 
2400666666.6666665077 0.157178759574890108963174384371 0.055332522839307791973073591407 0.000790573598351329565048217773 0.002807525917887688116786337744 0 0 0 0 
2400833333.3333334923 0.157387629151344299316406250000 0.053378425538539893413503278907 0.000794118735939264297485351562 0.002766489516943693161010742188 0 0 0 0 
2401000000.0000000000 0.157561898231506403167401231258 0.051309857517480850219726562500 0.000814391707535833120346069336 0.002869335236027836799621582031 0 0 0 0 
2401166666.6666665077 0.157652199268341092208700615629 0.048991158604621887207031250000 0.000913864641916006803512573242 0.002839570399373770193812704932 0 0 0 0 
2401333333.3333334923 0.157736733555793789962606865629 0.046857025474309921264648437500 0.001201976090669631958007812500 0.002633932046592235998866415869 0 0 0 0 
2401500000.0000000000 0.158369317650795010665731865629 0.044769041240215301513671875000 0.001248042099177836938145302881 0.002779678208753467039821005713 0 0 0 0 
2401666666.6666665077 0.158589765429496792892294365629 0.043033659458160400390625000000 0.001262319507077336094499897534 0.002584552392363547845127724756 0 0 0 0 
2401833333.3333334923 0.159214660525321988204794365629 0.040730413049459457397460937500 0.001390847726725042083142924731 0.002672762144356966018676757812 0 0 0 0 
2402000000.0000000000 0.159418970346450805664062500000 0.038727276027202613140065778907 0.001483075204305350997327495044 0.002544555813074111938476562500 0 0 0 0 
2402166666.6666665077 0.160061225295066805740518134371 0.036770880222320556640625000000 0.001710911863483488993403769385 0.002532664686441421942469931494 0 0 0 0 
2402333333.3333334923 0.160548776388168307205361884371 0.034790169447660453105886091407 0.001828046166338026957270956885 0.002471002517268062071559286963 0 0 0 0 
2402500000.0000000000 0.161610022187232998946981865629 0.033158220350742340087890625000 0.002045010449364780946018838037 0.002492406405508517785313271631 0 0 0 0 
2402666666.6666665077 0.162087753415107699295205634371 0.031156644225120540964146798046 0.002132281195372343063354492188 0.002417061943560839133021689307 0 0 0 0 
2402833333.3333334923 0.162716597318649291992187500000 0.029489722102880481374720389454 0.002190833911299705939051962744 0.002371494425460695786717080225 0 0 0 0 
2403000000.0000000000 0.163668781518936212737713731258 0.027892641723155978811243826954 0.002179811708629130883457802881 0.002106799045577644868137978662 0 0 0 0 
2403166666.6666665077 0.164664253592491205413494981258 0.026307430118322368967076485546 0.002359439386054873900172568213 0.002248683944344521002528525244 0 0 0 0 
2403333333.3333334923 0.165690392255783108810263115629 0.024893993511796001089075858204 0.002366288099437952041625976562 0.002107086358591914176940917969 0 0 0 0 
2403500000.0000000000 0.166358903050422696212606865629 0.023567501455545428884486014454 0.002551461104303597970249795068 0.002132405061274766921997070312 0 0 0 0 
2403666666.6666665077 0.167574122548103304763955634371 0.021953655406832698476771170704 0.002548958640545607046840048682 0.001927797333337367014644003760 0 0 0 0 
2403833333.3333334923 0.168520018458366394042968750000 0.020827692002058029174804687500 0.002459612442180513901951455225 0.001880465773865580992457724463 0 0 0 0 
2404000000.0000000000 0.169634118676185607910156250000 0.019670987501740459096888358204 0.002754702465608716011047363281 0.001633389270864427089691162109 0 0 0 0 
2404166666.6666665077 0.170574277639389010330361884371 0.018575411289930340158482735546 0.002796224085614085197448730469 0.001594385830685495896580361475 0 0 0 0 
2404333333.3333334923 0.171609386801719693282919365629 0.017808279022574431682546247657 0.002863176865503191947937011719 0.001475974568165838935254741138 0 0 0 0 
2404500000.0000000000 0.172393083572387695312500000000 0.016691144555807110178013985546 0.002866745926439762115478515625 0.001327420002780854918836284106 0 0 0 0 
2404666666.6666665077 0.173496335744857788085937500000 0.015938760712742808950403983204 0.002784280804917215867283486475 0.001357789267785846970201801831 0 0 0 0 
2404833333.3333334923 0.174523681402206393142861884371 0.015173804946243759500523751171 0.003105627838522195816040039062 0.001207963097840547995326376807 0 0 0 0 
2405000000.0000000000 0.175313621759414700607138115629 0.014562932774424549448033516796 0.002957449993118644194362021338 0.000977030489593744277954101562 0 0 0 0 
2405166666.6666665077 0.176092892885208102127236884371 0.013896092772483829153040701954 0.003038092050701380209681845557 0.000866730289999395608901977539 0 0 0 0 
2405333333.3333334923 0.176935777068138094803018134371 0.013234457001090049743652343750 0.002844434930011630058288574219 0.000872643431648612022399902344 0 0 0 0 
2405500000.0000000000 0.177694901823997497558593750000 0.012917522341012959916084490430 0.002956409705802797837498330225 0.000740764255169779062271118164 0 0 0 0 
2405666666.6666665077 0.178325772285461398025674384371 0.012481285259127620351771170704 0.003166340757161378860473632812 0.000692679313942790031433105469 0 0 0 0 
2405833333.3333334923 0.178837642073631286621093750000 0.012142113409936429804791835352 0.002957328921183944182154990088 0.000521800888236612081527709961 0 0 0 0 
2406000000.0000000000 0.179440855979919405838174384371 0.011785048991441730154017264454 0.002918521873652935028076171875 0.000497993838507682085037231445 0 0 0 0 
2406166666.6666665077 0.179790288209915188888388115629 0.011472905054688450204869454296 0.003123561618849635124206542969 0.000226414791541174108355921613 0 0 0 0 
2406333333.3333334923 0.180324599146843012054119981258 0.011253933422267440450648123829 0.002978243632242083983180380713 0.000328033522237092310756129132 0 0 0 0 
2406500000.0000000000 0.180602714419364901443643134371 0.010844290256500240671178048046 0.002951825736090540885925292969 0.000227563446969725191593170166 0 0 0 0 
2406666666.6666665077 0.180523082613945007324218750000 0.010710082948207860428779802930 0.003113270737230778174159384619 -0.000118564043077640194766460280 0 0 0 0 
2406833333.3333334923 0.180853649973869295974893134371 0.010399829596281049901018711523 0.003081950126215815977809286963 -0.000084963889094069600105285645 0 0 0 0 
2407000000.0000000000 0.181093588471412686446981865629 0.010091898031532759230644025195 0.002916348166763782934901572119 -0.000039907539758132770657539368 0 0 0 0 
2407166666.6666665077 0.181031078100204495529013115629 0.009760573506355285644531250000 0.002937680343165994124171591650 -0.000182155461516231298446655273 0 0 0 0 
2407333333.3333334923 0.180765584111213711837606865629 0.009281445294618606567382812500 0.002932647941634058952331542969 -0.000377247692085802609294337140 0 0 0 0 
2407500000.0000000000 0.180438056588172912597656250000 0.008891947567462921142578125000 0.003025273093953729109523154150 -0.000445263256551697904437464581 0 0 0 0 
2407666666.6666665077 0.180364638566970797439736884371 0.008594546467065811157226562500 0.002818939741700888113734579932 -0.000592259690165519714355468750 0 0 0 0 
2407833333.3333334923 0.179781049489975003341513115629 0.007857573218643665313720703125 0.002961662365123630003688193213 -0.000527759839314967393875122070 0 0 0 0 
2408000000.0000000000 0.179407894611358587066973768742 0.007275140844285488128662109375 0.002963253529742360115051269531 -0.000448698003310710191726684570 0 0 0 0 
2408166666.6666665077 0.178959935903549194335937500000 0.006870629265904426574707031250 0.002863263711333274841308593750 -0.000812342448625713586807250977 0 0 0 0 
2408333333.3333334923 0.178657621145248413085937500000 0.006062414497137069702148437500 0.002911511342972517013549804688 -0.000836624472867697477340698242 0 0 0 0 
2408500000.0000000000 0.177894890308380099197549384371 0.005317148752510547637939453125 0.002807866316288710074183798682 -0.000861445558257400989532470703 0 0 0 0 
2408666666.6666665077 0.177239984273910494705361884371 0.004331289790570735931396484375 0.002731292508542538122889853369 -0.001001205062493681907653808594 0 0 0 0 
2408833333.3333334923 0.176664516329765292068643134371 0.003381112590432167053222656250 0.002912953030318022207972861182 -0.001094578765332699038861918872 0 0 0 0 
2409000000.0000000000 0.175715267658233587066973768742 0.002331540687009692192077636719 0.002759221009910107092616415869 -0.001229702262207865931867289966 0 0 0 0 
2409166666.6666665077 0.175091937184333801269531250000 0.001001156168058515028712607275 0.002704942598938941955566406250 -0.001160503132268785996678017725 0 0 0 0 
2409333333.3333334923 0.174534946680068997482138115629 -0.000101499113952740999773302621 0.002866959432139993147609091650 -0.001372784492559731006622314453 0 0 0 0 
2409500000.0000000000 0.173795014619827298263388115629 -0.001541888923384248993517231519 0.002935763448476790948155068506 -0.001388995093293488025665283203 0 0 0 0 
2409666666.6666665077 0.172995850443839999099893134371 -0.002845583483576775030848837744 0.002781238639727234840393066406 -0.001418510568328201987622905200 0 0 0 0 
2409833333.3333334923 0.172356382012367304046307481258 -0.004336851183325052261352539062 0.002842892194166779951808310400 -0.001686195377260446982142783057 0 0 0 0 
2410000000.0000000000 0.171608880162239102462606865629 -0.005958436988294124603271484375 0.002746108686551452116725302588 -0.001772432238794863007189106519 0 0 0 0 
2410166666.6666665077 0.171187490224838312347088731258 -0.007473102305084466934204101562 0.002627910114824771881103515625 -0.001763079897500575022456503760 0 0 0 0 
2410333333.3333334923 0.170427411794662503341513115629 -0.009242885746061801910400390625 0.002679259050637484030482626807 -0.001980926841497420830967568506 0 0 0 0 
2410500000.0000000000 0.169909462332725497146768134371 -0.010880776681005959946602068555 0.002790119498968123955967568506 -0.002070495858788489861729287256 0 0 0 0 
2410666666.6666665077 0.169334620237350491622763115629 -0.012958878651261329650878906250 0.002696918323636054992675781250 -0.002171839587390422821044921875 0 0 0 0 
2410833333.3333334923 0.168952628970146206954794365629 -0.014441931620240209752092930273 0.002572961151599884033203125000 -0.002338247839361429214477539062 0 0 0 0 
2411000000.0000000000 0.168577209115028409103231865629 -0.016476033255457881582239920704 0.002500665839761496023890829932 -0.002290786709636449813842773438 0 0 0 0 
2411166666.6666665077 0.168262511491775512695312500000 -0.018500868231058120727539062500 0.002333266194909811019897460938 -0.002499280963093041939976357568 0 0 0 0 
2411333333.3333334923 0.167932897806167602539062500000 -0.020351624116301540029505545704 0.002467587357386947111842490088 -0.002565544098615645928623818506 0 0 0 0 
2411500000.0000000000 0.167785599827766390701455634371 -0.022478904575109478342076485546 0.002280275104567408995387411963 -0.002682402497157454924342490088 0 0 0 0 
2411666666.6666665077 0.168037205934524508377236884371 -0.024364192038774490356445312500 0.002253984333947300910949707031 -0.002886463887989521026611328125 0 0 0 0 
2411833333.3333334923 0.167734891176223810393963731258 -0.026270274072885509836217110546 0.002218028297647833824157714844 -0.002912051742896438078639365088 0 0 0 0 
2412000000.0000000000 0.167886584997177096267861884371 -0.028331579640507701528528983204 0.001954865176230669021606445312 -0.003117653541266918182373046875 0 0 0 0 
2412166666.6666665077 0.167940959334373501876669365629 -0.030549624934792518615722656250 0.001914472319185734012006450122 -0.002959143370389937920811318506 0 0 0 0 
2412333333.3333334923 0.168295592069625910003338731258 -0.032164555042982101440429687500 0.001810375601053237915039062500 -0.003284976817667483849766396631 0 0 0 0 
2412500000.0000000000 0.168512061238288907150106865629 -0.034219112247228622436523437500 0.001690231147222220897674560547 -0.003402085509151219887974404443 0 0 0 0 
2412666666.6666665077 0.168849021196365411956463731258 -0.036099851131439208984375000000 0.001427756506018341021296835791 -0.003425590461120008988621377100 0 0 0 0 
2412833333.3333334923 0.169376447796821594238281250000 -0.038129001855850219726562500000 0.001319647883065045096753764575 -0.003458062652498484091517783057 0 0 0 0 
2413000000.0000000000 0.169725790619850186446981865629 -0.039773270487785339355468750000 0.001142324181273580031154013525 -0.003604402299970387978794716943 0 0 0 0 
2413166666.6666665077 0.170079171657562311370526231258 -0.041599642485380172729492187500 0.001120947068557142994524311597 -0.003646580036729574203491210938 0 0 0 0 
2413333333.3333334923 0.170589432120323208907919365629 -0.043126728385686867450754533593 0.000818335160147398710250854492 -0.003650158178061246871948242188 0 0 0 0 
2413500000.0000000000 0.171317741274833706954794365629 -0.044769220054149627685546875000 0.000615891243796795606613159180 -0.003834676463156938986537314307 0 0 0 0 
2413666666.6666665077 0.171894654631614712814169365629 -0.046448610723018653179128278907 0.000475724664283916408389490948 -0.003751964308321475982666015625 0 0 0 0 
2413833333.3333334923 0.172481238842010498046875000000 -0.047926276922225952148437500000 0.000268800038611516410678309308 -0.003839690238237380981445312500 0 0 0 0 
2414000000.0000000000 0.172911047935485812088174384371 -0.049414750188589103008229841407 0.000018911516235675659367834398 -0.003764967201277614073512411963 0 0 0 0 
2414166666.6666665077 0.173637822270393399337606865629 -0.050626147538423538208007812500 0.000023765811420162208378314972 -0.003767394693568348884582519531 0 0 0 0 
2414333333.3333334923 0.174192160367965698242187500000 -0.051803700625896446918527971093 -0.000148076171171851510375422345 -0.003658133558928966955897665869 0 0 0 0 
2414500000.0000000000 0.174858778715133694747763115629 -0.052819207310676581645925153907 -0.000319782702717930078506469727 -0.003749174298718572096583701025 0 0 0 0 
2414666666.6666665077 0.175383284687995910644531250000 -0.053733959794044501567800153907 -0.000452650478109717423289698468 -0.003742411499843000931980752100 0 0 0 0 
2414833333.3333334923 0.175746738910675104339276231258 -0.054865013808012008666992187500 -0.000628606125246733427047729492 -0.003602606477215886116027832031 0 0 0 0 
2415000000.0000000000 0.176216393709182711502236884371 -0.055749304592609412456472028907 -0.000870066927745938301086425781 -0.003590910229831933975219726562 0 0 0 0 
2415166666.6666665077 0.176747009158134488204794365629 -0.056392032653093338012695312500 -0.001065031974576414065120077979 -0.003497682744637132124659872900 0 0 0 0 
2415333333.3333334923 0.177353054285049410720986884371 -0.057179223746061332012136091407 -0.000973693619016557931900024414 -0.003376934910193086104152060400 0 0 0 0 
2415500000.0000000000 0.177611798048019409179687500000 -0.057604763656854629516601562500 -0.001368989818729460022569965894 -0.003373741172254085974452353369 0 0 0 0 
2415666666.6666665077 0.177796512842178289215411268742 -0.058098662644624710083007812500 -0.001471992582082747979405068506 -0.003317523747682570977451943506 0 0 0 0 
2415833333.3333334923 0.178045108914375305175781250000 -0.058609165251255042339284528907 -0.001542711746878921985626220703 -0.003028724109753965897801064600 0 0 0 0 
2416000000.0000000000 0.178082451224327087402343750000 -0.059104721993207931518554687500 -0.001717054634355009035823202979 -0.003071934683248401121852255713 0 0 0 0 
2416166666.6666665077 0.178341105580329895019531250000 -0.059379536658525466918945312500 -0.001884507597424089908599853516 -0.002857341431081295013427734375 0 0 0 0 
2416333333.3333334923 0.178115069866180392166299384371 -0.059619300067424767231027971093 -0.001902641612105071978328085791 -0.002965570893138647079467773438 0 0 0 0 
2416500000.0000000000 0.178125351667404202560263115629 -0.059987314045429229736328125000 -0.001982514979317783875706338037 -0.002834877232089639143702841650 0 0 0 0 
2416666666.6666665077 0.177914097905158996582031250000 -0.060156773775815956806223283593 -0.001982438843697309927699423682 -0.002604139968752861022949218750 0 0 0 0 
2416833333.3333334923 0.177734464406967190841513115629 -0.060388892889022827148437500000 -0.001937627210281789085985493237 -0.002523980103433132171630859375 0 0 0 0 
2417000000.0000000000 0.177118718624114990234375000000 -0.060628220438957207416574846093 -0.002098136348649858994724892725 -0.002427208237349987030029296875 0 0 0 0 
2417166666.6666665077 0.176691889762878390213174384371 -0.060720931738615042949636091407 -0.002235212363302708105800009619 -0.002305698813870549201965332031 0 0 0 0 
2417333333.3333334923 0.176229476928710909744424384371 -0.060885511338710791851003278907 -0.002329767914488912062404013525 -0.002119843382388352914097451318 0 0 0 0 
2417500000.0000000000 0.175606191158294705489950615629 -0.061267934739589691162109375000 -0.002234212355688213868382119287 -0.002095930743962525887730263818 0 0 0 0 
2417666666.6666665077 0.174819767475128201583700615629 -0.061400782316923141479492187500 -0.002285028342157601876499795068 -0.002016522455960512161254882812 0 0 0 0 
2417833333.3333334923 0.174096599221229608733807481258 -0.061500158160924911499023437500 -0.002286017639562488035914755713 -0.001974772661924362182617187500 0 0 0 0 
2418000000.0000000000 0.173038929700851412674111884371 -0.061995714902877807617187500000 -0.002343017607927321954014443506 -0.001697356929071248011348105322 0 0 0 0 
2418166666.6666665077 0.171983718872070312500000000000 -0.062183767557144171977956403907 -0.002326305024325848059413290869 -0.001741762040182947895647358472 0 0 0 0 
2418333333.3333334923 0.171281337738037109375000000000 -0.062436223030090332031250000000 -0.002579311141744256019592285156 -0.001637239009141921997070312500 0 0 0 0 
2418500000.0000000000 0.170035749673843411544638115629 -0.062987580895423889160156250000 -0.002361711347475647926330566406 -0.001561791985295712947845458984 0 0 0 0 
2418666666.6666665077 0.169047608971595791915731865629 -0.063502989709377288818359375000 -0.002438269322738050980808877100 -0.001389475539326668002484965747 0 0 0 0 
2418833333.3333334923 0.167720392346382113357705634371 -0.064038656651973724365234375000 -0.002257510786876081986668252100 -0.001353319734334945895551371997 0 0 0 0 
2419000000.0000000000 0.166523009538650512695312500000 -0.064565449953079223632812500000 -0.002279213629662991003749228369 -0.001253822818398476080653525244 0 0 0 0 
2419166666.6666665077 0.165360018610954312423544365629 -0.065162539482116699218750000000 -0.002375199692323803901672363281 -0.001173441763967276053187704932 0 0 0 0 
2419333333.3333334923 0.163963943719863891601562500000 -0.065807446837425231933593750000 -0.002405670005828142166137695312 -0.001005375874228775934932089697 0 0 0 0 
2419500000.0000000000 0.162721022963523892501669365629 -0.066853024065494537353515625000 -0.002310488140210508866551064600 -0.001165673718787729956983256763 0 0 0 0 
2419666666.6666665077 0.161690667271614102462606865629 -0.067757777869701385498046875000 -0.002383851213380693955662392725 -0.001026836456730962016462016528 0 0 0 0 
2419833333.3333334923 0.160298168659210205078125000000 -0.068568296730518341064453125000 -0.002419040072709321975708007812 -0.001075285952538252093671489185 0 0 0 0 
