# Hz S RI R 50
2400000000.0000000000 0.167598441243171691894531250000 0.041028771549463272094726562500 0.003981939982622861862182617188 0.000685005390550941228866577148 0 0 0 0 
2400166666.6666665077 0.168436720967292813400106865629 0.040318172425031661987304687500 0.004181343130767345428466796875 0.000680495286360383033752441406 0 0 0 0 
2400333333.3333334923 0.168908923864364596267861884371 0.039268463850021362304687500000 0.004426637198776006698608398438 0.000507255550473928451538085938 0 0 0 0 
2400500000.0000000000 0.169416725635528592208700615629 0.038418345153331756591796875000 0.004578918684273958206176757812 0.000471353414468467181355076923 0 0 0 0 
2400666666.6666665077 0.169652983546256991287393134371 0.037470616400241851806640625000 0.004784382414072751998901367188 0.000131775857880711609691065656 0 0 0 0 
2400833333.3333334923 0.170087411999702509124432481258 0.036729387938976287841796875000 0.004953240975737571716308593750 -0.000017598000340512950310503312 0 0 0 0 
2401000000.0000000000 0.170487493276596097091513115629 0.035934124141931526874582658593 0.005222853273153305053710937500 -0.000408939929911866784095764160 0 0 0 0 
2401166666.6666665077 0.170632824301719693282919365629 0.034964542835950851440429687500 0.005217080470174551010131835938 -0.000658368575386703014373779297 0 0 0 0 
2401333333.3333334923 0.170762553811073303222656250000 0.034095179289579391479492187500 0.005269174464046955108642578125 -0.000856852857396006584167480469 0 0 0 0 
2401500000.0000000000 0.171247452497482299804687500000 0.033294681459665298461914062500 0.005435092374682427319998456738 -0.001244289916940033002140664209 0 0 0 0 
2401666666.6666665077 0.171209201216697692871093750000 0.032446563243865966796875000000 0.005406170617789030075073242188 -0.001409670338034630038617778247 0 0 0 0 
2401833333.3333334923 0.171293348073959406097088731258 0.031288214027881622314453125000 0.005483157932758331298828125000 -0.001919762813486159064649272388 0 0 0 0 
2402000000.0000000000 0.171188846230506896972656250000 0.030631534755229949951171875000 0.005502834450453519821166992188 -0.002231175312772392792942666162 0 0 0 0 
2402166666.6666665077 0.171471491456031799316406250000 0.029541220515966418874720389454 0.005467365495860576629638671875 -0.002690906636416912078857421875 0 0 0 0 
2402333333.3333334923 0.171536847949027987381143134371 0.028649194166064258920689766796 0.005237968172878026962280273438 -0.003134506987407803969142294775 0 0 0 0 
2402500000.0000000000 0.171609863638877896407919365629 0.027776911854743960988978201954 0.005258894525468350324148847363 -0.003348358673974872069117880713 0 0 0 0 
2402666666.6666665077 0.171674534678459195236044365629 0.026768654584884640085240548046 0.005144658032804728421683027051 -0.003637718735262752012965536963 0 0 0 0 
2402833333.3333334923 0.171450927853584289550781250000 0.025794230401515960693359375000 0.004871606361120939254760742188 -0.004094870761036872863769531250 0 0 0 0 
2403000000.0000000000 0.171586170792579706390057481258 0.024555062875151630746861641796 0.004581915680319070816040039062 -0.004264290910214185714721679688 0 0 0 0 
2403166666.6666665077 0.171501383185386713225994981258 0.023597810417413711547851562500 0.004423776175826787948608398438 -0.004584909416735172271728515625 0 0 0 0 
2403333333.3333334923 0.171367689967155512054119981258 0.022432202473282810556431954296 0.004174340050667524337768554688 -0.004758512135595083236694335938 0 0 0 0 
2403500000.0000000000 0.171125710010528592208700615629 0.021376196295022961008092110546 0.003818123601377009911778115381 -0.005259010940790176391601562500 0 0 0 0 
2403666666.6666665077 0.171352267265319796463174384371 0.019992848858237270009974295704 0.003374284366145730018615722656 -0.005212404299527406692504882812 0 0 0 0 
2403833333.3333334923 0.171089380979537991622763115629 0.018594725057482719421386718750 0.003058259142562747001647949219 -0.005400575697422027587890625000 0 0 0 0 
2404000000.0000000000 0.171006813645362909515057481258 0.017373768612742420541783516796 0.002708568004891275925877236475 -0.005554032512009143829345703125 0 0 0 0 
2404166666.6666665077 0.170897796750068692306356865629 0.016105946153402328491210937500 0.002292218152433633804321289062 -0.005669740028679370880126953125 0 0 0 0 
2404333333.3333334923 0.170742452144622802734375000000 0.014755348674952980386754219921 0.002065422711893916130065917969 -0.005713678896427155408377362988 0 0 0 0 
2404500000.0000000000 0.170605450868606595138388115629 0.013130934908986089879046055273 0.001732472213916480974910117041 -0.005755311343818902969360351562 0 0 0 0 
2404666666.6666665077 0.170575007796287508865518134371 0.011836137622594829904576485546 0.001416749204508960030199360425 -0.005805403925478458404541015625 0 0 0 0 
2404833333.3333334923 0.170517057180404690841513115629 0.010469559580087660008440586523 0.001031910069286823055864643628 -0.005652666557580232620239257812 0 0 0 0 
2405000000.0000000000 0.170420408248901394943075615629 0.008879893459379673004150390625 0.000708363135345280170440673828 -0.005487298592925071716308593750 0 0 0 0 
2405166666.6666665077 0.170438304543495205978231865629 0.007537180557847023010253906250 0.000540967797860503196716308594 -0.005673837848007678985595703125 0 0 0 0 
2405333333.3333334923 0.170490995049476595779580634371 0.005868803244084119796752929688 0.000127912731841206604808253156 -0.005386080592870712280273437500 0 0 0 0 
2405500000.0000000000 0.170424804091453607757244981258 0.004322606138885021209716796875 -0.000203950767172500491142272949 -0.005195389036089181900024414062 0 0 0 0 
2405666666.6666665077 0.170306891202926607986611884371 0.002818932058289647102355957031 -0.000400033197365701198577880859 -0.004970680456608533859252929688 0 0 0 0 
2405833333.3333334923 0.170193582773208590408486884371 0.001344397314824163913726806641 -0.000755933579057455062866210938 -0.004839440342038869857788085938 0 0 0 0 
2406000000.0000000000 0.170173794031143188476562500000 -0.000423252524342387914657592773 -0.000824703136458992958068847656 -0.004643155261874198913574218750 0 0 0 0 
2406166666.6666665077 0.169904455542564392089843750000 -0.001880912343040108897565532153 -0.000963430094998329877853393555 -0.004320855718106031417846679688 0 0 0 0 
2406333333.3333334923 0.169945061206817599197549384371 -0.003432503901422024206874228369 -0.001168653485365211963653564453 -0.004053555894643068313598632812 0 0 0 0 
2406500000.0000000000 0.169676214456558199783486884371 -0.004933211486786603927612304688 -0.001024365425109863064409565503 -0.003809208981692790985107421875 0 0 0 0 
2406666666.6666665077 0.169325307011604309082031250000 -0.006345509085804224014282226562 -0.001121706562116741917253803784 -0.003657445078715682029724121094 0 0 0 0 
2406833333.3333334923 0.169501423835754394531250000000 -0.008129790425300598144531250000 -0.001108175842091440937639545972 -0.003346777288243174986598349463 0 0 0 0 
2407000000.0000000000 0.169394552707672091385049384371 -0.009535530582070350646972656250 -0.001058892463333904960035014575 -0.003406581236049532890319824219 0 0 0 0 
2407166666.6666665077 0.169316247105598505218182481258 -0.010870127007365230215052420704 -0.000965946645010262727737426758 -0.003172436496242880821228027344 0 0 0 0 
2407333333.3333334923 0.168998152017593411544638115629 -0.012234061025083070237129412305 -0.000983769190497696399688720703 -0.003083302872255444960353232275 0 0 0 0 
2407500000.0000000000 0.168827742338180486481036268742 -0.013629483990371230733851248829 -0.000902053783647716153799855920 -0.002973444992676376862766884912 0 0 0 0 
2407666666.6666665077 0.168675497174263000488281250000 -0.014658626168966289865513985546 -0.000703648023772984743118286133 -0.003082518232986330986022949219 0 0 0 0 
2407833333.3333334923 0.168378382921218899825888115629 -0.015995619818568229675292968750 -0.000620100239757448434829711914 -0.003007693216204642815830849756 0 0 0 0 
2408000000.0000000000 0.168357208371162386795205634371 -0.017017824575304988515833670704 -0.000827548559755086898803710938 -0.003081152914091945128199911963 0 0 0 0 
2408166666.6666665077 0.168243661522865295410156250000 -0.017849765717983249319056326954 -0.000678577343933284282684326172 -0.003170336363837122917175292969 0 0 0 0 
2408333333.3333334923 0.168337509036064203460369981258 -0.018958190456032749521275704296 -0.000575652229599654674530029297 -0.003355991095304489135742187500 0 0 0 0 
2408500000.0000000000 0.168241471052169799804687500000 -0.019958551973104480398157889454 -0.000723545090295374393463134766 -0.003420960390940309004542685400 0 0 0 0 
2408666666.6666665077 0.168292298913001986404580634371 -0.020821526646614081645925153907 -0.000810123339761048555374145508 -0.003454404417425394058227539062 0 0 0 0 
2408833333.3333334923 0.168266803026199313064736884371 -0.021730912849307060241699218750 -0.001080199494026601097704243237 -0.003550134133547544913050986182 0 0 0 0 
2409000000.0000000000 0.168208613991737393478231865629 -0.022471796721220019948939139454 -0.000989170745015144348144531250 -0.003549171611666678948643349756 0 0 0 0 
2409166666.6666665077 0.168507531285286005218182481258 -0.023530460894107818603515625000 -0.001298627583310008049011230469 -0.003498965408653020858764648438 0 0 0 0 
2409333333.3333334923 0.168720662593841608245526231258 -0.024522965773940089834193045704 -0.001568413339555263952967978369 -0.003448302857577801184413290869 0 0 0 0 
2409500000.0000000000 0.168812692165374811370526231258 -0.025620723143219951284388358204 -0.001352407736703753905055380713 -0.003375413361936808066127158057 0 0 0 0 
2409666666.6666665077 0.168764159083366394042968750000 -0.026311153545975688589075858204 -0.001837871270254253907444619287 -0.003338944632560015158412314307 0 0 0 0 
2409833333.3333334923 0.168935835361480712890625000000 -0.027072474360465999948521798046 -0.002016286365687847137451171875 -0.003219108097255229949951171875 0 0 0 0 
2410000000.0000000000 0.168880134820938110351562500000 -0.028002314269542690622349923046 -0.002079730154946445985081338037 -0.003154118778184055848362588037 0 0 0 0 
2410166666.6666665077 0.169069215655326787750567518742 -0.028959423303604129446009451954 -0.002267171163111925125122070312 -0.003025043755769730047938681494 0 0 0 0 
2410333333.3333334923 0.168914213776588412185830634371 -0.029698599129915240896204764454 -0.002314914949238299889805459131 -0.002836437197402120070216513525 0 0 0 0 
2410500000.0000000000 0.168923199176788302322549384371 -0.030788173899054530752161795704 -0.002161833923310040993931435693 -0.002608032198622823195216513525 0 0 0 0 
2410666666.6666665077 0.168807566165924100021200615629 -0.031842641532421112060546875000 -0.002324552740901709036586142432 -0.002464798977598547935485839844 0 0 0 0 
2410833333.3333334923 0.168712183833122308929119981258 -0.032531686127185821533203125000 -0.002274645725265144868137978662 -0.002216196153312921957728720557 0 0 0 0 
2411000000.0000000000 0.168624728918075589279013115629 -0.033441577106714248657226562500 -0.002140373224392532868626259912 -0.002107263542711735205409384619 0 0 0 0 
2411166666.6666665077 0.168394565582275390625000000000 -0.034293316304683692241628278907 -0.002208545571193099021911621094 -0.002056744415313005013706826318 0 0 0 0 
2411333333.3333334923 0.168176263570785494705361884371 -0.035202585160732269287109375000 -0.002098067896440625190734863281 -0.001989737385883926911595009912 0 0 0 0 
2411500000.0000000000 0.167874366044998196700888115629 -0.036133825778961181640625000000 -0.002075116382911800904514931787 -0.001919068628922105052350688403 0 0 0 0 
2411666666.6666665077 0.167762413620948791503906250000 -0.036898560822010040283203125000 -0.002115891547873615784886025537 -0.002010084455832839012145996094 0 0 0 0 
2411833333.3333334923 0.167567178606986999511718750000 -0.037805449217557907104492187500 -0.002033642726019024848937988281 -0.001974686514586209817173623193 0 0 0 0 
2412000000.0000000000 0.167467460036277798751669365629 -0.038598787039518363262136091407 -0.001921872608363627953770302881 -0.001980113564059137864353798975 0 0 0 0 
2412166666.6666665077 0.166975617408752413650674384371 -0.039729267358779907226562500000 -0.001967769348993897004368447412 -0.001984383910894393920898437500 0 0 0 0 
2412333333.3333334923 0.166932567954063387771768134371 -0.040586270391941070556640625000 -0.001861570053733885071398090894 -0.001977313775569200949427939307 0 0 0 0 
2412500000.0000000000 0.166452199220657404143963731258 -0.041303612291812896728515625000 -0.001845631981268524906755756909 -0.001960661495104432106018066406 0 0 0 0 
2412666666.6666665077 0.166150331497192410568075615629 -0.042443059384822852397878278907 -0.001949963625520467975019145435 -0.001980036962777376174926757812 0 0 0 0 
2412833333.3333334923 0.165892556309700012207031250000 -0.043523028492927551269531250000 -0.001887930324301124052760458838 -0.002032894873991609053370810400 0 0 0 0 
2413000000.0000000000 0.165228500962257413009481865629 -0.044366735965013497089426408593 -0.001912548323161900043487548828 -0.002176888519898056983947753906 0 0 0 0 
2413166666.6666665077 0.164781063795089693924111884371 -0.045522622764110572124440778907 -0.002027664799243212179896689307 -0.002073155483230948014500283350 0 0 0 0 
2413333333.3333334923 0.164375647902488708496093750000 -0.046524766832590103149414062500 -0.002022997243329883055446005713 -0.002021305263042449951171875000 0 0 0 0 
2413500000.0000000000 0.163930058479309109786825615629 -0.047564569860696792602539062500 -0.002143207937479019165039062500 -0.002016003010794519944431923975 0 0 0 0 
2413666666.6666665077 0.163652956485748291015625000000 -0.048533648252487182617187500000 -0.002159710042178630828857421875 -0.001998512074351311163661337744 0 0 0 0 
2413833333.3333334923 0.163097932934761102874432481258 -0.049574345350265502929687500000 -0.002457191236317158179042197119 -0.002106044907122849984409951318 0 0 0 0 
2414000000.0000000000 0.162583351135253906250000000000 -0.050575923174619681621511091407 -0.002473758300766348838806152344 -0.002033433644101024107692099463 0 0 0 0 
2414166666.6666665077 0.162328734993934603592080634371 -0.051411826163530349731445312500 -0.002514578169211744828465127100 -0.002024623332545160813572548975 0 0 0 0 
2414333333.3333334923 0.161950707435607910156250000000 -0.052432470023632049560546875000 -0.002666722517460585074183798682 -0.001997208455577493147609091650 0 0 0 0 
2414500000.0000000000 0.161700427532195989410723768742 -0.053346544504165649414062500000 -0.002413078211247920989990234375 -0.001977866748347878889796591650 0 0 0 0 
2414666666.6666665077 0.161395460367202786544638115629 -0.054173681885004036640207658593 -0.002639595651999115943908691406 -0.002002634806558489799499511719 0 0 0 0 
2414833333.3333334923 0.161062389612197903732138115629 -0.055414170026779181743581403907 -0.002733273198828101158142089844 -0.001920345472171903090236044775 0 0 0 0 
2415000000.0000000000 0.160866543650627108474893134371 -0.056371517479419708251953125000 -0.002483301563188434080836630713 -0.001839317963458598093745566260 0 0 0 0 
2415166666.6666665077 0.160572797060012789627236884371 -0.057451728731393807148020158593 -0.002602300839498639106750488281 -0.001866557053290307955500937354 0 0 0 0 
2415333333.3333334923 0.160703539848327608963174384371 -0.058639802038669593120534528907 -0.002625187393277883963343954932 -0.001930591999553143978118896484 0 0 0 0 
2415500000.0000000000 0.160349115729331997970419365629 -0.059666104614734649658203125000 -0.002865226706489921049830771338 -0.002051177434623240990879677881 0 0 0 0 
2415666666.6666665077 0.160201847553253201583700615629 -0.060730315744876861572265625000 -0.002832955680787562890293740381 -0.002022534608840941949131631006 0 0 0 0 
2415833333.3333334923 0.160147398710250910003338731258 -0.062105517834424972534179687500 -0.003195086726918817000148154150 -0.001949391677044332027435302734 0 0 0 0 
2416000000.0000000000 0.159746006131172207931356865629 -0.063327133655548095703125000000 -0.003242468228563665910008095850 -0.002022274769842625097987509619 0 0 0 0 
2416166666.6666665077 0.159777387976646395584268134371 -0.064475402235984802246093750000 -0.003423673799261451201197958838 -0.001971922814846038818359375000 0 0 0 0 
2416333333.3333334923 0.159549742937088012695312500000 -0.065709128975868225097656250000 -0.003662398783490062193629599463 -0.001831344212405384020564413916 0 0 0 0 
2416500000.0000000000 0.159255474805831909179687500000 -0.066850140690803527832031250000 -0.003885047277435659928562783350 -0.001749695162288845019099570166 0 0 0 0 
2416666666.6666665077 0.158893615007400512695312500000 -0.068087317049503326416015625000 -0.003962817136198282241821289062 -0.001548006082884966893437050928 0 0 0 0 
2416833333.3333334923 0.158758252859115600585937500000 -0.069368302822113037109375000000 -0.004189650528132916364187909863 -0.001389799290336668925044394385 0 0 0 0 
2417000000.0000000000 0.158187478780746487716513115629 -0.070530839264392852783203125000 -0.004118343815207481384277343750 -0.001177090103738009929656982422 0 0 0 0 
2417166666.6666665077 0.157945692539215087890625000000 -0.071415200829505920410156250000 -0.004415989853441715240478515625 -0.000966864521615207195281982422 0 0 0 0 
2417333333.3333334923 0.157724902033805902679119981258 -0.072405792772769927978515625000 -0.004446206148713827133178710938 -0.000784916861448436975479125977 0 0 0 0 
2417500000.0000000000 0.157181918621063204666299384371 -0.073573268949985504150390625000 -0.004618933890014886856079101562 -0.000675160728860646486282348633 0 0 0 0 
2417666666.6666665077 0.156946212053299005706463731258 -0.074377343058586120605468750000 -0.004508146550506353378295898438 -0.000500238267704844474792480469 0 0 0 0 
2417833333.3333334923 0.156620845198631286621093750000 -0.075136385858058929443359375000 -0.004586389753967523574829101562 -0.000330532842781394720077514648 0 0 0 0 
2418000000.0000000000 0.156252101063728304763955634371 -0.076036855578422546386718750000 -0.004668608307838439941406250000 -0.000074437550210859626531600952 0 0 0 0 
2418166666.6666665077 0.155916720628738403320312500000 -0.076815761625766754150390625000 -0.004550215788185597333426191113 0.000306954258121550083160400391 0 0 0 0 
2418333333.3333334923 0.155981674790382413009481865629 -0.077631175518035888671875000000 -0.004460469353944063186645507812 0.000398007046896964311599731445 0 0 0 0 
2418500000.0000000000 0.155575469136238098144531250000 -0.078490070998668670654296875000 -0.004542001988738775253295898438 0.000492916966322809457778930664 0 0 0 0 
2418666666.6666665077 0.155237331986427307128906250000 -0.079108186066150665283203125000 -0.004468674771487712860107421875 0.000768599158618599176406860352 0 0 0 0 
2418833333.3333334923 0.154792532324791010100994981258 -0.079857625067234039306640625000 -0.004553327802568674087524414062 0.000921773724257946014404296875 0 0 0 0 
2419000000.0000000000 0.154456272721290588378906250000 -0.080640152096748352050781250000 -0.004409548360854387283325195312 0.001118145417422055981279682690 0 0 0 0 
2419166666.6666665077 0.154119700193405206878338731258 -0.081336669623851776123046875000 -0.004205691162496805191040039062 0.001187149668112396977068256909 0 0 0 0 
2419333333.3333334923 0.153693377971649197677450615629 -0.081674367189407348632812500000 -0.004173411522060632705688476562 0.001348568475805222988128662109 0 0 0 0 
2419500000.0000000000 0.153546363115310696700888115629 -0.082511521875858306884765625000 -0.004121995531022548675537109375 0.001515845302492379925371479565 0 0 0 0 
2419666666.6666665077 0.153280034661293002029580634371 -0.083180055022239685058593750000 -0.003974956925958395004272460938 0.001651163329370320060132670825 0 0 0 0 
2419833333.3333334923 0.152700394392013605315838731258 -0.083623833954334259033203125000 -0.004012052901089190569405840137 0.001690766890533269102211977319 0 0 0 0 
