# Hz S RI R 
2400000000.0000000000 0.173429742455482510665731865629 0.049261149019002907489817033593 0.002540140878409146828892373193 -0.006646378897130489349365234375 0 0 0 0 
2400166666.6666665077 0.173891082406044006347656250000 0.048719111829996109008789062500 0.002398486947640777067897177588 -0.006861111614853143692016601562 0 0 0 0 
2400333333.3333334923 0.174414902925491305252236884371 0.047817792743444442749023437500 0.002103891922160983085632324219 -0.006795917171984910964965820312 0 0 0 0 
2400500000.0000000000 0.174842357635498102386151231258 0.047180823981761932373046875000 0.001954377861693501906154013525 -0.006970212329179049405569745801 0 0 0 0 
2400666666.6666665077 0.175264954566955594161825615629 0.046361394226551062847097028907 0.001676260144449771101113344507 -0.006995737086981534957885742188 0 0 0 0 
2400833333.3333334923 0.175623044371604891678018134371 0.045932006090879440307617187500 0.001411774312146008014678955078 -0.007009712979197502136230468750 0 0 0 0 
2401000000.0000000000 0.175740733742713900467080634371 0.045180361717939376831054687500 0.001107077812775969938990927588 -0.007050995249301195144653320312 0 0 0 0 
2401166666.6666665077 0.175992712378501892089843750000 0.044463757425546653057057966407 0.000879180675838142633438110352 -0.006888467352837324142456054688 0 0 0 0 
2401333333.3333334923 0.176067814230918912032919365629 0.043976899236440658569335937500 0.000520290748681873083114624023 -0.006867737043648958206176757812 0 0 0 0 
2401500000.0000000000 0.176315546035766601562500000000 0.043083474040031433105468750000 0.000457004673080518787533360614 -0.006775494664907454576974199512 0 0 0 0 
2401666666.6666665077 0.176256000995635986328125000000 0.042559113353490829467773437500 0.000075936412031296640634536743 -0.006682109087705612182617187500 0 0 0 0 
2401833333.3333334923 0.176289349794387789627236884371 0.041879288852214813232421875000 -0.000220315880142152309417724609 -0.006572726648300886154174804688 0 0 0 0 
2402000000.0000000000 0.176170662045478793045205634371 0.041006200015544891357421875000 -0.000267071562120690887600499286 -0.006434843409806489944458007812 0 0 0 0 
2402166666.6666665077 0.175980985164642306228799384371 0.040092214941978461528737653907 -0.000384839368052780573994237079 -0.006267318967729806900024414062 0 0 0 0 
2402333333.3333334923 0.175838425755500793457031250000 0.039221640676260001445729841407 -0.000687513500452041625976562500 -0.006093916017562150955200195312 0 0 0 0 
2402500000.0000000000 0.176113039255142211914062500000 0.038232877850532531738281250000 -0.000778885092586278915405273438 -0.005828099325299263000488281250 0 0 0 0 
2402666666.6666665077 0.175716459751129205901776231258 0.037075441330671310424804687500 -0.000773234933149069547653198242 -0.005766932852566242218017578125 0 0 0 0 
2402833333.3333334923 0.175308868288993807693643134371 0.035967670381069183349609375000 -0.000944991945289075374603271484 -0.005681658163666725158691406250 0 0 0 0 
2403000000.0000000000 0.174978032708168002029580634371 0.034625496715307242656667341407 -0.000932715658564120531082153320 -0.005548598710447549819946289062 0 0 0 0 
2403166666.6666665077 0.174751758575439508636151231258 0.033286921679973602294921875000 -0.001185113331303001100655580835 -0.005303492303937673568725585938 0 0 0 0 
2403333333.3333334923 0.174452885985374506194744981258 0.032085854560136801982839216407 -0.001159705338068306012394570459 -0.005318311043083667755126953125 0 0 0 0 
2403500000.0000000000 0.174087390303611810882244981258 0.030521435663104060781458670704 -0.001187048386782407977460551685 -0.005141779314726591110229492188 0 0 0 0 
2403666666.6666665077 0.173527956008911105056924384371 0.028897313401103019714355468750 -0.001229537301696836948394775391 -0.005042107775807380676269531250 0 0 0 0 
2403833333.3333334923 0.173377096652984591385049384371 0.027128014713525768625279610546 -0.001320866052992641925811767578 -0.004833929240703582763671875000 0 0 0 0 
2404000000.0000000000 0.173117369413375910003338731258 0.025422330945730209350585937500 -0.001266157487407326915143657153 -0.004927656147629022598266601562 0 0 0 0 
2404166666.6666665077 0.172591194510459899902343750000 0.023620225489139560354212576954 -0.001381624606437980911852192456 -0.004864944145083427429199218750 0 0 0 0 
2404333333.3333334923 0.172185406088829012771768134371 0.022030431777238849294642264454 -0.001209294539876281998277973706 -0.004803387448191642761230468750 0 0 0 0 
2404500000.0000000000 0.171887531876563998123330634371 0.019900042563676830636998360546 -0.001333199790678917927982949365 -0.004693639930337668332571698926 0 0 0 0 
2404666666.6666665077 0.171578943729400607010049384371 0.018026534467935558664342110546 -0.001458234037272631905199360425 -0.004795026034116744995117187500 0 0 0 0 
2404833333.3333334923 0.171400710940360995193643134371 0.015942633152008060110071951954 -0.001364353462122380950330424731 -0.004646522458642721176147460938 0 0 0 0 
2405000000.0000000000 0.171144098043441800216513115629 0.013913120143115520477294921875 -0.001580066629685461954829550635 -0.004727928433567286405081464551 0 0 0 0 
2405166666.6666665077 0.171250119805335998535156250000 0.012064592912793159484863281250 -0.001393129816278815052629780347 -0.004609848372638226422781659863 0 0 0 0 
2405333333.3333334923 0.170963466167450006683026231258 0.009958717972040176391601562500 -0.001562524354085325977922749097 -0.004529794212430716428274823926 0 0 0 0 
2405500000.0000000000 0.171102061867713900467080634371 0.007680284325033426284790039062 -0.001789406058378518061396933447 -0.004646502435207366943359375000 0 0 0 0 
2405666666.6666665077 0.171072408556938199142294365629 0.005655594170093536376953125000 -0.001834941795095800919773720850 -0.004566798917949199676513671875 0 0 0 0 
2405833333.3333334923 0.171198785305023193359375000000 0.003688172437250614166259765625 -0.001754650380462408065795898438 -0.004637165460735560330862714551 0 0 0 0 
2406000000.0000000000 0.171282142400741604904013115629 0.001548887463286519050598144531 -0.001818577409721910953521728516 -0.004615275189280509948730468750 0 0 0 0 
2406166666.6666665077 0.171652093529701205154580634371 -0.000322911131661385297775268555 -0.001986373681575059890747070312 -0.004528297577053309354300214551 0 0 0 0 
2406333333.3333334923 0.172041311860084505935830634371 -0.002343941479921340942382812500 -0.002100253244861959977390908350 -0.004484745673835278424734784863 0 0 0 0 
2406500000.0000000000 0.172473073005676297286825615629 -0.004629584029316902160644531250 -0.002018016763031483130214072119 -0.004568221513181924819946289062 0 0 0 0 
2406666666.6666665077 0.172679036855697604080361884371 -0.006541406735777854919433593750 -0.002108010230585933165309286963 -0.004399429541081190109252929688 0 0 0 0 
2406833333.3333334923 0.173348560929298400878906250000 -0.008492468856275081634521484375 -0.002294674050062894821166992188 -0.004304962232708930969238281250 0 0 0 0 
2407000000.0000000000 0.173965141177177401443643134371 -0.010428041219711300241490548046 -0.002333951182663441138026572119 -0.004329150076955556869506835938 0 0 0 0 
2407166666.6666665077 0.174680903553962707519531250000 -0.012282765470445159566859061329 -0.002489686477929354147670126807 -0.004292014054954051971435546875 0 0 0 0 
2407333333.3333334923 0.175311341881751986404580634371 -0.014180961996316909790039062500 -0.002455857815220952033996582031 -0.004137553274631500244140625000 0 0 0 0 
2407500000.0000000000 0.175867080688476590255575615629 -0.015980612486600879323939139454 -0.002442472614347935156581259619 -0.004248956218361855420584394238 0 0 0 0 
2407666666.6666665077 0.176594480872154208084268134371 -0.017645439133048061025599295704 -0.002590901916846632957458496094 -0.004136469215154647827148437500 0 0 0 0 
2407833333.3333334923 0.177168861031532287597656250000 -0.019450815394520759582519531250 -0.002714083064347506003138876807 -0.004128495231270790100097656250 0 0 0 0 
2408000000.0000000000 0.177957758307456997970419365629 -0.021144399419426921499232108204 -0.002778910798951983885524130713 -0.004122071433812379837036132812 0 0 0 0 
2408166666.6666665077 0.178779378533363286774005018742 -0.022550206631422039377232735546 -0.002984183607622981071472167969 -0.003964366856962442398071289062 0 0 0 0 
2408333333.3333334923 0.179490596055984497070312500000 -0.024059763178229328500767891796 -0.002751587657257914976832724463 -0.004082434810698032379150390625 0 0 0 0 
2408500000.0000000000 0.180005609989166287521200615629 -0.025645934045314788818359375000 -0.002755578141659498214721679688 -0.004095998127013444900512695312 0 0 0 0 
2408666666.6666665077 0.180668741464614895919638115629 -0.026915078982710838317871093750 -0.002752004191279410882237099756 -0.004141604062169790267944335938 0 0 0 0 
2408833333.3333334923 0.181073412299156188964843750000 -0.028115216642618179321289062500 -0.003080658847466111183166503906 -0.004064307082444429397583007812 0 0 0 0 
2409000000.0000000000 0.181566610932350186446981865629 -0.029228230938315391540527343750 -0.003010809654369949860813759912 -0.004104284569621086120605468750 0 0 0 0 
2409166666.6666665077 0.182065218687057495117187500000 -0.030164148658514019357701485546 -0.003143301466479897932765341650 -0.004097380209714174270629882812 0 0 0 0 
2409333333.3333334923 0.182569265365600613693075615629 -0.031197780743241310119628906250 -0.003216710174456239180323935400 -0.004259704146534205350393964551 0 0 0 0 
2409500000.0000000000 0.182756692171096801757812500000 -0.032161667943000793457031250000 -0.003521329257637261910679482568 -0.004198952112346887588500976562 0 0 0 0 
2409666666.6666665077 0.183044716715812710861044365629 -0.032720491290092468261718750000 -0.003595314454287291006800986182 -0.004365834873169660568237304688 0 0 0 0 
2409833333.3333334923 0.183328464627265902420205634371 -0.033177163451910018920898437500 -0.003865003120154141946079873193 -0.004126032348722220334524823926 0 0 0 0 
2410000000.0000000000 0.183523297309875488281250000000 -0.033802218735218048095703125000 -0.004197424743324518203735351562 -0.004148628562688828382010175488 0 0 0 0 
2410166666.6666665077 0.183674290776252802093182481258 -0.034152682870626449584960937500 -0.004175593145191670331473066113 -0.004183163400739431381225585938 0 0 0 0 
2410333333.3333334923 0.183621600270271301269531250000 -0.034672711044549942016601562500 -0.004345437977463006973266601562 -0.004165989346802234649658203125 0 0 0 0 
2410500000.0000000000 0.183860570192337008377236884371 -0.034866798669099807739257812500 -0.004614449106156826019287109375 -0.004138862714171409606933593750 0 0 0 0 
2410666666.6666665077 0.183741286396980313400106865629 -0.035486809909343719482421875000 -0.004689285065978766355032636426 -0.004017025697976350784301757812 0 0 0 0 
2410833333.3333334923 0.183456853032112093826455634371 -0.035604119300842292095143903907 -0.005112370941787958145141601562 -0.004056017380207777023315429688 0 0 0 0 
2411000000.0000000000 0.183308616280555697342080634371 -0.035811036825180046772043596093 -0.005251148249953985214233398438 -0.003760305466130375862121582031 0 0 0 0 
2411166666.6666665077 0.182814255356788607498330634371 -0.036434672772884368896484375000 -0.005433840211480855941772460938 -0.003723495174199343161342001807 0 0 0 0 
2411333333.3333334923 0.182535678148269708831463731258 -0.036507010459899902343750000000 -0.005594999529421330365652753613 -0.003441015025600790977478027344 0 0 0 0 
2411500000.0000000000 0.182010024785995511154013115629 -0.036986880004405982280690778907 -0.005896691698580980300903320312 -0.003354356624186038970947265625 0 0 0 0 
2411666666.6666665077 0.181466788053512600997763115629 -0.037220161408185958862304687500 -0.006185719743371009826660156250 -0.002985747531056404113769531250 0 0 0 0 
2411833333.3333334923 0.180756419897079495529013115629 -0.037562869489192962646484375000 -0.006258410867303609848022460938 -0.002807320328429340882542275537 0 0 0 0 
2412000000.0000000000 0.180205449461937006194744981258 -0.037996888160705573345143903907 -0.006488915067166090011596679688 -0.002549337223172187805175781250 0 0 0 0 
2412166666.6666665077 0.179097697138786288162393134371 -0.038319155573844909667968750000 -0.006693960633128882321829511426 -0.002198756672441958947422646631 0 0 0 0 
2412333333.3333334923 0.178317695856094388107138115629 -0.038770377635955810546875000000 -0.006652643438428640365600585938 -0.002037967788055539131164550781 0 0 0 0 
2412500000.0000000000 0.177172780036926297286825615629 -0.039307635277509689331054687500 -0.006739012431353330612182617188 -0.001657767919823526902439736475 0 0 0 0 
2412666666.6666665077 0.176245614886283902267294365629 -0.039944525808095932006835937500 -0.006907847244292497634887695312 -0.001451224321499466896057128906 0 0 0 0 
2412833333.3333334923 0.175064176321029690841513115629 -0.040729019790887832641601562500 -0.006798065733164548873901367188 -0.001103459740988909981371235425 0 0 0 0 
2413000000.0000000000 0.173852652311325100997763115629 -0.041346717625856399536132812500 -0.006763192359358072280883789062 -0.000760819530114531517028808594 0 0 0 0 
2413166666.6666665077 0.172541871666908291915731865629 -0.042046915739774697040598283593 -0.006817666813731194409842206738 -0.000499996356666088104248046875 0 0 0 0 
2413333333.3333334923 0.171176210045814486404580634371 -0.043030574917793266986887346093 -0.006836274173110724362845136426 -0.000172138737980276400416773663 0 0 0 0 
2413500000.0000000000 0.170099914073944091796875000000 -0.043780054897069931030273437500 -0.006760999560356140136718750000 0.000176136774825863513067522592 0 0 0 0 
2413666666.6666665077 0.168701365590095492263955634371 -0.044937703758478171611745466407 -0.006663950625807046890258789062 0.000419323303503915721743983136 0 0 0 0 
2413833333.3333334923 0.167310640215873690506143134371 -0.045905929058790206909179687500 -0.006666252389550209045410156250 0.000494982698000967502593994141 0 0 0 0 
2414000000.0000000000 0.166019797325134305099325615629 -0.047188766300678253173828125000 -0.006550361867994070053100585938 0.000758485228288918733596801758 0 0 0 0 
2414166666.6666665077 0.164772734045982388595419365629 -0.048303827643394470214843750000 -0.006370868068188428878784179688 0.001140113221481443101998354273 0 0 0 0 
2414333333.3333334923 0.163547113537788391113281250000 -0.049717012792825698852539062500 -0.006228337530046701431274414062 0.001372135942801832935930561597 0 0 0 0 
2414500000.0000000000 0.162638083100318908691406250000 -0.050987586379051208496093750000 -0.006022152490913867950439453125 0.001513990573585032983067177881 0 0 0 0 
2414666666.6666665077 0.161284863948821993728799384371 -0.052398305386304862285573591407 -0.005944812670350074768066406250 0.001604179386049509048461914062 0 0 0 0 
2414833333.3333334923 0.160175472497940091232138115629 -0.054049026221036911010742187500 -0.005610612221062183380126953125 0.001796575379557908015010214697 0 0 0 0 
2415000000.0000000000 0.159049689769744900802450615629 -0.055551979690790183330495466407 -0.005400939844548702239990234375 0.001969479722902179198024130713 0 0 0 0 
2415166666.6666665077 0.158092916011810302734375000000 -0.057272311300039291381835937500 -0.005207878537476062774658203125 0.001872523571364582018611288916 0 0 0 0 
2415333333.3333334923 0.157396033406257601638955634371 -0.059095308184623718261718750000 -0.005066011101007462415213300488 0.002073703566566110090968466650 0 0 0 0 
2415500000.0000000000 0.156467810273170498946981865629 -0.060783471912145621562917341407 -0.004809964913874864578247070312 0.002153059700503944916966103662 0 0 0 0 
2415666666.6666665077 0.155710861086845397949218750000 -0.062542892992496490478515625000 -0.004654463846236467361450195312 0.002065265085548162894008017432 0 0 0 0 
2415833333.3333334923 0.155100539326667813400106865629 -0.064542233943939208984375000000 -0.004591746255755425366873456738 0.002074162941426039175746298682 0 0 0 0 
2416000000.0000000000 0.154373347759246798416299384371 -0.066484384238719940185546875000 -0.004352430813014507293701171875 0.002038475824519991874694824219 0 0 0 0 
2416166666.6666665077 0.154072940349578912933026231258 -0.068397000432014465332031250000 -0.004202364478260278701782226562 0.002142492448911070823669433594 0 0 0 0 
2416333333.3333334923 0.153488606214523287674111884371 -0.070240803062915802001953125000 -0.004133332520723342895507812500 0.002253182698041201071498251807 0 0 0 0 
2416500000.0000000000 0.152951702475547790527343750000 -0.072283394634723663330078125000 -0.004108601715415716171264648438 0.002101862570270895957946777344 0 0 0 0 
2416666666.6666665077 0.152580723166465787032919365629 -0.074138566851615905761718750000 -0.004016764461994171142578125000 0.002078131539747118949890136719 0 0 0 0 
2416833333.3333334923 0.152406886219978304763955634371 -0.076228111982345581054687500000 -0.003862131619825959205627441406 0.002204195130616426901576376807 0 0 0 0 
2417000000.0000000000 0.152013689279556302169638115629 -0.078177146613597869873046875000 -0.003854467766359447999241494287 0.001935134758241475062129355322 0 0 0 0 
2417166666.6666665077 0.151894703507423400878906250000 -0.079719208180904388427734375000 -0.003754735924303532080409384619 0.002153869485482573942897177588 0 0 0 0 
2417333333.3333334923 0.151849955320358304122763115629 -0.081571392714977264404296875000 -0.003765800967812538146972656250 0.001972925849258900122401572119 0 0 0 0 
2417500000.0000000000 0.151669099926948602874432481258 -0.083587348461151123046875000000 -0.003723093774169683890101767432 0.001935647567734122059465717847 0 0 0 0 
2417666666.6666665077 0.151895314455032404143963731258 -0.084976293146610260009765625000 -0.003694592509418725967407226562 0.001928611542098223946214985425 0 0 0 0 
2417833333.3333334923 0.151808127760887201507244981258 -0.086582362651824951171875000000 -0.003817626507952808900120400537 0.001957040047273039817810058594 0 0 0 0 
2418000000.0000000000 0.151866182684898404220419365629 -0.088235922157764434814453125000 -0.003699053311720490889308310400 0.001993631711229681968688964844 0 0 0 0 
2418166666.6666665077 0.151954278349876403808593750000 -0.089407019317150115966796875000 -0.003799346275627613067626953125 0.001936855376698076941846538013 0 0 0 0 
2418333333.3333334923 0.152206301689148004729901231258 -0.090853035449981689453125000000 -0.003819155506789683861973427881 0.001972239464521408081054687500 0 0 0 0 
2418500000.0000000000 0.152503788471221896072549384371 -0.091926999390125274658203125000 -0.003736654296517372131347656250 0.001925185206346214034436870044 0 0 0 0 
2418666666.6666665077 0.152719154953956604003906250000 -0.093105077743530273437500000000 -0.003951539751142263412475585938 0.002005238784477115111110068213 0 0 0 0 
2418833333.3333334923 0.152658969163894708831463731258 -0.094008706510066986083984375000 -0.003852513618767261938807822119 0.002010197145864367918727255713 0 0 0 0 
2419000000.0000000000 0.152893081307411193847656250000 -0.094885967671871185302734375000 -0.004041830077767372131347656250 0.002055966295301914215087890625 0 0 0 0 
2419166666.6666665077 0.153017595410347012618856865629 -0.095551133155822753906250000000 -0.004073249641805887222290039062 0.002010265132412313981297158350 0 0 0 0 
2419333333.3333334923 0.153281331062316894531250000000 -0.096058569848537445068359375000 -0.004276994615793228149414062500 0.002175898989662528038024902344 0 0 0 0 
2419500000.0000000000 0.153492078185081509689169365629 -0.096716888248920440673828125000 -0.004365102387964726361746503613 0.002203973475843667984008789062 0 0 0 0 
2419666666.6666665077 0.153723776340484591385049384371 -0.097188390791416168212890625000 -0.004474411252886056900024414062 0.002395259449258447127101279150 0 0 0 0 
2419833333.3333334923 0.153700321912765502929687500000 -0.097286045551300048828125000000 -0.004413372371345757570748613574 0.002506173914298415184020996094 0 0 0 0 
