# Version 1.00
#
freq[Hz];re:Trc1_S11;im:Trc1_S11;re:Trc2_S21;im:Trc2_S21;
2.400000000000000E+009;1.735103577375412E-001;4.843826591968536E-002;5.892943125218153E-003;8.396006189286709E-003;
2.400166666666667E+009;1.741468757390976E-001;4.795600101351738E-002;6.252746097743511E-003;8.240497671067715E-003;
2.400333333333334E+009;1.745643764734268E-001;4.706590995192528E-002;6.497521419078112E-003;8.095132187008858E-003;
2.400500000000000E+009;1.749866902828217E-001;4.638179019093514E-002;6.831563543528318E-003;7.932963781058788E-003;
2.400666666666667E+009;1.750790327787399E-001;4.585939645767212E-002;6.856449879705906E-003;7.899330928921700E-003;
2.400833333333334E+009;1.756287664175034E-001;4.526771977543831E-002;7.147778756916523E-003;7.768710143864155E-003;
2.401000000000000E+009;1.757694929838181E-001;4.462218657135963E-002;7.508512120693922E-003;7.502634543925524E-003;
2.401166666666667E+009;1.758883893489838E-001;4.398109763860703E-002;7.803402375429869E-003;7.405814714729786E-003;
2.401333333333334E+009;1.757812500000000E-001;4.323510453104973E-002;8.020589128136635E-003;7.242677267640829E-003;
2.401500000000000E+009;1.761823445558548E-001;4.260425642132759E-002;8.449291810393333E-003;7.153250277042389E-003;
2.401666666666667E+009;1.761104762554169E-001;4.204941168427467E-002;8.748815394937992E-003;6.834707688540220E-003;
2.401833333333334E+009;1.761728227138519E-001;4.105383530259132E-002;9.203896857798100E-003;6.536672823131084E-003;
2.402000000000000E+009;1.758451312780380E-001;4.034598171710968E-002;9.399621747434139E-003;6.291909143328667E-003;
2.402166666666667E+009;1.757683902978897E-001;3.937429934740067E-002;9.700294584035873E-003;6.150763016194105E-003;
2.402333333333334E+009;1.755599528551102E-001;3.851449489593506E-002;9.975615888834000E-003;5.661047995090485E-003;
2.402500000000000E+009;1.755039989948273E-001;3.750240802764893E-002;1.023950986564159E-002;5.107630509883165E-003;
2.402666666666667E+009;1.753180772066116E-001;3.647580742835999E-002;1.041093096137047E-002;4.965314175933600E-003;
2.402833333333334E+009;1.749414205551148E-001;3.540030121803284E-002;1.057677995413542E-002;4.502969793975353E-003;
2.403000000000000E+009;1.745740026235580E-001;3.416894003748894E-002;1.104254648089409E-002;4.084858577698469E-003;
2.403166666666667E+009;1.744411289691925E-001;3.259648382663727E-002;1.110052317380905E-002;3.490612143650651E-003;
2.403333333333334E+009;1.740058064460754E-001;3.141013160347939E-002;1.130243204534054E-002;2.895231358706951E-003;
2.403500000000000E+009;1.735538542270660E-001;2.997748740017414E-002;1.141675002872944E-002;2.582181477919221E-003;
2.403666666666667E+009;1.731381863355637E-001;2.811799757182598E-002;1.138537004590035E-002;2.081897342577577E-003;
2.403833333333334E+009;1.729609519243240E-001;2.644161134958267E-002;1.145562436431646E-002;1.747142290696502E-003;
2.404000000000000E+009;1.724821031093597E-001;2.486497536301613E-002;1.146541815251112E-002;1.179503160528839E-003;
2.404166666666667E+009;1.719958037137985E-001;2.276993170380592E-002;1.161237061023712E-002;8.766190730966628E-004;
2.404333333333334E+009;1.707117408514023E-001;2.105335704982281E-002;1.170295849442482E-002;-2.427287690807134E-004;
2.404500000000000E+009;1.716668307781220E-001;1.956157200038433E-002;1.086060609668493E-002;-5.666658398695290E-005;
2.404666666666667E+009;1.707447469234467E-001;1.822170801460743E-002;1.074881013482809E-002;-1.138332998380065E-003;
2.404833333333334E+009;1.713358014822006E-001;1.593133620917797E-002;1.041727699339390E-002;-1.013133791275322E-003;
2.405000000000000E+009;1.713049262762070E-001;1.318591367453337E-002;1.085093989968300E-002;-1.046421006321907E-003;
2.405166666666667E+009;1.698536723852158E-001;1.237446255981922E-002;1.034890580922365E-002;-2.282825531437993E-003;
2.405333333333334E+009;1.704157143831253E-001;9.643208235502243E-003;1.022712606936693E-002;-2.269406570121646E-003;
2.405500000000000E+009;1.706415712833405E-001;7.501099258661270E-003;1.002670265734196E-002;-2.262742025777698E-003;
2.405666666666667E+009;1.701994091272354E-001;5.413832142949104E-003;1.013357285410166E-002;-2.782457508146763E-003;
2.405833333333334E+009;1.710681766271591E-001;3.291505621746182E-003;9.714710526168346E-003;-2.789471065625548E-003;
2.406000000000000E+009;1.706233769655228E-001;5.118243861943483E-004;1.002917438745499E-002;-3.431630320847035E-003;
2.406166666666667E+009;1.706009060144424E-001;-3.083175688516349E-004;9.221396408975124E-003;-3.736756742000580E-003;
2.406333333333334E+009;1.710914224386215E-001;-2.327433088794351E-003;9.051579050719738E-003;-3.985534422099590E-003;
2.406500000000000E+009;1.713266819715500E-001;-3.998773172497749E-003;8.639176376163960E-003;-4.156209062784910E-003;
2.406666666666667E+009;1.722337752580643E-001;-6.279550027102232E-003;8.601835928857327E-003;-4.056771751493216E-003;
2.406833333333334E+009;1.724948585033417E-001;-8.402704261243343E-003;8.590082637965679E-003;-4.534614272415638E-003;
2.407000000000000E+009;1.736110299825668E-001;-9.961718693375588E-003;8.142652921378613E-003;-4.526887089014053E-003;
2.407166666666667E+009;1.739252656698227E-001;-1.275309827178717E-002;8.491963148117065E-003;-4.864722955971956E-003;
2.407333333333334E+009;1.745018512010574E-001;-1.395866926759481E-002;7.934394292533398E-003;-4.843463655561209E-003;
2.407500000000000E+009;1.754137128591538E-001;-1.586021296679974E-002;7.895918563008308E-003;-5.015428178012371E-003;
2.407666666666667E+009;1.761472225189209E-001;-1.759508252143860E-002;7.919028401374817E-003;-5.193518474698067E-003;
2.407833333333334E+009;1.768858879804611E-001;-1.930867135524750E-002;7.556804921478033E-003;-5.313117522746325E-003;
2.408000000000000E+009;1.775380820035934E-001;-2.098846994340420E-002;7.397368550300598E-003;-5.457571242004633E-003;
2.408166666666667E+009;1.782605648040772E-001;-2.237194217741489E-002;7.209817878901959E-003;-5.830247420817614E-003;
2.408333333333334E+009;1.790501326322556E-001;-2.386939711868763E-002;7.080557756125927E-003;-6.035478319972754E-003;
2.408500000000000E+009;1.796653866767883E-001;-2.535343170166016E-002;6.911348085850477E-003;-6.131635513156653E-003;
2.408666666666667E+009;1.802159696817398E-001;-2.659887820482254E-002;6.654714234173298E-003;-6.268772762268782E-003;
2.408833333333334E+009;1.807346045970917E-001;-2.778505347669125E-002;6.455171387642622E-003;-6.395808886736631E-003;
2.409000000000000E+009;1.812103837728500E-001;-2.872551791369915E-002;6.134782917797566E-003;-6.491089239716530E-003;
2.409166666666667E+009;1.816812008619309E-001;-2.995234169065952E-002;6.026894785463810E-003;-6.707133725285530E-003;
2.409333333333334E+009;1.822062134742737E-001;-3.074876219034195E-002;5.908357910811901E-003;-6.733177229762077E-003;
2.409500000000000E+009;1.824365854263306E-001;-3.162754327058792E-002;5.788935814052820E-003;-6.910371594130993E-003;
2.409666666666667E+009;1.827223896980286E-001;-3.211740031838417E-002;5.628670100122690E-003;-6.950039882212877E-003;
2.409833333333334E+009;1.828734129667282E-001;-3.273902460932732E-002;5.341752432286739E-003;-7.208352908492088E-003;
2.410000000000000E+009;1.833703219890595E-001;-3.312799334526062E-002;5.394534673541784E-003;-7.211490534245968E-003;
2.410166666666667E+009;1.834802776575089E-001;-3.367485478520393E-002;5.119827575981617E-003;-7.304651197046042E-003;
2.410333333333334E+009;1.835750490427017E-001;-3.410346806049347E-002;5.061299540102482E-003;-7.590535562485457E-003;
2.410500000000000E+009;1.836608201265335E-001;-3.437224030494690E-002;4.715221934020519E-003;-7.684994023293257E-003;
2.410666666666667E+009;1.835050582885742E-001;-3.471523150801659E-002;4.591902252286673E-003;-7.825762033462524E-003;
2.410833333333334E+009;1.834645122289658E-001;-3.511289879679680E-002;4.449282772839069E-003;-8.127159439027309E-003;
2.411000000000000E+009;1.831348389387131E-001;-3.533311933279038E-002;4.316875711083412E-003;-8.246771059930325E-003;
2.411166666666667E+009;1.828897446393967E-001;-3.577547520399094E-002;4.055261611938477E-003;-8.255355060100555E-003;
2.411333333333334E+009;1.825220137834549E-001;-3.601815924048424E-002;3.889794228598476E-003;-8.582280017435551E-003;
2.411500000000000E+009;1.820666193962097E-001;-3.641753643751144E-002;3.582530422136188E-003;-8.722260594367981E-003;
2.411666666666667E+009;1.817986667156220E-001;-3.670440614223480E-002;3.371459431946278E-003;-8.924720808863640E-003;
2.411833333333334E+009;1.809799820184708E-001;-3.713637217879295E-002;3.097382606938481E-003;-9.206411428749561E-003;
2.412000000000000E+009;1.802603304386139E-001;-3.762225061655045E-002;2.572610508650541E-003;-9.256880730390549E-003;
2.412166666666667E+009;1.793966442346573E-001;-3.809931501746178E-002;2.426640596240759E-003;-9.445689618587494E-003;
2.412333333333334E+009;1.785805523395538E-001;-3.842408582568169E-002;1.984392292797566E-003;-9.696691296994686E-003;
2.412500000000000E+009;1.774636954069138E-001;-3.892760351300240E-002;1.745944260619581E-003;-9.736165404319763E-003;
2.412666666666667E+009;1.765198260545731E-001;-3.980325162410736E-002;1.183254062198103E-003;-9.827007539570332E-003;
2.412833333333334E+009;1.755471974611282E-001;-4.034097120165825E-002;9.113306878134608E-004;-9.949956089258194E-003;
2.413000000000000E+009;1.742749363183975E-001;-4.120529070496559E-002;3.859404823742807E-004;-9.682152420282364E-003;
2.413166666666667E+009;1.729014217853546E-001;-4.181166738271713E-002;-7.532141898991540E-005;-9.728545323014259E-003;
2.413333333333334E+009;1.716482788324356E-001;-4.276822879910469E-002;-3.772951895371079E-004;-9.937198832631111E-003;
2.413500000000000E+009;1.705295294523239E-001;-4.374843090772629E-002;-8.159864810295403E-004;-9.711409918963909E-003;
2.413666666666667E+009;1.692271381616592E-001;-4.492960497736931E-002;-1.243889913894236E-003;-9.589557535946369E-003;
2.413833333333334E+009;1.679899692535400E-001;-4.584261402487755E-002;-1.774948672391474E-003;-9.458051063120365E-003;
2.414000000000000E+009;1.663955301046372E-001;-4.700042679905891E-002;-1.905937446281314E-003;-9.210668504238129E-003;
2.414166666666667E+009;1.653695106506348E-001;-4.821347445249558E-002;-2.237968612462282E-003;-8.910153061151505E-003;
2.414333333333334E+009;1.640989631414414E-001;-4.974251985549927E-002;-2.477684989571571E-003;-9.033591486513615E-003;
2.414500000000000E+009;1.631453782320023E-001;-5.108398199081421E-002;-2.731550717726350E-003;-8.615923114120960E-003;
2.414666666666667E+009;1.618564128875732E-001;-5.253424495458603E-002;-2.845684997737408E-003;-8.310535922646523E-003;
2.414833333333334E+009;1.607407778501511E-001;-5.422584712505341E-002;-3.159395651891828E-003;-8.131614886224270E-003;
2.415000000000000E+009;1.597304195165634E-001;-5.564535409212112E-002;-3.476120298728347E-003;-8.002428337931633E-003;
2.415166666666667E+009;1.587303131818771E-001;-5.744710564613342E-002;-3.567080479115248E-003;-7.856248877942562E-003;
2.415333333333334E+009;1.579690575599670E-001;-5.929441750049591E-002;-3.742797765880823E-003;-7.574404589831829E-003;
2.415500000000000E+009;1.571639776229858E-001;-6.110531836748123E-002;-3.828258253633976E-003;-7.300963159650564E-003;
2.415666666666667E+009;1.563346534967423E-001;-6.287197768688202E-002;-4.045390989631414E-003;-7.174392696470022E-003;
2.415833333333334E+009;1.556187570095062E-001;-6.490625441074371E-002;-4.186100326478481E-003;-6.960127502679825E-003;
2.416000000000000E+009;1.549665331840515E-001;-6.682763993740082E-002;-4.310242366045713E-003;-6.720921490341425E-003;
2.416166666666667E+009;1.545932143926621E-001;-6.874357163906097E-002;-4.371703136712313E-003;-6.559899542480707E-003;
2.416333333333334E+009;1.538885235786438E-001;-7.069288939237595E-002;-4.580768756568432E-003;-6.552720442414284E-003;
2.416500000000000E+009;1.534800976514816E-001;-7.280281186103821E-002;-4.543077666312456E-003;-6.253723520785570E-003;
2.416666666666667E+009;1.531226783990860E-001;-7.477773725986481E-002;-4.707106389105320E-003;-6.148481275886297E-003;
2.416833333333334E+009;1.527938395738602E-001;-7.670375704765320E-002;-4.711625631898642E-003;-5.839313380420208E-003;
2.417000000000000E+009;1.524149477481842E-001;-7.865081727504730E-002;-4.907242022454739E-003;-5.869260057806969E-003;
2.417166666666667E+009;1.522936969995499E-001;-8.047766983509064E-002;-5.068535916507244E-003;-5.596738308668137E-003;
2.417333333333334E+009;1.521245390176773E-001;-8.221029490232468E-002;-5.043103359639645E-003;-5.382749252021313E-003;
2.417500000000000E+009;1.520420610904694E-001;-8.408377319574356E-002;-5.276957061141729E-003;-5.292830523103476E-003;
2.417666666666667E+009;1.522159427404404E-001;-8.563564717769623E-002;-5.185828078538179E-003;-5.259156227111816E-003;
2.417833333333334E+009;1.520975530147553E-001;-8.721851557493210E-002;-5.363674834370613E-003;-5.071628838777542E-003;
2.418000000000000E+009;1.520599871873856E-001;-8.874954283237457E-002;-5.301229190081358E-003;-4.891121760010719E-003;
2.418166666666667E+009;1.521324366331101E-001;-9.007490426301956E-002;-5.427958443760872E-003;-4.722916055470705E-003;
2.418333333333334E+009;1.524531990289688E-001;-9.147897362709045E-002;-5.501889158040285E-003;-4.693839233368635E-003;
2.418500000000000E+009;1.525746583938599E-001;-9.258448332548142E-002;-5.619403906166554E-003;-4.627529997378588E-003;
2.418666666666667E+009;1.527550071477890E-001;-9.370808303356171E-002;-5.694815889000893E-003;-4.371454007923603E-003;
2.418833333333334E+009;1.527265757322311E-001;-9.471791237592697E-002;-5.765529815107584E-003;-4.186628852039576E-003;
2.419000000000000E+009;1.529041528701782E-001;-9.549337625503540E-002;-6.084671244025230E-003;-4.138921387493610E-003;
2.419166666666667E+009;1.530888974666596E-001;-9.618958085775375E-002;-5.992752034217119E-003;-4.045401699841023E-003;
2.419333333333334E+009;1.532272994518280E-001;-9.665562957525253E-002;-6.192096974700689E-003;-3.922878764569759E-003;
2.419500000000000E+009;1.535489410161972E-001;-9.732495993375778E-002;-6.312247365713120E-003;-3.872290020808578E-003;
2.419666666666667E+009;1.537184715270996E-001;-9.773156791925430E-002;-6.394287571310997E-003;-3.672199789434671E-003;
2.419833333333334E+009;1.536874473094940E-001;-9.790306538343430E-002;-6.613925565034151E-003;-3.533650422468782E-003;
2.420000000000000E+009;1.539646834135056E-001;-9.805584698915482E-002;-6.737309042364359E-003;-3.375733038410544E-003;
2.420166666666667E+009;1.539734899997711E-001;-9.809017926454544E-002;-6.788120605051518E-003;-3.294687485322356E-003;
2.420333333333334E+009;1.540838330984116E-001;-9.814342856407166E-002;-7.104727905243635E-003;-3.157693892717362E-003;
2.420500000000000E+009;1.541880369186401E-001;-9.807687252759934E-002;-7.121631409972906E-003;-2.854000777006149E-003;
2.420666666666667E+009;1.540407240390778E-001;-9.790600091218948E-002;-7.298628799617291E-003;-2.711661625653505E-003;
2.420833333333334E+009;1.539965569972992E-001;-9.777326136827469E-002;-7.379692047834396E-003;-2.582342131063342E-003;
2.421000000000000E+009;1.537023335695267E-001;-9.739735722541809E-002;-7.483560126274824E-003;-2.260435372591019E-003;
2.421166666666667E+009;1.535701155662537E-001;-9.714680165052414E-002;-7.602358702570200E-003;-2.093089511618018E-003;
2.421333333333334E+009;1.533728688955307E-001;-9.676950424909592E-002;-7.732837460935116E-003;-1.751075498759747E-003;
2.421500000000000E+009;1.528243720531464E-001;-9.665416926145554E-002;-7.833728566765785E-003;-1.437141560018063E-003;
2.421666666666667E+009;1.524451524019241E-001;-9.622062742710114E-002;-8.002062328159809E-003;-1.105138100683689E-003;
2.421833333333334E+009;1.519512236118317E-001;-9.583104401826859E-002;-8.133638650178909E-003;-7.948272395879030E-004;
2.422000000000000E+009;1.511783599853516E-001;-9.567642211914063E-002;-8.163406513631344E-003;-5.291235866025090E-004;
2.422166666666667E+009;1.506363153457642E-001;-9.552470594644547E-002;-8.264268748462200E-003;-2.373360330238938E-004;
2.422333333333334E+009;1.496378630399704E-001;-9.521332383155823E-002;-8.247797377407551E-003;1.131145108956844E-004;
2.422500000000000E+009;1.484782695770264E-001;-9.484233707189560E-002;-8.213208988308907E-003;5.789115093648434E-004;
2.422666666666667E+009;1.474716216325760E-001;-9.494064748287201E-002;-8.119925856590271E-003;9.661068907007575E-004;
2.422833333333334E+009;1.462679952383041E-001;-9.479071199893951E-002;-8.106760680675507E-003;1.288396306335926E-003;
2.423000000000000E+009;1.450915634632111E-001;-9.464347362518311E-002;-8.072636090219021E-003;1.563350437209010E-003;
2.423166666666667E+009;1.436922103166580E-001;-9.447402507066727E-002;-7.937541231513023E-003;1.950093894265592E-003;
2.423333333333334E+009;1.423607319593430E-001;-9.440793097019196E-002;-7.703472860157490E-003;2.178662456572056E-003;
2.423500000000000E+009;1.409197300672531E-001;-9.452489763498306E-002;-7.473014760762453E-003;2.498740563169122E-003;
2.423666666666667E+009;1.393350511789322E-001;-9.459485858678818E-002;-7.238481659442186E-003;2.866165246814489E-003;
2.423833333333334E+009;1.380369514226914E-001;-9.468052536249161E-002;-7.195725105702877E-003;3.012823406606913E-003;
2.424000000000000E+009;1.363662630319595E-001;-9.486237168312073E-002;-7.057773880660534E-003;3.291335189715028E-003;
2.424166666666667E+009;1.348667442798615E-001;-9.532497823238373E-002;-6.601570174098015E-003;3.351981285959482E-003;
2.424333333333334E+009;1.334879994392395E-001;-9.568511694669724E-002;-6.526271346956492E-003;3.754814853891730E-003;
2.424500000000000E+009;1.319621652364731E-001;-9.609504789113998E-002;-6.232510320842266E-003;3.804677398875356E-003;
2.424666666666667E+009;1.305636614561081E-001;-9.659200161695480E-002;-6.100552622228861E-003;3.727547358721495E-003;
2.424833333333334E+009;1.290273815393448E-001;-9.727672487497330E-002;-5.857906769961119E-003;4.143347963690758E-003;
2.425000000000000E+009;1.276986598968506E-001;-9.819082170724869E-002;-5.628528539091349E-003;4.057647660374641E-003;
2.425166666666667E+009;1.262287199497223E-001;-9.907043725252152E-002;-5.475108511745930E-003;4.351016134023666E-003;
2.425333333333334E+009;1.250295639038086E-001;-9.994340687990189E-002;-5.261871032416821E-003;4.388206172734499E-003;
2.425500000000000E+009;1.238924711942673E-001;-1.011322140693665E-001;-5.028153769671917E-003;4.449085798114538E-003;
2.425666666666667E+009;1.225223168730736E-001;-1.022741273045540E-001;-4.959356971085072E-003;4.674133844673634E-003;
2.425833333333334E+009;1.215487420558929E-001;-1.035307943820953E-001;-4.704090300947428E-003;4.833591636270285E-003;
2.426000000000000E+009;1.205043867230415E-001;-1.049634143710136E-001;-4.511088132858276E-003;4.941249731928110E-003;
2.426166666666667E+009;1.197786331176758E-001;-1.063871458172798E-001;-4.274136852473021E-003;5.123356822878122E-003;
2.426333333333334E+009;1.187480464577675E-001;-1.078095063567162E-001;-4.026764072477818E-003;5.078999791294336E-003;
2.426500000000000E+009;1.179656460881233E-001;-1.092992424964905E-001;-3.785913577303290E-003;5.223405547440052E-003;
2.426666666666667E+009;1.174336969852448E-001;-1.106783971190453E-001;-3.533351700752974E-003;5.347488913685083E-003;
2.426833333333334E+009;1.167862117290497E-001;-1.123435199260712E-001;-3.181106410920620E-003;5.347452126443386E-003;
2.427000000000000E+009;1.160644590854645E-001;-1.139470115303993E-001;-3.093559294939041E-003;5.299195647239685E-003;
2.427166666666667E+009;1.157254800200462E-001;-1.155345514416695E-001;-2.658639568835497E-003;5.333663895726204E-003;
2.427333333333334E+009;1.151951327919960E-001;-1.171568706631661E-001;-2.584833418950439E-003;5.297849420458078E-003;
2.427500000000000E+009;1.150280535221100E-001;-1.187947541475296E-001;-2.162930788472295E-003;5.195788573473692E-003;
2.427666666666667E+009;1.148446723818779E-001;-1.204357519745827E-001;-1.915700733661652E-003;5.121983587741852E-003;
