# Version 1.00
#
freq[Hz];re:Trc1_S11;im:Trc1_S11;re:Trc2_S21;im:Trc2_S21;
2.400000000000000E+009;1.545200943946838E-001;6.147513911128044E-002;3.070779144763947E-003;-2.377320779487491E-003;
2.400166666666667E+009;1.546594053506851E-001;5.962760001420975E-002;3.024749457836151E-003;-2.416444942355156E-003;
2.400333333333334E+009;1.546148210763931E-001;5.732329189777374E-002;3.002968383952975E-003;-2.607766073197126E-003;
2.400500000000000E+009;1.546951979398727E-001;5.509917810559273E-002;2.940503880381584E-003;-2.568853320553899E-003;
2.400666666666667E+009;1.548925489187241E-001;5.291884019970894E-002;2.923262538388372E-003;-2.993576927110553E-003;
2.400833333333334E+009;1.550382673740387E-001;5.077005550265312E-002;2.783189062029123E-003;-3.081936622038484E-003;
2.401000000000000E+009;1.555132567882538E-001;4.848158732056618E-002;2.699998207390308E-003;-3.213177900761366E-003;
2.401166666666667E+009;1.560025960206986E-001;4.624269530177116E-002;2.422073623165488E-003;-3.157666185870767E-003;
2.401333333333334E+009;1.563290357589722E-001;4.383962228894234E-002;2.572050550952554E-003;-3.183864988386631E-003;
2.401500000000000E+009;1.570963412523270E-001;4.177134484052658E-002;2.273334655910730E-003;-3.350371727719903E-003;
2.401666666666667E+009;1.575440764427185E-001;3.967601060867310E-002;2.206239383667707E-003;-3.224537242203951E-003;
2.401833333333334E+009;1.583311557769775E-001;3.750300407409668E-002;1.964629860594869E-003;-3.507944755256176E-003;
2.402000000000000E+009;1.589070260524750E-001;3.541702777147293E-002;2.121043857187033E-003;-3.551827510818839E-003;
2.402166666666667E+009;1.598002910614014E-001;3.333325684070587E-002;1.904974807985127E-003;-3.664082614704967E-003;
2.402333333333334E+009;1.606733798980713E-001;3.161790221929550E-002;1.718465355224907E-003;-3.774034790694714E-003;
2.402500000000000E+009;1.618344336748123E-001;2.989081479609013E-002;1.634083455428481E-003;-3.717905143275857E-003;
2.402666666666667E+009;1.627274453639984E-001;2.803033031523228E-002;1.597778405994177E-003;-3.680579364299774E-003;
2.402833333333334E+009;1.639230251312256E-001;2.625378407537937E-002;1.107437885366380E-003;-3.883871017023921E-003;
2.403000000000000E+009;1.648506969213486E-001;2.484006248414516E-002;1.206142362207174E-003;-4.006113857030869E-003;
2.403166666666667E+009;1.660744994878769E-001;2.337198331952095E-002;7.860977784730494E-004;-3.781696315854788E-003;
2.403333333333334E+009;1.669885814189911E-001;2.213001251220703E-002;7.270706119015813E-004;-3.913694061338902E-003;
2.403500000000000E+009;1.682784855365753E-001;2.096914686262608E-002;6.033893441781402E-004;-4.008096642792225E-003;
2.403666666666667E+009;1.695345789194107E-001;1.968712545931339E-002;3.845805476885289E-004;-3.806282766163349E-003;
2.403833333333334E+009;1.706165671348572E-001;1.866735145449638E-002;3.245026164222509E-004;-3.789982758462429E-003;
2.404000000000000E+009;1.716890633106232E-001;1.784740760922432E-002;1.147376606240869E-004;-3.892179578542709E-003;
2.404166666666667E+009;1.728004962205887E-001;1.690779253840447E-002;-8.467002771794796E-005;-3.823996288701892E-003;
2.404333333333334E+009;1.739169359207153E-001;1.626726426184177E-002;-2.564923488534987E-004;-3.825349034741521E-003;
2.404500000000000E+009;1.748459935188294E-001;1.551289856433868E-002;-3.759163955692202E-004;-3.532269503921270E-003;
2.404666666666667E+009;1.757813245058060E-001;1.497277989983559E-002;-3.979124012403190E-004;-3.444134024903178E-003;
2.404833333333334E+009;1.767117977142334E-001;1.465388480573893E-002;-6.658365018665791E-004;-3.611161606386304E-003;
2.405000000000000E+009;1.775121241807938E-001;1.416816655546427E-002;-7.426563533954322E-004;-3.611126216128469E-003;
2.405166666666667E+009;1.783532202243805E-001;1.389045175164938E-002;-9.162808419205248E-004;-3.411951009184122E-003;
2.405333333333334E+009;1.790686100721359E-001;1.334054023027420E-002;-1.027604914270341E-003;-3.260517725721002E-003;
2.405500000000000E+009;1.795660406351090E-001;1.334586739540100E-002;-1.042098505422473E-003;-3.128337441012263E-003;
2.405666666666667E+009;1.800769567489624E-001;1.320433709770441E-002;-1.005636993795633E-003;-2.802759176120162E-003;
2.405833333333334E+009;1.805000901222229E-001;1.312608551234007E-002;-1.324410550296307E-003;-2.699509495869279E-003;
2.406000000000000E+009;1.808958202600479E-001;1.284693274646998E-002;-1.188563415780664E-003;-2.799068344756961E-003;
2.406166666666667E+009;1.810921579599381E-001;1.299885939806700E-002;-1.314495457336307E-003;-2.663014456629753E-003;
2.406333333333334E+009;1.815897077322006E-001;1.290407311171293E-002;-1.323335454799235E-003;-2.479125745594502E-003;
2.406500000000000E+009;1.814485639333725E-001;1.259116549044848E-002;-1.349479309283197E-003;-2.286346163600683E-003;
2.406666666666667E+009;1.812640577554703E-001;1.260404102504253E-002;-1.350143342278898E-003;-2.328843111172319E-003;
2.406833333333334E+009;1.812714934349060E-001;1.237152237445116E-002;-1.304052304476500E-003;-2.243987517431378E-003;
2.407000000000000E+009;1.812999695539475E-001;1.198274269700050E-002;-1.371785416267812E-003;-2.025790745392442E-003;
2.407166666666667E+009;1.809279918670654E-001;1.199525967240334E-002;-1.205422566272318E-003;-1.979131018742919E-003;
2.407333333333334E+009;1.804337501525879E-001;1.156878285109997E-002;-1.274178386665881E-003;-1.924027106724680E-003;
2.407500000000000E+009;1.798921078443527E-001;1.118953712284565E-002;-1.188396243378520E-003;-1.907985308207572E-003;
2.407666666666667E+009;1.793950647115707E-001;1.069606002420187E-002;-1.254647388122976E-003;-1.750210300087929E-003;
2.407833333333334E+009;1.787440925836563E-001;1.005991455167532E-002;-1.178512466140091E-003;-1.677242456935346E-003;
2.408000000000000E+009;1.780256330966950E-001;9.463026188313961E-003;-1.151492586359382E-003;-1.741196028888226E-003;
2.408166666666667E+009;1.775356084108353E-001;8.783287368714809E-003;-1.124588306993246E-003;-1.631788443773985E-003;
2.408333333333334E+009;1.768104135990143E-001;7.764069829136133E-003;-9.182642097584903E-004;-1.618878683075309E-003;
2.408500000000000E+009;1.758918315172195E-001;6.873912643641233E-003;-1.072469516657293E-003;-1.664630603045225E-003;
2.408666666666667E+009;1.750581115484238E-001;5.732276011258364E-003;-9.571005357429385E-004;-1.523586921393871E-003;
2.408833333333334E+009;1.742084920406342E-001;4.545014351606369E-003;-7.445784867741168E-004;-1.640412607230246E-003;
2.409000000000000E+009;1.732829809188843E-001;3.459121566265822E-003;-9.136165026575327E-004;-1.716174068860710E-003;
2.409166666666667E+009;1.726423054933548E-001;2.139472635462880E-003;-8.276163716800511E-004;-1.794707146473229E-003;
2.409333333333334E+009;1.717118322849274E-001;4.952733288519085E-004;-8.351021097041667E-004;-1.843355479650199E-003;
2.409500000000000E+009;1.707750409841538E-001;-1.079062581993640E-003;-7.512308657169342E-004;-1.711877877824009E-003;
2.409666666666667E+009;1.699344366788864E-001;-2.794550266116858E-003;-8.377641206607223E-004;-1.713371719233692E-003;
2.409833333333334E+009;1.692229807376862E-001;-4.503150470554829E-003;-8.793455199338496E-004;-1.683385926298797E-003;
2.410000000000000E+009;1.685924381017685E-001;-6.257646251469851E-003;-8.128627669066191E-004;-1.881634700112045E-003;
2.410166666666667E+009;1.678971648216248E-001;-8.193943649530411E-003;-8.603089372627437E-004;-1.947194803506136E-003;
2.410333333333334E+009;1.673037409782410E-001;-1.004797313362360E-002;-8.831166778691113E-004;-2.017143648117781E-003;
2.410500000000000E+009;1.669261157512665E-001;-1.220739632844925E-002;-1.058266847394407E-003;-1.962560461834073E-003;
2.410666666666667E+009;1.662991493940353E-001;-1.431336533278227E-002;-9.881961159408093E-004;-1.985620940104127E-003;
2.410833333333334E+009;1.660718321800232E-001;-1.615310460329056E-002;-1.166613539680839E-003;-2.090412890538573E-003;
2.411000000000000E+009;1.657703369855881E-001;-1.823467947542667E-002;-1.058358699083328E-003;-2.071344293653965E-003;
2.411166666666667E+009;1.657690405845642E-001;-2.044005692005158E-002;-1.222688355483115E-003;-2.099789911881089E-003;
2.411333333333334E+009;1.655292659997940E-001;-2.276818640530109E-002;-1.252381363883615E-003;-2.261673565953970E-003;
2.411500000000000E+009;1.655402779579163E-001;-2.476660348474979E-002;-1.467859838157892E-003;-2.093603368848562E-003;
2.411666666666667E+009;1.657266020774841E-001;-2.680204249918461E-002;-1.468193600885570E-003;-2.198092639446259E-003;
2.411833333333334E+009;1.660445779561997E-001;-2.885114774107933E-002;-1.585923135280609E-003;-2.096211072057486E-003;
2.412000000000000E+009;1.664442121982575E-001;-3.104463219642639E-002;-1.601593452505767E-003;-2.069408306851983E-003;
2.412166666666667E+009;1.665175259113312E-001;-3.304370120167732E-002;-1.701805973425508E-003;-1.973738661035895E-003;
2.412333333333334E+009;1.671274006366730E-001;-3.502314910292625E-002;-1.962484791874886E-003;-1.943546347320080E-003;
2.412500000000000E+009;1.675986647605896E-001;-3.689968213438988E-002;-2.011028351262212E-003;-2.020657295361161E-003;
2.412666666666667E+009;1.683086305856705E-001;-3.910985216498375E-002;-2.041688421741128E-003;-1.873687724582851E-003;
2.412833333333334E+009;1.688582599163055E-001;-4.068959876894951E-002;-2.058716956526041E-003;-1.849931664764881E-003;
2.413000000000000E+009;1.695101708173752E-001;-4.254079237580299E-002;-2.258245833218098E-003;-1.870100153610110E-003;
2.413166666666667E+009;1.700770407915115E-001;-4.416494444012642E-002;-2.288219286128879E-003;-1.734953955747187E-003;
2.413333333333334E+009;1.708784848451614E-001;-4.579783976078033E-002;-2.263132948428392E-003;-1.627968274988234E-003;
2.413500000000000E+009;1.717534363269806E-001;-4.733815789222717E-002;-2.335701836273074E-003;-1.558864489197731E-003;
2.413666666666667E+009;1.725794076919556E-001;-4.864859953522682E-002;-2.406747080385685E-003;-1.265597646124661E-003;
2.413833333333334E+009;1.732497960329056E-001;-5.008624121546745E-002;-2.544915536418557E-003;-1.291844760999084E-003;
2.414000000000000E+009;1.740273535251617E-001;-5.133874714374542E-002;-2.437289571389556E-003;-1.241012592799962E-003;
2.414166666666667E+009;1.747314482927322E-001;-5.234691500663757E-002;-2.412412315607071E-003;-1.298764836974442E-003;
2.414333333333334E+009;1.756145060062408E-001;-5.345964431762695E-002;-2.620578277856112E-003;-1.001307973638177E-003;
2.414500000000000E+009;1.763065755367279E-001;-5.419152602553368E-002;-2.648579888045788E-003;-9.888707427307963E-004;
2.414666666666667E+009;1.769809871912003E-001;-5.507587268948555E-002;-2.582176588475704E-003;-8.366164984181523E-004;
2.414833333333334E+009;1.774873286485672E-001;-5.585017800331116E-002;-2.486262004822493E-003;-7.157044019550085E-004;
2.415000000000000E+009;1.779933124780655E-001;-5.633497238159180E-002;-2.638886682689190E-003;-7.659162511117756E-004;
2.415166666666667E+009;1.784857809543610E-001;-5.690226703882217E-002;-2.507962286472321E-003;-8.139332639984787E-004;
2.415333333333334E+009;1.789298653602600E-001;-5.740184336900711E-002;-2.729192143306136E-003;-5.204217159189284E-004;
2.415500000000000E+009;1.793378442525864E-001;-5.749188736081123E-002;-2.600894542410970E-003;-6.143418140709400E-004;
2.415666666666667E+009;1.794537007808685E-001;-5.786300078034401E-002;-2.581463661044836E-003;-4.251409263815731E-004;
2.415833333333334E+009;1.797010153532028E-001;-5.807161703705788E-002;-2.512058941647410E-003;-2.696293813642114E-004;
2.416000000000000E+009;1.796143651008606E-001;-5.828134343028069E-002;-2.577532082796097E-003;-2.149419742636383E-004;
2.416166666666667E+009;1.797372847795487E-001;-5.827381834387779E-002;-2.552716527134180E-003;-2.819055516738445E-004;
2.416333333333334E+009;1.795376986265183E-001;-5.837960913777351E-002;-2.497538924217224E-003;-1.389143872074783E-004;
2.416500000000000E+009;1.793537884950638E-001;-5.857421830296516E-002;-2.576473169028759E-003;-1.703027228359133E-004;
2.416666666666667E+009;1.788170039653778E-001;-5.840145424008369E-002;-2.537803025916219E-003;-1.238198892679066E-004;
2.416833333333334E+009;1.785821467638016E-001;-5.857699736952782E-002;-2.507251454517245E-003;4.722374796983786E-005;
2.417000000000000E+009;1.776954978704453E-001;-5.877964943647385E-002;-2.776808803901076E-003;-1.809371315175667E-005;
2.417166666666667E+009;1.771019250154495E-001;-5.869041010737419E-002;-2.529273973777890E-003;1.357872679363936E-004;
2.417333333333334E+009;1.763062030076981E-001;-5.869907513260841E-002;-2.585109556093812E-003;2.876844955608249E-004;
2.417500000000000E+009;1.753652393817902E-001;-5.899179726839066E-002;-2.443383447825909E-003;1.782812178134918E-004;
2.417666666666667E+009;1.745140999555588E-001;-5.901628732681274E-002;-2.333509037271142E-003;2.659631718415767E-004;
2.417833333333334E+009;1.734748035669327E-001;-5.910125002264977E-002;-2.470901934430003E-003;2.570085634943098E-004;
2.418000000000000E+009;1.723128855228424E-001;-5.963430181145668E-002;-2.432427136227489E-003;3.779711551032960E-004;
2.418166666666667E+009;1.710424274206162E-001;-5.984037369489670E-002;-2.463221317157149E-003;4.960692604072392E-004;
2.418333333333334E+009;1.700758635997772E-001;-6.035944074392319E-002;-2.305623376742005E-003;4.867962561547756E-004;
2.418500000000000E+009;1.686394065618515E-001;-6.069639325141907E-002;-2.362251048907638E-003;5.607428611256182E-004;
2.418666666666667E+009;1.674147397279739E-001;-6.130022928118706E-002;-2.224319847300649E-003;5.115612293593586E-004;
2.418833333333334E+009;1.659423112869263E-001;-6.194598227739334E-002;-2.315110992640257E-003;5.536781391128898E-004;
2.419000000000000E+009;1.642620563507080E-001;-6.278248876333237E-002;-2.259611850604415E-003;6.658221245743334E-004;
2.419166666666667E+009;1.629513353109360E-001;-6.350825726985931E-002;-2.278362866491079E-003;6.406197790056467E-004;
2.419333333333334E+009;1.613801866769791E-001;-6.426909565925598E-002;-2.377445111051202E-003;5.652475520037115E-004;
2.419500000000000E+009;1.602867543697357E-001;-6.559827923774719E-002;-2.216214081272483E-003;6.429216009564698E-004;
2.419666666666667E+009;1.588727235794067E-001;-6.675458699464798E-002;-2.132923575118184E-003;6.480330484919250E-004;
2.419833333333334E+009;1.575712859630585E-001;-6.763380765914917E-002;-2.165173878893256E-003;7.675861124880612E-004;
2.420000000000000E+009;1.562603712081909E-001;-6.899646669626236E-002;-2.114126924425364E-003;7.824268541298807E-004;
2.420166666666667E+009;1.551705598831177E-001;-7.032977044582367E-002;-2.087963279336691E-003;7.610269240103662E-004;
2.420333333333334E+009;1.540357321500778E-001;-7.189716398715973E-002;-2.177025191485882E-003;7.011116831563413E-004;
2.420500000000000E+009;1.531019955873489E-001;-7.330744713544846E-002;-2.260308945551515E-003;8.088487666100264E-004;
2.420666666666667E+009;1.519650071859360E-001;-7.471329718828201E-002;-2.306700916960836E-003;8.932160562835634E-004;
2.420833333333334E+009;1.510890722274780E-001;-7.644262909889221E-002;-2.359734615311027E-003;8.755464223213494E-004;
2.421000000000000E+009;1.502764672040939E-001;-7.812608778476715E-002;-2.485582605004311E-003;9.159404435195029E-004;
2.421166666666667E+009;1.496231108903885E-001;-7.989802956581116E-002;-2.328663133084774E-003;1.120666158385575E-003;
2.421333333333334E+009;1.490569859743118E-001;-8.172289282083511E-002;-2.296820050105453E-003;9.529702365398407E-004;
2.421500000000000E+009;1.484109312295914E-001;-8.364612609148026E-002;-2.336892532184720E-003;1.135683036409318E-003;
2.421666666666667E+009;1.480247527360916E-001;-8.540923148393631E-002;-2.446145517751575E-003;1.201372477225959E-003;
2.421833333333334E+009;1.479655951261520E-001;-8.723609894514084E-002;-2.456175396218896E-003;1.318658818490803E-003;
2.422000000000000E+009;1.476850509643555E-001;-8.897762000560761E-002;-2.434373600408435E-003;1.411813893355429E-003;
2.422166666666667E+009;1.477090269327164E-001;-9.105868637561798E-002;-2.444106619805098E-003;1.495973439887166E-003;
2.422333333333334E+009;1.477015912532806E-001;-9.262381494045258E-002;-2.590937307104468E-003;1.607944024726749E-003;
2.422500000000000E+009;1.477759033441544E-001;-9.449370205402374E-002;-2.415973693132401E-003;1.736341393552721E-003;
2.422666666666667E+009;1.479645967483521E-001;-9.642934054136276E-002;-2.294547157362104E-003;1.721955486573279E-003;
2.422833333333334E+009;1.482202410697937E-001;-9.807138890028000E-002;-2.305570524185896E-003;1.985382521525025E-003;
2.423000000000000E+009;1.485814899206162E-001;-9.983135014772415E-002;-2.255795057862997E-003;2.209994243457913E-003;
2.423166666666667E+009;1.491930186748505E-001;-1.014315783977509E-001;-2.283255802467465E-003;2.165990881621838E-003;
2.423333333333334E+009;1.496949493885040E-001;-1.029248833656311E-001;-2.220442285761237E-003;2.228385303169489E-003;
2.423500000000000E+009;1.501578092575073E-001;-1.044526398181915E-001;-2.003132831305265E-003;2.375950338318944E-003;
2.423666666666667E+009;1.506639271974564E-001;-1.060382947325707E-001;-2.062717452645302E-003;2.538310363888741E-003;
2.423833333333334E+009;1.515156477689743E-001;-1.072333529591560E-001;-1.945631112903357E-003;2.675545169040561E-003;
2.424000000000000E+009;1.520240902900696E-001;-1.085288599133492E-001;-1.865480327978730E-003;2.737914444878697E-003;
2.424166666666667E+009;1.526705920696259E-001;-1.097135767340660E-001;-1.760141341947019E-003;2.872964600101113E-003;
2.424333333333334E+009;1.534052491188049E-001;-1.107086092233658E-001;-1.558692310936749E-003;2.871104981750250E-003;
2.424500000000000E+009;1.541300415992737E-001;-1.117481216788292E-001;-1.454306882806122E-003;2.860316075384617E-003;
2.424666666666667E+009;1.548025310039520E-001;-1.126096025109291E-001;-1.416026498191059E-003;3.016415517777205E-003;
2.424833333333334E+009;1.552088260650635E-001;-1.133969947695732E-001;-1.202421728521586E-003;2.946040127426386E-003;
2.425000000000000E+009;1.559636741876602E-001;-1.142370402812958E-001;-1.171758864074945E-003;2.980191493406892E-003;
2.425166666666667E+009;1.563178300857544E-001;-1.149914115667343E-001;-9.627030231058598E-004;3.171903779730201E-003;
2.425333333333334E+009;1.568692922592163E-001;-1.153976768255234E-001;-7.482604705728591E-004;3.171831136569381E-003;
2.425500000000000E+009;1.573919057846069E-001;-1.158256903290749E-001;-7.026144885458052E-004;3.185560693964362E-003;
2.425666666666667E+009;1.575992405414581E-001;-1.161570176482201E-001;-5.841105594299734E-004;3.125448944047093E-003;
2.425833333333334E+009;1.578781753778458E-001;-1.165605038404465E-001;-5.361929070204496E-004;3.308962564915419E-003;
2.426000000000000E+009;1.579753011465073E-001;-1.168258264660835E-001;-2.960355195682496E-004;3.193352604284883E-003;
2.426166666666667E+009;1.583420336246491E-001;-1.170369237661362E-001;-1.504639512859285E-004;3.065436612814665E-003;
2.426333333333334E+009;1.581440865993500E-001;-1.171349510550499E-001;-1.365491625620052E-004;3.043161239475012E-003;
2.426500000000000E+009;1.580629944801331E-001;-1.171951442956924E-001;-3.610189742175862E-005;3.219187492504716E-003;
2.426666666666667E+009;1.580849289894104E-001;-1.170753389596939E-001;-1.727212293189950E-005;3.176265861839056E-003;
2.426833333333334E+009;1.575792729854584E-001;-1.170706301927567E-001;2.842750691343099E-004;3.068223362788558E-003;
2.427000000000000E+009;1.570873856544495E-001;-1.172077283263207E-001;2.467407030053437E-004;3.062796080484986E-003;
2.427166666666667E+009;1.566192209720612E-001;-1.170670688152313E-001;5.019780364818871E-004;2.765167038887739E-003;
2.427333333333334E+009;1.559170782566071E-001;-1.170507147908211E-001;3.559171746019274E-004;3.076356137171388E-003;
2.427500000000000E+009;1.552895605564117E-001;-1.168962642550468E-001;6.702932296320796E-004;2.896394580602646E-003;
2.427666666666667E+009;1.543426811695099E-001;-1.170102581381798E-001;6.899680010974407E-004;2.910696668550372E-003;
