# Version 1.00
#
freq[Hz];re:Trc1_S11;im:Trc1_S11;re:Trc2_S21;im:Trc2_S21;
2.400000000000000E+009;1.546648889780045E-001;6.136720627546310E-002;3.160482039675117E-003;-2.351800911128521E-003;
2.400166666666667E+009;1.546709686517716E-001;5.945308879017830E-002;3.191787283867598E-003;-2.577600767835975E-003;
2.400333333333334E+009;1.545882821083069E-001;5.712532252073288E-002;3.127605188637972E-003;-2.621556632220745E-003;
2.400500000000000E+009;1.549395322799683E-001;5.508277565240860E-002;2.900465391576290E-003;-2.644254127517343E-003;
2.400666666666667E+009;1.549242138862610E-001;5.263071507215500E-002;2.841738751158118E-003;-2.889901632443070E-003;
2.400833333333334E+009;1.554097086191177E-001;5.059739947319031E-002;2.822921145707369E-003;-2.922778483480215E-003;
2.401000000000000E+009;1.556179076433182E-001;4.822634905576706E-002;2.638136502355337E-003;-3.111036960035563E-003;
2.401166666666667E+009;1.560113430023193E-001;4.610034078359604E-002;2.530343364924192E-003;-3.181890817359090E-003;
2.401333333333334E+009;1.562393605709076E-001;4.378653690218926E-002;2.475976012647152E-003;-3.304756944999099E-003;
2.401500000000000E+009;1.570954918861389E-001;4.158344864845276E-002;2.407553372904658E-003;-3.400448011234403E-003;
2.401666666666667E+009;1.577356755733490E-001;3.941424190998077E-002;2.252619480714202E-003;-3.405783325433731E-003;
2.401833333333334E+009;1.581802368164063E-001;3.727017715573311E-002;2.163548953831196E-003;-3.459701081737876E-003;
2.402000000000000E+009;1.588219851255417E-001;3.524117544293404E-002;2.022826345637441E-003;-3.679976100102067E-003;
2.402166666666667E+009;1.597536057233810E-001;3.313888609409332E-002;1.778497011400759E-003;-3.577680094167590E-003;
2.402333333333334E+009;1.606738269329071E-001;3.138735890388489E-002;1.481899642385542E-003;-3.791807917878032E-003;
2.402500000000000E+009;1.617682874202728E-001;2.952454052865505E-002;1.526487758383155E-003;-3.848640015348792E-003;
2.402666666666667E+009;1.625790446996689E-001;2.806364744901657E-002;1.407115138135850E-003;-3.778961021453142E-003;
2.402833333333334E+009;1.638055294752121E-001;2.650080807507038E-002;1.148493727669120E-003;-3.706296905875206E-003;
2.403000000000000E+009;1.648475974798203E-001;2.484525553882122E-002;1.040182774886489E-003;-4.015651531517506E-003;
2.403166666666667E+009;1.658675521612167E-001;2.336240001022816E-002;1.050888327881694E-003;-3.858764888718724E-003;
2.403333333333334E+009;1.671096533536911E-001;2.228487655520439E-002;7.514480967074633E-004;-3.946177195757628E-003;
2.403500000000000E+009;1.681492924690247E-001;2.103055082261562E-002;5.757681792601943E-004;-3.927153069525957E-003;
2.403666666666667E+009;1.692700684070587E-001;1.964980922639370E-002;3.863242163788527E-004;-4.099722951650620E-003;
2.403833333333334E+009;1.705688685178757E-001;1.876430399715900E-002;3.241690865252167E-004;-3.859697841107845E-003;
2.404000000000000E+009;1.716896742582321E-001;1.791609823703766E-002;1.252965303137898E-004;-3.967913333326578E-003;
2.404166666666667E+009;1.728195101022720E-001;1.695962063968182E-002;-2.078823890769854E-004;-3.967272117733955E-003;
2.404333333333334E+009;1.738887429237366E-001;1.636086031794548E-002;-1.800450845621526E-004;-3.865184029564261E-003;
2.404500000000000E+009;1.746496111154556E-001;1.547193154692650E-002;-3.555184812285006E-004;-3.678146284073591E-003;
2.404666666666667E+009;1.757843792438507E-001;1.499020494520664E-002;-4.475375462789089E-004;-3.678700421005487E-003;
2.404833333333334E+009;1.766955852508545E-001;1.449905708432198E-002;-5.652214167639613E-004;-3.547178581357002E-003;
2.405000000000000E+009;1.775211244821549E-001;1.422103028744459E-002;-8.587113698013127E-004;-3.419586224481463E-003;
2.405166666666667E+009;1.783560216426849E-001;1.380968932062388E-002;-8.201837190426886E-004;-3.279604017734528E-003;
2.405333333333334E+009;1.791384965181351E-001;1.342586707323790E-002;-8.094118093140423E-004;-3.125963965430856E-003;
2.405500000000000E+009;1.797945499420166E-001;1.337404735386372E-002;-9.685601689852774E-004;-2.949041314423084E-003;
2.405666666666667E+009;1.803451776504517E-001;1.316431164741516E-002;-1.140756066888571E-003;-2.883312990888953E-003;
2.405833333333334E+009;1.806364655494690E-001;1.310151908546686E-002;-1.208515139296651E-003;-2.798953792080283E-003;
2.406000000000000E+009;1.810280233621597E-001;1.278411410748959E-002;-1.385663636028767E-003;-2.638981910422444E-003;
2.406166666666667E+009;1.811532974243164E-001;1.290876418352127E-002;-1.273978617973626E-003;-2.402786398306489E-003;
2.406333333333334E+009;1.815799921751022E-001;1.283858064562082E-002;-1.310258172452450E-003;-2.329524140805006E-003;
2.406500000000000E+009;1.816081851720810E-001;1.262638065963984E-002;-1.240709563717246E-003;-2.244148403406143E-003;
2.406666666666667E+009;1.813924163579941E-001;1.247631292790175E-002;-1.371674472466111E-003;-2.253266051411629E-003;
2.406833333333334E+009;1.812971234321594E-001;1.229006517678499E-002;-1.240290002897382E-003;-2.163022523745894E-003;
2.407000000000000E+009;1.813158094882965E-001;1.214631460607052E-002;-1.150601776316762E-003;-2.016404410824180E-003;
2.407166666666667E+009;1.809258460998535E-001;1.192665286362171E-002;-1.104407245293260E-003;-1.828992040827870E-003;
2.407333333333334E+009;1.804062724113464E-001;1.136186625808477E-002;-1.277042436413467E-003;-1.870351610705257E-003;
2.407500000000000E+009;1.799353957176209E-001;1.115417387336493E-002;-1.350749400444329E-003;-1.762305153533816E-003;
2.407666666666667E+009;1.794524043798447E-001;1.067771762609482E-002;-1.167912385426462E-003;-1.580105745233595E-003;
2.407833333333334E+009;1.787296235561371E-001;1.003756467252970E-002;-1.123597263358533E-003;-1.668963814154267E-003;
2.408000000000000E+009;1.780832260847092E-001;9.310581721365452E-003;-1.151662785559893E-003;-1.672328682616353E-003;
2.408166666666667E+009;1.773820817470551E-001;8.611022494733334E-003;-9.711585589684546E-004;-1.582829980179668E-003;
2.408333333333334E+009;1.766453832387924E-001;7.869572378695011E-003;-1.068266457878053E-003;-1.647649565711618E-003;
2.408500000000000E+009;1.759252697229385E-001;6.949881557375193E-003;-9.648402919992805E-004;-1.684681046754122E-003;
2.408666666666667E+009;1.751598119735718E-001;5.748249590396881E-003;-9.938321309164167E-004;-1.787069719284773E-003;
2.408833333333334E+009;1.741443127393723E-001;4.532861988991499E-003;-7.756224949844182E-004;-1.746798399835825E-003;
2.409000000000000E+009;1.733013689517975E-001;3.373385407030582E-003;-8.077290258370340E-004;-1.654352643527091E-003;
2.409166666666667E+009;1.724149733781815E-001;1.984108472242951E-003;-7.959806243889034E-004;-1.662243041209877E-003;
2.409333333333334E+009;1.717804372310638E-001;4.277577681932598E-004;-7.068518898449838E-004;-1.738556195050478E-003;
2.409500000000000E+009;1.707333773374558E-001;-1.361153554171324E-003;-6.550948601216078E-004;-1.721383188851178E-003;
2.409666666666667E+009;1.699868142604828E-001;-2.927740570157766E-003;-7.793596014380455E-004;-1.729425741359592E-003;
2.409833333333334E+009;1.693041473627091E-001;-4.508699290454388E-003;-8.204402984119952E-004;-1.963671529665589E-003;
2.410000000000000E+009;1.685129702091217E-001;-6.192009430378676E-003;-9.049414074979723E-004;-1.848581945523620E-003;
2.410166666666667E+009;1.680262088775635E-001;-8.190510794520378E-003;-9.392367210239172E-004;-1.830375404097140E-003;
2.410333333333334E+009;1.674636602401733E-001;-1.010893564671278E-002;-9.263614774681628E-004;-2.021664055064321E-003;
2.410500000000000E+009;1.670062839984894E-001;-1.224167831242085E-002;-9.060069569386542E-004;-1.950433244928718E-003;
2.410666666666667E+009;1.663356423377991E-001;-1.437244098633528E-002;-9.482869645580649E-004;-2.087688539177179E-003;
2.410833333333334E+009;1.660054624080658E-001;-1.618824899196625E-002;-1.077431486919522E-003;-2.024921588599682E-003;
2.411000000000000E+009;1.657418459653854E-001;-1.836657151579857E-002;-1.166898757219315E-003;-2.053353236988187E-003;
2.411166666666667E+009;1.657435894012451E-001;-2.040274254977703E-002;-1.369890174828470E-003;-2.149778883904219E-003;
2.411333333333334E+009;1.655161529779434E-001;-2.259422838687897E-002;-1.337257795967162E-003;-2.107074484229088E-003;
2.411500000000000E+009;1.655538380146027E-001;-2.487057633697987E-002;-1.430957927368581E-003;-2.012393204495311E-003;
2.411666666666667E+009;1.659105718135834E-001;-2.685166150331497E-002;-1.497846096754074E-003;-2.142880577594042E-003;
2.411833333333334E+009;1.659742891788483E-001;-2.889232151210308E-002;-1.628630328923464E-003;-2.026549074798822E-003;
2.412000000000000E+009;1.663224697113037E-001;-3.095235861837864E-002;-1.701843924820423E-003;-2.014381811022759E-003;
2.412166666666667E+009;1.666729599237442E-001;-3.304310888051987E-002;-1.756403245963156E-003;-2.048973925411701E-003;
2.412333333333334E+009;1.672059148550034E-001;-3.503486886620522E-002;-1.712672063149512E-003;-2.006740076467395E-003;
2.412500000000000E+009;1.676143109798431E-001;-3.703438863158226E-002;-1.971060642972589E-003;-2.053609816357493E-003;
2.412666666666667E+009;1.682466566562653E-001;-3.902280330657959E-002;-1.928259152919054E-003;-1.853627036325634E-003;
2.412833333333334E+009;1.689842790365219E-001;-4.077848419547081E-002;-2.114742761477828E-003;-1.841492950916290E-003;
2.413000000000000E+009;1.694465428590775E-001;-4.244253411889076E-002;-2.403689781203866E-003;-1.776922727003694E-003;
2.413166666666667E+009;1.702160984277725E-001;-4.421845450997353E-002;-2.188156358897686E-003;-1.709629432298243E-003;
2.413333333333334E+009;1.710281223058701E-001;-4.571503028273583E-002;-2.277831779792905E-003;-1.602764008566737E-003;
2.413500000000000E+009;1.717321127653122E-001;-4.732949659228325E-002;-2.374603878706694E-003;-1.585081685334444E-003;
2.413666666666667E+009;1.725188642740250E-001;-4.870539903640747E-002;-2.212043618783355E-003;-1.320009236223996E-003;
2.413833333333334E+009;1.733422130346298E-001;-4.996461793780327E-002;-2.453543245792389E-003;-1.372009166516364E-003;
2.414000000000000E+009;1.739230453968048E-001;-5.125018209218979E-002;-2.502240706235170E-003;-1.212768140248954E-003;
2.414166666666667E+009;1.747833937406540E-001;-5.228955671191216E-002;-2.556552644819021E-003;-1.198348705656827E-003;
2.414333333333334E+009;1.754568517208099E-001;-5.353911221027374E-002;-2.530554775148630E-003;-1.156730577349663E-003;
2.414500000000000E+009;1.763506829738617E-001;-5.434824153780937E-002;-2.664191182702780E-003;-1.025620033033192E-003;
2.414666666666667E+009;1.769494861364365E-001;-5.504412949085236E-002;-2.525364048779011E-003;-8.823791868053377E-004;
2.414833333333334E+009;1.775796711444855E-001;-5.572031438350678E-002;-2.790557686239481E-003;-8.030665921978653E-004;
2.415000000000000E+009;1.780080199241638E-001;-5.636281892657280E-002;-2.561205998063088E-003;-9.040728327818215E-004;
2.415166666666667E+009;1.785502880811691E-001;-5.682070925831795E-002;-2.497860696166754E-003;-7.339914445765317E-004;
2.415333333333334E+009;1.790017038583756E-001;-5.715170130133629E-002;-2.541407942771912E-003;-7.809262606315315E-004;
2.415500000000000E+009;1.792682558298111E-001;-5.763743072748184E-002;-2.519317669793963E-003;-6.135879084467888E-004;
2.415666666666667E+009;1.796185076236725E-001;-5.784747377038002E-002;-2.699232194572687E-003;-4.143426485825330E-004;
2.415833333333334E+009;1.797462701797485E-001;-5.805985629558563E-002;-2.677457872778177E-003;-2.912280906457454E-004;
2.416000000000000E+009;1.797469705343247E-001;-5.823818966746330E-002;-2.729270840063691E-003;-4.000473418273032E-004;
2.416166666666667E+009;1.797797977924347E-001;-5.840208008885384E-002;-2.623190404847264E-003;-1.062812807504088E-004;
2.416333333333334E+009;1.795997917652130E-001;-5.846846848726273E-002;-2.542256144806743E-003;-2.532902581151575E-004;
2.416500000000000E+009;1.793236583471298E-001;-5.856574699282646E-002;-2.533962018787861E-003;-6.798575486754999E-005;
2.416666666666667E+009;1.788970082998276E-001;-5.851267278194428E-002;-2.573077334091067E-003;7.775290578138083E-005;
2.416833333333334E+009;1.786287426948547E-001;-5.864966660737991E-002;-2.703936537727714E-003;-1.405916691510356E-006;
2.417000000000000E+009;1.777489334344864E-001;-5.879448354244232E-002;-2.523334696888924E-003;7.479433406842873E-005;
2.417166666666667E+009;1.770939379930496E-001;-5.869628861546516E-002;-2.512325299903750E-003;1.852076529758051E-004;
2.417333333333334E+009;1.764099895954132E-001;-5.874015763401985E-002;-2.443341538310051E-003;1.644729927647859E-004;
2.417500000000000E+009;1.755013614892960E-001;-5.904081463813782E-002;-2.532755024731159E-003;3.219330974388868E-004;
2.417666666666667E+009;1.745492517948151E-001;-5.900292471051216E-002;-2.611420815810561E-003;3.727484436240047E-004;
2.417833333333334E+009;1.735613048076630E-001;-5.924372375011444E-002;-2.342977561056614E-003;4.464380035642535E-004;
2.418000000000000E+009;1.722843199968338E-001;-5.966974422335625E-002;-2.363230334594846E-003;3.086658252868801E-004;
2.418166666666667E+009;1.710468232631683E-001;-5.989946052432060E-002;-2.275012433528900E-003;4.977974458597601E-004;
2.418333333333334E+009;1.699745804071426E-001;-6.026017293334007E-002;-2.446156227961183E-003;4.883361398242414E-004;
2.418500000000000E+009;1.686274260282517E-001;-6.069172173738480E-002;-2.344070468097925E-003;5.652461550198495E-004;
2.418666666666667E+009;1.674539744853973E-001;-6.140275672078133E-002;-2.331870142370462E-003;5.426542484201491E-004;
2.418833333333334E+009;1.657944321632385E-001;-6.220023706555367E-002;-2.362924860790372E-003;7.473725127056241E-004;
2.419000000000000E+009;1.643418520689011E-001;-6.268750131130219E-002;-2.341676736250520E-003;4.936629557050765E-004;
2.419166666666667E+009;1.630506813526154E-001;-6.364446878433228E-002;-2.304663648828864E-003;7.270863279700279E-004;
2.419333333333334E+009;1.614655405282974E-001;-6.430697441101074E-002;-2.391617046669126E-003;7.122174720279872E-004;
2.419500000000000E+009;1.602151840925217E-001;-6.551899760961533E-002;-2.314222045242786E-003;7.299263379536569E-004;
2.419666666666667E+009;1.589038223028183E-001;-6.662543118000031E-002;-2.206639852374792E-003;6.779138348065317E-004;
2.419833333333334E+009;1.574134081602097E-001;-6.768217682838440E-002;-2.343327272683382E-003;7.065791869536042E-004;
2.420000000000000E+009;1.564522981643677E-001;-6.911355257034302E-002;-2.314479090273380E-003;8.803705568425357E-004;
2.420166666666667E+009;1.551142036914825E-001;-7.032061368227005E-002;-2.266410039737821E-003;8.402533130720258E-004;
2.420333333333334E+009;1.541308462619782E-001;-7.179012894630432E-002;-2.050567418336868E-003;8.799574570730329E-004;
2.420500000000000E+009;1.529702544212341E-001;-7.318694889545441E-002;-2.202139934524894E-003;8.316324674524367E-004;
2.420666666666667E+009;1.519632339477539E-001;-7.461905479431152E-002;-2.330636139959097E-003;8.139132405631244E-004;
2.420833333333334E+009;1.511825472116470E-001;-7.649150490760803E-002;-2.115884097293019E-003;9.170550620183349E-004;
2.421000000000000E+009;1.502590924501419E-001;-7.829418778419495E-002;-2.308829221874476E-003;9.177948813885450E-004;
2.421166666666667E+009;1.497101187705994E-001;-7.984523475170136E-002;-2.364005660638213E-003;1.004588906653225E-003;
2.421333333333334E+009;1.490943878889084E-001;-8.182312548160553E-002;-2.398330718278885E-003;1.074742525815964E-003;
2.421500000000000E+009;1.486985087394714E-001;-8.361544460058212E-002;-2.362446393817663E-003;1.077597262337804E-003;
2.421666666666667E+009;1.481777578592300E-001;-8.534227311611176E-002;-2.533913590013981E-003;1.170748495496810E-003;
2.421833333333334E+009;1.482011675834656E-001;-8.731631189584732E-002;-2.527661155909300E-003;1.268540625460446E-003;
2.422000000000000E+009;1.478402763605118E-001;-8.911592513322830E-002;-2.571539022028446E-003;1.375674502924085E-003;
2.422166666666667E+009;1.477749496698380E-001;-9.107419103384018E-002;-2.384545980021358E-003;1.365941134281457E-003;
2.422333333333334E+009;1.476815938949585E-001;-9.276515990495682E-002;-2.470271429046989E-003;1.472135772928596E-003;
2.422500000000000E+009;1.477163285017014E-001;-9.448782354593277E-002;-2.419847995042801E-003;1.593741471879184E-003;
2.422666666666667E+009;1.479392796754837E-001;-9.646929800510407E-002;-2.468786435201764E-003;1.808952190913260E-003;
2.422833333333334E+009;1.483628451824188E-001;-9.822476655244827E-002;-2.450432162731886E-003;1.866900594905019E-003;
2.423000000000000E+009;1.488032937049866E-001;-1.000015363097191E-001;-2.286339877173305E-003;1.974884653463960E-003;
2.423166666666667E+009;1.491187661886215E-001;-1.014811620116234E-001;-2.259877510368824E-003;2.173642162233591E-003;
2.423333333333334E+009;1.497816592454910E-001;-1.029863804578781E-001;-2.357876161113381E-003;2.330446382984519E-003;
2.423500000000000E+009;1.502792388200760E-001;-1.045040413737297E-001;-2.004049485549331E-003;2.395691350102425E-003;
2.423666666666667E+009;1.507528275251389E-001;-1.059876531362534E-001;-2.085461514070630E-003;2.494075801223517E-003;
2.423833333333334E+009;1.514728218317032E-001;-1.073021963238716E-001;-1.864873454906046E-003;2.655179938301444E-003;
2.424000000000000E+009;1.521452814340591E-001;-1.083581596612930E-001;-1.845628488808870E-003;2.762012416496873E-003;
2.424166666666667E+009;1.527657657861710E-001;-1.097876727581024E-001;-1.767539535649121E-003;2.958098892122507E-003;
2.424333333333334E+009;1.534936875104904E-001;-1.108757629990578E-001;-1.780633814632893E-003;2.866948721930385E-003;
2.424500000000000E+009;1.540767550468445E-001;-1.117790862917900E-001;-1.629907288588584E-003;3.009213600307703E-003;
2.424666666666667E+009;1.548049300909042E-001;-1.125656962394714E-001;-1.282264129258692E-003;3.098548622801900E-003;
2.424833333333334E+009;1.552823632955551E-001;-1.133833304047585E-001;-1.218409859575331E-003;3.128998680040240E-003;
2.425000000000000E+009;1.559524536132813E-001;-1.142641901969910E-001;-1.166271278634667E-003;3.060979302972555E-003;
2.425166666666667E+009;1.564865857362747E-001;-1.147923097014427E-001;-9.621334611438215E-004;3.187155351042748E-003;
2.425333333333334E+009;1.569141894578934E-001;-1.153817996382713E-001;-8.348562405444682E-004;3.122300608083606E-003;
2.425500000000000E+009;1.573929339647293E-001;-1.158585697412491E-001;-7.883309153839946E-004;3.146759234368801E-003;
2.425666666666667E+009;1.575322747230530E-001;-1.161858588457108E-001;-6.262359675019980E-004;3.187961643561721E-003;
2.425833333333334E+009;1.578903198242188E-001;-1.165449693799019E-001;-5.129541386850178E-004;3.082885174080730E-003;
2.426000000000000E+009;1.580136716365814E-001;-1.168978959321976E-001;-3.163961519021541E-004;3.147153416648507E-003;
2.426166666666667E+009;1.584285199642181E-001;-1.170125082135201E-001;-2.759489289019257E-004;3.176360391080380E-003;
2.426333333333334E+009;1.580484956502914E-001;-1.171378195285797E-001;-1.046024335664697E-004;3.125299233943224E-003;
2.426500000000000E+009;1.581254750490189E-001;-1.171358525753021E-001;3.797887256951071E-005;3.052175976336002E-003;
2.426666666666667E+009;1.580310016870499E-001;-1.170638874173164E-001;3.885836122208275E-005;3.029662650078535E-003;
2.426833333333334E+009;1.576265245676041E-001;-1.170599833130837E-001;1.133134574047290E-004;3.107447410002351E-003;
2.427000000000000E+009;1.571468114852905E-001;-1.172174736857414E-001;2.697446907404810E-004;3.081902395933867E-003;
2.427166666666667E+009;1.566982418298721E-001;-1.170263588428497E-001;2.610328083392233E-004;3.062847536057234E-003;
2.427333333333334E+009;1.559439599514008E-001;-1.170707195997238E-001;4.857697058469057E-004;2.884619170799851E-003;
2.427500000000000E+009;1.553004831075668E-001;-1.170438677072525E-001;6.691158632747829E-004;2.960659796372056E-003;
2.427666666666667E+009;1.543539464473724E-001;-1.170885860919952E-001;6.430677603930235E-004;3.007992869243026E-003;
