# Version 1.00
#
freq[Hz];re:Trc1_S11;im:Trc1_S11;re:Trc2_S21;im:Trc2_S21;
2.400000000000000E+009;1.545231342315674E-001;6.133930385112763E-002;2.971040783450007E-003;-2.408914268016815E-003;
2.400166666666667E+009;1.545952409505844E-001;5.946118012070656E-002;3.087400924414396E-003;-2.481181640177965E-003;
2.400333333333334E+009;1.546842455863953E-001;5.738369747996330E-002;3.140275133773685E-003;-2.652183407917619E-003;
2.400500000000000E+009;1.546843349933624E-001;5.518332496285439E-002;2.993929665535688E-003;-2.736447611823678E-003;
2.400666666666667E+009;1.549447774887085E-001;5.293228849768639E-002;2.720476826652885E-003;-2.893298864364624E-003;
2.400833333333334E+009;1.551440358161926E-001;5.064060166478157E-002;2.591557567939162E-003;-2.911999588832259E-003;
2.401000000000000E+009;1.556006669998169E-001;4.831961914896965E-002;2.665993757545948E-003;-3.159913467243314E-003;
2.401166666666667E+009;1.559423208236694E-001;4.609574005007744E-002;2.480750437825918E-003;-3.048258135095239E-003;
2.401333333333334E+009;1.564621627330780E-001;4.374128207564354E-002;2.449263585731387E-003;-3.126278286799789E-003;
2.401500000000000E+009;1.570331901311874E-001;4.150148108601570E-002;2.438642550259829E-003;-3.324777120724320E-003;
2.401666666666667E+009;1.576152741909027E-001;3.952686116099358E-002;2.248532604426146E-003;-3.361039794981480E-003;
2.401833333333334E+009;1.583433747291565E-001;3.740476816892624E-002;2.018402796238661E-003;-3.476371290162206E-003;
2.402000000000000E+009;1.589336991310120E-001;3.539514541625977E-002;1.927776262164116E-003;-3.723578294739127E-003;
2.402166666666667E+009;1.598499715328217E-001;3.332987427711487E-002;1.795928226783872E-003;-3.613378852605820E-003;
2.402333333333334E+009;1.605620533227921E-001;3.145965933799744E-002;1.521844998933375E-003;-3.508789232000709E-003;
2.402500000000000E+009;1.618493199348450E-001;2.963708713650703E-002;1.457405509427190E-003;-3.769702278077602E-003;
2.402666666666667E+009;1.626586914062500E-001;2.809175662696362E-002;1.411080593243241E-003;-3.717120736837387E-003;
2.402833333333334E+009;1.637202799320221E-001;2.658094465732575E-002;1.101735630072653E-003;-3.730759257450700E-003;
2.403000000000000E+009;1.649268567562103E-001;2.518284507095814E-002;1.048130448907614E-003;-3.879487747326493E-003;
2.403166666666667E+009;1.660483181476593E-001;2.358792163431644E-002;8.880835375748575E-004;-3.695107065141201E-003;
2.403333333333334E+009;1.672380864620209E-001;2.240123413503170E-002;7.321814773604274E-004;-3.888763487339020E-003;
2.403500000000000E+009;1.681035161018372E-001;2.100674062967300E-002;4.636194207705557E-004;-3.973390907049179E-003;
2.403666666666667E+009;1.692910939455032E-001;1.979317888617516E-002;4.157530202064663E-004;-3.881230484694243E-003;
2.403833333333334E+009;1.706815958023071E-001;1.878844946622849E-002;3.222793457098305E-004;-4.010920878499746E-003;
2.404000000000000E+009;1.717133224010468E-001;1.796572096645832E-002;1.212582210428082E-004;-3.799842204898596E-003;
2.404166666666667E+009;1.728092133998871E-001;1.693203300237656E-002;-2.232629776699469E-004;-3.692772006615996E-003;
2.404333333333334E+009;1.738581657409668E-001;1.627129130065441E-002;-2.814567706082016E-004;-3.916762303560972E-003;
2.404500000000000E+009;1.747968047857285E-001;1.558438781648874E-002;-2.936537493951619E-004;-3.584588179364801E-003;
2.404666666666667E+009;1.758906394243240E-001;1.506760716438294E-002;-4.317128041293472E-004;-3.629406914114952E-003;
2.404833333333334E+009;1.767051815986633E-001;1.455961633473635E-002;-7.927428232505918E-004;-3.473201533779502E-003;
2.405000000000000E+009;1.776591539382935E-001;1.423290371894836E-002;-6.870084907859564E-004;-3.345650853589177E-003;
2.405166666666667E+009;1.783335208892822E-001;1.380395609885454E-002;-9.441446163691580E-004;-3.283836180344224E-003;
2.405333333333334E+009;1.791658550500870E-001;1.347134821116924E-002;-1.018802518956363E-003;-3.168718889355660E-003;
2.405500000000000E+009;1.796454787254334E-001;1.333317998796701E-002;-1.053817337378860E-003;-3.064591204747558E-003;
2.405666666666667E+009;1.803531199693680E-001;1.328991074115038E-002;-1.090408768504858E-003;-2.873144112527371E-003;
2.405833333333334E+009;1.805792897939682E-001;1.316897757351399E-002;-1.234602183103561E-003;-2.753965323790908E-003;
2.406000000000000E+009;1.810591816902161E-001;1.286526676267386E-002;-1.230741268955171E-003;-2.734520006924868E-003;
2.406166666666667E+009;1.811048388481140E-001;1.292778644710779E-002;-1.285911654122174E-003;-2.619199687615037E-003;
2.406333333333334E+009;1.814236640930176E-001;1.277916785329580E-002;-1.274605514481664E-003;-2.573571633547545E-003;
2.406500000000000E+009;1.815044283866882E-001;1.260687597095966E-002;-1.200986676849425E-003;-2.364829415455461E-003;
2.406666666666667E+009;1.814276576042175E-001;1.256651710718870E-002;-1.390075311064720E-003;-2.197816036641598E-003;
2.406833333333334E+009;1.812502443790436E-001;1.241818629205227E-002;-1.363973598927259E-003;-2.161310752853751E-003;
2.407000000000000E+009;1.811577826738358E-001;1.221007946878672E-002;-1.264607883058488E-003;-1.980391098186374E-003;
2.407166666666667E+009;1.810731142759323E-001;1.206684671342373E-002;-1.323959208093584E-003;-1.973146107047796E-003;
2.407333333333334E+009;1.804255396127701E-001;1.153761055320501E-002;-1.160788582637906E-003;-1.848246552981436E-003;
2.407500000000000E+009;1.799574047327042E-001;1.119333039969206E-002;-1.297503709793091E-003;-1.867650658823550E-003;
2.407666666666667E+009;1.794944703578949E-001;1.075041759759188E-002;-1.249387743882835E-003;-1.588245504535735E-003;
2.407833333333334E+009;1.786241829395294E-001;1.007515843957663E-002;-1.039552502334118E-003;-1.651133992709220E-003;
2.408000000000000E+009;1.780630052089691E-001;9.372183121740818E-003;-1.144758891314268E-003;-1.720319269225001E-003;
2.408166666666667E+009;1.774409115314484E-001;8.716169744729996E-003;-1.113438396714628E-003;-1.609573257155716E-003;
2.408333333333334E+009;1.767155975103378E-001;7.814841344952583E-003;-9.829492773860693E-004;-1.688133925199509E-003;
2.408500000000000E+009;1.759112775325775E-001;6.854848936200142E-003;-9.217705810442567E-004;-1.611666753888130E-003;
2.408666666666667E+009;1.749235242605209E-001;5.832469090819359E-003;-8.184388861991465E-004;-1.525596366263926E-003;
2.408833333333334E+009;1.740477979183197E-001;4.635010845959187E-003;-8.238063310272992E-004;-1.536109484732151E-003;
2.409000000000000E+009;1.731612086296082E-001;3.312294138595462E-003;-8.436374482698739E-004;-1.544164377264679E-003;
2.409166666666667E+009;1.723746210336685E-001;1.978377113118768E-003;-7.286727195605636E-004;-1.619975198991597E-003;
2.409333333333334E+009;1.716477423906326E-001;5.579288117587566E-004;-7.223727297969163E-004;-1.636750646866858E-003;
2.409500000000000E+009;1.708343625068665E-001;-1.233974471688271E-003;-8.144240709953010E-004;-1.632619416341186E-003;
2.409666666666667E+009;1.700302213430405E-001;-2.976157935336232E-003;-8.257467416115105E-004;-1.662124297581613E-003;
2.409833333333334E+009;1.692049354314804E-001;-4.371286369860172E-003;-7.556618656963110E-004;-1.608630176633596E-003;
2.410000000000000E+009;1.685222387313843E-001;-6.101106759160757E-003;-9.354087524116039E-004;-1.918313908390701E-003;
2.410166666666667E+009;1.679730713367462E-001;-8.058861829340458E-003;-9.717383654788137E-004;-1.817520242184401E-003;
2.410333333333334E+009;1.672136783599854E-001;-1.011663395911455E-002;-8.462697151117027E-004;-1.945473370142281E-003;
2.410500000000000E+009;1.668175458908081E-001;-1.199094578623772E-002;-9.678005590103567E-004;-1.983111025765538E-003;
2.410666666666667E+009;1.663298308849335E-001;-1.424197759479284E-002;-9.814358782023192E-004;-1.958479173481464E-003;
2.410833333333334E+009;1.660866290330887E-001;-1.608039066195488E-002;-1.118419342674315E-003;-2.043799031525850E-003;
2.411000000000000E+009;1.658299565315247E-001;-1.821078360080719E-002;-1.136141247116029E-003;-2.084411215037108E-003;
2.411166666666667E+009;1.656923741102219E-001;-2.046523056924343E-002;-1.245672698132694E-003;-2.092344220727682E-003;
2.411333333333334E+009;1.655162870883942E-001;-2.258562110364437E-002;-1.448423019610345E-003;-2.082838676869869E-003;
2.411500000000000E+009;1.655146777629852E-001;-2.482861652970314E-002;-1.286353915929794E-003;-2.029633149504662E-003;
2.411666666666667E+009;1.658329069614410E-001;-2.685902267694473E-002;-1.365440431982279E-003;-2.016361569985747E-003;
2.411833333333334E+009;1.659900844097138E-001;-2.906033955514431E-002;-1.569245010614395E-003;-1.981914276257157E-003;
2.412000000000000E+009;1.662629991769791E-001;-3.120189346373081E-002;-1.677840482443571E-003;-2.047839341685176E-003;
2.412166666666667E+009;1.665900200605393E-001;-3.330956771969795E-002;-1.751250005327165E-003;-2.018592553213239E-003;
2.412333333333334E+009;1.671402752399445E-001;-3.505385667085648E-002;-1.839789561927319E-003;-1.993840327486396E-003;
2.412500000000000E+009;1.675932258367539E-001;-3.682129830121994E-002;-1.910996506921947E-003;-2.060036873444915E-003;
2.412666666666667E+009;1.683221310377121E-001;-3.892026841640472E-002;-2.023258013650775E-003;-1.816768664866686E-003;
2.412833333333334E+009;1.688844561576843E-001;-4.080485180020332E-002;-2.094534924253821E-003;-1.809563837014139E-003;
2.413000000000000E+009;1.696176677942276E-001;-4.247284308075905E-002;-2.204829826951027E-003;-1.712307916022837E-003;
2.413166666666667E+009;1.701541990041733E-001;-4.420288652181625E-002;-2.271410077810288E-003;-1.642320188693702E-003;
2.413333333333334E+009;1.708626449108124E-001;-4.581821709871292E-002;-2.342967316508293E-003;-1.647479133680463E-003;
2.413500000000000E+009;1.716869920492172E-001;-4.732662439346314E-002;-2.441961551085115E-003;-1.466359943151474E-003;
2.413666666666667E+009;1.726046353578568E-001;-4.876200854778290E-002;-2.507806522771716E-003;-1.352261169813573E-003;
2.413833333333334E+009;1.731821447610855E-001;-4.997282847762108E-002;-2.582515822723508E-003;-1.269588363356888E-003;
2.414000000000000E+009;1.738636642694473E-001;-5.128140375018120E-002;-2.490144921466708E-003;-1.241642399691045E-003;
2.414166666666667E+009;1.748314201831818E-001;-5.233535915613174E-002;-2.462995937094092E-003;-1.179489539936185E-003;
2.414333333333334E+009;1.755360662937164E-001;-5.344514176249504E-002;-2.600139472633600E-003;-1.108077354729176E-003;
2.414500000000000E+009;1.763054132461548E-001;-5.434475839138031E-002;-2.457147464156151E-003;-1.064884359948337E-003;
2.414666666666667E+009;1.770349740982056E-001;-5.510354787111282E-002;-2.704457147046924E-003;-1.092898775823414E-003;
2.414833333333334E+009;1.774172037839890E-001;-5.578758940100670E-002;-2.633353928104043E-003;-8.169017964974046E-004;
2.415000000000000E+009;1.780382394790649E-001;-5.624677240848541E-002;-2.601048909127712E-003;-8.127322071231902E-004;
2.415166666666667E+009;1.784588396549225E-001;-5.688380450010300E-002;-2.723107580095530E-003;-6.188249099068344E-004;
2.415333333333334E+009;1.788754612207413E-001;-5.740472301840782E-002;-2.626386703923345E-003;-6.046703201718628E-004;
2.415500000000000E+009;1.792879551649094E-001;-5.760732665657997E-002;-2.705425955355167E-003;-5.279984325170517E-004;
2.415666666666667E+009;1.795017421245575E-001;-5.784086138010025E-002;-2.619129605591297E-003;-4.129137960262597E-004;
2.415833333333334E+009;1.797618716955185E-001;-5.821227282285690E-002;-2.649905625730753E-003;-3.204008971806616E-004;
2.416000000000000E+009;1.795755326747894E-001;-5.825173854827881E-002;-2.654304029420018E-003;-2.835074265021831E-004;
2.416166666666667E+009;1.797107309103012E-001;-5.843739584088326E-002;-2.500973176211119E-003;-1.178249658551067E-004;
2.416333333333334E+009;1.795046031475067E-001;-5.837044119834900E-002;-2.720487536862493E-003;-2.794520987663418E-004;
2.416500000000000E+009;1.792465746402741E-001;-5.859429761767387E-002;-2.485458273440599E-003;-3.275349081377499E-005;
2.416666666666667E+009;1.788265407085419E-001;-5.852650851011276E-002;-2.535447943955660E-003;-8.438321674475446E-005;
2.416833333333334E+009;1.785118877887726E-001;-5.872937291860580E-002;-2.530178520828486E-003;-5.463019988383167E-005;
2.417000000000000E+009;1.777607500553131E-001;-5.865534022450447E-002;-2.420729724690318E-003;2.135251124855131E-004;
2.417166666666667E+009;1.770505011081696E-001;-5.869556218385696E-002;-2.578952116891742E-003;-3.502811159705743E-005;
2.417333333333334E+009;1.764089614152908E-001;-5.869955196976662E-002;-2.463410142809153E-003;1.096768173738383E-004;
2.417500000000000E+009;1.754658967256546E-001;-5.901651456952095E-002;-2.487091347575188E-003;2.078216930385679E-004;
2.417666666666667E+009;1.745576709508896E-001;-5.892990529537201E-002;-2.310898853465915E-003;3.505219938233495E-004;
2.417833333333334E+009;1.735442429780960E-001;-5.917074531316757E-002;-2.443369245156646E-003;2.444325946271420E-004;
2.418000000000000E+009;1.722699105739594E-001;-5.960080400109291E-002;-2.336506964638829E-003;4.119176883250475E-004;
2.418166666666667E+009;1.711302846670151E-001;-5.980914086103439E-002;-2.230149228125811E-003;4.148628504481167E-004;
2.418333333333334E+009;1.700983941555023E-001;-6.026687100529671E-002;-2.468012971803546E-003;4.032626457046717E-004;
2.418500000000000E+009;1.685727536678314E-001;-6.070913374423981E-002;-2.261110814288259E-003;5.775985773652792E-004;
2.418666666666667E+009;1.674392670392990E-001;-6.138405948877335E-002;-2.218161476776004E-003;4.396435979288071E-004;
2.418833333333334E+009;1.658634990453720E-001;-6.202410534024239E-002;-2.249726094305515E-003;6.275821360759437E-004;
2.419000000000000E+009;1.644327938556671E-001;-6.262276321649551E-002;-2.183097414672375E-003;5.527272005565465E-004;
2.419166666666667E+009;1.630142927169800E-001;-6.348751485347748E-002;-2.237633801996708E-003;7.603388512507081E-004;
2.419333333333334E+009;1.616561114788055E-001;-6.418531388044357E-002;-2.207839861512184E-003;5.792403826490045E-004;
2.419500000000000E+009;1.602504998445511E-001;-6.547442078590393E-002;-2.347362926229835E-003;6.285781855694950E-004;
2.419666666666667E+009;1.589633524417877E-001;-6.661064922809601E-002;-2.163128694519401E-003;6.163331563584507E-004;
2.419833333333334E+009;1.575710177421570E-001;-6.771341711282730E-002;-2.174503635615110E-003;8.366506663151085E-004;
2.420000000000000E+009;1.563945114612579E-001;-6.894902884960175E-002;-2.212856663390994E-003;7.599802338518202E-004;
2.420166666666667E+009;1.550662070512772E-001;-7.041274011135101E-002;-2.226310316473246E-003;7.516045588999987E-004;
2.420333333333334E+009;1.539210081100464E-001;-7.192533463239670E-002;-2.192494925111532E-003;8.576938998885453E-004;
2.420500000000000E+009;1.530507206916809E-001;-7.320322096347809E-002;-2.380507765337825E-003;7.335100672207773E-004;
2.420666666666667E+009;1.519712656736374E-001;-7.468149811029434E-002;-2.392873866483569E-003;8.469867170788348E-004;
2.420833333333334E+009;1.512225717306137E-001;-7.641095668077469E-002;-2.313815988600254E-003;8.426189888268709E-004;
2.421000000000000E+009;1.502607315778732E-001;-7.821926474571228E-002;-2.281733555719256E-003;1.034816028550267E-003;
2.421166666666667E+009;1.497842371463776E-001;-7.984785735607147E-002;-2.232032595202327E-003;9.281550883315504E-004;
2.421333333333334E+009;1.492413431406021E-001;-8.178682625293732E-002;-2.294526901096106E-003;9.361297707073391E-004;
2.421500000000000E+009;1.484931111335754E-001;-8.357399702072144E-002;-2.393230795860291E-003;1.166571979410946E-003;
2.421666666666667E+009;1.481371819972992E-001;-8.535766601562500E-002;-2.428666455671191E-003;1.104703173041344E-003;
2.421833333333334E+009;1.480600684881210E-001;-8.707521110773087E-002;-2.363054547458887E-003;1.363707007840276E-003;
2.422000000000000E+009;1.477274894714356E-001;-8.904894441366196E-002;-2.259562956169248E-003;1.320380484685302E-003;
2.422166666666667E+009;1.475432664155960E-001;-9.105896204710007E-002;-2.334395656362176E-003;1.520434976555407E-003;
2.422333333333334E+009;1.476726680994034E-001;-9.263189136981964E-002;-2.627346664667130E-003;1.550036715343595E-003;
2.422500000000000E+009;1.477886885404587E-001;-9.448958933353424E-002;-2.513966057449579E-003;1.595117268152535E-003;
2.422666666666667E+009;1.480297297239304E-001;-9.631469845771790E-002;-2.310376381501555E-003;1.915431930683553E-003;
2.422833333333334E+009;1.483828276395798E-001;-9.811350703239441E-002;-2.362448256462812E-003;1.906677382066846E-003;
2.423000000000000E+009;1.485165208578110E-001;-9.983844310045242E-002;-2.370517002418637E-003;2.105115912854672E-003;
2.423166666666667E+009;1.492665410041809E-001;-1.014842540025711E-001;-2.223566872999072E-003;1.974129350855947E-003;
2.423333333333334E+009;1.497232019901276E-001;-1.027498766779900E-001;-2.097604330629110E-003;2.303862711414695E-003;
2.423500000000000E+009;1.503630131483078E-001;-1.044562906026840E-001;-2.140187192708254E-003;2.465729136019945E-003;
2.423666666666667E+009;1.507163494825363E-001;-1.059582382440567E-001;-2.085458952933550E-003;2.407748950645328E-003;
2.423833333333334E+009;1.515031605958939E-001;-1.072364449501038E-001;-1.749288872815669E-003;2.643074607476592E-003;
2.424000000000000E+009;1.520904004573822E-001;-1.083995774388313E-001;-1.769927795976400E-003;2.655131509527564E-003;
2.424166666666667E+009;1.526472121477127E-001;-1.096190363168716E-001;-1.744187087751925E-003;2.793713938444853E-003;
2.424333333333334E+009;1.534569412469864E-001;-1.106026619672775E-001;-1.587172970175743E-003;2.795263426378369E-003;
2.424500000000000E+009;1.540682464838028E-001;-1.116950288414955E-001;-1.447914284653962E-003;2.957188291475177E-003;
2.424666666666667E+009;1.548146456480026E-001;-1.124369204044342E-001;-1.344872754998505E-003;3.025202779099345E-003;
2.424833333333334E+009;1.552273780107498E-001;-1.134529635310173E-001;-1.168417395092547E-003;3.033701330423355E-003;
2.425000000000000E+009;1.559728980064392E-001;-1.142422333359718E-001;-1.085269730538130E-003;3.106201300397515E-003;
2.425166666666667E+009;1.563627570867539E-001;-1.148033514618874E-001;-1.007699174806476E-003;3.125399583950639E-003;
2.425333333333334E+009;1.569448411464691E-001;-1.153376027941704E-001;-9.392764768563211E-004;3.013403853401542E-003;
2.425500000000000E+009;1.573885679244995E-001;-1.158775389194489E-001;-7.335209520533681E-004;3.123712725937367E-003;
2.425666666666667E+009;1.575810462236404E-001;-1.162186041474342E-001;-5.692986887879670E-004;3.134382655844092E-003;
2.425833333333334E+009;1.578620970249176E-001;-1.165022626519203E-001;-4.024595546070486E-004;3.172771539539099E-003;
2.426000000000000E+009;1.580565720796585E-001;-1.167836785316467E-001;-3.467070346232504E-004;3.219982376322150E-003;
2.426166666666667E+009;1.583079546689987E-001;-1.169373020529747E-001;-2.256942680105567E-004;3.047331469133496E-003;
2.426333333333334E+009;1.581920832395554E-001;-1.170609667897224E-001;-7.539068610640243E-005;3.138614818453789E-003;
2.426500000000000E+009;1.580724865198135E-001;-1.171739399433136E-001;-1.249396882485598E-004;3.040783340111375E-003;
2.426666666666667E+009;1.580571085214615E-001;-1.169766634702683E-001;5.108292680233717E-005;3.115008352324367E-003;
2.426833333333334E+009;1.576456427574158E-001;-1.170994490385056E-001;1.997120853047818E-004;3.034625668078661E-003;
2.427000000000000E+009;1.571795940399170E-001;-1.171804144978523E-001;3.907133068423718E-004;2.874430269002914E-003;
2.427166666666667E+009;1.566205769777298E-001;-1.170900911092758E-001;3.829580091405660E-004;2.999115036800504E-003;
2.427333333333334E+009;1.558743119239807E-001;-1.170641407370567E-001;4.243170260451734E-004;3.044912824407220E-003;
2.427500000000000E+009;1.552420258522034E-001;-1.170963719487190E-001;5.844893166795373E-004;2.865765010938048E-003;
2.427666666666667E+009;1.542345434427261E-001;-1.169606223702431E-001;6.635446916334331E-004;2.881323453038931E-003;
