# Version 1.00
#
freq[Hz];re:Trc1_S11;im:Trc1_S11;re:Trc2_S21;im:Trc2_S21;
2.400000000000000E+009;1.733571588993073E-001;4.951261356472969E-002;4.331800621002913E-003;-2.844629343599081E-003;
2.400166666666667E+009;1.738299578428268E-001;4.905005916953087E-002;4.168948158621788E-003;-3.124138573184609E-003;
2.400333333333334E+009;1.741836667060852E-001;4.815359786152840E-002;4.060167353600264E-003;-3.312584944069386E-003;
2.400500000000000E+009;1.746886968612671E-001;4.755147919058800E-002;3.832829184830189E-003;-3.491765120998025E-003;
2.400666666666667E+009;1.750890761613846E-001;4.668457806110382E-002;3.844663035124540E-003;-3.770175855606794E-003;
2.400833333333334E+009;1.752775609493256E-001;4.634139314293861E-002;3.381217597052455E-003;-3.783307969570160E-003;
2.401000000000000E+009;1.753764450550079E-001;4.555192217230797E-002;3.397735534235835E-003;-4.107612650841475E-003;
2.401166666666667E+009;1.756797134876251E-001;4.475811123847961E-002;3.177513834089041E-003;-4.046355839818716E-003;
2.401333333333334E+009;1.754975914955139E-001;4.405121505260468E-002;2.972922986373305E-003;-4.096610937267542E-003;
2.401500000000000E+009;1.758883893489838E-001;4.347746819257736E-002;2.711741952225566E-003;-4.376615397632122E-003;
2.401666666666667E+009;1.755035221576691E-001;4.274553060531616E-002;2.563418122008443E-003;-4.308853764086962E-003;
2.401833333333334E+009;1.755448579788208E-001;4.198997095227242E-002;2.371965209022164E-003;-4.481806885451078E-003;
2.402000000000000E+009;1.752985864877701E-001;4.102799296379089E-002;2.074202755466104E-003;-4.519716370850802E-003;
2.402166666666667E+009;1.752013862133026E-001;3.994338586926460E-002;1.958889188244939E-003;-4.396575503051281E-003;
2.402333333333334E+009;1.751061975955963E-001;3.905532509088516E-002;1.733663375489414E-003;-4.520887974649668E-003;
2.402500000000000E+009;1.749293804168701E-001;3.810528293251991E-002;1.476755831390619E-003;-4.531700164079666E-003;
2.402666666666667E+009;1.747079044580460E-001;3.695578500628471E-002;1.142183551564813E-003;-4.483338911086321E-003;
2.402833333333334E+009;1.743855774402618E-001;3.581570088863373E-002;1.033875392749906E-003;-4.388063214719296E-003;
2.403000000000000E+009;1.741483658552170E-001;3.441952913999558E-002;8.986901957541704E-004;-4.339136183261871E-003;
2.403166666666667E+009;1.738433241844177E-001;3.325935080647469E-002;5.399490473791957E-004;-4.212753847241402E-003;
2.403333333333334E+009;1.736408621072769E-001;3.196452185511589E-002;3.952719562221319E-004;-4.107636399567127E-003;
2.403500000000000E+009;1.730778366327286E-001;3.016577102243900E-002;2.296768652740866E-004;-4.164006561040878E-003;
2.403666666666667E+009;1.725209802389145E-001;2.858179807662964E-002;2.231012913398445E-004;-3.910980653017759E-003;
2.403833333333334E+009;1.723996549844742E-001;2.681950293481350E-002;1.225315063493326E-004;-3.873242298141122E-003;
2.404000000000000E+009;1.720092445611954E-001;2.510991320014000E-002;8.571163925807923E-005;-3.747442504391074E-003;
2.404166666666667E+009;1.714805960655212E-001;2.321037836372852E-002;-1.732897362671793E-004;-3.520181169733405E-003;
2.404333333333334E+009;1.711731106042862E-001;2.131718397140503E-002;-3.164596564602107E-004;-3.420531982555986E-003;
2.404500000000000E+009;1.708285957574844E-001;1.927617937326431E-002;-3.488942456897348E-004;-3.396406071260572E-003;
2.404666666666667E+009;1.705125272274017E-001;1.752704940736294E-002;-3.556052688509226E-004;-3.130926983430982E-003;
2.404833333333334E+009;1.704418957233429E-001;1.554010063409805E-002;-2.387671993346885E-004;-3.121261484920979E-003;
2.405000000000000E+009;1.701454222202301E-001;1.347559783607721E-002;-2.795082109514624E-004;-3.067444544285536E-003;
2.405166666666667E+009;1.701927334070206E-001;1.147529669106007E-002;-3.833620285149664E-004;-2.998667536303401E-003;
2.405333333333334E+009;1.698969304561615E-001;9.349671192467213E-003;-2.899609389714897E-004;-3.005167003720999E-003;
2.405500000000000E+009;1.700654774904251E-001;7.648569997400045E-003;-3.830765781458467E-004;-2.653883537277579E-003;
2.405666666666667E+009;1.701721251010895E-001;5.426726769655943E-003;-2.470808394718915E-004;-2.703133504837751E-003;
2.405833333333334E+009;1.703798323869705E-001;3.589680418372154E-003;-1.898800110211596E-004;-2.712039276957512E-003;
2.406000000000000E+009;1.706692874431610E-001;1.272712368518114E-003;-2.192380634369329E-004;-2.683640690520406E-003;
2.406166666666667E+009;1.707216203212738E-001;-5.436411011032760E-004;-1.957702188519761E-004;-2.684720093384385E-003;
2.406333333333334E+009;1.713505834341049E-001;-2.630903152748942E-003;-9.624766244087368E-005;-2.775395521894097E-003;
2.406500000000000E+009;1.717744916677475E-001;-4.643553402274847E-003;-1.271829969482496E-004;-2.740905387327075E-003;
2.406666666666667E+009;1.719832569360733E-001;-6.392031442373991E-003;-5.663093907060102E-005;-2.624670509248972E-003;
2.406833333333334E+009;1.725690215826035E-001;-8.339485153555870E-003;5.144034730619751E-005;-2.574014710262418E-003;
2.407000000000000E+009;1.731391400098801E-001;-1.036735158413649E-002;-1.072628001566045E-004;-2.785813529044390E-003;
2.407166666666667E+009;1.740780919790268E-001;-1.190472859889269E-002;2.220271926489659E-005;-2.932647475972772E-003;
2.407333333333334E+009;1.745924651622772E-001;-1.383023150265217E-002;-7.198726234491915E-005;-2.963716164231300E-003;
2.407500000000000E+009;1.753262728452683E-001;-1.548781618475914E-002;-1.692339137662202E-004;-2.978947712108493E-003;
2.407666666666667E+009;1.761344224214554E-001;-1.709451526403427E-002;-1.708392082946375E-004;-2.959656994789839E-003;
2.407833333333334E+009;1.767950803041458E-001;-1.860983297228813E-002;-6.320542161120102E-005;-3.001776756718755E-003;
2.408000000000000E+009;1.775370538234711E-001;-2.032530680298805E-002;-3.293750633019954E-004;-3.071916289627552E-003;
2.408166666666667E+009;1.781770437955856E-001;-2.166160196065903E-002;-3.696442581713200E-004;-3.191814059391618E-003;
2.408333333333334E+009;1.793549954891205E-001;-2.304816432297230E-002;-4.986335407011211E-004;-3.297475865110755E-003;
2.408500000000000E+009;1.797953248023987E-001;-2.442816272377968E-002;-5.225186469033361E-004;-3.179572988301516E-003;
2.408666666666667E+009;1.804418861865997E-001;-2.571339905261993E-002;-5.350869032554328E-004;-3.427450079470873E-003;
2.408833333333334E+009;1.809930503368378E-001;-2.687555178999901E-002;-6.729882443323731E-004;-3.480696352198720E-003;
2.409000000000000E+009;1.816338300704956E-001;-2.789552137255669E-002;-6.296894280239940E-004;-3.499967046082020E-003;
2.409166666666667E+009;1.820370703935623E-001;-2.887944877147675E-002;-1.024826196953654E-003;-3.564309561625123E-003;
2.409333333333334E+009;1.825191378593445E-001;-2.977074868977070E-002;-1.052224193699658E-003;-3.457807702943683E-003;
2.409500000000000E+009;1.828902661800385E-001;-3.055595420300961E-002;-1.178886741399765E-003;-3.591595450416207E-003;
2.409666666666667E+009;1.831503808498383E-001;-3.118291869759560E-002;-1.412204699590802E-003;-3.616818226873875E-003;
2.409833333333334E+009;1.833597868680954E-001;-3.174504637718201E-002;-1.426777685992420E-003;-3.567094914615154E-003;
2.410000000000000E+009;1.836639493703842E-001;-3.226576745510101E-002;-1.611533574759960E-003;-3.421395784243941E-003;
2.410166666666667E+009;1.838370859622955E-001;-3.262775391340256E-002;-1.771722338162363E-003;-3.647310892120004E-003;
2.410333333333334E+009;1.838729977607727E-001;-3.314625471830368E-002;-2.017913153395057E-003;-3.462150925770402E-003;
2.410500000000000E+009;1.840658634901047E-001;-3.359074890613556E-002;-2.119577256962657E-003;-3.536606673151255E-003;
2.410666666666667E+009;1.838294714689255E-001;-3.404014930129051E-002;-2.268508309498429E-003;-3.443940775468946E-003;
2.410833333333334E+009;1.837123334407806E-001;-3.418190777301788E-002;-2.542108297348023E-003;-3.344112075865269E-003;
2.411000000000000E+009;1.834654957056046E-001;-3.434037044644356E-002;-2.749846549704671E-003;-3.227510023862124E-003;
2.411166666666667E+009;1.831212043762207E-001;-3.493334352970123E-002;-2.768037607893348E-003;-3.022246062755585E-003;
2.411333333333334E+009;1.826416403055191E-001;-3.513235226273537E-002;-2.997177420184016E-003;-2.976529300212860E-003;
2.411500000000000E+009;1.820721775293350E-001;-3.543761745095253E-002;-2.943015657365322E-003;-2.699525561183691E-003;
2.411666666666667E+009;1.815887093544006E-001;-3.602792322635651E-002;-3.326764795929194E-003;-2.567782299593091E-003;
2.411833333333334E+009;1.808905452489853E-001;-3.627574443817139E-002;-3.216596785932779E-003;-2.367354929447174E-003;
2.412000000000000E+009;1.803020536899567E-001;-3.684743493795395E-002;-3.344248048961163E-003;-2.175086410716176E-003;
2.412166666666667E+009;1.792692393064499E-001;-3.726933151483536E-002;-3.447939176112413E-003;-1.912379637360573E-003;
2.412333333333334E+009;1.784068644046783E-001;-3.771488368511200E-002;-3.498913953080773E-003;-1.631896710023284E-003;
2.412500000000000E+009;1.772693246603012E-001;-3.828845173120499E-002;-3.410689299926162E-003;-1.633087405934930E-003;
2.412666666666667E+009;1.762765645980835E-001;-3.928338736295700E-002;-3.299389500170946E-003;-1.333693391643465E-003;
2.412833333333334E+009;1.749788522720337E-001;-3.979220986366272E-002;-3.301297780126333E-003;-1.317381393164396E-003;
2.413000000000000E+009;1.740344911813736E-001;-4.055537655949593E-002;-3.297689603641629E-003;-1.138745457865298E-003;
2.413166666666667E+009;1.724808514118195E-001;-4.137428477406502E-002;-3.328443039208651E-003;-1.141056185588241E-003;
2.413333333333334E+009;1.712148338556290E-001;-4.234657064080238E-002;-3.071120707318187E-003;-7.727975607849658E-004;
2.413500000000000E+009;1.700029224157333E-001;-4.333061352372170E-002;-3.026862628757954E-003;-8.238504524342716E-004;
2.413666666666667E+009;1.688449233770371E-001;-4.445934668183327E-002;-2.941452898085117E-003;-7.193398196250200E-004;
2.413833333333334E+009;1.674426943063736E-001;-4.561811313033104E-002;-2.736637368798256E-003;-6.866163457743824E-004;
2.414000000000000E+009;1.660192161798477E-001;-4.688832163810730E-002;-2.557549625635147E-003;-6.037942948751152E-004;
2.414166666666667E+009;1.649065017700195E-001;-4.817666858434677E-002;-2.581987297162414E-003;-4.294289392419159E-004;
2.414333333333334E+009;1.637142002582550E-001;-4.935241118073463E-002;-2.312568714842200E-003;-7.066875696182251E-004;
2.414500000000000E+009;1.626113504171372E-001;-5.087963491678238E-002;-2.280235989019275E-003;-6.170995766296983E-004;
2.414666666666667E+009;1.614082008600235E-001;-5.230496451258659E-002;-2.034876728430390E-003;-8.131689974106848E-004;
2.414833333333334E+009;1.601561009883881E-001;-5.415327101945877E-002;-1.949442317709327E-003;-6.935941637493670E-004;
2.415000000000000E+009;1.592662483453751E-001;-5.570064112544060E-002;-2.103008562698960E-003;-6.253773462958634E-004;
2.415166666666667E+009;1.581977307796478E-001;-5.739968270063400E-002;-1.792213763110340E-003;-9.422609582543373E-004;
2.415333333333334E+009;1.574307233095169E-001;-5.931812152266502E-002;-2.101686783134937E-003;-1.022134907543659E-003;
2.415500000000000E+009;1.566641032695770E-001;-6.081115454435349E-002;-2.121519530192018E-003;-1.112476806156337E-003;
2.415666666666667E+009;1.558445990085602E-001;-6.283006072044373E-002;-2.122339559718967E-003;-1.228787354193628E-003;
2.415833333333334E+009;1.552870422601700E-001;-6.476872414350510E-002;-2.121477853506804E-003;-1.135053928010166E-003;
2.416000000000000E+009;1.546346545219421E-001;-6.664612144231796E-002;-2.192391315475106E-003;-1.356771565042436E-003;
2.416166666666667E+009;1.543039232492447E-001;-6.855076551437378E-002;-2.445281250402331E-003;-1.320196897722781E-003;
2.416333333333334E+009;1.537558585405350E-001;-7.045479118824005E-002;-2.401495119556785E-003;-1.530354842543602E-003;
2.416500000000000E+009;1.533288955688477E-001;-7.257296890020371E-002;-2.572817960754037E-003;-1.354241161607206E-003;
2.416666666666667E+009;1.529970020055771E-001;-7.436130195856094E-002;-2.560424152761698E-003;-1.295519177801907E-003;
2.416833333333334E+009;1.529042571783066E-001;-7.641190290451050E-002;-2.730646869167686E-003;-1.401714514940977E-003;
2.417000000000000E+009;1.524770855903626E-001;-7.827777415513992E-002;-2.916500438004732E-003;-1.319495495408773E-003;
2.417166666666667E+009;1.522719264030457E-001;-8.001498132944107E-002;-2.971268491819501E-003;-1.202421030029655E-003;
2.417333333333334E+009;1.523981839418411E-001;-8.178620785474777E-002;-3.064218442887068E-003;-1.183553249575198E-003;
2.417500000000000E+009;1.522565484046936E-001;-8.356383442878723E-002;-3.160163993015885E-003;-1.041453448124230E-003;
2.417666666666667E+009;1.524456888437271E-001;-8.513297140598297E-002;-3.248444292694330E-003;-9.004728053696454E-004;
2.417833333333334E+009;1.523417085409164E-001;-8.666425943374634E-002;-3.384089097380638E-003;-1.043938449583948E-003;
2.418000000000000E+009;1.525063067674637E-001;-8.836009353399277E-002;-3.345531644299626E-003;-9.554540156386793E-004;
2.418166666666667E+009;1.526357680559158E-001;-8.944536745548248E-002;-3.480920102447271E-003;-8.561193826608360E-004;
2.418333333333334E+009;1.529309749603272E-001;-9.087917208671570E-002;-3.469231771305203E-003;-7.917358889244497E-004;
2.418500000000000E+009;1.529700458049774E-001;-9.196957945823669E-002;-3.566846717149019E-003;-8.386463741771877E-004;
2.418666666666667E+009;1.534493863582611E-001;-9.314034879207611E-002;-3.481979714706540E-003;-6.494451663456857E-004;
2.418833333333334E+009;1.533581316471100E-001;-9.413450211286545E-002;-3.683215007185936E-003;-7.509331335313618E-004;
2.419000000000000E+009;1.534620970487595E-001;-9.493540972471237E-002;-3.769041271880269E-003;-6.545632495544851E-004;
2.419166666666667E+009;1.536438465118408E-001;-9.566135704517365E-002;-3.926910925656557E-003;-5.306539824232459E-004;
2.419333333333334E+009;1.537669897079468E-001;-9.603311121463776E-002;-3.926205914467573E-003;-5.206262576393783E-004;
2.419500000000000E+009;1.539383977651596E-001;-9.675681591033936E-002;-4.095594398677349E-003;-4.992392496205866E-004;
2.419666666666667E+009;1.541825681924820E-001;-9.717412292957306E-002;-4.276609979569912E-003;-3.304050769656897E-004;
2.419833333333334E+009;1.541878134012222E-001;-9.724543988704681E-002;-4.332550335675478E-003;-2.167337952414528E-004;
2.420000000000000E+009;1.542668491601944E-001;-9.761825203895569E-002;-4.421527031809092E-003;3.571817069314420E-005;
2.420166666666667E+009;1.544398814439774E-001;-9.753984957933426E-002;-4.726543091237545E-003;2.584332651167642E-005;
2.420333333333334E+009;1.544772684574127E-001;-9.756918996572495E-002;-4.751049913465977E-003;3.068154037464410E-004;
2.420500000000000E+009;1.544724255800247E-001;-9.728875756263733E-002;-5.030986852943897E-003;5.458408268168569E-004;
2.420666666666667E+009;1.543215811252594E-001;-9.707602858543396E-002;-4.964835476130247E-003;7.167433504946530E-004;
2.420833333333334E+009;1.542416960000992E-001;-9.696216881275177E-002;-5.100623238831759E-003;8.710346883162856E-004;
2.421000000000000E+009;1.539889127016068E-001;-9.680376946926117E-002;-5.078193731606007E-003;9.571683476679027E-004;
2.421166666666667E+009;1.538574993610382E-001;-9.636557102203369E-002;-5.351619329303503E-003;1.438089995644987E-003;
2.421333333333334E+009;1.536294370889664E-001;-9.607864916324616E-002;-5.240707192569971E-003;1.607750076800585E-003;
2.421500000000000E+009;1.529801040887833E-001;-9.562654793262482E-002;-5.358682479709387E-003;1.882613869383931E-003;
2.421666666666667E+009;1.526367664337158E-001;-9.545217454433441E-002;-5.381328519433737E-003;2.100645098835230E-003;
2.421833333333334E+009;1.518484205007553E-001;-9.497005492448807E-002;-5.300424527376890E-003;2.458578208461404E-003;
2.422000000000000E+009;1.512038111686707E-001;-9.450048953294754E-002;-5.243003834038973E-003;2.874798607081175E-003;
2.422166666666667E+009;1.504224687814713E-001;-9.452102333307266E-002;-5.331999156624079E-003;2.962335012853146E-003;
2.422333333333334E+009;1.495884209871292E-001;-9.415233880281448E-002;-5.172938574105501E-003;3.209085436537862E-003;
2.422500000000000E+009;1.486600935459137E-001;-9.384548664093018E-002;-5.044784396886826E-003;3.633049782365561E-003;
2.422666666666667E+009;1.473097056150436E-001;-9.375869482755661E-002;-4.981512669473887E-003;3.957958426326513E-003;
2.422833333333334E+009;1.463501453399658E-001;-9.364045411348343E-002;-4.807394463568926E-003;4.281213041394949E-003;
2.423000000000000E+009;1.452834159135819E-001;-9.357274323701859E-002;-4.648123402148485E-003;4.654579330235720E-003;
2.423166666666667E+009;1.440163403749466E-001;-9.345003217458725E-002;-4.412635229527950E-003;4.808235447853804E-003;
2.423333333333334E+009;1.425517946481705E-001;-9.319650381803513E-002;-4.239952657371759E-003;5.134435370564461E-003;
2.423500000000000E+009;1.412456482648850E-001;-9.344368427991867E-002;-3.925820812582970E-003;5.297062452882528E-003;
2.423666666666667E+009;1.396487504243851E-001;-9.377952665090561E-002;-3.516415599733591E-003;5.569040775299072E-003;
2.423833333333334E+009;1.382239609956741E-001;-9.394164383411408E-002;-3.392266109585762E-003;5.834388080984354E-003;
2.424000000000000E+009;1.367310881614685E-001;-9.415623545646668E-002;-2.867199480533600E-003;5.926858633756638E-003;
2.424166666666667E+009;1.350584924221039E-001;-9.455164521932602E-002;-2.634573495015502E-003;5.940953735262156E-003;
2.424333333333334E+009;1.337628066539764E-001;-9.497644752264023E-002;-2.352052833884955E-003;6.112383678555489E-003;
2.424500000000000E+009;1.323001086711884E-001;-9.565144032239914E-002;-1.926324097439647E-003;6.155277136713266E-003;
2.424666666666667E+009;1.310191452503204E-001;-9.597045183181763E-002;-1.628936501219869E-003;6.137674208730459E-003;
2.424833333333334E+009;1.292939335107803E-001;-9.693615138530731E-002;-1.104907481931150E-003;6.136368960142136E-003;
2.425000000000000E+009;1.279779672622681E-001;-9.792390465736389E-002;-1.047765952534974E-003;6.096898112446070E-003;
2.425166666666667E+009;1.264394372701645E-001;-9.877514839172363E-002;-7.208109600469470E-004;6.018436513841152E-003;
2.425333333333334E+009;1.253364384174347E-001;-9.968219697475433E-002;-3.190169518347830E-004;5.951340775936842E-003;
2.425500000000000E+009;1.242122277617455E-001;-1.010180786252022E-001;-1.530805020593107E-004;5.811249371618033E-003;
2.425666666666667E+009;1.229063421487808E-001;-1.021237149834633E-001;2.326185494894162E-004;5.863656289875507E-003;
2.425833333333334E+009;1.218328773975372E-001;-1.033612191677094E-001;2.743148361332715E-004;5.729300435632467E-003;
2.426000000000000E+009;1.209466010332108E-001;-1.048498824238777E-001;5.913534550927579E-004;5.527928005903959E-003;
2.426166666666667E+009;1.201555281877518E-001;-1.062055006623268E-001;8.010009187273681E-004;5.213978234678507E-003;
2.426333333333334E+009;1.191977411508560E-001;-1.076851487159729E-001;9.686514968052506E-004;5.131872370839119E-003;
2.426500000000000E+009;1.184720024466515E-001;-1.092125251889229E-001;1.004071207717061E-003;5.028394050896168E-003;
2.426666666666667E+009;1.178418993949890E-001;-1.106094792485237E-001;1.002910546958447E-003;4.798163659870625E-003;
2.426833333333334E+009;1.172037050127983E-001;-1.123766526579857E-001;1.276642433367670E-003;4.596865270286799E-003;
2.427000000000000E+009;1.165784746408463E-001;-1.139630228281021E-001;1.345191732980311E-003;4.317655693739653E-003;
2.427166666666667E+009;1.162099614739418E-001;-1.155281513929367E-001;1.252196147106588E-003;4.178918898105621E-003;
2.427333333333334E+009;1.156891956925392E-001;-1.171387657523155E-001;1.352281658910215E-003;4.267085809260607E-003;
2.427500000000000E+009;1.155968904495239E-001;-1.187149956822395E-001;1.249614404514432E-003;4.138027783483267E-003;
2.427666666666667E+009;1.153069734573364E-001;-1.202645525336266E-001;1.380115165375173E-003;4.065542016178370E-003;
