# Version 1.00
#
freq[Hz];re:Trc1_S11;im:Trc1_S11;re:Trc2_S21;im:Trc2_S21;
2.400000000000000E+009;1.713843941688538E-001;4.003562033176422E-002;1.459256236557849E-005;3.276121569797397E-003;
2.400166666666667E+009;1.720770001411438E-001;3.967704623937607E-002;1.990946766454727E-004;3.334744833409786E-003;
2.400333333333334E+009;1.722487211227417E-001;3.900463879108429E-002;2.034427161561325E-004;3.118224907666445E-003;
2.400500000000000E+009;1.729293316602707E-001;3.844931349158287E-002;2.760507923085243E-004;3.046835772693157E-003;
2.400666666666667E+009;1.731164753437042E-001;3.772893548011780E-002;3.153499274048954E-004;3.012861590832472E-003;
2.400833333333334E+009;1.734910458326340E-001;3.727625310420990E-002;2.073394716717303E-004;3.040363546460867E-003;
2.401000000000000E+009;1.735516637563705E-001;3.676382079720497E-002;8.500294643454254E-005;3.014190355315805E-003;
2.401166666666667E+009;1.736997067928314E-001;3.599965199828148E-002;1.211865019286051E-004;3.056819783523679E-003;
2.401333333333334E+009;1.737484037876129E-001;3.529447317123413E-002;2.951877540908754E-004;3.223223844543099E-003;
2.401500000000000E+009;1.738075762987137E-001;3.466939926147461E-002;3.414700913708657E-004;3.134584520012140E-003;
2.401666666666667E+009;1.735456436872482E-001;3.416610136628151E-002;4.135519557166845E-004;3.349577775225043E-003;
2.401833333333334E+009;1.735495179891586E-001;3.343141451478005E-002;4.941096995025873E-004;3.338497830554843E-003;
2.402000000000000E+009;1.733232587575913E-001;3.272034227848053E-002;6.014895625412464E-004;3.387044416740537E-003;
2.402166666666667E+009;1.729747802019119E-001;3.176984563469887E-002;6.986748776398599E-004;3.500070422887802E-003;
2.402333333333334E+009;1.727490425109863E-001;3.098019398748875E-002;1.052418956533074E-003;3.527308348566294E-003;
2.402500000000000E+009;1.727486848831177E-001;3.019165620207787E-002;1.096777617931366E-003;3.406318835914135E-003;
2.402666666666667E+009;1.721099764108658E-001;2.903017774224281E-002;1.213445910252631E-003;3.300910349935293E-003;
2.402833333333334E+009;1.719829887151718E-001;2.823515236377716E-002;1.354593900032342E-003;3.227910725399852E-003;
2.403000000000000E+009;1.717346161603928E-001;2.709481492638588E-002;1.610192353837192E-003;3.251760033890605E-003;
2.403166666666667E+009;1.715322285890579E-001;2.572158351540566E-002;1.670016441494227E-003;3.182776272296906E-003;
2.403333333333334E+009;1.708484143018723E-001;2.470762655138969E-002;2.025434980168939E-003;3.057679161429405E-003;
2.403500000000000E+009;1.705044806003571E-001;2.338960580527782E-002;1.989129697903991E-003;2.912659198045731E-003;
2.403666666666667E+009;1.700904667377472E-001;2.208144962787628E-002;2.063889754936099E-003;2.798444591462612E-003;
2.403833333333334E+009;1.699277907609940E-001;2.053754404187203E-002;2.096897223964334E-003;2.594292396679521E-003;
2.404000000000000E+009;1.695026904344559E-001;1.910671778023243E-002;2.147676656022668E-003;2.572188852354884E-003;
2.404166666666667E+009;1.690141856670380E-001;1.747932843863964E-002;2.334983088076115E-003;2.349261892959476E-003;
2.404333333333334E+009;1.688913851976395E-001;1.608217693865299E-002;2.207143465057015E-003;2.306060632690787E-003;
2.404500000000000E+009;1.684787571430206E-001;1.436398550868034E-002;2.099272795021534E-003;2.245361218228936E-003;
2.404666666666667E+009;1.683656573295593E-001;1.278486568480730E-002;2.188550308346748E-003;2.135895425453782E-003;
2.404833333333334E+009;1.682740449905396E-001;1.117573399096727E-002;2.258365973830223E-003;2.258017659187317E-003;
2.405000000000000E+009;1.680358350276947E-001;9.343084879219532E-003;2.053263597190380E-003;2.067916328087449E-003;
2.405166666666667E+009;1.679647713899612E-001;7.679022848606110E-003;2.149973530322313E-003;2.045154105871916E-003;
2.405333333333334E+009;1.679316014051437E-001;5.582581274211407E-003;2.239717170596123E-003;2.054501557722688E-003;
2.405500000000000E+009;1.678992956876755E-001;3.835946554318070E-003;2.303875749930739E-003;1.983117545023561E-003;
2.405666666666667E+009;1.678490787744522E-001;2.029371680691838E-003;2.400594530627132E-003;1.788690104149282E-003;
2.405833333333334E+009;1.677629500627518E-001;1.890478597488254E-004;2.357655903324485E-003;2.028878312557936E-003;
2.406000000000000E+009;1.678672134876251E-001;-1.894192770123482E-003;2.399364020675421E-003;2.131876768544316E-003;
2.406166666666667E+009;1.677638441324234E-001;-3.593381727114320E-003;2.546902513131499E-003;1.942589180544019E-003;
2.406333333333334E+009;1.679304689168930E-001;-5.497630685567856E-003;2.648634836077690E-003;1.797132659703493E-003;
2.406500000000000E+009;1.677510738372803E-001;-7.430865895003080E-003;2.669246168807149E-003;1.813287381082773E-003;
2.406666666666667E+009;1.676548719406128E-001;-9.107253514230251E-003;2.885265275835991E-003;1.635680091567338E-003;
2.406833333333334E+009;1.678402572870255E-001;-1.080849766731262E-002;2.902775071561337E-003;1.506475382484496E-003;
2.407000000000000E+009;1.678089201450348E-001;-1.240602321922779E-002;2.963868668302894E-003;1.575394999235869E-003;
2.407166666666667E+009;1.680695712566376E-001;-1.386998035013676E-002;3.092605620622635E-003;1.234548981301487E-003;
2.407333333333334E+009;1.678704917430878E-001;-1.553171221166849E-002;3.061468712985516E-003;1.268032123334706E-003;
2.407500000000000E+009;1.679673939943314E-001;-1.685843616724014E-002;3.078452311456204E-003;1.047872588969767E-003;
2.407666666666667E+009;1.679495573043823E-001;-1.805443316698074E-002;3.206343622878194E-003;9.730122401379049E-004;
2.407833333333334E+009;1.680235564708710E-001;-1.928512006998062E-002;3.036449430510402E-003;8.245984790846705E-004;
2.408000000000000E+009;1.682648807764053E-001;-2.039734274148941E-002;2.972669433802366E-003;8.630655356682837E-004;
2.408166666666667E+009;1.684652417898178E-001;-2.133870124816895E-002;3.102924441918731E-003;5.351285217329860E-004;
2.408333333333334E+009;1.688154339790344E-001;-2.223235741257668E-002;2.990044886246324E-003;5.809605354443193E-004;
2.408500000000000E+009;1.689250618219376E-001;-2.306323125958443E-002;3.157643834128976E-003;3.953726263716817E-004;
2.408666666666667E+009;1.692406833171845E-001;-2.399023994803429E-002;3.156540449708700E-003;2.535779494792223E-004;
2.408833333333334E+009;1.694662719964981E-001;-2.454880066215992E-002;3.140044631436467E-003;4.153677436988801E-004;
2.409000000000000E+009;1.697912067174912E-001;-2.532728016376495E-002;3.201875602826476E-003;2.181215386372060E-004;
2.409166666666667E+009;1.702060997486115E-001;-2.607669308781624E-002;3.064840799197555E-003;-1.620119473955128E-005;
2.409333333333334E+009;1.706950068473816E-001;-2.677022293210030E-002;3.001836827024818E-003;5.941958079347387E-005;
2.409500000000000E+009;1.708681881427765E-001;-2.759627997875214E-002;3.034323686733842E-003;4.839164103032090E-005;
2.409666666666667E+009;1.712178736925125E-001;-2.817052230238915E-002;2.952107694000006E-003;-1.170263276435435E-004;
2.409833333333334E+009;1.712689995765686E-001;-2.867360226809979E-002;3.078800393268466E-003;-3.076545835938305E-004;
2.410000000000000E+009;1.715706139802933E-001;-2.938872016966343E-002;3.014057176187635E-003;-2.344551903661341E-004;
2.410166666666667E+009;1.717467308044434E-001;-3.015316650271416E-002;2.927961060777307E-003;-4.188639286439866E-004;
2.410333333333334E+009;1.716217845678330E-001;-3.059865348041058E-002;2.968342741951346E-003;-5.179143627174199E-004;
2.410500000000000E+009;1.717746406793594E-001;-3.130884096026421E-002;2.875738777220249E-003;-5.205538473092020E-004;
2.410666666666667E+009;1.716375499963760E-001;-3.222167119383812E-002;2.864716807380319E-003;-7.129017030820251E-004;
2.410833333333334E+009;1.716447621583939E-001;-3.257654979825020E-002;2.953481860458851E-003;-6.993490387685597E-004;
2.411000000000000E+009;1.715650558471680E-001;-3.327266126871109E-002;2.876929473131895E-003;-7.024068036116660E-004;
2.411166666666667E+009;1.714381575584412E-001;-3.372227400541306E-002;2.819206099957228E-003;-6.255409680306912E-004;
2.411333333333334E+009;1.710591316223145E-001;-3.433512523770332E-002;2.803392242640257E-003;-7.644193829037249E-004;
2.411500000000000E+009;1.705645918846130E-001;-3.510842099785805E-002;2.712433459237218E-003;-8.131755748763681E-004;
2.411666666666667E+009;1.704883575439453E-001;-3.584948554635048E-002;2.893961500376463E-003;-1.052085659466684E-003;
2.411833333333334E+009;1.699949651956558E-001;-3.644353896379471E-002;2.768405014649034E-003;-1.067429897375405E-003;
2.412000000000000E+009;1.696401238441467E-001;-3.725831955671310E-002;2.831638325005770E-003;-1.122582121752203E-003;
2.412166666666667E+009;1.690522730350494E-001;-3.791995719075203E-002;2.743189223110676E-003;-1.188190653920174E-003;
2.412333333333334E+009;1.688122153282166E-001;-3.861325606703758E-002;2.652966417372227E-003;-1.239658566191793E-003;
2.412500000000000E+009;1.681325882673264E-001;-3.958288952708244E-002;2.796016866341233E-003;-1.236242591403425E-003;
2.412666666666667E+009;1.675875335931778E-001;-4.060280695557594E-002;2.730250125750899E-003;-1.385467476211488E-003;
2.412833333333334E+009;1.669313311576843E-001;-4.146967083215714E-002;2.620864426717162E-003;-1.409154385328293E-003;
2.413000000000000E+009;1.662837415933609E-001;-4.256153851747513E-002;2.336603589355946E-003;-1.592873013578355E-003;
2.413166666666667E+009;1.655859500169754E-001;-4.331026226282120E-002;2.445738064125180E-003;-1.680796151049435E-003;
2.413333333333334E+009;1.645577698945999E-001;-4.437370225787163E-002;2.485047793015838E-003;-1.742921303957701E-003;
2.413500000000000E+009;1.640976369380951E-001;-4.543659090995789E-002;2.329634269699454E-003;-1.807644148357213E-003;
2.413666666666667E+009;1.633534729480743E-001;-4.646437242627144E-002;2.402241574600339E-003;-1.876616384834051E-003;
2.413833333333334E+009;1.626177579164505E-001;-4.757236316800118E-002;2.448846818879247E-003;-1.827890635468066E-003;
2.414000000000000E+009;1.618157327175140E-001;-4.875710606575012E-002;2.420686883851886E-003;-1.975028542801738E-003;
2.414166666666667E+009;1.613604128360748E-001;-4.983193799853325E-002;2.266586991026998E-003;-2.094102324917913E-003;
2.414333333333334E+009;1.607454419136047E-001;-5.104305595159531E-002;2.258486812934279E-003;-2.113229362294078E-003;
2.414500000000000E+009;1.603478193283081E-001;-5.208840593695641E-002;2.293271943926811E-003;-2.267404459416866E-003;
2.414666666666667E+009;1.597012281417847E-001;-5.324027314782143E-002;2.193617634475231E-003;-2.258039312437177E-003;
2.414833333333334E+009;1.591836363077164E-001;-5.454500764608383E-002;2.015039091929793E-003;-2.460166346281767E-003;
2.415000000000000E+009;1.588594913482666E-001;-5.568920820951462E-002;2.024174202233553E-003;-2.448424464091659E-003;
2.415166666666667E+009;1.585597842931747E-001;-5.699968338012695E-002;1.787521643564105E-003;-2.413185080513358E-003;
2.415333333333334E+009;1.584516465663910E-001;-5.847511440515518E-002;1.800770638510585E-003;-2.461930038407445E-003;
2.415500000000000E+009;1.581541597843170E-001;-5.983209982514381E-002;1.787175424396992E-003;-2.667336957529187E-003;
2.415666666666667E+009;1.578307002782822E-001;-6.122125685214996E-002;1.714853569865227E-003;-2.611383330076933E-003;
2.415833333333334E+009;1.577448546886444E-001;-6.265480071306229E-002;1.595114357769489E-003;-2.667986322194338E-003;
2.416000000000000E+009;1.574825644493103E-001;-6.416304409503937E-002;1.476448611356318E-003;-2.756672678515315E-003;
2.416166666666667E+009;1.574622690677643E-001;-6.558274477720261E-002;1.278088660910726E-003;-2.790194237604737E-003;
2.416333333333334E+009;1.572626680135727E-001;-6.696134805679321E-002;1.244010636582971E-003;-2.714107977226377E-003;
2.416500000000000E+009;1.569643765687943E-001;-6.838343292474747E-002;1.306898542679846E-003;-2.732810331508517E-003;
2.416666666666667E+009;1.568259149789810E-001;-6.982082873582840E-002;1.192652503959835E-003;-2.572882222011685E-003;
2.416833333333334E+009;1.568767875432968E-001;-7.136490195989609E-002;1.037412905134261E-003;-2.746757352724671E-003;
2.417000000000000E+009;1.564279198646545E-001;-7.265353202819824E-002;9.232599986717105E-004;-2.847211668267846E-003;
2.417166666666667E+009;1.562229692935944E-001;-7.365903258323669E-002;8.659095037728548E-004;-2.960912417620421E-003;
2.417333333333334E+009;1.561461687088013E-001;-7.491541653871536E-002;8.339839987456799E-004;-2.767925849184394E-003;
2.417500000000000E+009;1.559760272502899E-001;-7.617992907762528E-002;6.687313434667885E-004;-2.769703511148691E-003;
2.417666666666667E+009;1.559059023857117E-001;-7.705380022525787E-002;7.285797619260848E-004;-2.793126972392201E-003;
2.417833333333334E+009;1.557483077049255E-001;-7.812546193599701E-002;4.295061808079481E-004;-2.756051020696759E-003;
2.418000000000000E+009;1.557005047798157E-001;-7.914562523365021E-002;5.140845896676183E-004;-2.784273587167263E-003;
2.418166666666667E+009;1.556581258773804E-001;-7.992630451917648E-002;4.660406557377428E-004;-2.656346186995506E-003;
2.418333333333334E+009;1.558961421251297E-001;-8.066246658563614E-002;4.348607617430389E-004;-2.723079174757004E-003;
2.418500000000000E+009;1.556225121021271E-001;-8.159630000591278E-002;4.305380571167916E-004;-2.829724922776222E-003;
2.418666666666667E+009;1.556227058172226E-001;-8.223855495452881E-002;2.348424750380218E-004;-2.717023948207498E-003;
2.418833333333334E+009;1.554406583309174E-001;-8.298239856958389E-002;4.962249659001827E-004;-2.822289941832423E-003;
2.419000000000000E+009;1.554323136806488E-001;-8.361726999282837E-002;2.146689657820389E-004;-2.772613195702434E-003;
2.419166666666667E+009;1.552435308694840E-001;-8.420599997043610E-002;3.191281866747886E-004;-2.741737756878138E-003;
2.419333333333334E+009;1.549044698476791E-001;-8.455964177846909E-002;2.438073424855247E-004;-2.791714156046510E-003;
2.419500000000000E+009;1.550172418355942E-001;-8.525314182043076E-002;2.421738608973101E-004;-2.859323518350720E-003;
2.419666666666667E+009;1.548698693513870E-001;-8.561753481626511E-002;2.233215491287410E-004;-2.994560869410634E-003;
2.419833333333334E+009;1.545310169458389E-001;-8.591420203447342E-002;3.057469730265439E-004;-2.949959132820368E-003;
2.420000000000000E+009;1.543570607900620E-001;-8.635374158620834E-002;2.754373417701572E-004;-3.011766122654080E-003;
2.420166666666667E+009;1.541707366704941E-001;-8.659949898719788E-002;2.175618719775230E-004;-3.251244546845555E-003;
2.420333333333334E+009;1.539011150598526E-001;-8.703111112117767E-002;5.983056325931102E-005;-3.372599603608251E-003;
2.420500000000000E+009;1.537361592054367E-001;-8.731885999441147E-002;1.148394949268550E-004;-3.473737044259906E-003;
2.420666666666667E+009;1.532923877239227E-001;-8.753558993339539E-002;-1.828506501624361E-004;-3.579258453100920E-003;
2.420833333333334E+009;1.531147211790085E-001;-8.807417750358582E-002;-3.023780591320247E-004;-3.683891845867038E-003;
2.421000000000000E+009;1.525449156761169E-001;-8.838491141796112E-002;-4.169555904809386E-004;-3.842465579509735E-003;
2.421166666666667E+009;1.521441340446472E-001;-8.880069106817246E-002;-6.020622095093131E-004;-3.993954043835402E-003;
2.421333333333334E+009;1.517300903797150E-001;-8.939196169376373E-002;-1.004494843073189E-003;-3.946688026189804E-003;
2.421500000000000E+009;1.512111574411392E-001;-8.969119191169739E-002;-1.192052382975817E-003;-4.090622533112764E-003;
2.421666666666667E+009;1.503739804029465E-001;-9.025140851736069E-002;-1.402308349497616E-003;-4.054939839988947E-003;
2.421833333333334E+009;1.499371379613876E-001;-9.080505371093750E-002;-1.866097212769091E-003;-3.997662104666233E-003;
2.422000000000000E+009;1.491236239671707E-001;-9.142497181892395E-002;-1.989897573366761E-003;-3.913937602192164E-003;
2.422166666666667E+009;1.483509987592697E-001;-9.210672974586487E-002;-2.325844019651413E-003;-3.887822618708015E-003;
2.422333333333334E+009;1.477507501840591E-001;-9.263093769550324E-002;-2.475857036188245E-003;-3.848500782623887E-003;
2.422500000000000E+009;1.467409282922745E-001;-9.307282418012619E-002;-2.917845500633121E-003;-3.571298671886325E-003;
2.422666666666667E+009;1.458846479654312E-001;-9.386485069990158E-002;-2.987107727676630E-003;-3.451767610386014E-003;
2.422833333333334E+009;1.452806293964386E-001;-9.470082819461823E-002;-3.336129710078239E-003;-3.139910055324435E-003;
2.423000000000000E+009;1.444007009267807E-001;-9.550337493419647E-002;-3.368364181369543E-003;-2.801413182169199E-003;
2.423166666666667E+009;1.435349732637405E-001;-9.650333970785141E-002;-3.541209036484361E-003;-2.570549724623561E-003;
2.423333333333334E+009;1.425963789224625E-001;-9.695203602313995E-002;-3.805186133831739E-003;-2.364670624956489E-003;
2.423500000000000E+009;1.416936069726944E-001;-9.806431829929352E-002;-3.658923087641597E-003;-1.924632815644145E-003;
2.423666666666667E+009;1.406351476907730E-001;-9.903112798929215E-002;-3.767167683690786E-003;-1.687696320004761E-003;
2.423833333333334E+009;1.398767679929733E-001;-1.000836789608002E-001;-3.748846473172307E-003;-1.467127702198923E-003;
2.424000000000000E+009;1.388022154569626E-001;-1.009187027812004E-001;-3.674472682178021E-003;-1.274015870876610E-003;
2.424166666666667E+009;1.379366070032120E-001;-1.019085645675659E-001;-3.677166765555739E-003;-1.039429334923625E-003;
2.424333333333334E+009;1.371620893478394E-001;-1.030495464801788E-001;-3.392845159396529E-003;-8.081201813183725E-004;
2.424500000000000E+009;1.362530887126923E-001;-1.040220335125923E-001;-3.572786459699273E-003;-5.936394445598126E-004;
2.424666666666667E+009;1.355775147676468E-001;-1.051376312971115E-001;-3.298666095361114E-003;-6.402572616934776E-004;
2.424833333333334E+009;1.347300410270691E-001;-1.061657145619392E-001;-3.380619920790196E-003;-4.785636847373098E-004;
2.425000000000000E+009;1.339593380689621E-001;-1.074075624346733E-001;-3.030712017789483E-003;-2.872124605346471E-004;
2.425166666666667E+009;1.331859678030014E-001;-1.086626052856445E-001;-3.306432859972119E-003;-3.194488526787609E-004;
2.425333333333334E+009;1.327479630708695E-001;-1.096423789858818E-001;-3.068154910579324E-003;-4.272230216884054E-005;
2.425500000000000E+009;1.322023272514343E-001;-1.109905242919922E-001;-2.869602758437395E-003;3.777726669795811E-005;
2.425666666666667E+009;1.314410865306854E-001;-1.120979934930801E-001;-2.831463236361742E-003;1.910123864945490E-005;
2.425833333333334E+009;1.309268623590469E-001;-1.132435351610184E-001;-2.817065920680761E-003;5.251003312878311E-005;
2.426000000000000E+009;1.304347217082977E-001;-1.145610958337784E-001;-2.565057016909123E-003;1.467143592890352E-004;
2.426166666666667E+009;1.302238702774048E-001;-1.157910302281380E-001;-2.459058305248618E-003;2.708069805521518E-004;
2.426333333333334E+009;1.296543180942535E-001;-1.169597879052162E-001;-2.391947433352470E-003;4.232079081702977E-004;
2.426500000000000E+009;1.293345540761948E-001;-1.180394366383553E-001;-2.307741669937968E-003;3.188886912539601E-004;
2.426666666666667E+009;1.291715353727341E-001;-1.190327256917954E-001;-2.203170675784349E-003;2.655783318914473E-004;
2.426833333333334E+009;1.286920458078384E-001;-1.201868578791618E-001;-2.270626369863749E-003;4.824322240892798E-004;
2.427000000000000E+009;1.284431815147400E-001;-1.212297677993774E-001;-2.229967387393117E-003;4.462589567992836E-004;
2.427166666666667E+009;1.282064169645309E-001;-1.219841688871384E-001;-1.985636306926608E-003;4.224714066367596E-004;
2.427333333333334E+009;1.279124468564987E-001;-1.230274215340614E-001;-1.863781712017953E-003;3.965528740081936E-004;
2.427500000000000E+009;1.279346346855164E-001;-1.238204315304756E-001;-1.782433595508337E-003;3.773559874389321E-004;
2.427666666666667E+009;1.276793777942658E-001;-1.247041001915932E-001;-1.793086761608720E-003;4.079462669324130E-004;
