# Version 1.00
#
freq[Hz];re:Trc1_S11;im:Trc1_S11;re:Trc2_S21;im:Trc2_S21;
2.400000000000000E+009;1.712398380041122E-001;4.012015461921692E-002;-4.955764234182425E-005;3.244060557335615E-003;
2.400166666666667E+009;1.719424575567246E-001;3.976583108305931E-002;8.926643931772560E-005;3.233554307371378E-003;
2.400333333333334E+009;1.724566072225571E-001;3.903263807296753E-002;1.617397174413782E-005;3.131756791844964E-003;
2.400500000000000E+009;1.727461218833923E-001;3.850847110152245E-002;9.088549631997012E-006;3.364397445693612E-003;
2.400666666666667E+009;1.730323731899262E-001;3.779832646250725E-002;1.247683539986610E-004;3.270712448284030E-003;
2.400833333333334E+009;1.733446419239044E-001;3.742897883057594E-002;1.581859687576070E-004;3.012627596035600E-003;
2.401000000000000E+009;1.735338866710663E-001;3.671839088201523E-002;1.047505575115793E-004;3.154933452606201E-003;
2.401166666666667E+009;1.736251711845398E-001;3.583821281790733E-002;-1.291983426199295E-005;3.052014857530594E-003;
2.401333333333334E+009;1.736034154891968E-001;3.524136915802956E-002;1.802117476472631E-004;3.215184900909662E-003;
2.401500000000000E+009;1.737905889749527E-001;3.476492688059807E-002;1.375459250994027E-004;3.168056719005108E-003;
2.401666666666667E+009;1.736398339271545E-001;3.410300612449646E-002;3.373694198671728E-004;3.430784912779927E-003;
2.401833333333334E+009;1.733919531106949E-001;3.341448307037354E-002;3.596001188270748E-004;3.401963040232658E-003;
2.402000000000000E+009;1.732027530670166E-001;3.258818387985230E-002;4.259471897967160E-004;3.563608508557081E-003;
2.402166666666667E+009;1.728988587856293E-001;3.168224915862083E-002;7.051542634144425E-004;3.568427870050073E-003;
2.402333333333334E+009;1.727133989334106E-001;3.086307644844055E-002;8.347728289663792E-004;3.616368863731623E-003;
2.402500000000000E+009;1.724854558706284E-001;3.010055795311928E-002;1.056854263879359E-003;3.613837528973818E-003;
2.402666666666667E+009;1.721082925796509E-001;2.922056987881661E-002;1.308565260842443E-003;3.564233891665936E-003;
2.402833333333334E+009;1.719938069581986E-001;2.808907441794872E-002;1.462468877434731E-003;3.484157146885991E-003;
2.403000000000000E+009;1.716122031211853E-001;2.715849690139294E-002;1.602087053470314E-003;3.283312078565359E-003;
2.403166666666667E+009;1.714074015617371E-001;2.593909576535225E-002;1.767977140843868E-003;3.267604392021895E-003;
2.403333333333334E+009;1.707866191864014E-001;2.480265498161316E-002;1.990279415622354E-003;3.070751670747995E-003;
2.403500000000000E+009;1.704083383083344E-001;2.345505915582180E-002;1.984018133953214E-003;3.024036530405283E-003;
2.403666666666667E+009;1.699742227792740E-001;2.207900024950504E-002;2.115988638252020E-003;2.958354772999883E-003;
2.403833333333334E+009;1.697708070278168E-001;2.059009484946728E-002;2.127800369635224E-003;2.730899956077337E-003;
2.404000000000000E+009;1.694777458906174E-001;1.934886910021305E-002;2.228237688541412E-003;2.609904156997800E-003;
2.404166666666667E+009;1.691590398550034E-001;1.777088455855846E-002;2.156455768272281E-003;2.502396237105131E-003;
2.404333333333334E+009;1.688651293516159E-001;1.624904200434685E-002;2.320928499102593E-003;2.470955951139331E-003;
2.404500000000000E+009;1.685307770967484E-001;1.454617269337177E-002;2.276265760883689E-003;2.392021240666509E-003;
2.404666666666667E+009;1.684100031852722E-001;1.279594190418720E-002;2.147249877452850E-003;2.135619288310409E-003;
2.404833333333334E+009;1.683641374111176E-001;1.120303291827440E-002;2.270173048600555E-003;2.185190794989467E-003;
2.405000000000000E+009;1.681534051895142E-001;9.488774463534355E-003;2.256122417747974E-003;2.017484046518803E-003;
2.405166666666667E+009;1.679690629243851E-001;7.563821505755186E-003;2.255970146507025E-003;2.005163580179215E-003;
2.405333333333334E+009;1.679249256849289E-001;5.478309001773596E-003;2.271913923323154E-003;2.143874065950513E-003;
2.405500000000000E+009;1.680293083190918E-001;3.957464825361967E-003;2.255761763080955E-003;2.122927922755480E-003;
2.405666666666667E+009;1.678266525268555E-001;2.048772759735584E-003;2.412370173260570E-003;2.091354457661510E-003;
2.405833333333334E+009;1.678456366062164E-001;2.327716356376186E-004;2.517140703275800E-003;2.005503978580236E-003;
2.406000000000000E+009;1.678410023450851E-001;-1.750169438309968E-003;2.689184853807092E-003;2.015807898715138E-003;
2.406166666666667E+009;1.677168458700180E-001;-3.476973390206695E-003;2.564325695857406E-003;1.932670362293720E-003;
2.406333333333334E+009;1.678988784551621E-001;-5.343595054000616E-003;2.800537273287773E-003;1.848290907219052E-003;
2.406500000000000E+009;1.678850948810577E-001;-7.259158417582512E-003;2.697223797440529E-003;1.746440073475242E-003;
2.406666666666667E+009;1.678406745195389E-001;-8.945677429437637E-003;2.902696141973138E-003;1.689031603746116E-003;
2.406833333333334E+009;1.678790450096130E-001;-1.065113581717014E-002;2.913995413109660E-003;1.696612685918808E-003;
2.407000000000000E+009;1.679609715938568E-001;-1.233639474958181E-002;2.995160873979330E-003;1.568296574987471E-003;
2.407166666666667E+009;1.681157946586609E-001;-1.380408741533756E-002;3.063214942812920E-003;1.332104788161814E-003;
2.407333333333334E+009;1.680688410997391E-001;-1.551810838282108E-002;3.236636519432068E-003;1.468647271394730E-003;
2.407500000000000E+009;1.680673509836197E-001;-1.670396141707897E-002;3.139583161100745E-003;1.032986328937113E-003;
2.407666666666667E+009;1.682273000478745E-001;-1.798771135509014E-002;3.331167623400688E-003;1.045295153744519E-003;
2.407833333333334E+009;1.682400852441788E-001;-1.910185255110264E-002;3.323467914015055E-003;7.636876543983817E-004;
2.408000000000000E+009;1.683267503976822E-001;-2.035711519420147E-002;3.345642937347293E-003;9.468663483858109E-004;
2.408166666666667E+009;1.684691458940506E-001;-2.123062685132027E-002;3.363409079611301E-003;4.923460073769093E-004;
2.408333333333334E+009;1.688937395811081E-001;-2.211318537592888E-002;3.189857117831707E-003;6.356094963848591E-004;
2.408500000000000E+009;1.689410507678986E-001;-2.305606566369534E-002;3.180682193487883E-003;5.804516840726137E-004;
2.408666666666667E+009;1.693850755691528E-001;-2.391506172716618E-002;3.232207847759128E-003;3.955048450734466E-004;
2.408833333333334E+009;1.695538163185120E-001;-2.458186820149422E-002;3.166955895721912E-003;1.229722547577694E-004;
2.409000000000000E+009;1.699685007333756E-001;-2.533741295337677E-002;3.371875500306487E-003;2.120228018611670E-004;
2.409166666666667E+009;1.704873442649841E-001;-2.612956240773201E-002;3.311109961941838E-003;8.594313840148971E-005;
2.409333333333334E+009;1.707325428724289E-001;-2.684283442795277E-002;3.156200284138322E-003;-3.366093733347952E-005;
2.409500000000000E+009;1.709672063589096E-001;-2.757787145674229E-002;3.230180358514190E-003;-1.879774790722877E-004;
2.409666666666667E+009;1.711287349462509E-001;-2.812282554805279E-002;3.132692538201809E-003;-2.395481424173340E-004;
2.409833333333334E+009;1.714729666709900E-001;-2.880765125155449E-002;3.074204549193382E-003;-2.568360650911927E-004;
2.410000000000000E+009;1.717322617769241E-001;-2.940860763192177E-002;3.144852584227920E-003;-4.694835515692830E-004;
2.410166666666667E+009;1.717610657215118E-001;-3.004615381360054E-002;3.143584821373224E-003;-5.281315534375608E-004;
2.410333333333334E+009;1.719552576541901E-001;-3.068961203098297E-002;3.024482168257237E-003;-5.269118701107800E-004;
2.410500000000000E+009;1.718807369470596E-001;-3.134331107139587E-002;2.948185428977013E-003;-5.353296874091029E-004;
2.410666666666667E+009;1.717537045478821E-001;-3.215812146663666E-002;2.814187901094556E-003;-4.863923240918666E-004;
2.410833333333334E+009;1.716479361057282E-001;-3.265028074383736E-002;2.934926189482212E-003;-6.827219040133059E-004;
2.411000000000000E+009;1.716503202915192E-001;-3.326736763119698E-002;2.785890595987439E-003;-7.968390127643943E-004;
2.411166666666667E+009;1.714144945144653E-001;-3.397570922970772E-002;2.969061024487019E-003;-7.077613845467567E-004;
2.411333333333334E+009;1.710781753063202E-001;-3.451286256313324E-002;2.886441070586443E-003;-8.595975232310593E-004;
2.411500000000000E+009;1.707682907581329E-001;-3.527440875768662E-002;2.982306992635131E-003;-8.366463007405400E-004;
2.411666666666667E+009;1.704333424568176E-001;-3.588389605283737E-002;2.958911238238215E-003;-1.130828633904457E-003;
2.411833333333334E+009;1.700950115919113E-001;-3.637523949146271E-002;2.831296296790242E-003;-1.127713592723012E-003;
2.412000000000000E+009;1.697669923305512E-001;-3.726325556635857E-002;2.811141079291701E-003;-1.212674193084240E-003;
2.412166666666667E+009;1.691067069768906E-001;-3.798699378967285E-002;2.687236061319709E-003;-1.206763205118477E-003;
2.412333333333334E+009;1.686611771583557E-001;-3.888714686036110E-002;2.587690018117428E-003;-1.347164972685278E-003;
2.412500000000000E+009;1.681664586067200E-001;-3.951350599527359E-002;2.781656337901950E-003;-1.309693325310946E-003;
2.412666666666667E+009;1.675201952457428E-001;-4.068441689014435E-002;2.663760678842664E-003;-1.496309647336602E-003;
2.412833333333334E+009;1.669059097766876E-001;-4.137158021330833E-002;2.529035089537501E-003;-1.562552060931921E-003;
2.413000000000000E+009;1.663023978471756E-001;-4.241320118308067E-002;2.466292819008231E-003;-1.586136757396162E-003;
2.413166666666667E+009;1.656353622674942E-001;-4.345981776714325E-002;2.470976207405329E-003;-1.731582102365792E-003;
2.413333333333334E+009;1.647287905216217E-001;-4.451172426342964E-002;2.486356534063816E-003;-1.619737478904426E-003;
2.413500000000000E+009;1.640546619892120E-001;-4.571722075343132E-002;2.548990305513144E-003;-1.758110360242426E-003;
2.413666666666667E+009;1.634989827871323E-001;-4.665734991431236E-002;2.474178094416857E-003;-1.710816635750234E-003;
2.413833333333334E+009;1.625346690416336E-001;-4.784195497632027E-002;2.538073342293501E-003;-1.637562178075314E-003;
2.414000000000000E+009;1.617703586816788E-001;-4.894982278347015E-002;2.457559108734131E-003;-1.822425867430866E-003;
2.414166666666667E+009;1.612899601459503E-001;-4.998655244708061E-002;2.485991921275854E-003;-1.910942024551332E-003;
2.414333333333334E+009;1.607023924589157E-001;-5.115268751978874E-002;2.171659609302878E-003;-2.161994343623519E-003;
2.414500000000000E+009;1.602056324481964E-001;-5.222576484084129E-002;2.473733155056834E-003;-2.113866154104471E-003;
2.414666666666667E+009;1.597812771797180E-001;-5.332005023956299E-002;2.412222092971206E-003;-2.279541920870543E-003;
2.414833333333334E+009;1.592382639646530E-001;-5.456067249178886E-002;2.143032848834992E-003;-2.330988179892302E-003;
2.415000000000000E+009;1.589064598083496E-001;-5.599735677242279E-002;2.156156580895186E-003;-2.624021843075752E-003;
2.415166666666667E+009;1.585162729024887E-001;-5.719621479511261E-002;1.905332435853779E-003;-2.575532067567110E-003;
2.415333333333334E+009;1.583305001258850E-001;-5.853283032774925E-002;2.063588239252567E-003;-2.660550642758608E-003;
2.415500000000000E+009;1.581176072359085E-001;-5.986797809600830E-002;1.817827345803380E-003;-2.642043633386493E-003;
2.415666666666667E+009;1.577029824256897E-001;-6.115998700261116E-002;1.638628775253892E-003;-2.718091011047363E-003;
2.415833333333334E+009;1.578007042407990E-001;-6.269393116235733E-002;1.721965149044991E-003;-2.844771137461066E-003;
2.416000000000000E+009;1.573726683855057E-001;-6.416900455951691E-002;1.431552576832473E-003;-2.634070347994566E-003;
2.416166666666667E+009;1.574596464633942E-001;-6.571618467569351E-002;1.547273597680032E-003;-2.743083285167813E-003;
2.416333333333334E+009;1.571768373250961E-001;-6.706990301609039E-002;1.411721459589899E-003;-2.891851356253028E-003;
2.416500000000000E+009;1.570322364568710E-001;-6.857730448246002E-002;1.423781272023916E-003;-2.934104297310114E-003;
2.416666666666667E+009;1.567812263965607E-001;-6.992495059967041E-002;1.280587050132453E-003;-2.974802628159523E-003;
2.416833333333334E+009;1.567387431859970E-001;-7.144726067781448E-002;1.088151824660599E-003;-2.896784804761410E-003;
2.417000000000000E+009;1.563194096088409E-001;-7.271531969308853E-002;9.904077742248774E-004;-2.842279383912683E-003;
2.417166666666667E+009;1.560922563076019E-001;-7.387188822031021E-002;1.040145056322217E-003;-3.002297831699252E-003;
2.417333333333334E+009;1.560666859149933E-001;-7.499042153358460E-002;8.703990606591106E-004;-3.074352862313390E-003;
2.417500000000000E+009;1.558075249195099E-001;-7.627246528863907E-002;8.879820816218853E-004;-2.989414148032665E-003;
2.417666666666667E+009;1.557591259479523E-001;-7.724202424287796E-002;7.445710944011807E-004;-2.943065017461777E-003;
2.417833333333334E+009;1.557116657495499E-001;-7.816608250141144E-002;6.283141556195915E-004;-2.946629654616118E-003;
2.418000000000000E+009;1.554907709360123E-001;-7.911697030067444E-002;6.522050825878978E-004;-2.934992080554366E-003;
2.418166666666667E+009;1.554429680109024E-001;-7.989903539419174E-002;6.007846677675843E-004;-2.900160383433104E-003;
2.418333333333334E+009;1.555926054716110E-001;-8.081034570932388E-002;4.515062319114804E-004;-2.886805683374405E-003;
2.418500000000000E+009;1.554861962795258E-001;-8.144442737102509E-002;4.749618819914758E-004;-2.823115559294820E-003;
2.418666666666667E+009;1.554843783378601E-001;-8.234190940856934E-002;5.217391299083829E-004;-2.822707640007138E-003;
2.418833333333334E+009;1.553363204002380E-001;-8.300079405307770E-002;3.854523529298604E-004;-2.972292015329003E-003;
2.419000000000000E+009;1.551870256662369E-001;-8.350453525781632E-002;4.536116321105510E-004;-2.890836680307984E-003;
2.419166666666667E+009;1.550674289464951E-001;-8.427684009075165E-002;3.146771923638880E-004;-2.944125793874264E-003;
2.419333333333334E+009;1.550235301256180E-001;-8.458004146814346E-002;2.731622662395239E-004;-2.903434913605452E-003;
2.419500000000000E+009;1.547789871692658E-001;-8.528692275285721E-002;2.455411013215780E-004;-3.035784233361483E-003;
2.419666666666667E+009;1.547333747148514E-001;-8.576008677482605E-002;1.449349365429953E-004;-3.074631560593844E-003;
2.419833333333334E+009;1.544708460569382E-001;-8.595355600118637E-002;1.625656150281429E-004;-3.208634676411748E-003;
2.420000000000000E+009;1.544038504362106E-001;-8.641314506530762E-002;1.959275832632557E-004;-3.329864004626870E-003;
2.420166666666667E+009;1.540514826774597E-001;-8.671500533819199E-002;6.067720823921263E-005;-3.308710874989629E-003;
2.420333333333334E+009;1.538833528757095E-001;-8.712556213140488E-002;-2.048047281277832E-005;-3.376844571903348E-003;
2.420500000000000E+009;1.537388712167740E-001;-8.733364194631577E-002;-1.803508712328039E-005;-3.606985788792372E-003;
2.420666666666667E+009;1.531468331813812E-001;-8.758941292762756E-002;-5.280412005959079E-005;-3.757511964067817E-003;
2.420833333333334E+009;1.530551612377167E-001;-8.806589245796204E-002;-2.646279463078827E-004;-3.761054249480367E-003;
2.421000000000000E+009;1.525014042854309E-001;-8.851844072341919E-002;-5.326218670234084E-004;-3.989211283624172E-003;
2.421166666666667E+009;1.523023694753647E-001;-8.895131945610046E-002;-7.435246370732784E-004;-4.033610690385103E-003;
2.421333333333334E+009;1.517781019210815E-001;-8.948700129985809E-002;-9.021627483889461E-004;-4.134931601583958E-003;
2.421500000000000E+009;1.510546356439591E-001;-8.982785791158676E-002;-1.285867183469236E-003;-4.131618421524763E-003;
2.421666666666667E+009;1.505042910575867E-001;-9.031074494123459E-002;-1.511983573436737E-003;-4.091032315045595E-003;
2.421833333333334E+009;1.498471796512604E-001;-9.084012359380722E-002;-1.798389013856649E-003;-4.221387673169375E-003;
2.422000000000000E+009;1.492373645305634E-001;-9.126751124858856E-002;-2.237652661278844E-003;-4.128724336624146E-003;
2.422166666666667E+009;1.483037769794464E-001;-9.206902980804443E-002;-2.278755884617567E-003;-4.022687207907438E-003;
2.422333333333334E+009;1.477303653955460E-001;-9.246438741683960E-002;-2.718739211559296E-003;-3.878322429955006E-003;
2.422500000000000E+009;1.468599736690521E-001;-9.319163113832474E-002;-2.927833236753941E-003;-3.745880676433444E-003;
2.422666666666667E+009;1.459610164165497E-001;-9.389773756265640E-002;-3.090450307354331E-003;-3.410401986911893E-003;
2.422833333333334E+009;1.452799439430237E-001;-9.464699029922485E-002;-3.427104558795691E-003;-3.179938066750765E-003;
2.423000000000000E+009;1.442193537950516E-001;-9.544537216424942E-002;-3.456553677096963E-003;-2.942913444712758E-003;
2.423166666666667E+009;1.434433609247208E-001;-9.634628146886826E-002;-3.678011940792203E-003;-2.679492579773068E-003;
2.423333333333334E+009;1.426990479230881E-001;-9.698767960071564E-002;-3.824282437562943E-003;-2.285436959937215E-003;
2.423500000000000E+009;1.416202336549759E-001;-9.801881760358810E-002;-3.900208277627826E-003;-2.240988658741117E-003;
2.423666666666667E+009;1.407184749841690E-001;-9.894942492246628E-002;-3.884971840307117E-003;-1.842705300077796E-003;
2.423833333333334E+009;1.399312764406204E-001;-1.000762656331062E-001;-3.795581404119730E-003;-1.527565298601985E-003;
2.424000000000000E+009;1.388699710369110E-001;-1.007497683167458E-001;-3.856436349451542E-003;-1.217316952534020E-003;
2.424166666666667E+009;1.379167437553406E-001;-1.019728928804398E-001;-3.630372229963541E-003;-1.168638234958053E-003;
2.424333333333334E+009;1.372168064117432E-001;-1.028560325503349E-001;-3.734073834493756E-003;-9.773526107892394E-004;
2.424500000000000E+009;1.363345533609390E-001;-1.040319949388504E-001;-3.521043341606855E-003;-6.479160510934889E-004;
2.424666666666667E+009;1.355423480272293E-001;-1.049447581171989E-001;-3.408343996852636E-003;-3.878074930980802E-004;
2.424833333333334E+009;1.347099542617798E-001;-1.060619354248047E-001;-3.435554448515177E-003;-4.060375504195690E-004;
2.425000000000000E+009;1.340692192316055E-001;-1.072980687022209E-001;-3.215478034690023E-003;-4.050911229569465E-004;
2.425166666666667E+009;1.332410573959351E-001;-1.084300726652145E-001;-3.382620401680470E-003;-2.300542982993648E-004;
2.425333333333334E+009;1.327411085367203E-001;-1.096423864364624E-001;-3.055904991924763E-003;-8.024166891118512E-005;
2.425500000000000E+009;1.322686076164246E-001;-1.107636913657188E-001;-2.954558935016394E-003;-1.638772664591670E-004;
2.425666666666667E+009;1.313920021057129E-001;-1.120270490646362E-001;-2.778538735583425E-003;1.030652783811092E-004;
2.425833333333334E+009;1.310251951217651E-001;-1.132771968841553E-001;-2.780004404485226E-003;1.756434794515371E-004;
2.426000000000000E+009;1.305803656578064E-001;-1.145840585231781E-001;-2.656778087839484E-003;1.243014557985589E-004;
2.426166666666667E+009;1.302896887063980E-001;-1.157887428998947E-001;-2.602875465527177E-003;2.751143183559179E-004;
2.426333333333334E+009;1.297636777162552E-001;-1.168119609355927E-001;-2.600674284622073E-003;2.047762827714905E-004;
2.426500000000000E+009;1.294440925121307E-001;-1.180622279644013E-001;-2.533704740926623E-003;3.354740329086781E-004;
2.426666666666667E+009;1.292241215705872E-001;-1.189482286572456E-001;-2.405102830380201E-003;4.289760254323483E-004;
2.426833333333334E+009;1.288845390081406E-001;-1.201537027955055E-001;-2.197604393586516E-003;5.043467972427607E-004;
2.427000000000000E+009;1.285409331321716E-001;-1.211595162749291E-001;-2.184445969760418E-003;4.857175808865577E-004;
2.427166666666667E+009;1.283100694417954E-001;-1.218739748001099E-001;-1.996290637180209E-003;5.191663512960076E-004;
2.427333333333334E+009;1.280754059553146E-001;-1.229550763964653E-001;-1.951746759004891E-003;4.824298375751823E-004;
2.427500000000000E+009;1.280045211315155E-001;-1.238223984837532E-001;-2.000476699322462E-003;4.099517827853560E-004;
2.427666666666667E+009;1.278494000434876E-001;-1.247706040740013E-001;-1.973446691408753E-003;2.717229072004557E-004;
