# Hz S RI R 
2400000000.0000000000 0.172751039266586303710937500000 0.048742052167654037475585937500 0.006592274177819490432739257812 -0.001955626998096704916713095557 0 0 0 0 
2400166666.6666665077 0.173445612192153902908486884371 0.048036266118288040161132812500 0.006440540309995412826538085938 -0.002417736919596790833714150537 0 0 0 0 
2400333333.3333334923 0.173801958560943603515625000000 0.047288734465837478637695312500 0.006341985892504453659057617188 -0.002546915318816899819615029443 0 0 0 0 
2400500000.0000000000 0.174201786518096896072549384371 0.046566076576709747314453125000 0.006029869895428419113159179688 -0.002978811273351312117335654150 0 0 0 0 
2400666666.6666665077 0.174606055021286010742187500000 0.045804448425769812847097028907 0.005824699066579341888427734375 -0.003178555052727460861206054688 0 0 0 0 
2400833333.3333334923 0.174973040819168090820312500000 0.045346807688474662090261091407 0.005493017844855785369873046875 -0.003391455393284558816197060693 0 0 0 0 
2401000000.0000000000 0.175153777003288296798544365629 0.044617492705583572387695312500 0.005277600139379501342773437500 -0.003690106095746159987208701025 0 0 0 0 
2401166666.6666665077 0.175316542387008694747763115629 0.043929237872362136840820312500 0.005023053381592035293579101562 -0.003884722944349050955531454932 0 0 0 0 
2401333333.3333334923 0.175334706902503995040731865629 0.043252911418676383281667341407 0.004875163547694683074951171875 -0.004263734910637140274047851562 0 0 0 0 
2401500000.0000000000 0.175420448184013394454794365629 0.042601272463798522949218750000 0.004519539885222911834716796875 -0.004245128016918897628784179688 0 0 0 0 
2401666666.6666665077 0.175536438822746304611044365629 0.041957367211580283428151716407 0.004206203855574131011962890625 -0.004557339008897542953491210938 0 0 0 0 
2401833333.3333334923 0.175533160567283602615518134371 0.041035644710063927387277971093 0.003874135902151464982273720850 -0.004623616114258766174316406250 0 0 0 0 
2402000000.0000000000 0.175240010023117093185263115629 0.040248405188322067260742187500 0.003573291469365357918980263818 -0.004769846796989440917968750000 0 0 0 0 
2402166666.6666665077 0.175224080681800786774005018742 0.039385788142681121826171875000 0.003354399232193828062770224463 -0.004774817265570163726806640625 0 0 0 0 
2402333333.3333334923 0.174947649240493802169638115629 0.038478218019008643413503278907 0.002982686739414929909947060693 -0.004836990032345057401175214551 0 0 0 0 
2402500000.0000000000 0.174987137317657498458700615629 0.037579320371150970458984375000 0.002488073660060762925388955225 -0.004855473991483449935913085938 0 0 0 0 
2402666666.6666665077 0.174730643630027798751669365629 0.036469977349042892456054687500 0.002404641127213836149928427588 -0.004809606820344924926757812500 0 0 0 0 
2402833333.3333334923 0.174382448196411105056924384371 0.035414412617683410644531250000 0.002110303146764636039733886719 -0.004738132469356060028076171875 0 0 0 0 
2403000000.0000000000 0.174345001578330993652343750000 0.034255713224411010742187500000 0.001625672797672450976130820166 -0.004785465076565743360037519238 0 0 0 0 
2403166666.6666665077 0.174053534865379305740518134371 0.032943625003099441528320312500 0.001359275076538323922398232568 -0.004488465841859579086303710938 0 0 0 0 
2403333333.3333334923 0.173712760210037203689736884371 0.031550128012895577167551408593 0.001187449903227389075635600513 -0.004427286796271800994873046875 0 0 0 0 
2403500000.0000000000 0.173112884163856506347656250000 0.029986603185534480703333670704 0.000818133587017655372619628906 -0.004364972468465566635131835938 0 0 0 0 
2403666666.6666665077 0.172884464263915987869424384371 0.028495758771896358835240548046 0.000578931998461484909057617188 -0.004094330128282308578491210938 0 0 0 0 
2403833333.3333334923 0.172689869999885586837606865629 0.026817070320248600351353829296 0.000520263158250600099563598633 -0.003894783090800046920776367188 0 0 0 0 
2404000000.0000000000 0.172264367341995211502236884371 0.025232391431927680969238281250 0.000420233904151246005862635480 -0.003636195324361323876621865381 0 0 0 0 
2404166666.6666665077 0.171819210052490206619424384371 0.023408582434058189392089843750 0.000252764177275821620791834698 -0.003557195654138923125026083838 0 0 0 0 
2404333333.3333334923 0.171352669596672113616619981258 0.021694907918572429311732108204 0.000091266767412889748811721802 -0.003411225276067852973937988281 0 0 0 0 
2404500000.0000000000 0.171120733022689791580361884371 0.019742725417017940175989920704 0.000113625494122970903485697614 -0.003249079687520862059352255713 0 0 0 0 
2404666666.6666665077 0.170847818255424499511718750000 0.017883203923702239990234375000 0.000005826964752486674115061760 -0.002941849641501903967616415869 0 0 0 0 
2404833333.3333334923 0.170606538653373690506143134371 0.016018372029066089284876639454 0.000059126497944816946983337402 -0.002831615041941403908970498193 0 0 0 0 
2405000000.0000000000 0.170333743095398004729901231258 0.013923166319727899378766444727 0.000081412355939392000436782837 -0.002489260630682110786437988281 0 0 0 0 
2405166666.6666665077 0.170357570052146911621093750000 0.011999052017927169799804687500 0.000023153252186602909455095597 -0.002349026035517454147338867188 0 0 0 0 
2405333333.3333334923 0.170410007238388089279013115629 0.009748628363013267517089843750 0.000165956866112537709161481314 -0.002164479810744524002075195312 0 0 0 0 
2405500000.0000000000 0.170298546552658108810263115629 0.008042799308896064758300781250 0.000322677136864513213008326398 -0.002235488500446081161499023438 0 0 0 0 
2405666666.6666665077 0.170473515987396212478799384371 0.006080394145101308822631835938 0.000226055592065677100985926495 -0.002035198267549275918247841943 0 0 0 0 
2405833333.3333334923 0.170363381505012512207031250000 0.003970475401729345321655273438 0.000369880581274628585011082782 -0.002030081115663052038905478369 0 0 0 0 
2406000000.0000000000 0.170665398240089388748330634371 0.001861021271906792900682758862 0.000434487272286787574917393817 -0.002070744521915913061854697119 0 0 0 0 
2406166666.6666665077 0.170882150530815096756143134371 0.000011162296686961779539483224 0.000626365537755191326141357422 -0.001884056022390723011614155347 0 0 0 0 
2406333333.3333334923 0.171474680304527310470419365629 -0.002004329115152359008789062500 0.000765711825806647539138793945 -0.002005578018724917931797646631 0 0 0 0 
2406500000.0000000000 0.171738088130950899978799384371 -0.004132592119276523590087890625 0.000688711414113640785217285156 -0.001893347944132983901380229419 0 0 0 0 
2406666666.6666665077 0.172022283077239990234375000000 -0.006049320101737976074218750000 0.000920213060453534126281738281 -0.001985718961805105209350585938 0 0 0 0 
2406833333.3333334923 0.172620490193367004394531250000 -0.008045813068747520446777343750 0.001087138312868773937225341797 -0.002033405005931853814366006006 0 0 0 0 
2407000000.0000000000 0.173273295164108304122763115629 -0.009916602633893489837646484375 0.001199367106892168955561972510 -0.002119239419698715209960937500 0 0 0 0 
2407166666.6666665077 0.173911035060882596114950615629 -0.011722893454134460794469063671 0.001108061522245407104492187500 -0.002234419109299778938293457031 0 0 0 0 
2407333333.3333334923 0.174451425671577509124432481258 -0.013745232485234740865687186329 0.001202892744913697025896381909 -0.002136138267815113067626953125 0 0 0 0 
2407500000.0000000000 0.175154343247413607498330634371 -0.015429376624524589883824532421 0.001213582465425133921979594653 -0.002273544901981949806213378906 0 0 0 0 
2407666666.6666665077 0.175851792097091702560263115629 -0.016987802460789680480957031250 0.001286263810470700047136616284 -0.002477189293131231827976845850 0 0 0 0 
2407833333.3333334923 0.176460355520248413085937500000 -0.018952507525682449340820312500 0.001346249715425074100494384766 -0.002583201043307780785801552881 0 0 0 0 
2408000000.0000000000 0.177189320325851412674111884371 -0.020359707996249198913574218750 0.001415481092408299012425088037 -0.002958369208499788804295205225 0 0 0 0 
2408166666.6666665077 0.177852511405944796463174384371 -0.021852647885680198669433593750 0.001297613373026252009748149341 -0.002913932781666516824009560693 0 0 0 0 
2408333333.3333334923 0.178619295358657809158486884371 -0.023280361667275428771972656250 0.001240152516402303955675434644 -0.003186525078490376906154013525 0 0 0 0 
2408500000.0000000000 0.179261937737464904785156250000 -0.024680295959115028381347656250 0.001100358320400119044660258716 -0.003224539337679744200465536963 0 0 0 0 
2408666666.6666665077 0.179772511124610900878906250000 -0.026061475276947021484375000000 0.000951660331338644027709960938 -0.003506933571770786805393838037 0 0 0 0 
2408833333.3333334923 0.180330038070678710937500000000 -0.027207599952816959726353829296 0.000770399055909365415573120117 -0.003608968807384372191188193213 0 0 0 0 
2409000000.0000000000 0.180839344859123202224893134371 -0.028267566114664081228236014454 0.000657558848615735769271850586 -0.003856869414448738098144531250 0 0 0 0 
2409166666.6666665077 0.181139141321182306487713731258 -0.029304983094334598886510079296 0.000361364043783396482467651367 -0.003959930036216974258422851562 0 0 0 0 
2409333333.3333334923 0.182043582201004000564736884371 -0.030421124771237369882603829296 0.000075414500315673649311065674 -0.003836415708065032958984375000 0 0 0 0 
2409500000.0000000000 0.182174578309059087555255018742 -0.031072806566953659057617187500 -0.000135548689286224489838200702 -0.003993497695773839950561523438 0 0 0 0 
2409666666.6666665077 0.182473763823509188553018134371 -0.031694814562797553325612653907 -0.000263484107563272118568420410 -0.004063701722770929336547851562 0 0 0 0 
2409833333.3333334923 0.182567656040191705901776231258 -0.032138381153345108032226562500 -0.000628281617537140846252441406 -0.003974656574428082379812909863 0 0 0 0 
2410000000.0000000000 0.182823419570922907073651231258 -0.032653849571943283081054687500 -0.000783559342380613088607788086 -0.003906216006726026968715048682 0 0 0 0 
2410166666.6666665077 0.183130890130996704101562500000 -0.033140167593955986713449846093 -0.000970549997873604297637939453 -0.003778231563046575026271201025 0 0 0 0 
2410333333.3333334923 0.183074116706848089020098768742 -0.033675972372293472290039062500 -0.001232321606948971965192485278 -0.003773787058889865875244140625 0 0 0 0 
2410500000.0000000000 0.183304861187934903243856865629 -0.034196596592664718627929687500 -0.001431238604709506034851074219 -0.003571241162717341943028115381 0 0 0 0 
2410666666.6666665077 0.183248594403266906738281250000 -0.034643769264221191406250000000 -0.001494561671279371001599955981 -0.003507459303364158110377646338 0 0 0 0 
2410833333.3333334923 0.183177784085273687164630018742 -0.034820966422557830810546875000 -0.001617332338355482058284140479 -0.003293247660622001127955771338 0 0 0 0 
2411000000.0000000000 0.182948544621467590332031250000 -0.035087335854768753051757812500 -0.001684655318967998027801513672 -0.003212626790627837181091308594 0 0 0 0 
2411166666.6666665077 0.182682186365127591232138115629 -0.035572707653045647357981096093 -0.001743192551657557921168661963 -0.003100669244304298920872353662 0 0 0 0 
2411333333.3333334923 0.182361140847206087967080634371 -0.035787168890237808227539062500 -0.002000539097934960885288857568 -0.002831333782523870901820517432 0 0 0 0 
2411500000.0000000000 0.181755796074867304046307481258 -0.036270309239625930786132812500 -0.002267097355797886848449707031 -0.002585101174190640015843056787 0 0 0 0 
2411666666.6666665077 0.181352972984313992599325615629 -0.036509156227111823345143903907 -0.002152680186554789976832724463 -0.002546343719586730003356933594 0 0 0 0 
2411833333.3333334923 0.180721372365951510330361884371 -0.036858346313238136982004533593 -0.002126099076122045950648642432 -0.002312466502189635796787881006 0 0 0 0 
2412000000.0000000000 0.180018827319145202636718750000 -0.037345804274082176898996721093 -0.002120921155437827110290527344 -0.002205506898462771935703896631 0 0 0 0 
2412166666.6666665077 0.179124563932418795486611884371 -0.037852238863706588745117187500 -0.002098058117553592161891318213 -0.002098382217809557914733886719 0 0 0 0 
2412333333.3333334923 0.178264409303665188888388115629 -0.038292616605758666992187500000 -0.002160220639780164198634482275 -0.001953234896063805060145712744 0 0 0 0 
2412500000.0000000000 0.177332937717437688629473768742 -0.038795724511146552349050153907 -0.002036518417298793792724609375 -0.001877529663033783002140664209 0 0 0 0 
2412666666.6666665077 0.176273584365844698806924384371 -0.039530605077743530273437500000 -0.001986738061532378196716308594 -0.001694254693575202985050820459 0 0 0 0 
2412833333.3333334923 0.175135031342506408691406250000 -0.040235795080661766742746721093 -0.002093543531373143196105957031 -0.001572170294821261925938271631 0 0 0 0 
2413000000.0000000000 0.173970803618431091308593750000 -0.040920883417129516601562500000 -0.001953328493982553915736533057 -0.001500855199992656924604106372 0 0 0 0 
2413166666.6666665077 0.172653734683990506271200615629 -0.041745986789464950561523437500 -0.001599741633981466076494526440 -0.001565995858982204957249306787 0 0 0 0 
2413333333.3333334923 0.171392440795898409744424384371 -0.042520608752965927124023437500 -0.001704960945062339089037251050 -0.001420569955371320030809711987 0 0 0 0 
2413500000.0000000000 0.170234695076942388336505018742 -0.043622262775897979736328125000 -0.001701298751868308024165488135 -0.001430076197721064090728759766 0 0 0 0 
2413666666.6666665077 0.169031351804733304122763115629 -0.044520314782857901836354841407 -0.001596795395016670010210346753 -0.001349128084257245063781738281 0 0 0 0 
2413833333.3333334923 0.167560368776321411132812500000 -0.045618068426847457885742187500 -0.001368056051433085961582802881 -0.001342824310995637936833047021 0 0 0 0 
2414000000.0000000000 0.166334748268127413650674384371 -0.046796049922704696655273437500 -0.001344923512078822092769003760 -0.001257459749467670917510986328 0 0 0 0 
2414166666.6666665077 0.165244847536087008377236884371 -0.048007391393184661865234375000 -0.001409476622939110019086528247 -0.001328764134086668925044394385 0 0 0 0 
2414333333.3333334923 0.163910269737243707854901231258 -0.049318119883537292480468750000 -0.001278441515751183032989501953 -0.001343703479506074948551797021 0 0 0 0 
2414500000.0000000000 0.162910655140876797775106865629 -0.050848372280597686767578125000 -0.001429576426744461059570312500 -0.001479654107242823080775595557 0 0 0 0 
2414666666.6666665077 0.161702543497085599044638115629 -0.052173513919115073467214216407 -0.001244438113644718906999897534 -0.001440735883079468987108540112 0 0 0 0 
2414833333.3333334923 0.160541534423828097244424384371 -0.053878311067819602275807966407 -0.001169767230749130032183003003 -0.001492777606472373008728027344 0 0 0 0 
2415000000.0000000000 0.159536719322204589843750000000 -0.055302035063505172729492187500 -0.001091389800421894030330038916 -0.001648916862905025915858603369 0 0 0 0 
2415166666.6666665077 0.158340469002723693847656250000 -0.056970715522766113281250000000 -0.001094392500817775943158793872 -0.001601555384695529937744140625 0 0 0 0 
2415333333.3333334923 0.157615914940834100921307481258 -0.058860752731561660766601562500 -0.001011794316582381942151713794 -0.001728076720610260963439941406 0 0 0 0 
2415500000.0000000000 0.156754210591316195388955634371 -0.060605008155107498168945312500 -0.001127861905843019919154501807 -0.001709194271825253963470458984 0 0 0 0 
2415666666.6666665077 0.156038075685501098632812500000 -0.062343530356884002685546875000 -0.001192816649563610987422324072 -0.001726648537442087910295795972 0 0 0 0 
2415833333.3333334923 0.155388623476028386871661268742 -0.064299814403057098388671875000 -0.001091656158678234057185507666 -0.001805115374736488082288432544 0 0 0 0 
2416000000.0000000000 0.154598608613014193435830634371 -0.066284008324146270751953125000 -0.001185331027954817035077739185 -0.001898731105029582977294921875 0 0 0 0 
2416166666.6666665077 0.154301732778549194335937500000 -0.068164944648742675781250000000 -0.001093044527806342081782675635 -0.001956259366124867959263466943 0 0 0 0 
2416333333.3333334923 0.153709366917610196212606865629 -0.070148363709449768066406250000 -0.001189905800856650092481303638 -0.002150644548237324194667197119 0 0 0 0 
2416500000.0000000000 0.153254359960556002517861884371 -0.072036415338516235351562500000 -0.001248296000994741916656494141 -0.001996133010834455923793173682 0 0 0 0 
2416666666.6666665077 0.152849450707435607910156250000 -0.073998689651489257812500000000 -0.001321661518886684937718056787 -0.002227334072813392119166708838 0 0 0 0 
2416833333.3333334923 0.152577504515647888183593750000 -0.076051563024520874023437500000 -0.001473683863878249905229878003 -0.002255560597404838042018271338 0 0 0 0 
2417000000.0000000000 0.152247980237007113357705634371 -0.077920213341712951660156250000 -0.001456218771636486053466796875 -0.002203744137659668922424316406 0 0 0 0 
2417166666.6666665077 0.152157649397850008865518134371 -0.079644873738288879394531250000 -0.001399910310283303043962788159 -0.002298914361745119094848632812 0 0 0 0 
2417333333.3333334923 0.151954457163810702224893134371 -0.081407457590103149414062500000 -0.001528898370452224991442036206 -0.002282133558765054182765341650 0 0 0 0 
2417500000.0000000000 0.151876434683799688141192518742 -0.083342649042606353759765625000 -0.001715140533633529923082661206 -0.002345497487112880186793661963 0 0 0 0 
2417666666.6666665077 0.151939749717712402343750000000 -0.084778316318988800048828125000 -0.001872617402113974094390869141 -0.002379435580223799185511923682 0 0 0 0 
2417833333.3333334923 0.151904940605163601974325615629 -0.086366273462772369384765625000 -0.001846915925852953953983925928 -0.002414450515061616897583007812 0 0 0 0 
2418000000.0000000000 0.151860103011131286621093750000 -0.087966136634349822998046875000 -0.001948847318999469063402485425 -0.002460982650518416924717568506 0 0 0 0 
2418166666.6666665077 0.151933431625366210937500000000 -0.089179731905460357666015625000 -0.002158383838832377953770302881 -0.002678765449672936959507607568 0 0 0 0 
2418333333.3333334923 0.152400061488151605804119981258 -0.090561538934707641601562500000 -0.002319250721484423117396689307 -0.002608479466289281845092773438 0 0 0 0 
2418500000.0000000000 0.152426049113273592849893134371 -0.091727867722511291503906250000 -0.002302690874785184860229492188 -0.002608300652354956106898642432 0 0 0 0 
2418666666.6666665077 0.152661710977554293533486884371 -0.092942096292972564697265625000 -0.002563970861956477165222167969 -0.002633847529068589210510253906 0 0 0 0 
2418833333.3333334923 0.152694866061210604568643134371 -0.093943789601325988769531250000 -0.002785611897706985907313681494 -0.002599673345685005187988281250 0 0 0 0 
2419000000.0000000000 0.152900069952011108398437500000 -0.094698861241340637207031250000 -0.002857022220268845991847372900 -0.002689156681299210028407431494 0 0 0 0 
2419166666.6666665077 0.153134092688560513595419365629 -0.095544084906578063964843750000 -0.003201175248250364823582314600 -0.002578309504315257072448730469 0 0 0 0 
2419333333.3333334923 0.153278827667236300369424384371 -0.095849588513374328613281250000 -0.003363491501659154891967773438 -0.002603385131806135177612304688 0 0 0 0 
2419500000.0000000000 0.153430074453353909591513115629 -0.096599563956260681152343750000 -0.003524338826537131829502724756 -0.002436914946883916854858398438 0 0 0 0 
2419666666.6666665077 0.153653532266616793533486884371 -0.097149170935153961181640625000 -0.003803641302511096000671386719 -0.002352744340896606011631631006 0 0 0 0 
2419833333.3333334923 0.153654947876930209060830634371 -0.097347430884838104248046875000 -0.003927808254957199096679687500 -0.002227419288828969001770019531 0 0 0 0 
