# Hz S RI R 50
2400000000.0000000000 0.152474075555801391601562500000 0.116741582751274095008930942186 0.000213519830140285193920135498 0.002459721872583032088038779150 0 0 0 0 
2400166666.6666665077 0.151982963085174588302450615629 0.114354968070983900596537807814 0.000237471715081483098581591196 0.002585880225524305863621377100 0 0 0 0 
2400333333.3333334923 0.152092084288597106933593750000 0.112185895442962701995526231258 0.000247756543103605508804321289 0.002445625606924294991734170068 0 0 0 0 
2400500000.0000000000 0.151700735092163113693075615629 0.109509132802486405799946567186 0.000200338938157074207633417950 0.002289538737386465072631835938 0 0 0 0 
2400666666.6666665077 0.151737898588180486481036268742 0.107039526104927104621644673443 0.000211103411857038709238329477 0.002411623951047658920288085938 0 0 0 0 
2400833333.3333334923 0.151450783014297513107138115629 0.104244768619537395148988423443 0.000124904458061792010634821759 0.002445354824885725975036621094 0 0 0 0 
2401000000.0000000000 0.151274025440216092208700615629 0.101158984005451202392578125000 0.000041998740925919271331240995 0.002452207030728458924534463037 0 0 0 0 
2401166666.6666665077 0.151104897260665893554687500000 0.098466359078884124755859375000 0.000212866900255903601646423340 0.002487226855009793801548623193 0 0 0 0 
2401333333.3333334923 0.151356697082519503494424384371 0.095503836870193481445312500000 0.000168774844496510895803728647 0.002516027539968491034266806494 0 0 0 0 
2401500000.0000000000 0.151626899838447598556356865629 0.092293731868267059326171875000 0.000217062784940935698434552603 0.002803712617605925040004111182 0 0 0 0 
2401666666.6666665077 0.151703551411628695388955634371 0.089422851800918579101562500000 0.000032380874472437433224131925 0.002698825439438223838806152344 0 0 0 0 
2401833333.3333334923 0.152113229036331204513388115629 0.086453393101692199707031250000 0.000394352653529495000839233398 0.002806626725941896004917763818 0 0 0 0 
2402000000.0000000000 0.152828469872474698165731865629 0.083586208522319793701171875000 0.000333849340677261406749171124 0.002887361217290163040161132812 0 0 0 0 
2402166666.6666665077 0.153450906276702908614950615629 0.080733649432659149169921875000 0.000647527864202857017517089844 0.002910164650529623031616210938 0 0 0 0 
2402333333.3333334923 0.154436737298965509612713731258 0.077844455838203430175781250000 0.000631099857855588197708129883 0.003056186717003583908081054688 0 0 0 0 
2402500000.0000000000 0.155440062284469604492187500000 0.075003415346145629882812500000 0.000762903480790555477142333984 0.003101587994024157957789755713 0 0 0 0 
2402666666.6666665077 0.156772464513778686523437500000 0.072323560714721679687500000000 0.001005023950710892894147563403 0.003056661691516637802124023438 0 0 0 0 
2402833333.3333334923 0.158126384019851712325888115629 0.069815039634704589843750000000 0.001069505698978900909423828125 0.003157681319862604141235351562 0 0 0 0 
2403000000.0000000000 0.159721598029136713225994981258 0.067155964672565460205078125000 0.001217919751070440032361674731 0.003092649159952998161315917969 0 0 0 0 
2403166666.6666665077 0.161529034376144409179687500000 0.064695045351982116699218750000 0.001488349982537328980089497144 0.003006417537108064131495810400 0 0 0 0 
2403333333.3333334923 0.162997156381607111175213731258 0.062066767364740371704101562500 0.001502226223237812952754355322 0.002915560966357589201686240088 0 0 0 0 
2403500000.0000000000 0.164884731173515292068643134371 0.059712763875722892070729841407 0.001864084741100668907165527344 0.002986039035022259192225790869 0 0 0 0 
2403666666.6666665077 0.166769653558731106857138115629 0.057516008615493767475168596093 0.002003511181101202964782714844 0.002873275196179748015162802588 0 0 0 0 
2403833333.3333334923 0.168732181191444396972656250000 0.055305328220129013061523437500 0.002065719105303287939784384619 0.002787101780995727019069052588 0 0 0 0 
2404000000.0000000000 0.170397073030471801757812500000 0.053366575390100479125976562500 0.002101274207234383063075400244 0.002772399224340916113612509619 0 0 0 0 
2404166666.6666665077 0.172452762722969110686932481258 0.051551785320043556903879533593 0.002173467772081493897678994287 0.002611588919535278840305947412 0 0 0 0 
2404333333.3333334923 0.174436792731285095214843750000 0.049736127257347106933593750000 0.002371856477111577987670898438 0.002551195211708546118495322119 0 0 0 0 
2404500000.0000000000 0.176333531737327603439169365629 0.047858241945505142211914062500 0.002389440312981605963466025244 0.002614574041217565970179892432 0 0 0 0 
2404666666.6666665077 0.178200393915176391601562500000 0.046657178550958633422851562500 0.002476228168234229087829589844 0.002548485994338988824131631006 0 0 0 0 
2404833333.3333334923 0.180212646722793606857138115629 0.045248508453369140625000000000 0.002583950059488416151759482275 0.002435911213979125022888183594 0 0 0 0 
2405000000.0000000000 0.181878581643104608733807481258 0.044548086822032928466796875000 0.002529428806155920028686523438 0.002300907392054795785191201318 0 0 0 0 
2405166666.6666665077 0.183582678437232998946981865629 0.043527901172637939453125000000 0.002649145899340509934666298975 0.002463144483044743971583701025 0 0 0 0 
2405333333.3333334923 0.185211211442947387695312500000 0.042857434600591659545898437500 0.002953892108052968978881835938 0.002375920768827199935913085938 0 0 0 0 
2405500000.0000000000 0.187039375305175809005575615629 0.042398292571306228637695312500 0.003140236018225551085231161963 0.002222612733021378950831747900 0 0 0 0 
2405666666.6666665077 0.188537046313285799881143134371 0.041894394904375083232839216407 0.003196919336915016174316406250 0.002266977448016405105590820312 0 0 0 0 
2405833333.3333334923 0.190251588821411105056924384371 0.041655875742435462261159528907 0.003338246373459697203395224463 0.001951480167917907021166157300 0 0 0 0 
2406000000.0000000000 0.191547542810440091232138115629 0.041488043963909149169921875000 0.003416749183088541030883789062 0.002056379104033112959620810400 0 0 0 0 
2406166666.6666665077 0.192951634526252802093182481258 0.041260063648223876953125000000 0.003664615098387002944946289062 0.001700801076367497010471963037 0 0 0 0 
2406333333.3333334923 0.194229751825332613845986884371 0.041287817060947418212890625000 0.003717876970767974853515625000 0.001590126659721136093139648438 0 0 0 0 
2406500000.0000000000 0.195447519421577509124432481258 0.041367854923009872436523437500 0.003723275614902377128601074219 0.001300437608733773014665913159 0 0 0 0 
2406666666.6666665077 0.196261242032051086425781250000 0.041428908705711371684987653907 0.003996843472123146057128906250 0.001134480233304202990290976416 0 0 0 0 
2406833333.3333334923 0.197148025035858209808026231258 0.041533969342708587646484375000 0.004030840005725622177124023438 0.001024369383230804963352822412 0 0 0 0 
2407000000.0000000000 0.197838336229324313064736884371 0.041943944990634918212890625000 0.003962988965213298797607421875 0.000733762513846158981323242188 0 0 0 0 
2407166666.6666665077 0.198460027575492886642294365629 0.041805312037467956542968750000 0.004076537210494279861450195312 0.000527335680089890956878662109 0 0 0 0 
2407333333.3333334923 0.198600843548774691482705634371 0.042347867041826248168945312500 0.004061903338879346847534179688 0.000418619660194963216781616211 0 0 0 0 
2407500000.0000000000 0.198733687400817898849325615629 0.042491171509027481079101562500 0.004017784260213375091552734375 0.000009490908269071951508522034 0 0 0 0 
2407666666.6666665077 0.199011549353599603850994981258 0.042657434940338141704518903907 0.004055968951433897018432617188 0.000096395444415975362062454224 0 0 0 0 
2407833333.3333334923 0.198646366596221896072549384371 0.042900312691926963115651716407 0.004034955985844135284423828125 -0.000294730096356943303912562238 0 0 0 0 
2408000000.0000000000 0.198670670390129089355468750000 0.042953696101903922344167341407 0.004041719716042280197143554688 -0.000300194224109873175621032715 0 0 0 0 
2408166666.6666665077 0.198321565985679598709268134371 0.042897410690784447406809221093 0.004621510393917560577392578125 0.000267520343186333775520324707 0 0 0 0 
2408333333.3333334923 0.197854205965995788574218750000 0.042678806930780410766601562500 0.003845246275886892838719033350 -0.000962004589382559061050415039 0 0 0 0 
2408500000.0000000000 0.197092756628990201095419365629 0.042524926364421837543527971093 0.003846042323857545852661132812 -0.001453119795769453048706054688 0 0 0 0 
2408666666.6666665077 0.196539446711540194412393134371 0.042472448199987411499023437500 0.003908725455403327941894531250 -0.001188001362606883049011230469 0 0 0 0 
2408833333.3333334923 0.195652544498443603515625000000 0.042049895972013466571848283593 0.003170026699081062836887978662 -0.001262986450456083037732768481 0 0 0 0 
2409000000.0000000000 0.194927781820297213455361884371 0.041385702788829803466796875000 0.004317618906497955322265625000 -0.001487256959080696105957031250 0 0 0 0 
2409166666.6666665077 0.193723320960998507400674384371 0.040751986205577850341796875000 0.003749354043975472883937216650 -0.001009598723612725951551127856 0 0 0 0 
2409333333.3333334923 0.192733481526374789138955634371 0.040071368217468261718750000000 0.003500792430713773207423544775 -0.001836334005929530100581503760 0 0 0 0 
2409500000.0000000000 0.191327482461929293533486884371 0.039126649498939507221262346093 0.002978662028908729986903525244 -0.001673674443736671967747353662 0 0 0 0 
2409666666.6666665077 0.190357208251953097244424384371 0.038041822612285607074777971093 0.003421150147914886908290243994 -0.001420213375240563912632607568 0 0 0 0 
2409833333.3333334923 0.189078882336616488357705634371 0.036836493760347373271901716407 0.003235345706343650817871093750 -0.001816837699152529022814106519 0 0 0 0 
2410000000.0000000000 0.187896534800529507736044365629 0.035490460693836212158203125000 0.003237435594201087951660156250 -0.001866742037236690954921103369 0 0 0 0 
2410166666.6666665077 0.186617732048034695724325615629 0.033847719430923461914062500000 0.002995257964357734160182333838 -0.002035374054685235023498535156 0 0 0 0 
2410333333.3333334923 0.185388937592506408691406250000 0.032102078199386596679687500000 0.002908442867919803099391318213 -0.002115235896781086921691894531 0 0 0 0 
2410500000.0000000000 0.184055298566818209549111884371 0.030361175537109378469446951954 0.002736627589911222891566611182 -0.002111741574481130079982138525 0 0 0 0 
2410666666.6666665077 0.183065950870513888260049384371 0.028375003486871719360351562500 0.002579472027719020843505859375 -0.002301816595718265013453818213 0 0 0 0 
2410833333.3333334923 0.182196810841560391525106865629 0.026283251121640208852747733204 0.002505792537704110145568847656 -0.002285740571096539931056357275 0 0 0 0 
2411000000.0000000000 0.181100472807884188553018134371 0.024049352854490280151367187500 0.002446686616167426109313964844 -0.002250706078484653992893838037 0 0 0 0 
2411166666.6666665077 0.180129200220108004470986884371 0.021936889737844470632532889454 0.002295888029038906097412109375 -0.002242986578494309945347451318 0 0 0 0 
2411333333.3333334923 0.179244503378868103027343750000 0.019539393484592441213587576954 0.002272041281685233116149902344 -0.002430827822536230087280273438 0 0 0 0 
2411500000.0000000000 0.178630724549293490310830634371 0.017117774114012721670130545704 0.002107372507452965216395712744 -0.002314980141818522973301552881 0 0 0 0 
2411666666.6666665077 0.178183645009994506835937500000 0.014777156524360179901123046875 0.002092038514092565016505576025 -0.002411701949313282966613769531 0 0 0 0 
2411833333.3333334923 0.177680730819702203948651231258 0.012117113918066029984443865430 0.001942055067047476985334086841 -0.002474838634952902793884277344 0 0 0 0 
2412000000.0000000000 0.177769318222999600509481865629 0.009426099248230457305908203125 0.001913545420393347957013774341 -0.002324203727766871886012411963 0 0 0 0 
2412166666.6666665077 0.177563250064849909026776231258 0.006970041431486606597900390625 0.001759849488735198974609375000 -0.002351456321775912804844521631 0 0 0 0 
2412333333.3333334923 0.177474796772003201583700615629 0.004251505248248577117919921875 0.001667890232056379101396870190 -0.002414886839687823815586709131 0 0 0 0 
2412500000.0000000000 0.177741736173629788497763115629 0.001590366824530065059661865234 0.001708587165921926932093954932 -0.002339915139600635008571005713 0 0 0 0 
2412666666.6666665077 0.178096413612365694900674384371 -0.000959420809522271156311035156 0.001626827754080295996425009619 -0.002449288032948970794677734375 0 0 0 0 
2412833333.3333334923 0.178747698664665194412393134371 -0.003823550650849937958958291162 0.001627292600460350947139120947 -0.002457611262798308892491006006 0 0 0 0 
2413000000.0000000000 0.179338604211807306487713731258 -0.006293877027928829193115234375 0.001769314520061016082763671875 -0.002477440517395734786987304688 0 0 0 0 
2413166666.6666665077 0.180159553885459899902343750000 -0.008811664767563343048095703125 0.001691305660642683939692831885 -0.002507815603166819052455283057 0 0 0 0 
2413333333.3333334923 0.181155607104301508147869981258 -0.011467369273304939270019531250 0.001675769803114234967472695459 -0.002687019063159822983982705225 0 0 0 0 
2413500000.0000000000 0.182059422135353088378906250000 -0.013989751227200029545794102148 0.001665135612711309952976845850 -0.002741907257586718039271689307 0 0 0 0 
2413666666.6666665077 0.183314517140388488769531250000 -0.016601350158452991140345389454 0.001657139393500983931897807544 -0.002933973679319024085998535156 0 0 0 0 
2413833333.3333334923 0.184397622942924499511718750000 -0.018906401470303538930872733204 0.001437190803699194951298379053 -0.003095272928476334051844931494 0 0 0 0 
2414000000.0000000000 0.185485318303108187576455634371 -0.021133599802851680410364920704 0.001377768814563751003862690503 -0.003129854332655667824986123193 0 0 0 0 
2414166666.6666665077 0.186741292476654108245526231258 -0.023233069106936461711843122657 0.001313101849518715901615761865 -0.003294687485322355790379189600 0 0 0 0 
2414333333.3333334923 0.187972590327262906173544365629 -0.025436166673898700368861014454 0.001098293927498162009595561450 -0.003353588981553912162780761719 0 0 0 0 
2414500000.0000000000 0.189345568418502807617187500000 -0.027272759005427360534667968750 0.001097726635634898922563862378 -0.003494683653116226196289062500 0 0 0 0 
2414666666.6666665077 0.190453127026557894607705634371 -0.029016923159360889089564139454 0.000711971835698932409286499023 -0.003357074456289411024806357275 0 0 0 0 
2414833333.3333334923 0.191923514008522005935830634371 -0.030766548588871959341028983204 0.000586971931625157594680786133 -0.003295961767435073852539062500 0 0 0 0 
2415000000.0000000000 0.193050831556320190429687500000 -0.032340068370103842998464216407 0.000543931149877607822418212891 -0.003289587330073118209838867188 0 0 0 0 
2415166666.6666665077 0.194603979587554903885049384371 -0.033538773655891418457031250000 0.000529612880200147628784179688 -0.003243382088840008215663290869 0 0 0 0 
2415333333.3333334923 0.195912167429924011230468750000 -0.034941993653774261474609375000 0.000192766659893095493316650391 -0.003197474172338842911961220850 0 0 0 0 
2415500000.0000000000 0.197215557098388699630575615629 -0.035759843885898590087890625000 0.000168155616847798201158800668 -0.003157155122607945962193154443 0 0 0 0 
2415666666.6666665077 0.198388993740081787109375000000 -0.036698520183563232421875000000 0.000017080506950151178648675612 -0.003025431884452701048610068213 0 0 0 0 
2415833333.3333334923 0.199572890996933011154013115629 -0.037429682910442352294921875000 0.000038445872633019462227821350 -0.003139827633276582197902060400 0 0 0 0 
2416000000.0000000000 0.200531601905822809417401231258 -0.038234729319810867309570312500 0.000009967048754333518445491791 -0.003123122500255703926086425781 0 0 0 0 
2416166666.6666665077 0.201509132981300409515057481258 -0.038820907473564147949218750000 -0.000046779285185039036650250094 -0.003193964017555118040797568213 0 0 0 0 
2416333333.3333334923 0.202347710728645296951455634371 -0.039116125553846359252929687500 -0.000225515002966858500808161603 -0.003180070780217647986171103369 0 0 0 0 
2416500000.0000000000 0.203079685568809509277343750000 -0.039256121963262557983398437500 -0.000017469066733610819688047103 -0.003160739783197640938999795068 0 0 0 0 
2416666666.6666665077 0.203617155551910400390625000000 -0.039633274078369140625000000000 -0.000150273393956012996748247690 -0.003314725123345851898193359375 0 0 0 0 
2416833333.3333334923 0.204094097018241910079794365629 -0.039672829210758209228515625000 -0.000450613559223711490631103516 -0.003334659617394208908081054688 0 0 0 0 
2417000000.0000000000 0.204396933317184503753338731258 -0.039602592587471008300781250000 -0.000370563968317583203315734863 -0.003390114754438399834873818506 0 0 0 0 
2417166666.6666665077 0.204494014382362393478231865629 -0.039476916193962097167968750000 -0.000294045457849279100268763409 -0.003526319749653338952305459131 0 0 0 0 
2417333333.3333334923 0.204477250576019287109375000000 -0.038977496325969702983815778907 -0.000479045615065842921107691632 -0.003599113086238503889796591650 0 0 0 0 
2417500000.0000000000 0.204470247030258206466513115629 -0.038893088698387152934987653907 -0.000735327834263443946838378906 -0.003709054319187999205348349463 0 0 0 0 
2417666666.6666665077 0.204208701848983792404013115629 -0.038531679660081863403320312500 -0.000895929406397044658660888672 -0.003704139497131108803990029443 0 0 0 0 
2417833333.3333334923 0.203890562057495089431924384371 -0.038062360137701041484792341407 -0.001128762844018637917162251050 -0.003881510347127913995030068506 0 0 0 0 
2418000000.0000000000 0.203510507941246004959268134371 -0.037572897970676422119140625000 -0.001364449388347565910936665112 -0.003726692870259284973144531250 0 0 0 0 
2418166666.6666665077 0.202969759702682495117187500000 -0.037184026092290878295898437500 -0.001610298291780055002925253760 -0.003716144477948545975926064600 0 0 0 0 
2418333333.3333334923 0.202108472585678100585937500000 -0.036727033555507659912109375000 -0.001710632466711103916168212891 -0.003733716905117034912109375000 0 0 0 0 
2418500000.0000000000 0.201323673129081698318643134371 -0.036587681621313102031667341407 -0.002077581593766808943507529150 -0.003539130324497818946838378906 0 0 0 0 
2418666666.6666665077 0.200600713491439791580361884371 -0.036222249269485466693918596093 -0.002136092167347670035121298682 -0.003396570915356277985813759912 0 0 0 0 
2418833333.3333334923 0.199430808424949701507244981258 -0.036044880747795111919362653907 -0.002459655981510878042933798682 -0.003261795267462729974033974756 0 0 0 0 
2419000000.0000000000 0.198084637522697504241619981258 -0.035827055573463439941406250000 -0.002531746402382851080653525244 -0.003073801519349216981175088037 0 0 0 0 
2419166666.6666665077 0.197031810879707308670205634371 -0.035905446857213967060129533593 -0.002742107724770904021022177588 -0.002956343814730643792393349756 0 0 0 0 
2419333333.3333334923 0.195690184831619290450888115629 -0.036216035485267639160156250000 -0.002862282097339630126953125000 -0.002781267045065761046168661963 0 0 0 0 
2419500000.0000000000 0.194165214896202087402343750000 -0.036366909742355346679687500000 -0.002956187585368752913234091650 -0.002595856087282299995422363281 0 0 0 0 
2419666666.6666665077 0.192606776952743502517861884371 -0.036869943141937262798268903907 -0.002983362646773457960841513525 -0.002468734281137586073634482275 0 0 0 0 
2419833333.3333334923 0.191053062677383395095986884371 -0.037236399948596947406809221093 -0.003043820383027195930480957031 -0.002190348226577043967006064307 0 0 0 0 
