# Version 1.00
#
freq[Hz];re:Trc1_S11;im:Trc1_S11;re:Trc2_S21;im:Trc2_S21;
2.400000000000000E+009;1.726505309343338E-001;4.886356368660927E-002;5.814077332615852E-003;-5.267228116281331E-004;
2.400166666666667E+009;1.732829213142395E-001;4.816617816686630E-002;5.777054000645876E-003;-7.690794882364571E-004;
2.400333333333334E+009;1.736536920070648E-001;4.741463437676430E-002;5.810312926769257E-003;-1.143622910603881E-003;
2.400500000000000E+009;1.742008477449417E-001;4.683863371610642E-002;5.857234355062246E-003;-1.184813561849296E-003;
2.400666666666667E+009;1.743123233318329E-001;4.609668627381325E-002;5.608353763818741E-003;-1.511969021521509E-003;
2.400833333333334E+009;1.748190969228745E-001;4.548582434654236E-002;5.420221015810967E-003;-1.666168915107846E-003;
2.401000000000000E+009;1.749851703643799E-001;4.468102008104324E-002;5.483003333210945E-003;-1.837323536165059E-003;
2.401166666666667E+009;1.751103848218918E-001;4.416245967149735E-002;5.239443853497505E-003;-1.835087896324694E-003;
2.401333333333334E+009;1.750838458538055E-001;4.345992580056191E-002;5.033420398831368E-003;-1.962381880730391E-003;
2.401500000000000E+009;1.755100786685944E-001;4.271594062447548E-002;5.066196434199810E-003;-2.345686545595527E-003;
2.401666666666667E+009;1.754550486803055E-001;4.209372028708458E-002;4.821447655558586E-003;-2.210195641964674E-003;
2.401833333333334E+009;1.753880232572556E-001;4.128827527165413E-002;4.731555469334126E-003;-2.511570462957025E-003;
2.402000000000000E+009;1.753354966640472E-001;4.039616137742996E-002;4.650063812732697E-003;-2.533969003707171E-003;
2.402166666666667E+009;1.750907599925995E-001;3.966749086976051E-002;4.485242534428835E-003;-2.552566817030311E-003;
2.402333333333334E+009;1.748364418745041E-001;3.866402432322502E-002;4.358958452939987E-003;-2.903019310906529E-003;
2.402500000000000E+009;1.750506907701492E-001;3.775371611118317E-002;4.270578268915415E-003;-2.726643113419414E-003;
2.402666666666667E+009;1.746784001588821E-001;3.675707802176476E-002;4.139186348766089E-003;-2.853081095963717E-003;
2.402833333333334E+009;1.743668764829636E-001;3.551472723484039E-002;3.913698252290487E-003;-3.127267817035317E-003;
2.403000000000000E+009;1.741846799850464E-001;3.417432680726051E-002;4.037163686007261E-003;-3.022467019036412E-003;
2.403166666666667E+009;1.737374365329742E-001;3.295772895216942E-002;3.833800554275513E-003;-2.907670103013516E-003;
2.403333333333334E+009;1.735868752002716E-001;3.165015578269959E-002;3.822806756943464E-003;-3.037573769688606E-003;
2.403500000000000E+009;1.730463504791260E-001;3.028619848191738E-002;3.694798797369003E-003;-3.156500868499279E-003;
2.403666666666667E+009;1.728365570306778E-001;2.839330025017262E-002;3.734866390004754E-003;-3.177936421707273E-003;
2.403833333333334E+009;1.725506633520126E-001;2.698087505996227E-002;3.537147073075175E-003;-3.274821909144521E-003;
2.404000000000000E+009;1.722111105918884E-001;2.533714659512043E-002;3.579255659133196E-003;-3.274471499025822E-003;
2.404166666666667E+009;1.719487756490707E-001;2.343435771763325E-002;3.485901979729533E-003;-3.172815078869462E-003;
2.404333333333334E+009;1.714075505733490E-001;2.177651971578598E-002;3.558849915862083E-003;-3.534467192366719E-003;
2.404500000000000E+009;1.710195094347000E-001;1.965545862913132E-002;3.297039307653904E-003;-3.496996592730284E-003;
2.404666666666667E+009;1.707605421543121E-001;1.777828112244606E-002;3.520416328683496E-003;-3.571467008441687E-003;
2.404833333333334E+009;1.706359684467316E-001;1.593809202313423E-002;3.322559176012874E-003;-3.751915181055665E-003;
2.405000000000000E+009;1.704986691474915E-001;1.393311284482479E-002;3.301631892099977E-003;-3.928805701434612E-003;
2.405166666666667E+009;1.702616512775421E-001;1.194354984909296E-002;3.299328498542309E-003;-3.760863095521927E-003;
2.405333333333334E+009;1.702535599470139E-001;1.003044378012419E-002;3.110393416136503E-003;-3.989108372479677E-003;
2.405500000000000E+009;1.702511310577393E-001;8.022195659577847E-003;3.198411315679550E-003;-4.270125646144152E-003;
2.405666666666667E+009;1.703925728797913E-001;5.991989746689796E-003;3.006957704201341E-003;-4.246383439749479E-003;
2.405833333333334E+009;1.704301089048386E-001;4.026101436465979E-003;2.837523352354765E-003;-4.350845236331224E-003;
2.406000000000000E+009;1.706962585449219E-001;1.821069628931582E-003;2.842180430889130E-003;-4.538019653409720E-003;
2.406166666666667E+009;1.710171848535538E-001;-1.149536692537367E-004;2.631565788760781E-003;-4.627127200365067E-003;
2.406333333333334E+009;1.714808791875839E-001;-2.036778489127755E-003;2.639489015564323E-003;-4.675303120166063E-003;
2.406500000000000E+009;1.718121469020844E-001;-4.188175313174725E-003;2.467456972226501E-003;-4.858939442783594E-003;
2.406666666666667E+009;1.720555275678635E-001;-5.994163453578949E-003;2.274146769195795E-003;-4.862722940742970E-003;
2.406833333333334E+009;1.727649867534638E-001;-7.987719960510731E-003;2.119473647326231E-003;-4.863565787672997E-003;
2.407000000000000E+009;1.734082400798798E-001;-9.858747944235802E-003;2.009861404076219E-003;-5.043892655521631E-003;
2.407166666666667E+009;1.740123182535172E-001;-1.170693058520556E-002;1.843467471189797E-003;-5.061046686023474E-003;
2.407333333333334E+009;1.747047752141953E-001;-1.368828117847443E-002;1.687713316641748E-003;-5.373799707740545E-003;
2.407500000000000E+009;1.753024458885193E-001;-1.536021009087563E-002;1.661133719608188E-003;-5.409248173236847E-003;
2.407666666666667E+009;1.760084927082062E-001;-1.697269640862942E-002;1.585606136359274E-003;-5.396069958806038E-003;
2.407833333333334E+009;1.765485554933548E-001;-1.875170879065990E-002;1.349414116702974E-003;-5.613660905510187E-003;
2.408000000000000E+009;1.773913949728012E-001;-2.033763937652111E-002;1.297008013352752E-003;-5.778651218861342E-003;
2.408166666666667E+009;1.780807673931122E-001;-2.178958803415299E-002;9.873122908174992E-004;-5.952279083430767E-003;
2.408333333333334E+009;1.788912266492844E-001;-2.323642000555992E-002;7.513313903473318E-004;-6.017130799591541E-003;
2.408500000000000E+009;1.794528961181641E-001;-2.463696151971817E-002;6.871010409668088E-004;-6.156562827527523E-003;
2.408666666666667E+009;1.801787763834000E-001;-2.611327171325684E-002;5.099063855595887E-004;-6.226692348718643E-003;
2.408833333333334E+009;1.805501878261566E-001;-2.704362757503986E-002;9.494767436990514E-005;-6.307716481387615E-003;
2.409000000000000E+009;1.810917407274246E-001;-2.816025353968144E-002;-2.685001818463206E-004;-6.321719847619534E-003;
2.409166666666667E+009;1.815700680017471E-001;-2.917384542524815E-002;-4.096327756997198E-004;-6.399862933903933E-003;
2.409333333333334E+009;1.821225285530090E-001;-3.013701736927033E-002;-6.474566762335599E-004;-6.568268407136202E-003;
2.409500000000000E+009;1.823139339685440E-001;-3.106949292123318E-002;-1.030036713927984E-003;-6.396311800926924E-003;
2.409666666666667E+009;1.826060265302658E-001;-3.179444372653961E-002;-1.301887445151806E-003;-6.445404142141342E-003;
2.409833333333334E+009;1.828569620847702E-001;-3.235466778278351E-002;-1.605630968697369E-003;-6.361959502100945E-003;
2.410000000000000E+009;1.831980794668198E-001;-3.280262649059296E-002;-1.936350483447313E-003;-6.419492419809103E-003;
2.410166666666667E+009;1.834025084972382E-001;-3.330711647868156E-002;-2.158770104870200E-003;-6.217723246663809E-003;
2.410333333333334E+009;1.833298802375794E-001;-3.378409892320633E-002;-2.600846113637090E-003;-6.158451549708843E-003;
2.410500000000000E+009;1.834486573934555E-001;-3.429086878895760E-002;-2.806161297485232E-003;-6.076482124626637E-003;
2.410666666666667E+009;1.833239942789078E-001;-3.465823829174042E-002;-3.175791585817933E-003;-5.893389694392681E-003;
2.410833333333334E+009;1.833278089761734E-001;-3.496383130550385E-002;-3.396024229004979E-003;-5.691807251423597E-003;
2.411000000000000E+009;1.830966025590897E-001;-3.528106212615967E-002;-3.821220248937607E-003;-5.296123679727316E-003;
2.411166666666667E+009;1.827051043510437E-001;-3.572226688265801E-002;-3.965726122260094E-003;-5.153709556907415E-003;
2.411333333333334E+009;1.822409778833389E-001;-3.598723933100700E-002;-4.000752232968807E-003;-4.992115776985884E-003;
2.411500000000000E+009;1.816610544919968E-001;-3.645707666873932E-002;-4.316241480410099E-003;-4.685837775468826E-003;
2.411666666666667E+009;1.814328134059906E-001;-3.679277002811432E-002;-4.462555516511202E-003;-4.455727525055409E-003;
2.411833333333334E+009;1.806336641311646E-001;-3.718674555420876E-002;-4.682090599089861E-003;-4.180678632110357E-003;
2.412000000000000E+009;1.798481643199921E-001;-3.769188374280930E-002;-4.754100926220417E-003;-4.012512043118477E-003;
2.412166666666667E+009;1.790018677711487E-001;-3.809427842497826E-002;-4.835573490709066E-003;-3.562471130862832E-003;
2.412333333333334E+009;1.783113628625870E-001;-3.847038373351097E-002;-4.911540541797876E-003;-3.372366307303309E-003;
2.412500000000000E+009;1.769348829984665E-001;-3.908979520201683E-002;-4.966652020812035E-003;-3.007587045431137E-003;
2.412666666666667E+009;1.760255098342896E-001;-3.980496153235436E-002;-5.082131363451481E-003;-2.719890093430877E-003;
2.412833333333334E+009;1.749735176563263E-001;-4.043069109320641E-002;-5.082197953015566E-003;-2.684682607650757E-003;
2.413000000000000E+009;1.738419085741043E-001;-4.111989215016365E-002;-4.905940499156714E-003;-2.468683756887913E-003;
2.413166666666667E+009;1.725169420242310E-001;-4.199704900383949E-002;-5.009735468775034E-003;-2.066385932266712E-003;
2.413333333333334E+009;1.712132990360260E-001;-4.285662248730660E-002;-4.932458978146315E-003;-1.774219446815550E-003;
2.413500000000000E+009;1.699069291353226E-001;-4.382428154349327E-002;-5.020011682063341E-003;-1.713321544229984E-003;
2.413666666666667E+009;1.687756478786469E-001;-4.479265958070755E-002;-4.915686324238777E-003;-1.493125106208026E-003;
2.413833333333334E+009;1.673325002193451E-001;-4.572809487581253E-002;-4.940430633723736E-003;-1.302417716942728E-003;
2.414000000000000E+009;1.659715026617050E-001;-4.712080582976341E-002;-4.819650202989578E-003;-1.028413302265108E-003;
2.414166666666667E+009;1.648215353488922E-001;-4.819263517856598E-002;-4.729214124381542E-003;-9.357953676953912E-004;
2.414333333333334E+009;1.636601835489273E-001;-4.954351857304573E-002;-4.605085588991642E-003;-6.613968289457262E-004;
2.414500000000000E+009;1.625344157218933E-001;-5.085023120045662E-002;-4.585498943924904E-003;-6.118533783592284E-004;
2.414666666666667E+009;1.614364534616470E-001;-5.225298553705216E-002;-4.686256404966116E-003;-2.452068438287824E-004;
2.414833333333334E+009;1.602697521448135E-001;-5.380209535360336E-002;-4.548477008938789E-003;-2.885627036448568E-004;
2.415000000000000E+009;1.591489613056183E-001;-5.553799867630005E-002;-4.420080687850714E-003;-7.346686470555142E-005;
2.415166666666667E+009;1.581575274467468E-001;-5.716439709067345E-002;-4.399433266371489E-003;1.510471047367901E-004;
2.415333333333334E+009;1.574266999959946E-001;-5.885774642229080E-002;-4.261712078005076E-003;3.602329816203564E-004;
2.415500000000000E+009;1.564269512891769E-001;-6.067265570163727E-002;-4.184226971119642E-003;4.940908402204514E-004;
2.415666666666667E+009;1.558327376842499E-001;-6.237208098173142E-002;-4.151865374296904E-003;5.981642752885819E-004;
2.415833333333334E+009;1.551707983016968E-001;-6.436258554458618E-002;-3.886214224621654E-003;6.232422892935574E-004;
2.416000000000000E+009;1.544119566679001E-001;-6.621163338422775E-002;-3.664079820737243E-003;9.974294807761908E-004;
2.416166666666667E+009;1.540249288082123E-001;-6.818593293428421E-002;-3.464565845206380E-003;1.064441050402820E-003;
2.416333333333334E+009;1.535313129425049E-001;-7.007349282503128E-002;-3.456455189734697E-003;1.133298850618303E-003;
2.416500000000000E+009;1.530844122171402E-001;-7.190673053264618E-002;-3.169986885040999E-003;1.236887183040381E-003;
2.416666666666667E+009;1.526293009519577E-001;-7.390023767948151E-002;-2.919736783951521E-003;1.234872033819556E-003;
2.416833333333334E+009;1.525745242834091E-001;-7.583075761795044E-002;-2.833283971995115E-003;1.099693472497165E-003;
2.417000000000000E+009;1.521712094545364E-001;-7.779120653867722E-002;-2.606149530038238E-003;1.286391168832779E-003;
2.417166666666667E+009;1.519111692905426E-001;-7.951723784208298E-002;-2.389385132119060E-003;1.170421484857798E-003;
2.417333333333334E+009;1.519810557365418E-001;-8.129689097404480E-002;-2.301281085237861E-003;1.135933212935925E-003;
2.417500000000000E+009;1.519223004579544E-001;-8.310519903898239E-002;-2.040110528469086E-003;1.027205726131797E-003;
2.417666666666667E+009;1.519903689622879E-001;-8.456747978925705E-002;-1.976425061002374E-003;9.064368205145001E-004;
2.417833333333334E+009;1.520190387964249E-001;-8.624654263257980E-002;-1.797058503143489E-003;8.331973222084343E-004;
2.418000000000000E+009;1.520208269357681E-001;-8.780705183744431E-002;-1.826073741540313E-003;7.302691810764372E-004;
2.418166666666667E+009;1.520613133907318E-001;-8.909138292074204E-002;-1.754771452397108E-003;6.378874531947076E-004;
2.418333333333334E+009;1.524329483509064E-001;-9.038251638412476E-002;-1.590732485055924E-003;4.560202651191503E-004;
2.418500000000000E+009;1.525152921676636E-001;-9.168117493391037E-002;-1.770950388163328E-003;2.879132807720453E-004;
2.418666666666667E+009;1.527549922466278E-001;-9.276099503040314E-002;-1.712457626126707E-003;2.645674394443631E-004;
2.418833333333334E+009;1.528738290071487E-001;-9.380347281694412E-002;-1.629747916013002E-003;1.074960964615457E-004;
2.419000000000000E+009;1.529556959867477E-001;-9.454792737960815E-002;-1.642714720219374E-003;-7.382668991340324E-005;
2.419166666666667E+009;1.532304435968399E-001;-9.541230648756027E-002;-1.824038452468813E-003;-1.740427396725863E-004;
2.419333333333334E+009;1.533234864473343E-001;-9.575571864843369E-002;-1.780253136530519E-003;-3.089430392719805E-004;
2.419500000000000E+009;1.535217612981796E-001;-9.661775082349777E-002;-1.810662797652185E-003;-2.219850284745917E-004;
2.419666666666667E+009;1.538048684597015E-001;-9.701044857501984E-002;-2.131466520950198E-003;-2.994762617163360E-004;
2.419833333333334E+009;1.537293195724487E-001;-9.703771024942398E-002;-2.202673582360148E-003;-2.849845623131841E-004;
2.420000000000000E+009;1.539633125066757E-001;-9.738739579916000E-002;-2.274559345096350E-003;-9.578639583196491E-005;
2.420166666666667E+009;1.541388034820557E-001;-9.737440198659897E-002;-2.421566518023610E-003;-2.208740042988211E-004;
2.420333333333334E+009;1.540159881114960E-001;-9.764307737350464E-002;-2.312401076778770E-003;-1.751731178956106E-004;
2.420500000000000E+009;1.541567742824554E-001;-9.733440726995468E-002;-2.586967078968883E-003;-2.979300334118307E-004;
2.420666666666667E+009;1.540181487798691E-001;-9.716504812240601E-002;-2.701674122363329E-003;-2.787042176350951E-004;
2.420833333333334E+009;1.541100740432739E-001;-9.688285738229752E-002;-2.744274446740747E-003;-1.951451704371721E-004;
2.421000000000000E+009;1.538092792034149E-001;-9.681809693574905E-002;-2.841829555109143E-003;-1.841507473727688E-004;
2.421166666666667E+009;1.537344902753830E-001;-9.652063250541687E-002;-2.935739699751139E-003;2.291020609845873E-005;
2.421333333333334E+009;1.534986346960068E-001;-9.622687846422195E-002;-2.849366981536150E-003;9.723305993247777E-005;
2.421500000000000E+009;1.529806554317474E-001;-9.583806991577148E-002;-3.112241625785828E-003;-3.492212636047043E-005;
2.421666666666667E+009;1.524530500173569E-001;-9.559281915426254E-002;-3.220348851755261E-003;1.148926639871206E-005;
2.421833333333334E+009;1.520581096410751E-001;-9.533027559518814E-002;-3.395164385437965E-003;1.858903415268287E-004;
2.422000000000000E+009;1.513295918703079E-001;-9.513284265995026E-002;-3.343336982652545E-003;3.930105012841523E-004;
2.422166666666667E+009;1.506350785493851E-001;-9.494804590940476E-002;-3.506622044369578E-003;5.446549039334059E-004;
2.422333333333334E+009;1.497001796960831E-001;-9.446356445550919E-002;-3.416865365579724E-003;5.970993661321700E-004;
2.422500000000000E+009;1.487010717391968E-001;-9.415691345930100E-002;-3.646559081971645E-003;5.121220601722598E-004;
2.422666666666667E+009;1.477124840021133E-001;-9.422001242637634E-002;-3.560130251571536E-003;7.539316429756582E-004;
2.422833333333334E+009;1.466257572174072E-001;-9.403076022863388E-002;-3.730713156983256E-003;8.200870943255723E-004;
2.423000000000000E+009;1.453851312398911E-001;-9.402611106634140E-002;-3.860286902636290E-003;1.050874474458396E-003;
2.423166666666667E+009;1.442271322011948E-001;-9.399954974651337E-002;-3.803273895755410E-003;1.103096525184810E-003;
2.423333333333334E+009;1.430600136518478E-001;-9.384741634130478E-002;-3.827653592452407E-003;1.332449959591031E-003;
2.423500000000000E+009;1.414859741926193E-001;-9.406089037656784E-002;-3.956796135753393E-003;1.606992096640170E-003;
2.423666666666667E+009;1.398911625146866E-001;-9.418669342994690E-002;-4.012790974229574E-003;1.654002699069679E-003;
2.423833333333334E+009;1.384659558534622E-001;-9.439217299222946E-002;-4.028502851724625E-003;1.688518794253469E-003;
2.424000000000000E+009;1.368871778249741E-001;-9.440369158983231E-002;-4.027025308459997E-003;2.079784404486418E-003;
2.424166666666667E+009;1.354929059743881E-001;-9.494429826736450E-002;-3.976052161306143E-003;2.153895795345306E-003;
2.424333333333334E+009;1.338677406311035E-001;-9.527784585952759E-002;-3.981257323175669E-003;2.352720359340310E-003;
2.424500000000000E+009;1.324292123317719E-001;-9.588495641946793E-002;-4.038448911160231E-003;2.758074551820755E-003;
2.424666666666667E+009;1.311132162809372E-001;-9.627128392457962E-002;-3.837470896542072E-003;2.713416237384081E-003;
2.424833333333334E+009;1.294940859079361E-001;-9.708494693040848E-002;-3.746025729924440E-003;3.009936073794961E-003;
2.425000000000000E+009;1.282940059900284E-001;-9.803029894828796E-002;-3.833615221083164E-003;3.138351021334529E-003;
2.425166666666667E+009;1.266928762197495E-001;-9.882500767707825E-002;-3.802048973739147E-003;3.340389579534531E-003;
2.425333333333334E+009;1.255106031894684E-001;-9.989274293184280E-002;-3.723433241248131E-003;3.427946940064430E-003;
2.425500000000000E+009;1.243088841438294E-001;-1.009743735194206E-001;-3.342024283483625E-003;3.668150864541531E-003;
2.425666666666667E+009;1.230178922414780E-001;-1.020524054765701E-001;-3.389522666111589E-003;4.054264631122351E-003;
2.425833333333334E+009;1.220097467303276E-001;-1.033109426498413E-001;-3.035909729078412E-003;4.151629749685526E-003;
2.426000000000000E+009;1.209911257028580E-001;-1.046787127852440E-001;-2.987523330375552E-003;4.152693785727024E-003;
2.426166666666667E+009;1.202158182859421E-001;-1.061216369271278E-001;-2.701374702155590E-003;4.292918834835291E-003;
2.426333333333334E+009;1.191269904375076E-001;-1.076467037200928E-001;-2.461411524564028E-003;4.393913317471743E-003;
2.426500000000000E+009;1.184304356575012E-001;-1.090349406003952E-001;-2.344704000279307E-003;4.591008182615042E-003;
2.426666666666667E+009;1.178073063492775E-001;-1.105202808976173E-001;-2.097621327266097E-003;4.738289397209883E-003;
2.426833333333334E+009;1.170341223478317E-001;-1.122133657336235E-001;-2.054935786873102E-003;4.696122370660305E-003;
2.427000000000000E+009;1.165150478482246E-001;-1.138495653867722E-001;-1.888364902697504E-003;4.735726863145828E-003;
2.427166666666667E+009;1.160299181938171E-001;-1.153009831905365E-001;-1.576687791384757E-003;5.019071977585554E-003;
2.427333333333334E+009;1.155085787177086E-001;-1.169849038124085E-001;-1.411695266142488E-003;5.003629717975855E-003;
2.427500000000000E+009;1.153175234794617E-001;-1.186449155211449E-001;-1.165242400020361E-003;4.850953351706266E-003;
2.427666666666667E+009;1.150427833199501E-001;-1.202221438288689E-001;-9.319326491095126E-004;5.061036907136440E-003;
