# Hz S RI R 
2400000000.0000000000 0.167879685759544400314169365629 0.041089300066232681274414062500 -0.003149737836793065071105957031 0.001140720443800091960309672778 0 0 0 0 
2400166666.6666665077 0.168457180261611910720986884371 0.040354482829570770263671875000 -0.003026628866791725158691406250 0.001088480232283473014831542969 0 0 0 0 
2400333333.3333334923 0.168809249997139004806356865629 0.039370674639940261840820312500 -0.003115611383691430091857910156 0.001233953633345663981196738135 0 0 0 0 
2400500000.0000000000 0.169489443302154513260049384371 0.038403522223234176635742187500 -0.002806717064231634140014648438 0.001008153194561600901960063403 0 0 0 0 
2400666666.6666665077 0.169728308916091891189736884371 0.037544701248407356952707658593 -0.002736895810812712149379111182 0.001087197568267584063886332935 0 0 0 0 
2400833333.3333334923 0.170097246766090393066406250000 0.036838605999946587299387346093 -0.002820777473971248106715536963 0.001109670614823698997497558594 0 0 0 0 
2401000000.0000000000 0.170410066843032809158486884371 0.035938713699579238891601562500 -0.002608719281852244897129677881 0.001042013522237539074541401440 0 0 0 0 
2401166666.6666665077 0.170772060751915005782919365629 0.034970089793205261230468750000 -0.002654014155268669128417968750 0.001058944617398082993151020581 0 0 0 0 
2401333333.3333334923 0.170806065201759310623330634371 0.034008119255304336547851562500 -0.002504164585843681855442666162 0.001105263829231261990190815503 0 0 0 0 
2401500000.0000000000 0.171097949147224398513955634371 0.033254522830247879028320312500 -0.002648395719006658034083701025 0.001091552432626486041425395435 0 0 0 0 
2401666666.6666665077 0.171233341097831698318643134371 0.032475724816322326660156250000 -0.002754032844677567915675497900 0.000964756938628852367401123047 0 0 0 0 
2401833333.3333334923 0.171085536479950006683026231258 0.031464200466871261596679687500 -0.002799459034577012062072753906 0.001240159617736936049220419775 0 0 0 0 
2402000000.0000000000 0.171121880412101801116619981258 0.030711388215422630310058593750 -0.002630576025694609122035361182 0.001227830303832889036891318213 0 0 0 0 
2402166666.6666665077 0.171360462903976412674111884371 0.029618943110108379018763358204 -0.002721307799220085144042968750 0.001252491725608706907985068213 0 0 0 0 
2402333333.3333334923 0.171351209282875088790731865629 0.028778905048966411245325858204 -0.002503842581063508987426757812 0.001501042977906763987300253760 0 0 0 0 
2402500000.0000000000 0.171461850404739407638388115629 0.027711275964975360525111014454 -0.002542698755860329107997275244 0.001658367691561579921125102466 0 0 0 0 
2402666666.6666665077 0.171293720602989196777343750000 0.026795525103807449340820312500 -0.002464082790538669066188193213 0.001763154286891222000122070312 0 0 0 0 
2402833333.3333334923 0.171374395489692687988281250000 0.025736354291439059865931326954 -0.002350903348997234864475869287 0.001764288172125815911533974756 0 0 0 0 
2403000000.0000000000 0.171206593513488797286825615629 0.024561855942010879516601562500 -0.002427181228995323181152343750 0.001765505177900194904924702222 0 0 0 0 
2403166666.6666665077 0.171139940619468688964843750000 0.023588282987475398672083670704 -0.002307921880856155915501259912 0.001786926295608282089233398438 0 0 0 0 
2403333333.3333334923 0.171250373125076293945312500000 0.022577216848731040954589843750 -0.002367950975894927978515625000 0.001980270491912961006164550781 0 0 0 0 
2403500000.0000000000 0.170996978878974886795205634371 0.021156743168830871582031250000 -0.002318435115739703178405761719 0.002010881667956709861755371094 0 0 0 0 
2403666666.6666665077 0.170779764652252197265625000000 0.019969007000327110290527343750 -0.002220564987510443167445517432 0.002053091768175363974330283057 0 0 0 0 
2403833333.3333334923 0.170800209045410211761151231258 0.018726870417594909667968750000 -0.002152657136321067810058593750 0.002113500609993935065028525244 0 0 0 0 
2404000000.0000000000 0.170672729611396789550781250000 0.017469402402639389038085937500 -0.002095608972012997107264853369 0.002169678919017314910888671875 0 0 0 0 
2404166666.6666665077 0.170391350984573392013388115629 0.016124492511153221130371093750 -0.001884149038232862949371337891 0.002184635028243064880371093750 0 0 0 0 
2404333333.3333334923 0.170414477586746188064736884371 0.014910629950463770085344883398 -0.001981910550966858863830566406 0.002351246308535337014439248193 0 0 0 0 
2404500000.0000000000 0.170238658785820007324218750000 0.013388261198997499293317225977 -0.001700306660495699102517153101 0.002325493609532713890075683594 0 0 0 0 
2404666666.6666665077 0.170303151011467007736044365629 0.012099364772438999521275704296 -0.001588751445524394945857382666 0.002232983242720365957972861182 0 0 0 0 
2404833333.3333334923 0.170026585459709195236044365629 0.010625641793012620753278163477 -0.001603977056220174052594829028 0.002206860808655620054957724463 0 0 0 0 
2405000000.0000000000 0.170104295015335110763388115629 0.009220020845532417297363281250 -0.001617317670024930997135781396 0.002371226204559206962585449219 0 0 0 0 
2405166666.6666665077 0.170077130198478698730468750000 0.007616633549332618713378906250 -0.001475210883654654026031494141 0.002023848472163081169128417969 0 0 0 0 
2405333333.3333334923 0.170115470886230496505575615629 0.005865306127816438674926757812 -0.001503284554928540966631245190 0.002321392297744750976562500000 0 0 0 0 
2405500000.0000000000 0.170175567269325311858807481258 0.004480203613638877868652343750 -0.001314942375756799957872700269 0.001905463635921478054643940503 0 0 0 0 
2405666666.6666665077 0.170184105634689303299111884371 0.002928816713392734961268759619 -0.001420591957867145972010947119 0.002072099363431334929225302588 0 0 0 0 
2405833333.3333334923 0.169899672269821194747763115629 0.001467037131078541061998676831 -0.001423726906068623065948486328 0.002023606561124324798583984375 0 0 0 0 
2406000000.0000000000 0.169989109039306612869424384371 -0.000253561040153726881176549091 -0.001322391559369862079620361328 0.002150771208107471899745322119 0 0 0 0 
2406166666.6666665077 0.169864460825920104980468750000 -0.001727191847749053998234414209 -0.001189208822324872016906738281 0.002090704860165714783909463037 0 0 0 0 
2406333333.3333334923 0.169988512992858886718750000000 -0.003368526464328169822692871094 -0.001388484262861311002018593896 0.002113736933097242875340127100 0 0 0 0 
2406500000.0000000000 0.169679358601570101638955634371 -0.005059024319052696228027343750 -0.001315357396379112980486225659 0.002118311589583754973170615088 0 0 0 0 
2406666666.6666665077 0.169472023844718905349893134371 -0.006401315331459045410156250000 -0.001382204238325357003452920068 0.002137647010385990142822265625 0 0 0 0 
2406833333.3333334923 0.169351264834403991699218750000 -0.007985075935721397399902343750 -0.001319927163422107913373637622 0.002261542947962880134582519531 0 0 0 0 
2407000000.0000000000 0.169245034456253107268963731258 -0.009464060887694358825683593750 -0.001314578577876091003417968750 0.002188350539654492898228310693 0 0 0 0 
2407166666.6666665077 0.169211819767951993087606865629 -0.010784184560179710388183593750 -0.001408050651662051894544291919 0.002285597613081336021423339844 0 0 0 0 
2407333333.3333334923 0.168939426541328402420205634371 -0.012319653294980529439905936329 -0.001285537611693144061444926685 0.002375166630372405052185058594 0 0 0 0 
2407500000.0000000000 0.168853819370269803146200615629 -0.013497705571353440720527849805 -0.001296621048822999000549316406 0.002395118353888392014744423975 0 0 0 0 
2407666666.6666665077 0.168625399470329312423544365629 -0.014654530212283129256278790820 -0.001410005264915525913238525391 0.002492853906005620956420898438 0 0 0 0 
2407833333.3333334923 0.168424576520919799804687500000 -0.015967760235071178781529610546 -0.001171309617348015091539692456 0.002510688034817575974705361475 0 0 0 0 
2408000000.0000000000 0.168483540415763910491619981258 -0.017126606777310371398925781250 -0.001273404341191052956822060693 0.002739418065175414085388183594 0 0 0 0 
2408166666.6666665077 0.168334648013114901443643134371 -0.017996983602643009531041329296 -0.001037962618283927006962441553 0.002785318996757268905639648438 0 0 0 0 
2408333333.3333334923 0.168363004922866793533486884371 -0.018836248666048049926757812500 -0.000890299503225833177566528320 0.002979905344545840783360146631 0 0 0 0 
2408500000.0000000000 0.168238148093223599532919365629 -0.019726941362023350107213204296 -0.000792527047451585531234741211 0.003027229337021708922145224463 0 0 0 0 
2408666666.6666665077 0.168355956673622103592080634371 -0.020851170644164088857630545704 -0.000673534115776419639587402344 0.002933206502348185019252158057 0 0 0 0 
2408833333.3333334923 0.168320178985595703125000000000 -0.021670242771506309509277343750 -0.000654284958727657794952392578 0.002954192459583282904383993994 0 0 0 0 
2409000000.0000000000 0.168375104665756197830361884371 -0.022511264309287071228027343750 -0.000402467121602967381477355957 0.002987079322338103814366006006 0 0 0 0 
2409166666.6666665077 0.168573975563049288650674384371 -0.023292200639843940734863281250 -0.000395488721551373600959777832 0.002890051109716296195983886719 0 0 0 0 
2409333333.3333334923 0.168990105390548706054687500000 -0.024399852380156520498255545704 -0.000455106288427487015724182129 0.002889332361519337134120322119 0 0 0 0 
2409500000.0000000000 0.168977707624435397049111884371 -0.025353934615850448608398437500 -0.000312546995701268315315246582 0.002988019259646534919738769531 0 0 0 0 
2409666666.6666665077 0.168955072760581997970419365629 -0.026193847879767421377161795704 -0.000274118821835145408481043683 0.002753733424469829039332724463 0 0 0 0 
2409833333.3333334923 0.169086530804634094238281250000 -0.026993719860911369323730468750 -0.000159812581841833889484405518 0.002883100183680654005763388525 0 0 0 0 
2410000000.0000000000 0.169242367148399408538494981258 -0.027963986620306968688964843750 -0.000099590797617565840482711792 0.002730282489210367202758789062 0 0 0 0 
2410166666.6666665077 0.169268250465393094161825615629 -0.028692469000816348684290701954 -0.000093632079369854182004928589 0.002877948107197881178614951025 0 0 0 0 
2410333333.3333334923 0.169263869524002102950888115629 -0.029948404058814048767089843750 -0.000042548999772407121282031400 0.002797900931909679932835244287 0 0 0 0 
2410500000.0000000000 0.169171825051307705978231865629 -0.030771952122449878347376639454 0.000045925706217531121592929227 0.002893988275900483131408691406 0 0 0 0 
2410666666.6666665077 0.168900310993194607833700615629 -0.031701900064945220947265625000 0.000078167373430915176868438721 0.003042956814169884161708212744 0 0 0 0 
2410833333.3333334923 0.168945819139480590820312500000 -0.032589308917522430419921875000 0.000073631650593597441911697388 0.002851461526006460189819335938 0 0 0 0 
2411000000.0000000000 0.168849602341651888748330634371 -0.033475469797849662090261091407 -0.000109448228613473502084454947 0.002888396615162491798400878906 0 0 0 0 
2411166666.6666665077 0.168507620692253112792968750000 -0.034278221428394317626953125000 0.000053336032578954473137855530 0.003000462427735329107997275244 0 0 0 0 
2411333333.3333334923 0.168312087655067388336505018742 -0.035094507038593292236328125000 0.000182799587491899701669970102 0.003134219674393535094020224463 0 0 0 0 
2411500000.0000000000 0.167995631694793701171875000000 -0.036110576242208480834960937500 0.000168018857948482009485521860 0.003060323884710669951197958838 0 0 0 0 
2411666666.6666665077 0.167965978384017888824786268742 -0.036931816488504409790039062500 0.000406458770157769322395324707 0.003015989204868673844578408350 0 0 0 0 
2411833333.3333334923 0.167695596814155606368856865629 -0.037714689970016479492187500000 0.000386965315556153709262293683 0.003216801211237906975987099756 0 0 0 0 
2412000000.0000000000 0.167525723576545687576455634371 -0.038745258003473281860351562500 0.000449407147243619019359034406 0.003401228925213218168971396338 0 0 0 0 
2412166666.6666665077 0.167043581604957608321981865629 -0.039670370519161217426340471093 0.000676024530548602342605590820 0.003475903067737818197963095557 0 0 0 0 
2412333333.3333334923 0.166929870843887301345986884371 -0.040464669466018676757812500000 0.000723955454304814338684082031 0.003381260670721530914306640625 0 0 0 0 
2412500000.0000000000 0.166453137993812588790731865629 -0.041337706148624420166015625000 0.000881070736795663833618164062 0.003415883984416722817661904443 0 0 0 0 
2412666666.6666665077 0.166180998086929293533486884371 -0.042356222867965698242187500000 0.000985183054581284523010253906 0.003248127177357674078700400244 0 0 0 0 
2412833333.3333334923 0.165820255875587491134481865629 -0.043495446443557739257812500000 0.001067164237610995986341166919 0.003217863384634255929234170068 0 0 0 0 
2413000000.0000000000 0.165321007370948791503906250000 -0.044325511902570717548410783593 0.001208753441460431055781699072 0.003355045802891253991367959131 0 0 0 0 
2413166666.6666665077 0.165077641606330899337606865629 -0.045536231249570846557617187500 0.001424810150638222911237407153 0.003151690121740103201625204932 0 0 0 0 
2413333333.3333334923 0.164394602179527310470419365629 -0.046347349882125847553293596093 0.001529470668174325986149453271 0.003237814642488956885096884619 0 0 0 0 
2413500000.0000000000 0.164061322808265713790731865629 -0.047504842281341552734375000000 0.001617348403669893958448100513 0.003098487155511974854710244287 0 0 0 0 
2413666666.6666665077 0.163558334112167386154013115629 -0.048591576516628272319753278907 0.001776207704097032980677939307 0.002976211952045559883117675781 0 0 0 0 
2413833333.3333334923 0.163169100880622891525106865629 -0.049397494643926620483398437500 0.001860675867646933035609579932 0.002981731202453374862670898438 0 0 0 0 
2414000000.0000000000 0.162465408444404602050781250000 -0.050666827708482742309570312500 0.001762903295457362911821674878 0.002924646250903605981114052881 0 0 0 0 
2414166666.6666665077 0.162344217300415011306924384371 -0.051431443542242050170898437500 0.001804127474315464930293417822 0.002978058299049735069274902344 0 0 0 0 
2414333333.3333334923 0.161833018064498901367187500000 -0.052516274154186248779296875000 0.001885875361040234999415732275 0.002846261952072381973266601562 0 0 0 0 
2414500000.0000000000 0.161855533719062805175781250000 -0.053316917270421981811523437500 0.001973087433725595907924033057 0.002738470677286386923549033057 0 0 0 0 
2414666666.6666665077 0.161344602704048212249432481258 -0.054351907223463058471679687500 0.002001689048483968214747763525 0.002991840476170181794407509912 0 0 0 0 
2414833333.3333334923 0.160980835556984003265057481258 -0.055423580110073089599609375000 0.002149306004866958098170615088 0.002906323177739977836608886719 0 0 0 0 
2415000000.0000000000 0.160910040140152005294638115629 -0.056378789246082312847097028907 0.002402176847681403160095214844 0.002797198249027132987976074219 0 0 0 0 
2415166666.6666665077 0.160768449306488009353799384371 -0.057444225996732711791992187500 0.002517245011404157118556357275 0.002811038866639136834385537256 0 0 0 0 
2415333333.3333334923 0.160514757037162808517294365629 -0.058695148676633841777761091407 0.002537550404667853875401162256 0.002672311151400208906886435400 0 0 0 0 
2415500000.0000000000 0.160282209515571594238281250000 -0.059678900986909873271901716407 0.002561039989814161820652627100 0.002735711634159088134765625000 0 0 0 0 
2415666666.6666665077 0.160184592008590698242187500000 -0.060918826609849929809570312500 0.002756147878244518800022744287 0.002575805410742760138270712744 0 0 0 0 
2415833333.3333334923 0.160172641277313204666299384371 -0.062176834791898727416992187500 0.002956561977043747901916503906 0.002651531714946032004115439307 0 0 0 0 
2416000000.0000000000 0.159765064716339111328125000000 -0.063388928771018981933593750000 0.003117091953754425048828125000 0.002472221618518232865574502100 0 0 0 0 
2416166666.6666665077 0.159912258386611910720986884371 -0.064576715230941772460937500000 0.003072455758228898048400878906 0.002351883566007018089294433594 0 0 0 0 
2416333333.3333334923 0.159572258591651888748330634371 -0.065733626484870910644531250000 0.003279863158240913911106728662 0.002278745640069245858433388818 0 0 0 0 
2416500000.0000000000 0.159171998500824002364950615629 -0.066923901438713073730468750000 0.003341862233355640931370400537 0.002071143127977848052978515625 0 0 0 0 
2416666666.6666665077 0.158853515982627896407919365629 -0.068229146301746368408203125000 0.003518935525789856910705566406 0.002002780791372061209437704932 0 0 0 0 
2416833333.3333334923 0.158672511577606201171875000000 -0.069498158991336822509765625000 0.003515621880069375038146972656 0.001902631716802716038347553784 0 0 0 0 
2417000000.0000000000 0.158309504389762906173544365629 -0.070552423596382141113281250000 0.003696514526382089094874716650 0.001677740016020834012272500146 0 0 0 0 
2417166666.6666665077 0.157916098833084106445312500000 -0.071543186902999877929687500000 0.003837877186015247864964150537 0.001579293399117887020111083984 0 0 0 0 
2417333333.3333334923 0.157574608922004699707031250000 -0.072511799633502960205078125000 0.003781859297305345968959189307 0.001293632318265736103057861328 0 0 0 0 
2417500000.0000000000 0.157204613089561490157919365629 -0.073717467486858367919921875000 0.003797702258452773094177246094 0.001091354410164057991625141675 0 0 0 0 
2417666666.6666665077 0.156998470425605801681356865629 -0.074375867843627929687500000000 0.003810687223449348969700478662 0.000994293484836816787719726562 0 0 0 0 
2417833333.3333334923 0.156664505600929288009481865629 -0.075427636504173278808593750000 0.003772678086534142927882529150 0.000834857288282364606857299805 0 0 0 0 
2418000000.0000000000 0.156271517276763888260049384371 -0.076276011765003204345703125000 0.003611971624195576147792197119 0.000657505530398339033126831055 0 0 0 0 
2418166666.6666665077 0.155863329768180902679119981258 -0.077027671039104461669921875000 0.003711583791300653977635048975 0.000623282045125961303710937500 0 0 0 0 
2418333333.3333334923 0.155936062335967989822549384371 -0.077830560505390167236328125000 0.003504916094243526892421103369 0.000611102033872157335281372070 0 0 0 0 
2418500000.0000000000 0.155428826808929387848223768742 -0.078508332371711730957031250000 0.003523894585669041113612509619 0.000572523800656199455261230469 0 0 0 0 
2418666666.6666665077 0.155256927013397189041299384371 -0.079393394291400909423828125000 0.003406379837542771859409951318 0.000428833038313314318656921387 0 0 0 0 
2418833333.3333334923 0.154686540365219088455361884371 -0.080131024122238159179687500000 0.003472948912531137900111533057 0.000469044200144708210795801984 0 0 0 0 
2419000000.0000000000 0.154366821050643893142861884371 -0.080748260021209716796875000000 0.003605137113481760025024414062 0.000245075469138100689083653583 0 0 0 0 
2419166666.6666665077 0.154151365160942105392294365629 -0.081393644213676452636718750000 0.003483513137325644926783896338 0.000380187615519389510154724121 0 0 0 0 
2419333333.3333334923 0.153754338622093200683593750000 -0.081984356045722961425781250000 0.003566174767911434173583984375 0.000406178034609183723300379620 0 0 0 0 
2419500000.0000000000 0.153248026967048700530682481258 -0.082652606070041656494140625000 0.003633663523942232131958007812 0.000219100402318872511386871338 0 0 0 0 
2419666666.6666665077 0.153100997209549005706463731258 -0.083221875131130218505859375000 0.003585641039535402817967080225 0.000038805897929705679416656494 0 0 0 0 
2419833333.3333334923 0.152613461017608587066973768742 -0.083690352737903594970703125000 0.003751369658857583999633789062 0.000010177643162023740057843361 0 0 0 0 
