# Version 1.00
#
freq[Hz];re:Trc1_S11;im:Trc1_S11;re:Trc2_S21;im:Trc2_S21;
2.400000000000000E+009;1.675601452589035E-001;4.127880558371544E-002;3.370245685800910E-003;-1.612298889085650E-003;
2.400166666666667E+009;1.681080311536789E-001;4.058676958084106E-002;3.336736466735601E-003;-1.663372968323529E-003;
2.400333333333334E+009;1.685468256473541E-001;3.938740864396095E-002;3.270332468673587E-003;-1.760408864356577E-003;
2.400500000000000E+009;1.690604984760284E-001;3.860286623239517E-002;3.199611790478230E-003;-1.933206222020090E-003;
2.400666666666667E+009;1.694786101579666E-001;3.772695362567902E-002;3.251634538173676E-003;-1.832280075177550E-003;
2.400833333333334E+009;1.698647588491440E-001;3.684975206851959E-002;3.284841077402234E-003;-2.085308544337750E-003;
2.401000000000000E+009;1.700721532106400E-001;3.591673076152802E-002;3.324534511193633E-003;-2.304616617038846E-003;
2.401166666666667E+009;1.703255623579025E-001;3.502585738897324E-002;3.258946584537625E-003;-2.412625821307302E-003;
2.401333333333334E+009;1.705188751220703E-001;3.414087742567062E-002;3.145865863189101E-003;-2.565624192357063E-003;
2.401500000000000E+009;1.709355264902115E-001;3.323838114738464E-002;3.176197409629822E-003;-2.844664733856916E-003;
2.401666666666667E+009;1.709653288125992E-001;3.248341009020805E-002;2.832690952345729E-003;-3.021037438884378E-003;
2.401833333333334E+009;1.710646003484726E-001;3.152121976017952E-002;2.686924766749144E-003;-3.106285585090518E-003;
2.402000000000000E+009;1.711079776287079E-001;3.078129142522812E-002;2.655698684975505E-003;-3.026265883818269E-003;
2.402166666666667E+009;1.710987687110901E-001;2.952708490192890E-002;2.497734269127250E-003;-3.202872117981315E-003;
2.402333333333334E+009;1.712736487388611E-001;2.841979637742043E-002;2.325868466868997E-003;-3.474762430414558E-003;
2.402500000000000E+009;1.713423430919647E-001;2.774867974221706E-002;2.254599705338478E-003;-3.622954478487372E-003;
2.402666666666667E+009;1.713334470987320E-001;2.670332044363022E-002;2.047247253358364E-003;-3.864653641358018E-003;
2.402833333333334E+009;1.715455055236816E-001;2.563596703112125E-002;1.839783741161227E-003;-3.735551144927740E-003;
2.403000000000000E+009;1.713435649871826E-001;2.434569410979748E-002;1.649464247748256E-003;-3.899435745552182E-003;
2.403166666666667E+009;1.713190227746964E-001;2.348422072827816E-002;1.311049913056195E-003;-3.680027090013027E-003;
2.403333333333334E+009;1.711627691984177E-001;2.228053845465183E-002;1.034808927215636E-003;-3.856327384710312E-003;
2.403500000000000E+009;1.710512936115265E-001;2.108678966760635E-002;1.112229074351490E-003;-3.738393308594823E-003;
2.403666666666667E+009;1.709940433502197E-001;1.971077919006348E-002;7.152718026190996E-004;-3.657421795651317E-003;
2.403833333333334E+009;1.711749136447907E-001;1.852319203317165E-002;5.609631771221757E-004;-3.694429062306881E-003;
2.404000000000000E+009;1.708642244338989E-001;1.727614924311638E-002;2.873049234040082E-004;-3.600230673328042E-003;
2.404166666666667E+009;1.709482669830322E-001;1.582448743283749E-002;2.941183047369123E-004;-3.504477441310883E-003;
2.404333333333334E+009;1.707026064395905E-001;1.478882133960724E-002;1.062978990375996E-004;-3.522209124639630E-003;
2.404500000000000E+009;1.705885529518127E-001;1.319352909922600E-002;-3.312877015559934E-005;-3.343086689710617E-003;
2.404666666666667E+009;1.706653237342835E-001;1.190547272562981E-002;-7.390725659206510E-005;-3.344384720548987E-003;
2.404833333333334E+009;1.705024093389511E-001;1.032383460551500E-002;-2.712379791773856E-004;-3.416160354390740E-003;
2.405000000000000E+009;1.705088913440704E-001;8.880266919732094E-003;-2.193275431636721E-004;-3.306871978566051E-003;
2.405166666666667E+009;1.705354750156403E-001;7.460018154233694E-003;-4.389433888718486E-004;-3.122961614280939E-003;
2.405333333333334E+009;1.706565171480179E-001;5.758740473538637E-003;-4.758275172207505E-004;-2.915950492024422E-003;
2.405500000000000E+009;1.704610139131546E-001;4.404459614306688E-003;-6.188490660861135E-004;-2.940299920737743E-003;
2.405666666666667E+009;1.704580336809158E-001;2.800136338919401E-003;-7.274548406712711E-004;-2.786366734653711E-003;
2.405833333333334E+009;1.702813208103180E-001;1.212323899380863E-003;-6.630734424106777E-004;-2.727549988776445E-003;
2.406000000000000E+009;1.702884435653687E-001;-4.422203928697854E-004;-8.407961577177048E-004;-2.773718442767859E-003;
2.406166666666667E+009;1.701261103153229E-001;-1.854879665188491E-003;-8.087531314231455E-004;-2.519468078389764E-003;
2.406333333333334E+009;1.700428277254105E-001;-3.504762426018715E-003;-8.528870530426502E-004;-2.328004455193877E-003;
2.406500000000000E+009;1.698767393827438E-001;-5.093234125524759E-003;-9.257482015527785E-004;-2.241065260022879E-003;
2.406666666666667E+009;1.696832925081253E-001;-6.409772206097841E-003;-8.859624504111707E-004;-2.083674306049943E-003;
2.406833333333334E+009;1.695614159107208E-001;-8.104487322270870E-003;-7.504617096856237E-004;-1.954116160050035E-003;
2.407000000000000E+009;1.692876964807510E-001;-9.461436420679092E-003;-8.432470494881272E-004;-1.866652164608240E-003;
2.407166666666667E+009;1.693944633007050E-001;-1.078047323971987E-002;-7.623585988767445E-004;-1.579355914145708E-003;
2.407333333333334E+009;1.689754426479340E-001;-1.216448657214642E-002;-5.391114973463118E-004;-1.537682255730033E-003;
2.407500000000000E+009;1.687250286340714E-001;-1.344773080199957E-002;-4.530998703557998E-004;-1.360540394671261E-003;
2.407666666666667E+009;1.686848551034927E-001;-1.443786080926657E-002;-1.830062537919730E-004;-1.456553232856095E-003;
2.407833333333334E+009;1.684039086103439E-001;-1.574528403580189E-002;-1.179665050585754E-004;-1.585070393048227E-003;
2.408000000000000E+009;1.682556718587875E-001;-1.691429130733013E-002;2.551008656155318E-004;-1.440221327356994E-003;
2.408166666666667E+009;1.682208478450775E-001;-1.761785708367825E-002;3.162988869007677E-004;-1.731048687361181E-003;
2.408333333333334E+009;1.683222353458405E-001;-1.864924281835556E-002;4.598834784701467E-004;-1.637868583202362E-003;
2.408500000000000E+009;1.681376844644547E-001;-1.959915831685066E-002;6.950021488592029E-004;-2.018133411183953E-003;
2.408666666666667E+009;1.682174801826477E-001;-2.047611959278584E-002;5.560315330512822E-004;-2.124469494447112E-003;
2.408833333333334E+009;1.681448370218277E-001;-2.130142040550709E-002;4.793393018189818E-004;-2.416430972516537E-003;
2.409000000000000E+009;1.681904494762421E-001;-2.204525284469128E-002;4.637497768271714E-004;-2.506547374650836E-003;
2.409166666666667E+009;1.684420108795166E-001;-2.307342365384102E-002;2.710097178351134E-004;-2.808135934174061E-003;
2.409333333333334E+009;1.687713712453842E-001;-2.386952564120293E-002;2.871385368052870E-004;-3.153316210955381E-003;
2.409500000000000E+009;1.686963587999344E-001;-2.500480227172375E-002;7.617909432156012E-005;-3.245654283091426E-003;
2.409666666666667E+009;1.686881035566330E-001;-2.583153545856476E-002;-6.147249951027334E-005;-3.069106256589294E-003;
2.409833333333334E+009;1.689386516809464E-001;-2.654055319726467E-002;-2.892592747230083E-004;-3.380627371370792E-003;
2.410000000000000E+009;1.689278483390808E-001;-2.756116725504398E-002;-4.396519216243178E-004;-3.424315946176648E-003;
2.410166666666667E+009;1.690671145915985E-001;-2.837060391902924E-002;-6.723199621774256E-004;-3.514935495331883E-003;
2.410333333333334E+009;1.690468788146973E-001;-2.938775159418583E-002;-6.939393351785839E-004;-3.674725070595741E-003;
2.410500000000000E+009;1.690847128629684E-001;-3.028665296733379E-002;-1.039742724969983E-003;-3.521710168570280E-003;
2.410666666666667E+009;1.688106507062912E-001;-3.126509860157967E-002;-1.108684926293790E-003;-3.338017035275698E-003;
2.410833333333334E+009;1.687442958354950E-001;-3.225598111748695E-002;-1.386607065796852E-003;-3.342397976666689E-003;
2.411000000000000E+009;1.687625348567963E-001;-3.315790742635727E-002;-1.667950884439051E-003;-3.299972740933299E-003;
2.411166666666667E+009;1.683831363916397E-001;-3.408806771039963E-002;-1.673891092650592E-003;-3.249185625463724E-003;
2.411333333333334E+009;1.682984083890915E-001;-3.509017452597618E-002;-1.600515563040972E-003;-3.194682998582721E-003;
2.411500000000000E+009;1.679354757070541E-001;-3.611777722835541E-002;-1.782189006917179E-003;-2.995822113007307E-003;
2.411666666666667E+009;1.679632067680359E-001;-3.704773634672165E-002;-1.905486453324556E-003;-3.113843733444810E-003;
2.411833333333334E+009;1.677265167236328E-001;-3.772151470184326E-002;-2.018078695982695E-003;-2.881359308958054E-003;
2.412000000000000E+009;1.674014031887054E-001;-3.884913399815559E-002;-2.138903131708503E-003;-2.942431718111038E-003;
2.412166666666667E+009;1.669363230466843E-001;-3.957290574908257E-002;-2.030913718044758E-003;-2.901963656768203E-003;
2.412333333333334E+009;1.670558303594589E-001;-4.059027507901192E-002;-2.216361928731203E-003;-2.893111202865839E-003;
2.412500000000000E+009;1.663725227117539E-001;-4.159243404865265E-002;-2.302428474649787E-003;-2.920661121606827E-003;
2.412666666666667E+009;1.661934852600098E-001;-4.271239787340164E-002;-2.474502427503467E-003;-2.974960952997208E-003;
2.412833333333334E+009;1.656758785247803E-001;-4.376085475087166E-002;-2.400984521955252E-003;-2.938843099400401E-003;
2.413000000000000E+009;1.653299331665039E-001;-4.454081505537033E-002;-2.844217000529170E-003;-2.828007331117988E-003;
2.413166666666667E+009;1.647949963808060E-001;-4.560272768139839E-002;-2.893139375373721E-003;-2.689236775040627E-003;
2.413333333333334E+009;1.642892658710480E-001;-4.690354317426682E-002;-2.937413519248366E-003;-2.577534411102533E-003;
2.413500000000000E+009;1.639510244131088E-001;-4.774507135152817E-002;-3.146655391901732E-003;-2.471073064953089E-003;
2.413666666666667E+009;1.636558324098587E-001;-4.867571219801903E-002;-3.366838674992323E-003;-2.534738043323159E-003;
2.413833333333334E+009;1.630401462316513E-001;-4.972814396023750E-002;-3.423638409003615E-003;-2.181573305279017E-003;
2.414000000000000E+009;1.624630391597748E-001;-5.076318979263306E-002;-3.370656399056315E-003;-2.031398238614202E-003;
2.414166666666667E+009;1.623467355966568E-001;-5.165287852287293E-002;-3.601114265620709E-003;-1.870320644229651E-003;
2.414333333333334E+009;1.619121581315994E-001;-5.255138874053955E-002;-3.542967373505235E-003;-1.655642874538899E-003;
2.414500000000000E+009;1.617778688669205E-001;-5.354359373450279E-002;-3.604959230870009E-003;-1.725296140648425E-003;
2.414666666666667E+009;1.614378392696381E-001;-5.462107434868813E-002;-3.559332806617022E-003;-1.633384730666876E-003;
2.414833333333334E+009;1.610760390758514E-001;-5.572048202157021E-002;-3.542667021974921E-003;-1.794689917005599E-003;
2.415000000000000E+009;1.607983708381653E-001;-5.665374547243118E-002;-3.772697644308209E-003;-1.685928669758141E-003;
2.415166666666667E+009;1.607702970504761E-001;-5.767191946506500E-002;-3.800414269790053E-003;-1.478640013374388E-003;
2.415333333333334E+009;1.607196331024170E-001;-5.874982476234436E-002;-3.847369225695729E-003;-1.502817613072693E-003;
2.415500000000000E+009;1.604765206575394E-001;-5.992321670055389E-002;-3.989120014011860E-003;-1.312268315814436E-003;
2.415666666666667E+009;1.602163612842560E-001;-6.091530248522759E-002;-4.129983484745026E-003;-1.170477480627596E-003;
2.415833333333334E+009;1.601963788270950E-001;-6.224193051457405E-002;-4.322214983403683E-003;-1.070303143933415E-003;
2.416000000000000E+009;1.598618328571320E-001;-6.352619081735611E-002;-4.392990376800299E-003;-8.563937153667212E-004;
2.416166666666667E+009;1.598871201276779E-001;-6.463431566953659E-002;-4.519009497016668E-003;-5.640480085276067E-004;
2.416333333333334E+009;1.595566272735596E-001;-6.570246070623398E-002;-4.649385344237089E-003;-3.133777063339949E-004;
2.416500000000000E+009;1.592541486024857E-001;-6.699302792549133E-002;-4.693738184869289E-003;-1.634181244298816E-004;
2.416666666666667E+009;1.590021103620529E-001;-6.807327270507813E-002;-4.659559577703476E-003;3.286503488197923E-005;
2.416833333333334E+009;1.588015556335449E-001;-6.933812052011490E-002;-4.597614053636789E-003;3.242098318878561E-004;
2.417000000000000E+009;1.582223773002625E-001;-7.036269456148148E-002;-4.421778488904238E-003;5.294560105539858E-004;
2.417166666666667E+009;1.579794883728027E-001;-7.137396186590195E-002;-4.287488758563995E-003;8.223486947827041E-004;
2.417333333333334E+009;1.576243788003922E-001;-7.223380357027054E-002;-4.351499024778605E-003;9.647944243624806E-004;
2.417500000000000E+009;1.572820693254471E-001;-7.348440587520599E-002;-4.142073448747397E-003;1.088619232177734E-003;
2.417666666666667E+009;1.571581810712814E-001;-7.422435283660889E-002;-3.989408724009991E-003;1.092035206966102E-003;
2.417833333333334E+009;1.567435413599014E-001;-7.495251297950745E-002;-3.939794842153788E-003;1.532370108179748E-003;
2.418000000000000E+009;1.563564538955689E-001;-7.598409801721573E-002;-3.803810104727745E-003;1.496580429375172E-003;
2.418166666666667E+009;1.561358273029327E-001;-7.667279243469238E-002;-3.716054372489452E-003;1.597521710209549E-003;
2.418333333333334E+009;1.561207622289658E-001;-7.749499380588532E-002;-3.672590944916010E-003;1.672445447184146E-003;
2.418500000000000E+009;1.555693298578262E-001;-7.838247716426849E-002;-3.599596209824085E-003;1.673689228482544E-003;
2.418666666666667E+009;1.554135829210281E-001;-7.917799055576325E-002;-3.492622636258602E-003;1.969141419976950E-003;
2.418833333333334E+009;1.549335569143295E-001;-7.985682040452957E-002;-3.421501256525517E-003;1.891880529001355E-003;
2.419000000000000E+009;1.545353680849075E-001;-8.047108352184296E-002;-3.332389751449227E-003;2.005551010370255E-003;
2.419166666666667E+009;1.542527675628662E-001;-8.115855604410172E-002;-3.249342087656260E-003;2.121355384588242E-003;
2.419333333333334E+009;1.537659764289856E-001;-8.166188001632690E-002;-3.115565516054630E-003;2.181168412789702E-003;
2.419500000000000E+009;1.533814966678619E-001;-8.256924897432327E-002;-3.092152997851372E-003;2.286602044478059E-003;
2.419666666666667E+009;1.531401276588440E-001;-8.303920924663544E-002;-2.999528544023633E-003;2.270977478474379E-003;
2.419833333333334E+009;1.526765823364258E-001;-8.351393789052963E-002;-2.902425592765212E-003;2.299198182299733E-003;
2.420000000000000E+009;1.523671150207520E-001;-8.424691855907440E-002;-2.703874604776502E-003;2.422449178993702E-003;
2.420166666666667E+009;1.520319730043411E-001;-8.469206094741821E-002;-2.791044767946005E-003;2.483121352270246E-003;
2.420333333333334E+009;1.516693681478500E-001;-8.528790622949600E-002;-2.567949471995235E-003;2.541396534070373E-003;
2.420500000000000E+009;1.514126658439636E-001;-8.579351007938385E-002;-2.670095767825842E-003;2.677798969671130E-003;
2.420666666666667E+009;1.508346349000931E-001;-8.638730645179749E-002;-2.493401523679495E-003;2.755385125055909E-003;
2.420833333333334E+009;1.504762917757034E-001;-8.707005530595779E-002;-2.355498960241675E-003;2.672868082299829E-003;
2.421000000000000E+009;1.500654816627502E-001;-8.761146664619446E-002;-2.283839741721749E-003;2.845346694812179E-003;
2.421166666666667E+009;1.495738625526428E-001;-8.836285024881363E-002;-2.211584476754069E-003;2.953991759568453E-003;
2.421333333333334E+009;1.494031846523285E-001;-8.905328065156937E-002;-2.162738936021924E-003;3.085326869040728E-003;
2.421500000000000E+009;1.486165523529053E-001;-8.957353979349136E-002;-2.064921660348773E-003;3.205580171197653E-003;
2.421666666666667E+009;1.480298191308975E-001;-9.048572182655335E-002;-1.804398722015321E-003;3.089973004534841E-003;
2.421833333333334E+009;1.475728154182434E-001;-9.118165820837021E-002;-1.779903075657785E-003;3.171890042722225E-003;
2.422000000000000E+009;1.468665003776550E-001;-9.203174710273743E-002;-1.651100814342499E-003;3.338816110044718E-003;
2.422166666666667E+009;1.464041471481323E-001;-9.285453706979752E-002;-1.520263263955712E-003;3.269626526162028E-003;
2.422333333333334E+009;1.458479315042496E-001;-9.355476498603821E-002;-1.323544187471271E-003;3.408225951716304E-003;
2.422500000000000E+009;1.451223194599152E-001;-9.411837905645371E-002;-1.124482019804418E-003;3.396673360839486E-003;
2.422666666666667E+009;1.445163935422897E-001;-9.497426450252533E-002;-9.469430660828948E-004;3.429404692724347E-003;
2.422833333333334E+009;1.440213322639465E-001;-9.590061753988266E-002;-8.409240399487317E-004;3.431520890444517E-003;
2.423000000000000E+009;1.433467417955399E-001;-9.674588590860367E-002;-6.823104340583086E-004;3.318544942885637E-003;
2.423166666666667E+009;1.428213119506836E-001;-9.770794957876205E-002;-4.591689212247729E-004;3.404788672924042E-003;
2.423333333333334E+009;1.423178911209106E-001;-9.839605540037155E-002;-3.838949778582901E-004;3.235786221921444E-003;
2.423500000000000E+009;1.416441947221756E-001;-9.951419383287430E-002;-7.339895091718063E-005;3.280359087511897E-003;
2.423666666666667E+009;1.408372819423676E-001;-1.005807369947434E-001;-6.610402488149703E-005;3.111447440460324E-003;
2.423833333333334E+009;1.404064595699310E-001;-1.015161126852036E-001;2.630246490298305E-005;3.097393317148089E-003;
2.424000000000000E+009;1.395975053310394E-001;-1.023905500769615E-001;6.358911923598498E-005;2.858001040294766E-003;
2.424166666666667E+009;1.388848870992661E-001;-1.033763363957405E-001;2.755066670943052E-004;2.789247082546353E-003;
2.424333333333334E+009;1.385050714015961E-001;-1.042114198207855E-001;1.630175102036446E-004;2.666758373379707E-003;
2.424500000000000E+009;1.377168893814087E-001;-1.054127290844917E-001;3.609465202316642E-004;2.797178225591779E-003;
2.424666666666667E+009;1.372602581977844E-001;-1.061844527721405E-001;2.727486134972423E-004;2.564337570220232E-003;
2.424833333333334E+009;1.366423964500427E-001;-1.072100698947907E-001;4.031404096167535E-004;2.407337306067348E-003;
2.425000000000000E+009;1.360553354024887E-001;-1.081872805953026E-001;4.092350427526981E-004;2.350584603846073E-003;
2.425166666666667E+009;1.353840678930283E-001;-1.091297194361687E-001;3.408777702134103E-004;2.224212279543281E-003;
2.425333333333334E+009;1.349259018898010E-001;-1.101448684930801E-001;5.609458312392235E-004;2.170516178011894E-003;
2.425500000000000E+009;1.345437169075012E-001;-1.112206652760506E-001;4.870021948590875E-004;2.054471755400300E-003;
2.425666666666667E+009;1.338322311639786E-001;-1.120831072330475E-001;4.704437160398811E-004;1.918321475386620E-003;
2.425833333333334E+009;1.335327923297882E-001;-1.131405606865883E-001;4.492444568313658E-004;1.839096425101161E-003;
2.426000000000000E+009;1.330115348100662E-001;-1.141255348920822E-001;2.305468951817602E-004;1.743145752698183E-003;
2.426166666666667E+009;1.328018158674240E-001;-1.151487156748772E-001;2.670449612196535E-004;1.693611033260822E-003;
2.426333333333334E+009;1.322868019342423E-001;-1.159091368317604E-001;-6.207093974808231E-006;1.614114502444863E-003;
2.426500000000000E+009;1.318989992141724E-001;-1.168058663606644E-001;2.894646786444355E-005;1.766799367032945E-003;
2.426666666666667E+009;1.315856575965881E-001;-1.176188737154007E-001;-1.749760303937364E-005;1.732885022647679E-003;
2.426833333333334E+009;1.310914456844330E-001;-1.185063645243645E-001;-2.699342148844153E-004;1.804924802854657E-003;
2.427000000000000E+009;1.306998729705811E-001;-1.193825602531433E-001;-2.583258319646120E-004;1.826880732551217E-003;
2.427166666666667E+009;1.303469985723496E-001;-1.200059130787849E-001;-3.189561539329588E-004;1.952610095031560E-003;
2.427333333333334E+009;1.299508959054947E-001;-1.207544356584549E-001;-1.754954573698342E-004;1.993736485019326E-003;
2.427500000000000E+009;1.296855956315994E-001;-1.214581355452538E-001;-3.020198200829327E-004;2.111802110448480E-003;
2.427666666666667E+009;1.292976140975952E-001;-1.222162991762161E-001;-3.551517438609153E-004;2.184351906180382E-003;
