# Version 1.00
#
freq[Hz];re:Trc1_S11;im:Trc1_S11;re:Trc2_S21;im:Trc2_S21;
2.400000000000000E+009;1.710863411426544E-001;4.019790142774582E-002;-3.025921760126948E-003;1.253119262401015E-004;
2.400166666666667E+009;1.716768145561218E-001;3.964851051568985E-002;-2.869084011763334E-003;1.136454447987489E-004;
2.400333333333334E+009;1.721994131803513E-001;3.911754116415978E-002;-3.002010518684983E-003;2.182508615078405E-004;
2.400500000000000E+009;1.726635992527008E-001;3.840273618698120E-002;-2.971700392663479E-003;2.580751024652273E-004;
2.400666666666667E+009;1.728790849447250E-001;3.779015317559242E-002;-3.040019422769547E-003;4.961226950399578E-004;
2.400833333333334E+009;1.732748597860336E-001;3.711831942200661E-002;-3.126825671643019E-003;6.670104339718819E-004;
2.401000000000000E+009;1.733319312334061E-001;3.647811710834503E-002;-3.054570173844695E-003;7.897700998000801E-004;
2.401166666666667E+009;1.735351383686066E-001;3.588327765464783E-002;-3.175461897626519E-003;8.093195501714945E-004;
2.401333333333334E+009;1.735846549272537E-001;3.515673801302910E-002;-3.307065460830927E-003;7.836024742573500E-004;
2.401500000000000E+009;1.736232340335846E-001;3.452569618821144E-002;-3.258989891037345E-003;1.142559456638992E-003;
2.401666666666667E+009;1.736635267734528E-001;3.396999463438988E-002;-3.305967431515455E-003;1.278376788832247E-003;
2.401833333333334E+009;1.734374910593033E-001;3.311409428715706E-002;-3.272321075201035E-003;1.634899876080453E-003;
2.402000000000000E+009;1.731665283441544E-001;3.233963251113892E-002;-3.354889806360006E-003;1.866936217993498E-003;
2.402166666666667E+009;1.730383187532425E-001;3.154633566737175E-002;-3.348991740494967E-003;1.961061265319586E-003;
2.402333333333334E+009;1.726502776145935E-001;3.079317137598991E-002;-3.128072479739785E-003;2.249258570373058E-003;
2.402500000000000E+009;1.726784855127335E-001;2.998393774032593E-002;-3.058400936424732E-003;2.528409473598003E-003;
2.402666666666667E+009;1.724772900342941E-001;2.899397164583206E-002;-2.849512733519077E-003;2.557681873440743E-003;
2.402833333333334E+009;1.720275729894638E-001;2.794168703258038E-002;-2.648627618327737E-003;2.801219001412392E-003;
2.403000000000000E+009;1.716987937688828E-001;2.681934274733067E-002;-2.518802648410201E-003;2.951187547296286E-003;
2.403166666666667E+009;1.712950021028519E-001;2.582294307649136E-002;-2.267950214445591E-003;3.110591089352965E-003;
2.403333333333334E+009;1.710096150636673E-001;2.463697083294392E-002;-2.102820435538888E-003;3.060925984755158E-003;
2.403500000000000E+009;1.704746633768082E-001;2.325312420725822E-002;-1.906889840029180E-003;3.376237349584699E-003;
2.403666666666667E+009;1.701943576335907E-001;2.192770503461361E-002;-1.523627201095223E-003;3.181718522682786E-003;
2.403833333333334E+009;1.699661910533905E-001;2.051234617829323E-002;-1.399489585310221E-003;3.403552807867527E-003;
2.404000000000000E+009;1.696945130825043E-001;1.909635588526726E-002;-1.108261523768306E-003;3.297645831480622E-003;
2.404166666666667E+009;1.691691279411316E-001;1.751874759793282E-002;-9.648509440012276E-004;3.318073460832238E-003;
2.404333333333334E+009;1.689554154872894E-001;1.602023281157017E-002;-8.877383079379797E-004;3.231847891584039E-003;
2.404500000000000E+009;1.685867160558701E-001;1.439211331307888E-002;-6.084890337660909E-004;3.164839232340455E-003;
2.404666666666667E+009;1.685212552547455E-001;1.276152767241001E-002;-6.553445127792656E-004;2.975074807181954E-003;
2.404833333333334E+009;1.683848351240158E-001;1.109284069389105E-002;-3.761854895856232E-004;3.101797308772802E-003;
2.405000000000000E+009;1.682265102863312E-001;9.348037652671337E-003;-7.566568092443049E-005;3.037560265511274E-003;
2.405166666666667E+009;1.681528538465500E-001;7.657464593648911E-003;1.496949153079186E-005;2.811641898006201E-003;
2.405333333333334E+009;1.679600626230240E-001;5.706815980374813E-003;7.187801384134218E-005;2.833175705745816E-003;
2.405500000000000E+009;1.679779589176178E-001;3.955884836614132E-003;1.400083274347708E-004;2.668319270014763E-003;
2.405666666666667E+009;1.678985506296158E-001;2.147971419617534E-003;2.927542373072356E-004;2.579849446192384E-003;
2.405833333333334E+009;1.678254753351212E-001;4.401422338560224E-004;3.400410932954401E-004;2.537119435146451E-003;
2.406000000000000E+009;1.678918004035950E-001;-1.661472022533417E-003;3.561791963875294E-004;2.565262373536825E-003;
2.406166666666667E+009;1.678539067506790E-001;-3.277970477938652E-003;3.153678844682872E-004;2.445992780849338E-003;
2.406333333333334E+009;1.679037660360336E-001;-5.240522790700197E-003;6.001340807415545E-004;2.189951948821545E-003;
2.406500000000000E+009;1.679521501064301E-001;-6.984214764088392E-003;5.551679641939700E-004;2.154970774427056E-003;
2.406666666666667E+009;1.677344143390656E-001;-8.709875866770744E-003;5.343728116713464E-004;2.179920673370361E-003;
2.406833333333334E+009;1.679485887289047E-001;-1.049315091222525E-002;5.030963220633566E-004;1.973682316020131E-003;
2.407000000000000E+009;1.679579019546509E-001;-1.206613238900900E-002;4.742722376249731E-004;2.021281048655510E-003;
2.407166666666667E+009;1.681824922561646E-001;-1.348643563687801E-002;4.360520979389548E-004;1.802156330086291E-003;
2.407333333333334E+009;1.681023687124252E-001;-1.519287843257189E-002;3.554641152732074E-004;1.819368684664369E-003;
2.407500000000000E+009;1.681490987539291E-001;-1.647667214274406E-002;3.511800023261458E-004;1.761696883477271E-003;
2.407666666666667E+009;1.682432591915131E-001;-1.779899559915066E-002;4.041947540827096E-004;1.887205289676786E-003;
2.407833333333334E+009;1.681310087442398E-001;-1.910783909261227E-002;5.043131532147527E-004;1.915035536512733E-003;
2.408000000000000E+009;1.682782769203186E-001;-2.013975568115711E-002;3.330716281197965E-004;1.780924852937460E-003;
2.408166666666667E+009;1.684038192033768E-001;-2.117994986474514E-002;3.801870334427804E-004;1.840671291574836E-003;
2.408333333333334E+009;1.688892394304276E-001;-2.206774242222309E-002;3.553530259523541E-004;1.825847430154681E-003;
2.408500000000000E+009;1.690568178892136E-001;-2.296097017824650E-002;5.583037855103612E-004;1.901203300803900E-003;
2.408666666666667E+009;1.692963093519211E-001;-2.369090914726257E-002;4.694292147178203E-004;1.844117417931557E-003;
2.408833333333334E+009;1.696666032075882E-001;-2.449310943484306E-002;6.562187336385250E-004;1.818886375986040E-003;
2.409000000000000E+009;1.699327081441879E-001;-2.532577514648438E-002;5.950179765932262E-004;1.958832377567887E-003;
2.409166666666667E+009;1.702115088701248E-001;-2.622658386826515E-002;6.182126235216856E-004;1.791430870071054E-003;
2.409333333333334E+009;1.706968992948532E-001;-2.683414518833160E-002;5.919171962887049E-004;1.856605405919254E-003;
2.409500000000000E+009;1.709269434213638E-001;-2.771674282848835E-002;6.566325318999589E-004;1.847216393798590E-003;
2.409666666666667E+009;1.711490899324417E-001;-2.817976102232933E-002;6.859200657345355E-004;1.845115330070257E-003;
2.409833333333334E+009;1.711996495723724E-001;-2.895149402320385E-002;6.757618975825608E-004;1.741661806590855E-003;
2.410000000000000E+009;1.716784685850143E-001;-2.959166094660759E-002;7.157943327911198E-004;1.779176294803619E-003;
2.410166666666667E+009;1.717743873596191E-001;-3.045781329274178E-002;5.267904489301145E-004;1.900109113194048E-003;
2.410333333333334E+009;1.717692315578461E-001;-3.088320977985859E-002;8.029033779166639E-004;1.849509426392615E-003;
2.410500000000000E+009;1.717914640903473E-001;-3.167175874114037E-002;7.556446944363415E-004;1.837243791669607E-003;
2.410666666666667E+009;1.717048287391663E-001;-3.234346956014633E-002;6.520049646496773E-004;2.140813739970326E-003;
2.410833333333334E+009;1.715585589408875E-001;-3.285117074847221E-002;7.751714438199997E-004;2.117828233167529E-003;
2.411000000000000E+009;1.714295744895935E-001;-3.361573815345764E-002;7.780832238495350E-004;2.190947299823165E-003;
2.411166666666667E+009;1.712658107280731E-001;-3.434490412473679E-002;9.848572080954909E-004;2.282290253788233E-003;
2.411333333333334E+009;1.710277348756790E-001;-3.474167734384537E-002;1.066397526301444E-003;2.166097750887275E-003;
2.411500000000000E+009;1.705237179994583E-001;-3.554584830999374E-002;1.080305548384786E-003;2.364555606618524E-003;
2.411666666666667E+009;1.702489107847214E-001;-3.628680109977722E-002;1.166530069895089E-003;2.251741942018271E-003;
2.411833333333334E+009;1.699523329734802E-001;-3.679980710148811E-002;1.286978484131396E-003;2.233857521787286E-003;
2.412000000000000E+009;1.693625301122665E-001;-3.775684535503388E-002;1.524911029264331E-003;2.391661284491420E-003;
2.412166666666667E+009;1.689305901527405E-001;-3.856436535716057E-002;1.660691341385245E-003;2.340324688702822E-003;
2.412333333333334E+009;1.686709076166153E-001;-3.924215212464333E-002;1.895139343105257E-003;2.337297890335321E-003;
2.412500000000000E+009;1.678224205970764E-001;-3.984453156590462E-002;1.900177448987961E-003;2.277806634083390E-003;
2.412666666666667E+009;1.672976166009903E-001;-4.096938669681549E-002;2.101329620927572E-003;2.266814699396491E-003;
2.412833333333334E+009;1.668919473886490E-001;-4.190343990921974E-002;2.139351097866893E-003;2.224925206974149E-003;
2.413000000000000E+009;1.662856191396713E-001;-4.283587634563446E-002;2.444324083626270E-003;2.104897750541568E-003;
2.413166666666667E+009;1.653989702463150E-001;-4.365498572587967E-002;2.480782801285386E-003;2.035268815234304E-003;
2.413333333333334E+009;1.646372824907303E-001;-4.471778124570847E-002;2.546604489907622E-003;1.802897430025041E-003;
2.413500000000000E+009;1.639318913221359E-001;-4.574092105031014E-002;2.623050240799785E-003;1.750649302266538E-003;
2.413666666666667E+009;1.634970754384995E-001;-4.689509794116020E-002;2.823276445269585E-003;1.593835419043899E-003;
2.413833333333334E+009;1.625394374132156E-001;-4.786441102623940E-002;2.856516046449542E-003;1.490995404310525E-003;
2.414000000000000E+009;1.617966890335083E-001;-4.902619868516922E-002;2.906088484451175E-003;1.477508456446230E-003;
2.414166666666667E+009;1.612361371517181E-001;-4.997007548809052E-002;3.104401053860784E-003;1.262503094039857E-003;
2.414333333333334E+009;1.606701165437698E-001;-5.115770921111107E-002;3.044363809749484E-003;1.059591770172119E-003;
2.414500000000000E+009;1.603720933198929E-001;-5.233928561210632E-002;3.298231167718768E-003;8.941408013924956E-004;
2.414666666666667E+009;1.597521454095841E-001;-5.333712697029114E-002;3.217188175767660E-003;7.603437989018858E-004;
2.414833333333334E+009;1.593631207942963E-001;-5.455631762742996E-002;3.082211827859283E-003;5.683772033080459E-004;
2.415000000000000E+009;1.588855087757111E-001;-5.579691752791405E-002;3.118640743196011E-003;5.793807795271277E-004;
2.415166666666667E+009;1.586073935031891E-001;-5.713936313986778E-002;3.069538390263915E-003;2.829059958457947E-004;
2.415333333333334E+009;1.583416312932968E-001;-5.849145725369453E-002;3.052625339478254E-003;1.923768577398732E-004;
2.415500000000000E+009;1.580405384302139E-001;-5.990378558635712E-002;3.019203897565603E-003;-3.220791040803306E-005;
2.415666666666667E+009;1.579201221466065E-001;-6.122694164514542E-002;2.999050077050924E-003;-2.017574661294930E-005;
2.415833333333334E+009;1.577810496091843E-001;-6.273171305656433E-002;2.908236347138882E-003;-2.484445758454967E-005;
2.416000000000000E+009;1.574722528457642E-001;-6.421565264463425E-002;2.781468909233809E-003;-2.007104194490239E-004;
2.416166666666667E+009;1.574930548667908E-001;-6.553492695093155E-002;2.773792715743184E-003;-3.467212081886828E-004;
2.416333333333334E+009;1.572134047746658E-001;-6.691782921552658E-002;2.627759473398328E-003;-2.776889305096120E-004;
2.416500000000000E+009;1.571060121059418E-001;-6.846842914819717E-002;2.523793606087565E-003;-4.177603987045586E-004;
2.416666666666667E+009;1.567319035530090E-001;-6.974864751100540E-002;2.668959321454167E-003;-1.927133271237835E-004;
2.416833333333334E+009;1.566983312368393E-001;-7.123915106058121E-002;2.611080184578896E-003;-1.409625110682100E-004;
2.417000000000000E+009;1.563731282949448E-001;-7.259039580821991E-002;2.707170089706779E-003;-1.903381635202095E-004;
2.417166666666667E+009;1.561990976333618E-001;-7.374990731477737E-002;2.620348474010825E-003;-2.613205288071185E-004;
2.417333333333334E+009;1.560668051242828E-001;-7.483483105897903E-002;2.794321160763502E-003;-4.390189424157143E-004;
2.417500000000000E+009;1.559067219495773E-001;-7.606720924377441E-002;2.874899655580521E-003;-4.573801124934107E-004;
2.417666666666667E+009;1.557527929544449E-001;-7.692159712314606E-002;2.923447173088789E-003;-5.698339664377272E-004;
2.417833333333334E+009;1.557163447141647E-001;-7.794935256242752E-002;2.954620635136962E-003;-7.582852267660201E-004;
2.418000000000000E+009;1.556054502725601E-001;-7.901591062545776E-002;3.071761690080166E-003;-8.187630446627736E-004;
2.418166666666667E+009;1.554347872734070E-001;-7.966775447130203E-002;3.050243016332388E-003;-9.722457034513354E-004;
2.418333333333334E+009;1.556720286607742E-001;-8.066701143980026E-002;3.092628903687000E-003;-1.229485846124589E-003;
2.418500000000000E+009;1.554570943117142E-001;-8.133281767368317E-002;2.913732081651688E-003;-1.319662202149630E-003;
2.418666666666667E+009;1.555375605821610E-001;-8.199650049209595E-002;3.056287067010999E-003;-1.384884351864457E-003;
2.418833333333334E+009;1.552496999502182E-001;-8.285650610923767E-002;2.774445572867990E-003;-1.544379745610058E-003;
2.419000000000000E+009;1.551778912544251E-001;-8.335893601179123E-002;2.862752182409167E-003;-1.615651650354266E-003;
2.419166666666667E+009;1.549636125564575E-001;-8.407801389694214E-002;2.721881028264761E-003;-1.950901001691818E-003;
2.419333333333334E+009;1.548808962106705E-001;-8.439056575298309E-002;2.715238370001316E-003;-2.019811654463410E-003;
2.419500000000000E+009;1.548457741737366E-001;-8.502946794033051E-002;2.728275954723358E-003;-1.954851672053337E-003;
2.419666666666667E+009;1.546155959367752E-001;-8.546438068151474E-002;2.574651734903455E-003;-2.010971307754517E-003;
2.419833333333334E+009;1.544807702302933E-001;-8.580867201089859E-002;2.565169008448720E-003;-2.223947783932090E-003;
2.420000000000000E+009;1.542892307043076E-001;-8.620458841323853E-002;2.571067539975047E-003;-2.461997559294105E-003;
2.420166666666667E+009;1.540915369987488E-001;-8.678802102804184E-002;2.352761570364237E-003;-2.353890566155314E-003;
2.420333333333334E+009;1.539112776517868E-001;-8.711518347263336E-002;2.384243765845895E-003;-2.364290878176689E-003;
2.420500000000000E+009;1.536460816860199E-001;-8.733901381492615E-002;2.266286173835397E-003;-2.666168613359332E-003;
2.420666666666667E+009;1.532130986452103E-001;-8.761944621801376E-002;2.271915087476373E-003;-2.694987226277590E-003;
2.420833333333334E+009;1.528329551219940E-001;-8.816176652908325E-002;2.134300535544753E-003;-2.861211542040110E-003;
2.421000000000000E+009;1.525122672319412E-001;-8.850944787263870E-002;1.852684654295445E-003;-3.034806810319424E-003;
2.421166666666667E+009;1.521599292755127E-001;-8.892782032489777E-002;1.876583206467331E-003;-3.057097084820271E-003;
2.421333333333334E+009;1.517567783594132E-001;-8.947369456291199E-002;1.821686862967908E-003;-3.238499863073230E-003;
2.421500000000000E+009;1.509618610143662E-001;-8.973500877618790E-002;1.694767037406564E-003;-3.434433136135340E-003;
2.421666666666667E+009;1.505668759346008E-001;-9.050422161817551E-002;1.490531954914331E-003;-3.598461160436273E-003;
2.421833333333334E+009;1.500106900930405E-001;-9.089355170726776E-002;1.468384522013366E-003;-3.442288842052221E-003;
2.422000000000000E+009;1.490856260061264E-001;-9.144993126392365E-002;1.219850848428905E-003;-3.744050394743681E-003;
2.422166666666667E+009;1.483593434095383E-001;-9.225632250308991E-002;9.943321347236633E-004;-3.723094007000327E-003;
2.422333333333334E+009;1.477145850658417E-001;-9.276690334081650E-002;7.717393455095589E-004;-3.914052154868841E-003;
2.422500000000000E+009;1.468201428651810E-001;-9.320607036352158E-002;5.456400103867054E-004;-3.998089116066694E-003;
2.422666666666667E+009;1.459297686815262E-001;-9.405788779258728E-002;3.947347577195615E-004;-3.988632466644049E-003;
2.422833333333334E+009;1.451476067304611E-001;-9.480772912502289E-002;1.239744306076318E-004;-3.890981897711754E-003;
2.423000000000000E+009;1.443393826484680E-001;-9.554985165596008E-002;-1.449928822694346E-004;-4.060517065227032E-003;
2.423166666666667E+009;1.434305906295776E-001;-9.647105634212494E-002;-3.899844305124134E-004;-3.963694442063570E-003;
2.423333333333334E+009;1.426390409469605E-001;-9.712632000446320E-002;-7.700338028371334E-004;-3.821636084467173E-003;
2.423500000000000E+009;1.416510194540024E-001;-9.803603589534760E-002;-7.238061516545713E-004;-3.765933681279421E-003;
2.423666666666667E+009;1.406488567590714E-001;-9.910736232995987E-002;-8.417704375460744E-004;-3.681445727124810E-003;
2.423833333333334E+009;1.400195062160492E-001;-1.002281010150909E-001;-1.101581729017198E-003;-3.499777521938086E-003;
2.424000000000000E+009;1.388303488492966E-001;-1.009433493018150E-001;-1.221980550326407E-003;-3.416300984099507E-003;
2.424166666666667E+009;1.379962265491486E-001;-1.021679341793060E-001;-1.470400253310800E-003;-3.499205457046628E-003;
2.424333333333334E+009;1.370508074760437E-001;-1.031316518783569E-001;-1.354149193502963E-003;-3.136823652312160E-003;
2.424500000000000E+009;1.364463716745377E-001;-1.042555496096611E-001;-1.623146468773484E-003;-3.077484201639891E-003;
2.424666666666667E+009;1.357140094041824E-001;-1.050139516592026E-001;-1.817156095057726E-003;-3.016761736944318E-003;
2.424833333333334E+009;1.348734945058823E-001;-1.062795817852020E-001;-1.761635998263955E-003;-2.781369024887681E-003;
2.425000000000000E+009;1.341530233621597E-001;-1.073894351720810E-001;-1.973401755094528E-003;-2.741664648056030E-003;
2.425166666666667E+009;1.333174556493759E-001;-1.085673645138741E-001;-2.179862232878804E-003;-2.502995776012540E-003;
2.425333333333334E+009;1.328501999378204E-001;-1.096581891179085E-001;-2.261048648506403E-003;-2.435836941003799E-003;
2.425500000000000E+009;1.322434395551682E-001;-1.109708622097969E-001;-2.375959651544690E-003;-2.229883335530758E-003;
2.425666666666667E+009;1.315540224313736E-001;-1.121843159198761E-001;-2.483808202669025E-003;-2.033754019066691E-003;
2.425833333333334E+009;1.312407553195953E-001;-1.131578236818314E-001;-2.495786640793085E-003;-1.910194172523916E-003;
2.426000000000000E+009;1.307040452957153E-001;-1.145600602030754E-001;-2.429904649034143E-003;-1.612621825188398E-003;
2.426166666666667E+009;1.302793473005295E-001;-1.157289594411850E-001;-2.450592350214720E-003;-1.307045691646636E-003;
2.426333333333334E+009;1.297516971826553E-001;-1.168264001607895E-001;-2.504375297576189E-003;-1.225413638167083E-003;
2.426500000000000E+009;1.295258998870850E-001;-1.178750693798065E-001;-2.261420711874962E-003;-1.010035630315542E-003;
2.426666666666667E+009;1.292711198329926E-001;-1.189026311039925E-001;-2.502093790099025E-003;-6.723697297275066E-004;
2.426833333333334E+009;1.289184242486954E-001;-1.200660318136215E-001;-2.246005460619927E-003;-5.809995345771313E-004;
2.427000000000000E+009;1.286076158285141E-001;-1.211668252944946E-001;-2.175198867917061E-003;-5.676911678165197E-004;
2.427166666666667E+009;1.283204406499863E-001;-1.218673661351204E-001;-1.997737213969231E-003;-4.182303382549435E-004;
2.427333333333334E+009;1.281213015317917E-001;-1.229192167520523E-001;-1.965294126421213E-003;-3.043438773602247E-004;
2.427500000000000E+009;1.280494779348373E-001;-1.237684041261673E-001;-1.582559547387064E-003;-2.476778463460505E-004;
2.427666666666667E+009;1.279492974281311E-001;-1.246822103857994E-001;-1.582280732691288E-003;-2.621356397867203E-004;
