# Version 1.00
#
freq[Hz];re:Trc1_S11;im:Trc1_S11;re:Trc2_S21;im:Trc2_S21;
2.400000000000000E+009;1.681273132562637E-001;4.088195785880089E-002;3.739797743037343E-003;3.675123152788729E-004;
2.400166666666667E+009;1.687680035829544E-001;4.012707993388176E-002;3.773781238123775E-003;2.269104588776827E-004;
2.400333333333334E+009;1.691868156194687E-001;3.924158588051796E-002;3.912617918103933E-003;4.601243927027099E-005;
2.400500000000000E+009;1.697341501712799E-001;3.830245137214661E-002;3.752606455236673E-003;-1.847043458838016E-004;
2.400666666666667E+009;1.701459735631943E-001;3.738223761320114E-002;3.999571315944195E-003;-2.744596567936242E-004;
2.400833333333334E+009;1.705789715051651E-001;3.665486723184586E-002;3.794905496761203E-003;-4.715120885521174E-004;
2.401000000000000E+009;1.708199083805084E-001;3.566061705350876E-002;3.836691146716476E-003;-6.488987128250301E-004;
2.401166666666667E+009;1.709932982921600E-001;3.493201360106468E-002;4.028711467981339E-003;-8.712697308510542E-004;
2.401333333333334E+009;1.710460335016251E-001;3.395536914467812E-002;3.909457474946976E-003;-1.068447483703494E-003;
2.401500000000000E+009;1.713012754917145E-001;3.299644961953163E-002;3.816509153693914E-003;-1.349786296486855E-003;
2.401666666666667E+009;1.713531464338303E-001;3.224301338195801E-002;3.806415712460876E-003;-1.460084225982428E-003;
2.401833333333334E+009;1.714262366294861E-001;3.135864436626434E-002;3.744599642232060E-003;-1.480452250689268E-003;
2.402000000000000E+009;1.713666617870331E-001;3.054531849920750E-002;3.572713816538453E-003;-1.757628051564097E-003;
2.402166666666667E+009;1.712934970855713E-001;2.944177575409412E-002;3.498469013720751E-003;-1.848997315391898E-003;
2.402333333333334E+009;1.712867766618729E-001;2.858800627291203E-002;3.321485361084342E-003;-1.924265990965068E-003;
2.402500000000000E+009;1.715979725122452E-001;2.771738730370998E-002;3.277419833466411E-003;-2.027499722316861E-003;
2.402666666666667E+009;1.713188439607620E-001;2.671821042895317E-002;3.509857924655080E-003;-2.180876908823848E-003;
2.402833333333334E+009;1.714688092470169E-001;2.575549297034740E-002;3.065368393436074E-003;-2.120538847520948E-003;
2.403000000000000E+009;1.711834520101547E-001;2.472108788788319E-002;2.916352357715368E-003;-2.474257256835699E-003;
2.403166666666667E+009;1.713137179613113E-001;2.352773956954479E-002;2.651072340086103E-003;-2.738142851740122E-003;
2.403333333333334E+009;1.711888313293457E-001;2.248715423047543E-002;2.672209404408932E-003;-2.507318975403905E-003;
2.403500000000000E+009;1.709934771060944E-001;2.128846198320389E-002;2.671866212040186E-003;-2.643207553774118E-003;
2.403666666666667E+009;1.708422899246216E-001;2.000384405255318E-002;2.478486858308315E-003;-2.720932709053159E-003;
2.403833333333334E+009;1.708147078752518E-001;1.881234347820282E-002;2.312035067006946E-003;-2.820895286276937E-003;
2.404000000000000E+009;1.706330776214600E-001;1.751383580267429E-002;2.258697291836143E-003;-2.820682711899281E-003;
2.404166666666667E+009;1.705186069011688E-001;1.612135395407677E-002;2.141220727935433E-003;-2.937173005193472E-003;
2.404333333333334E+009;1.704458594322205E-001;1.498399861156941E-002;2.135556656867266E-003;-2.786456607282162E-003;
2.404500000000000E+009;1.701809614896774E-001;1.334754005074501E-002;1.922578550875187E-003;-2.910334849730134E-003;
2.404666666666667E+009;1.702726185321808E-001;1.211576163768768E-002;1.775136101059616E-003;-3.090718528255820E-003;
2.404833333333334E+009;1.701582670211792E-001;1.048657298088074E-002;1.560179749503732E-003;-3.109313314780593E-003;
2.405000000000000E+009;1.701660603284836E-001;9.286683052778244E-003;1.457191421650350E-003;-3.297959454357624E-003;
2.405166666666667E+009;1.702036261558533E-001;7.657177280634642E-003;1.463011023588479E-003;-3.233517985790968E-003;
2.405333333333334E+009;1.701342463493347E-001;6.011912599205971E-003;1.251921523362398E-003;-3.335900371894240E-003;
2.405500000000000E+009;1.700703352689743E-001;4.640826024115086E-003;1.239460543729365E-003;-3.227256704121828E-003;
2.405666666666667E+009;1.701515465974808E-001;2.934573451057077E-003;9.949349332600832E-004;-3.307952545583248E-003;
2.405833333333334E+009;1.698636263608933E-001;1.485934946686029E-003;9.348770836368203E-004;-3.293311689049006E-003;
2.406000000000000E+009;1.700632870197296E-001;-2.411538443993777E-004;6.116401054896414E-004;-3.311541164293885E-003;
2.406166666666667E+009;1.697494387626648E-001;-1.832592417486012E-003;5.973664810881019E-004;-3.272433532401919E-003;
2.406333333333334E+009;1.699100434780121E-001;-3.443520283326507E-003;4.026318783871830E-004;-3.141854424029589E-003;
2.406500000000000E+009;1.696774363517761E-001;-5.051681306213141E-003;4.675264353863895E-004;-3.229442983865738E-003;
2.406666666666667E+009;1.694141924381256E-001;-6.571597885340452E-003;2.223691408289596E-004;-3.053621156141162E-003;
2.406833333333334E+009;1.693491935729981E-001;-8.157699368894100E-003;1.254028611583635E-004;-2.967176493257284E-003;
2.407000000000000E+009;1.693356186151505E-001;-9.663345292210579E-003;1.257378316950053E-004;-2.980781719088554E-003;
2.407166666666667E+009;1.692957431077957E-001;-1.093399710953236E-002;-1.890000712592155E-004;-2.848374191671610E-003;
2.407333333333334E+009;1.689834743738174E-001;-1.242031157016754E-002;-1.598189992364496E-004;-2.757958602160215E-003;
2.407500000000000E+009;1.687553226947784E-001;-1.371072139590979E-002;-2.076931268675253E-004;-2.726439852267504E-003;
2.407666666666667E+009;1.685824841260910E-001;-1.504691503942013E-002;-3.560926706995815E-004;-2.586080925539136E-003;
2.407833333333334E+009;1.683957427740097E-001;-1.616056263446808E-002;-2.149865322280675E-004;-2.444727346301079E-003;
2.408000000000000E+009;1.683753728866577E-001;-1.726225391030312E-002;-5.367882549762726E-004;-2.428690437227488E-003;
2.408166666666667E+009;1.682021319866180E-001;-1.823783293366432E-002;-5.144388414919376E-004;-2.353698480874300E-003;
2.408333333333334E+009;1.684296280145645E-001;-1.919090747833252E-002;-5.985607276670635E-004;-2.080246340483427E-003;
2.408500000000000E+009;1.682817041873932E-001;-2.022052928805351E-002;-2.830561425071210E-004;-2.189802471548319E-003;
2.408666666666667E+009;1.682160198688507E-001;-2.121507376432419E-002;-2.411441528238356E-004;-1.972703263163567E-003;
2.408833333333334E+009;1.682873964309692E-001;-2.190106362104416E-002;-2.827505522873253E-004;-2.020228421315551E-003;
2.409000000000000E+009;1.684191823005676E-001;-2.286584675312042E-002;-9.637394396122545E-005;-1.825614366680384E-003;
2.409166666666667E+009;1.686899363994598E-001;-2.356761135160923E-002;-1.671771460678428E-004;-1.956332707777619E-003;
2.409333333333334E+009;1.687266975641251E-001;-2.461758069694042E-002;-1.063153263203276E-006;-1.875786460004747E-003;
2.409500000000000E+009;1.688436418771744E-001;-2.562403492629528E-002;-1.077877241186798E-004;-1.857880968600512E-003;
2.409666666666667E+009;1.689150780439377E-001;-2.635636739432812E-002;-5.229330054135062E-005;-2.067991299554706E-003;
2.409833333333334E+009;1.690583825111389E-001;-2.709904871881008E-002;-4.475623063626699E-005;-1.987548545002937E-003;
2.410000000000000E+009;1.690713018178940E-001;-2.821254171431065E-002;5.308765594236320E-006;-1.975627383217216E-003;
2.410166666666667E+009;1.691548973321915E-001;-2.894816920161247E-002;-6.489194493042305E-005;-2.205571392551065E-003;
2.410333333333334E+009;1.690619289875031E-001;-2.996329590678215E-002;-1.038843038259074E-004;-2.140463795512915E-003;
2.410500000000000E+009;1.693116277456284E-001;-3.097626939415932E-002;-4.630146941053681E-005;-2.178870607167482E-003;
2.410666666666667E+009;1.689220219850540E-001;-3.188849613070488E-002;8.015177627385128E-006;-2.390580484643579E-003;
2.410833333333334E+009;1.689730882644653E-001;-3.263000771403313E-002;-3.419337444938719E-004;-2.457305556163192E-003;
2.411000000000000E+009;1.686752140522003E-001;-3.349133208394051E-002;-7.290369103429839E-005;-2.539456589147449E-003;
2.411166666666667E+009;1.686110645532608E-001;-3.422283008694649E-002;-1.443976216251031E-004;-2.561738481745124E-003;
2.411333333333334E+009;1.684687435626984E-001;-3.526650369167328E-002;-4.326391208451241E-004;-2.542691072449088E-003;
2.411500000000000E+009;1.682801842689514E-001;-3.608840703964233E-002;-3.755122888833284E-004;-2.622248139232397E-003;
2.411666666666667E+009;1.681909561157227E-001;-3.688853606581688E-002;-4.478314949665219E-004;-2.619156613945961E-003;
2.411833333333334E+009;1.678649187088013E-001;-3.771578148007393E-002;-4.360122256912291E-004;-2.698409138247371E-003;
2.412000000000000E+009;1.676106005907059E-001;-3.864999487996101E-002;-7.135120104067028E-004;-2.674675546586514E-003;
2.412166666666667E+009;1.671564728021622E-001;-3.947923704981804E-002;-5.610782536678016E-004;-2.670535817742348E-003;
2.412333333333334E+009;1.669913083314896E-001;-4.036982357501984E-002;-7.058663759380579E-004;-2.769921906292439E-003;
2.412500000000000E+009;1.665144115686417E-001;-4.132882878184319E-002;-8.470912580378354E-004;-2.724853111431003E-003;
2.412666666666667E+009;1.663212776184082E-001;-4.236850887537003E-002;-8.957972750067711E-004;-2.814439358189702E-003;
2.412833333333334E+009;1.658547669649124E-001;-4.345382750034332E-002;-1.188828493468463E-003;-2.803291194140911E-003;
2.413000000000000E+009;1.654087454080582E-001;-4.423716291785240E-002;-1.213398179970682E-003;-2.824421506375074E-003;
2.413166666666667E+009;1.650344580411911E-001;-4.522940516471863E-002;-1.432768418453634E-003;-2.809111261740327E-003;
2.413333333333334E+009;1.645043492317200E-001;-4.609320312738419E-002;-1.536812866106629E-003;-2.778835128992796E-003;
2.413500000000000E+009;1.640466302633286E-001;-4.717766493558884E-002;-1.641979906708002E-003;-2.890228759497404E-003;
2.413666666666667E+009;1.637150347232819E-001;-4.839829728007317E-002;-1.714911544695497E-003;-2.662318525835872E-003;
2.413833333333334E+009;1.630524396896362E-001;-4.921637848019600E-002;-1.861455151811242E-003;-2.697042422369123E-003;
2.414000000000000E+009;1.625566631555557E-001;-5.025076121091843E-002;-2.051803516224027E-003;-2.678344957530499E-003;
2.414166666666667E+009;1.623283773660660E-001;-5.129096657037735E-002;-2.254480496048927E-003;-2.463773591443896E-003;
2.414333333333334E+009;1.620170921087265E-001;-5.218251794576645E-002;-2.161392243579030E-003;-2.424404257908464E-003;
2.414500000000000E+009;1.618053615093231E-001;-5.323789268732071E-002;-2.393065020442009E-003;-2.235109684988856E-003;
2.414666666666667E+009;1.613321155309677E-001;-5.418082699179649E-002;-2.386882668361068E-003;-2.083186525851488E-003;
2.414833333333334E+009;1.611982285976410E-001;-5.521450936794281E-002;-2.603319939225912E-003;-2.143891295418143E-003;
2.415000000000000E+009;1.609123647212982E-001;-5.630446597933769E-002;-2.617450198158622E-003;-1.909220125526190E-003;
2.415166666666667E+009;1.606519222259522E-001;-5.736221745610237E-002;-2.604110632091761E-003;-1.625553355552256E-003;
2.415333333333334E+009;1.607016324996948E-001;-5.858893319964409E-002;-2.614043420180678E-003;-1.743589760735631E-003;
2.415500000000000E+009;1.604851782321930E-001;-5.961429327726364E-002;-2.636381192132831E-003;-1.405310584232211E-003;
2.415666666666667E+009;1.601941287517548E-001;-6.078637763857842E-002;-2.601665677502751E-003;-1.496761688031256E-003;
2.415833333333334E+009;1.601309031248093E-001;-6.208320707082748E-002;-2.634892938658595E-003;-1.231857109814882E-003;
2.416000000000000E+009;1.596820801496506E-001;-6.333787739276886E-002;-2.645363798364997E-003;-1.231232658028603E-003;
2.416166666666667E+009;1.597899943590164E-001;-6.452976167201996E-002;-2.570239128544927E-003;-1.003560493700206E-003;
2.416333333333334E+009;1.595109254121780E-001;-6.575450301170349E-002;-2.404683735221624E-003;-9.621713543310762E-004;
2.416500000000000E+009;1.592333018779755E-001;-6.710421293973923E-002;-2.290788572281599E-003;-9.848767658695579E-004;
2.416666666666667E+009;1.588064730167389E-001;-6.819872558116913E-002;-2.341675106436014E-003;-9.078258881345391E-004;
2.416833333333334E+009;1.586475372314453E-001;-6.955384463071823E-002;-2.313418081030250E-003;-1.078168046660721E-003;
2.417000000000000E+009;1.581203937530518E-001;-7.062072306871414E-002;-2.472326857969165E-003;-1.062112627550960E-003;
2.417166666666667E+009;1.578678637742996E-001;-7.161673903465271E-002;-2.305740723386407E-003;-9.347834857180715E-004;
2.417333333333334E+009;1.575836092233658E-001;-7.264370471239090E-002;-2.421204233542085E-003;-9.061612072400749E-004;
2.417500000000000E+009;1.571172773838043E-001;-7.378473132848740E-002;-2.603888278827071E-003;-9.782408596947789E-004;
2.417666666666667E+009;1.569366455078125E-001;-7.455174624919891E-002;-2.527825068682432E-003;-8.289732504636049E-004;
2.417833333333334E+009;1.565812081098557E-001;-7.544872164726257E-002;-2.675459720194340E-003;-7.714191451668739E-004;
2.418000000000000E+009;1.562212705612183E-001;-7.638872414827347E-002;-2.771532628685236E-003;-7.296288385987282E-004;
2.418166666666667E+009;1.559300720691681E-001;-7.709284871816635E-002;-2.629881259053946E-003;-8.304974762722850E-004;
2.418333333333334E+009;1.558943241834641E-001;-7.801399379968643E-002;-2.670137677341700E-003;-6.262884126044810E-004;
2.418500000000000E+009;1.555539965629578E-001;-7.873056828975678E-002;-2.583447843790054E-003;-4.911902360618115E-004;
2.418666666666667E+009;1.552516371011734E-001;-7.945038378238678E-002;-2.751037245616317E-003;-4.797369474545121E-004;
2.418833333333334E+009;1.548953950405121E-001;-8.040440827608109E-002;-2.709156600758433E-003;-4.131588211748749E-004;
2.419000000000000E+009;1.544940620660782E-001;-8.097704499959946E-002;-2.597599988803268E-003;-4.072558076586574E-004;
2.419166666666667E+009;1.542088687419891E-001;-8.169269561767578E-002;-2.605083864182234E-003;-3.235992044210434E-004;
2.419333333333334E+009;1.537978202104569E-001;-8.209860324859619E-002;-2.475037239491940E-003;-3.328900493215770E-004;
2.419500000000000E+009;1.537329107522965E-001;-8.296006172895432E-002;-2.581847365945578E-003;-2.924986183643341E-004;
2.419666666666667E+009;1.533174067735672E-001;-8.357474952936173E-002;-2.713013673201203E-003;-4.690993227995932E-004;
2.419833333333334E+009;1.528282314538956E-001;-8.406924456357956E-002;-2.613644115626812E-003;-2.185205376008526E-004;
2.420000000000000E+009;1.526675075292587E-001;-8.458179980516434E-002;-2.700002165511251E-003;-5.250369431450963E-004;
2.420166666666667E+009;1.522551625967026E-001;-8.529172092676163E-002;-2.719962969422340E-003;-5.703547503799200E-004;
2.420333333333334E+009;1.519630402326584E-001;-8.580701053142548E-002;-2.988607389852405E-003;-6.386216264218092E-004;
2.420500000000000E+009;1.516235321760178E-001;-8.624299615621567E-002;-3.111075842753053E-003;-4.531390150077641E-004;
2.420666666666667E+009;1.512669324874878E-001;-8.678682148456574E-002;-3.138290019705892E-003;-3.074920387007296E-004;
2.420833333333334E+009;1.508902460336685E-001;-8.741401135921478E-002;-3.311440348625183E-003;-2.652188704814762E-004;
2.421000000000000E+009;1.504810601472855E-001;-8.808422833681107E-002;-3.419527551159263E-003;-4.006984818261117E-004;
2.421166666666667E+009;1.500931084156036E-001;-8.858025819063187E-002;-3.705675480887294E-003;-1.879490737337619E-004;
2.421333333333334E+009;1.495806574821472E-001;-8.936899900436401E-002;-3.804901614785194E-003;-1.053074374794960E-004;
2.421500000000000E+009;1.490037143230438E-001;-9.008587151765823E-002;-3.830796806141734E-003;8.982024155557156E-005;
2.421666666666667E+009;1.484290957450867E-001;-9.081344306468964E-002;-4.097346216440201E-003;3.938507288694382E-004;
2.421833333333334E+009;1.480003148317337E-001;-9.132295101881027E-002;-4.007268697023392E-003;4.848673415835947E-004;
2.422000000000000E+009;1.473230272531509E-001;-9.210859239101410E-002;-4.119476769119501E-003;8.042934932745993E-004;
2.422166666666667E+009;1.466389298439026E-001;-9.305743128061295E-002;-4.268662538379431E-003;1.033899141475558E-003;
2.422333333333334E+009;1.462471485137940E-001;-9.364229440689087E-002;-4.214119631797075E-003;1.306728110648692E-003;
2.422500000000000E+009;1.453868597745895E-001;-9.431635588407517E-002;-4.419193603098393E-003;1.811055466532707E-003;
2.422666666666667E+009;1.448564082384110E-001;-9.511827677488327E-002;-4.310475196689367E-003;2.054624026641250E-003;
2.422833333333334E+009;1.442264616489410E-001;-9.599604457616806E-002;-4.196413792669773E-003;2.246968680992723E-003;
2.423000000000000E+009;1.434680819511414E-001;-9.676931798458099E-002;-4.067945759743452E-003;2.613203832879663E-003;
2.423166666666667E+009;1.428153961896896E-001;-9.779758751392365E-002;-3.907253965735436E-003;3.056426066905260E-003;
2.423333333333334E+009;1.422347873449326E-001;-9.858131408691406E-002;-3.625450888648629E-003;3.192830132320523E-003;
2.423500000000000E+009;1.416188031435013E-001;-9.949555248022080E-002;-3.348193364217877E-003;3.354137064889073E-003;
2.423666666666667E+009;1.407925784587860E-001;-1.005099192261696E-001;-3.162979148328304E-003;3.750331234186888E-003;
2.423833333333334E+009;1.403719633817673E-001;-1.014125943183899E-001;-2.866064431145787E-003;3.867213847115636E-003;
2.424000000000000E+009;1.394482403993607E-001;-1.022993847727776E-001;-2.566585550084710E-003;3.977348562330008E-003;
2.424166666666667E+009;1.388496905565262E-001;-1.033377051353455E-001;-2.314969664439559E-003;3.985255025327206E-003;
2.424333333333334E+009;1.383685469627380E-001;-1.040352731943131E-001;-2.017118269577622E-003;4.132995381951332E-003;
2.424500000000000E+009;1.376915574073792E-001;-1.051241233944893E-001;-1.724679255858064E-003;3.953920677304268E-003;
2.424666666666667E+009;1.371493190526962E-001;-1.059481576085091E-001;-1.515671494416893E-003;4.021000582724810E-003;
2.424833333333334E+009;1.363413482904434E-001;-1.070163846015930E-001;-1.332396408542991E-003;4.006374627351761E-003;
2.425000000000000E+009;1.358850151300430E-001;-1.080214083194733E-001;-1.196784549392760E-003;3.972973674535751E-003;
2.425166666666667E+009;1.351491957902908E-001;-1.090437099337578E-001;-9.111156687140465E-004;3.823637729510665E-003;
2.425333333333334E+009;1.348312050104141E-001;-1.099370419979096E-001;-8.228862425312400E-004;3.708891337737441E-003;
2.425500000000000E+009;1.343708485364914E-001;-1.111284866929054E-001;-6.187452236190438E-004;3.660945221781731E-003;
2.425666666666667E+009;1.336689591407776E-001;-1.120753139257431E-001;-3.816999960690737E-004;3.758612554520369E-003;
2.425833333333334E+009;1.332051157951355E-001;-1.131074875593185E-001;-5.998146662022919E-005;3.523242892697454E-003;
2.426000000000000E+009;1.327154040336609E-001;-1.141948923468590E-001;-2.026921720243990E-004;3.547988831996918E-003;
2.426166666666667E+009;1.325358301401138E-001;-1.151693388819695E-001;5.671514372806996E-005;3.582397941499949E-003;
2.426333333333334E+009;1.319715976715088E-001;-1.159702464938164E-001;1.628871104912832E-004;3.186496207490563E-003;
2.426500000000000E+009;1.316069215536118E-001;-1.168549656867981E-001;3.832498041447252E-004;3.139753127470613E-003;
2.426666666666667E+009;1.312955170869827E-001;-1.177574098110199E-001;3.471255477052182E-004;3.258561482653022E-003;
2.426833333333334E+009;1.308786273002625E-001;-1.186929568648338E-001;6.589448894374073E-004;2.971146721392870E-003;
2.427000000000000E+009;1.303731501102448E-001;-1.195628345012665E-001;5.196027341298759E-004;2.894920762628317E-003;
2.427166666666667E+009;1.300269067287445E-001;-1.202123537659645E-001;7.294145179912448E-004;2.719603013247252E-003;
2.427333333333334E+009;1.296824514865875E-001;-1.209636032581329E-001;6.625081878155470E-004;2.712071873247623E-003;
2.427500000000000E+009;1.293470561504364E-001;-1.216690838336945E-001;7.604086422361434E-004;2.483432181179524E-003;
2.427666666666667E+009;1.289334297180176E-001;-1.225352138280869E-001;7.652741624042392E-004;2.568797674030066E-003;
