# Hz S RI R 
2400000000.0000000000 0.160426601767540005782919365629 0.058633044362068183208425153907 0.002739980816841125921962118994 -0.000275645346846431493759155273 0 0 0 0 
2400166666.6666665077 0.160580947995185907561932481258 0.057249732315540306781809221093 0.002499162452295422987696982275 -0.000799989211373031139373779297 0 0 0 0 
2400333333.3333334923 0.160515159368514986892861884371 0.055418897420167922973632812500 0.002356778364628552956822060693 -0.000432057335274294018745422363 0 0 0 0 
2400500000.0000000000 0.160829514265060397049111884371 0.053656540811061859130859375000 0.002324524335563182830810546875 -0.000362889870302751714557093488 0 0 0 0 
2400666666.6666665077 0.160689324140548706054687500000 0.051845099776983261108398437500 0.002537197200581430955174111475 -0.000453239132184535319178980695 0 0 0 0 
2400833333.3333334923 0.160924136638641412933026231258 0.050204228609800338745117187500 0.002529401332139968872070312500 -0.000408846128266304677158909930 0 0 0 0 
2401000000.0000000000 0.160956308245658902267294365629 0.048244714736938476562500000000 0.002531113568693398995640420068 -0.000304669549223035573959350586 0 0 0 0 
2401166666.6666665077 0.160992175340652493575888115629 0.046216048300266272808034528907 0.002553590573370457129237509619 -0.000227505181101150810718536377 0 0 0 0 
2401333333.3333334923 0.161256283521652193924111884371 0.044438287615776062011718750000 0.002666361862793564796447753906 -0.000318216567393392324447631836 0 0 0 0 
2401500000.0000000000 0.161758035421371487716513115629 0.042559031397104263305664062500 0.002737947506830095811131142725 -0.000161720294272527098655700684 0 0 0 0 
2401666666.6666665077 0.161823004484176607986611884371 0.040818259119987487792968750000 0.002705127932131290002110146631 -0.000183554206159897202819270001 0 0 0 0 
2401833333.3333334923 0.162221521139144897460937500000 0.038874439895153052593190778907 0.002867389004677534103393554688 -0.000168487196788191795349121094 0 0 0 0 
2402000000.0000000000 0.162345916032791109939736884371 0.037132073193788528442382812500 0.002939800499007105827331542969 -0.000306957546854391694068908691 0 0 0 0 
2402166666.6666665077 0.162869811058044405838174384371 0.035123199224472052837331403907 0.003067031502723693847656250000 -0.000325959816109389120906275616 0 0 0 0 
2402333333.3333334923 0.163238048553466796875000000000 0.033579342067241668701171875000 0.002946983091533184051513671875 -0.000355904194293543696403503418 0 0 0 0 
2402500000.0000000000 0.163825392723083496093750000000 0.032035905867815017700195312500 0.002990864450111985206604003906 -0.000314884615363553220599573956 0 0 0 0 
2402666666.6666665077 0.164358749985694913009481865629 0.030397130176424980163574218750 0.003206804627552628950831747900 -0.000524488918017596006393432617 0 0 0 0 
2402833333.3333334923 0.164896115660667391678018134371 0.028918845579028129577636718750 0.003175555029883981184718466650 -0.000700629956554621458053588867 0 0 0 0 
2403000000.0000000000 0.165672644972801208496093750000 0.027431415393948558462122733204 0.003437689039856195016148232568 -0.000663730839733034372329711914 0 0 0 0 
2403166666.6666665077 0.166114464402198791503906250000 0.025957947596907619131068045704 0.003423684742301702933070517432 -0.000734674162231385707855224609 0 0 0 0 
2403333333.3333334923 0.166938558220863286774005018742 0.024545598775148391723632812500 0.003454087302088737921473837744 -0.000887717120349407196044921875 0 0 0 0 
2403500000.0000000000 0.167584046721458407303018134371 0.023125153034925460815429687500 0.003471484407782555060145712744 -0.001104801660403609058977436597 0 0 0 0 
2403666666.6666665077 0.168320000171661404708700615629 0.021780369803309440612792968750 0.003526029409840703010559082031 -0.001167671754956244988682412256 0 0 0 0 
2403833333.3333334923 0.169061332941055297851562500000 0.020651940256357189523717110546 0.003564387094229460196254111182 -0.001229630433954298929927206885 0 0 0 0 
2404000000.0000000000 0.169736087322235107421875000000 0.019496258348226550710657889454 0.003695412538945674896240234375 -0.001447930349968373992322612231 0 0 0 0 
2404166666.6666665077 0.170530945062637301345986884371 0.018513821065425869333287423046 0.003783819265663623809814453125 -0.001749019138514996008632040869 0 0 0 0 
2404333333.3333334923 0.171260058879852294921875000000 0.017384633421897891653040701954 0.003505642293021082878112792969 -0.001763638458214700005174946362 0 0 0 0 
2404500000.0000000000 0.171870961785316495040731865629 0.016395688056945800781250000000 0.003645449411123991012573242188 -0.002003406872972846031188964844 0 0 0 0 
2404666666.6666665077 0.172571092844009399414062500000 0.015572709962725639343261718750 0.003528206376358867125270224463 -0.002267759060487151145935058594 0 0 0 0 
2404833333.3333334923 0.173299178481101989746093750000 0.014807851053774360311487967579 0.003371934872120618820190429688 -0.002266117371618748144862509619 0 0 0 0 
2405000000.0000000000 0.174086377024650601486044365629 0.013820317573845389974573905079 0.003272962756454945044276572119 -0.002464337274432181878330849756 0 0 0 0 
2405166666.6666665077 0.174665272235870389083700615629 0.013179373927414420736292655079 0.003219508798792957825901650537 -0.002519138855859636826756142725 0 0 0 0 
2405333333.3333334923 0.175299271941184997558593750000 0.012392255477607250213623046875 0.003107860684394835992100381006 -0.002458401490002870993373251807 0 0 0 0 
2405500000.0000000000 0.175834581255912808517294365629 0.011890004388988019770612147852 0.002906459383666514916660927881 -0.002821933478116989135742187500 0 0 0 0 
2405666666.6666665077 0.176334038376808194259481865629 0.011338266544044019526471522852 0.002620971528813242912292480469 -0.002821316709741950035095214844 0 0 0 0 
2405833333.3333334923 0.176740795373916598220986884371 0.011000297032296659296979335352 0.002776170615106821060180664062 -0.003013647627085446877720498193 0 0 0 0 
2406000000.0000000000 0.177166968584060696700888115629 0.010368885472416879481305507227 0.002646439475938677787780761719 -0.003071900922805070877075195312 0 0 0 0 
2406166666.6666665077 0.177495568990707397460937500000 0.010123581625521179544469063671 0.002544769784435629844665527344 -0.003124502487480639977696084131 0 0 0 0 
2406333333.3333334923 0.177836254239082308670205634371 0.009623276069760322570800781250 0.002408602973446249961853027344 -0.003025075886398553848266601562 0 0 0 0 
2406500000.0000000000 0.178146541118621798416299384371 0.009270771406590938568115234375 0.002119490643963218168971396338 -0.003220992628484963937046670068 0 0 0 0 
2406666666.6666665077 0.178222283720970209319744981258 0.008844753727316856384277343750 0.002282402478158473968505859375 -0.003242414211854339079615927588 0 0 0 0 
2406833333.3333334923 0.178510665893554687500000000000 0.008333715610206127166748046875 0.002328216563910245895385742188 -0.003316424088552594184875488281 0 0 0 0 
2407000000.0000000000 0.178522035479545593261718750000 0.007911811582744121551513671875 0.001998580526560544967651367188 -0.003328488441184163093566894531 0 0 0 0 
2407166666.6666665077 0.178584739565849304199218750000 0.007378289010375738143920898438 0.001773428986780345006230019678 -0.003244675928726791901829384912 0 0 0 0 
2407333333.3333334923 0.178519472479820306975994981258 0.006912181619554758071899414062 0.001781712402589618942858051831 -0.003322830656543374061584472656 0 0 0 0 
2407500000.0000000000 0.178567603230476407150106865629 0.006506245117634534835815429688 0.001806338550522923903224326025 -0.003427134361118077798130654443 0 0 0 0 
2407666666.6666665077 0.178367614746093805511151231258 0.005808846559375525388235761426 0.001765137421898544051526713794 -0.003467462491244078116175986182 0 0 0 0 
2407833333.3333334923 0.177968248724937411209268134371 0.005160165484994649887084960938 0.001402435358613729910609579932 -0.003437551436945796012878417969 0 0 0 0 
2408000000.0000000000 0.177707508206367492675781250000 0.004406148102134466171264648438 0.001349368714727460904362343896 -0.003469539573416113853454589844 0 0 0 0 
2408166666.6666665077 0.177401006221771212478799384371 0.003767507150769234137294150244 0.001450385781936347918269492041 -0.003445367095991969108581542969 0 0 0 0 
2408333333.3333334923 0.177233442664146395584268134371 0.003015047637745738029479980469 0.001302071614190936088562011719 -0.003478197846561669869663857568 0 0 0 0 
2408500000.0000000000 0.176754385232925387283486884371 0.002234223764389752907993935693 0.001217564218677579922917031396 -0.003473914461210370063781738281 0 0 0 0 
2408666666.6666665077 0.176197379827499389648437500000 0.001132399891503155014635395581 0.001104991766624153094050742041 -0.003366735065355896949768066406 0 0 0 0 
2408833333.3333334923 0.175615310668945312500000000000 0.000214662752114236409037989484 0.001014018547721206925035786206 -0.003519415855407714843750000000 0 0 0 0 
2409000000.0000000000 0.175174146890640286544638115629 -0.000841475557535886764526367188 0.001016233349218965010402060400 -0.003673519939184188842773437500 0 0 0 0 
2409166666.6666665077 0.174663811922073392013388115629 -0.001869957544840872070909809644 0.001014145091176033020019531250 -0.003449137089774012999293661963 0 0 0 0 
2409333333.3333334923 0.174331262707710293868856865629 -0.003188760951161385016200400244 0.000913647527340799570083618164 -0.003419481450691819190979003906 0 0 0 0 
2409500000.0000000000 0.173688828945159912109375000000 -0.004666156601160764694213867188 0.000560049724299460649490356445 -0.003440447384491562843322753906 0 0 0 0 
2409666666.6666665077 0.173101767897605895996093750000 -0.005704511422663927078247070312 0.000691835128236562013626098633 -0.003431005170568823814392089844 0 0 0 0 
2409833333.3333334923 0.172482699155807495117187500000 -0.007059642113745213422293378613 0.000796839944086968898773193359 -0.003432861296460032896754599463 0 0 0 0 
2410000000.0000000000 0.172030568122863797286825615629 -0.008605145849287509918212890625 0.000677846954204142093658447266 -0.003340514842420815987827920068 0 0 0 0 
2410166666.6666665077 0.171569481492042513748330634371 -0.009976980276405811309814453125 0.000564809481147676706314086914 -0.003401245456188917160034179688 0 0 0 0 
2410333333.3333334923 0.171059012413024902343750000000 -0.011697683483362199610700038477 0.000460939045296981876522618427 -0.003299808362498878998997353662 0 0 0 0 
2410500000.0000000000 0.170692622661590603927450615629 -0.013314574025571349752405936329 0.000502779206726700067520141602 -0.003415889805182815031764365088 0 0 0 0 
2410666666.6666665077 0.170111998915672302246093750000 -0.015012077055871490133265311329 0.000418288545915857011645716534 -0.003437141655012965202331542969 0 0 0 0 
2410833333.3333334923 0.169904679059982299804687500000 -0.016589095816016200674036795704 0.000430625455919653177261352539 -0.003483077045530080795288085938 0 0 0 0 
2411000000.0000000000 0.169537678360938998123330634371 -0.018346630036830898630162423046 0.000475974549772217923968714581 -0.003446784568950533866882324219 0 0 0 0 
2411166666.6666665077 0.169104114174842806717080634371 -0.020210018381476398813267891796 0.000452557549579069018363952637 -0.003569902386516333060023642432 0 0 0 0 
2411333333.3333334923 0.169061124324798611739950615629 -0.022007752209901809692382812500 0.000533533864654600620269775391 -0.003588606137782334847691201318 0 0 0 0 
2411500000.0000000000 0.168767720460891695877236884371 -0.023829016834497448312779610546 0.000396243791328743100166320801 -0.003613325534388422966003417969 0 0 0 0 
2411666666.6666665077 0.168705686926841708084268134371 -0.025734048336744308471679687500 0.000350541435182094573974609375 -0.003753270953893661932704306494 0 0 0 0 
2411833333.3333334923 0.168741732835769708831463731258 -0.027422970160841938364049141796 0.000538960914127528667449951172 -0.003621388459578156904933310400 0 0 0 0 
2412000000.0000000000 0.168671220541000393966513115629 -0.029333567246794700622558593750 0.000452900596428662484318333759 -0.003861186793074011802673339844 0 0 0 0 
2412166666.6666665077 0.168631404638290405273437500000 -0.031236819922924038278599923046 0.000381749501684680581092834473 -0.003968171309679746627807617188 0 0 0 0 
2412333333.3333334923 0.168938413262367304046307481258 -0.032932747155427932739257812500 0.000222295377170667106479090558 -0.003906029276549816131591796875 0 0 0 0 
2412500000.0000000000 0.168907329440116910079794365629 -0.034592375159263610839843750000 0.000258276588283479213714599609 -0.004178951494395732879638671875 0 0 0 0 
2412666666.6666665077 0.169130161404609707931356865629 -0.036653924733400351787526716407 0.000108177497168071595117291861 -0.004319183528423309326171875000 0 0 0 0 
2412833333.3333334923 0.169444099068641690353231865629 -0.038339804857969277118723283593 -0.000054261436162050806660244601 -0.004615426529198884963989257812 0 0 0 0 
2413000000.0000000000 0.169834658503532409667968750000 -0.040109809488058090209960937500 -0.000273698271485045606463831769 -0.004572016187012195587158203125 0 0 0 0 
2413166666.6666665077 0.170021533966064508636151231258 -0.041720736771821982646901716407 -0.000270803924649953787952977313 -0.004581138025969266891479492188 0 0 0 0 
2413333333.3333334923 0.170311942696571405608807481258 -0.043369963765144348144531250000 -0.000533758779056370258331298828 -0.004827138502150774002075195312 0 0 0 0 
2413500000.0000000000 0.170392945408821105957031250000 -0.044957891106605529785156250000 -0.000820478249806910753250122070 -0.004819261375814676284790039062 0 0 0 0 
2413666666.6666665077 0.170998215675354003906250000000 -0.046421419829130172729492187500 -0.000868974078912287950515747070 -0.004836129490286111831665039062 0 0 0 0 
2413833333.3333334923 0.171416193246841402908486884371 -0.047898191958665847778320312500 -0.001255292911082505962969135815 -0.004940978717058897018432617188 0 0 0 0 
2414000000.0000000000 0.171639755368232699295205634371 -0.049267847090959548950195312500 -0.001499976613558829047559428638 -0.004895893391221761703491210938 0 0 0 0 
2414166666.6666665077 0.172352641820907592773437500000 -0.050513181835412979125976562500 -0.001576437032781540913822793115 -0.005195288918912410736083984375 0 0 0 0 
2414333333.3333334923 0.172650530934333801269531250000 -0.051803633570671081542968750000 -0.001889916020445526079890585791 -0.005121861118823289871215820312 0 0 0 0 
2414500000.0000000000 0.173259124159812899490518134371 -0.052857637405395507812500000000 -0.002124896971508861021754599463 -0.004973319824784994125366210938 0 0 0 0 
2414666666.6666665077 0.173570334911346407791299384371 -0.053814791142940521240234375000 -0.002427429426461458206176757812 -0.005058853887021541595458984375 0 0 0 0 
2414833333.3333334923 0.173890843987464904785156250000 -0.054857119917869567871093750000 -0.002827021759003400802612304688 -0.005087943747639656066894531250 0 0 0 0 
2415000000.0000000000 0.174044921994209289550781250000 -0.055603254586458213115651716407 -0.002894058357924222946166992188 -0.004754430148750543594360351562 0 0 0 0 
2415166666.6666665077 0.174446344375610407073651231258 -0.056575492024421691894531250000 -0.003239982994273304939270019531 -0.004813605919480323791503906250 0 0 0 0 
2415333333.3333334923 0.174817264080047607421875000000 -0.057304017245769500732421875000 -0.003357912180945277214050292969 -0.004760587122291327390188886426 0 0 0 0 
2415500000.0000000000 0.175101503729820306975994981258 -0.057847499847412109375000000000 -0.003517083590850234031677246094 -0.004437155090272426605224609375 0 0 0 0 
2415666666.6666665077 0.175289407372474698165731865629 -0.058456517755985260009765625000 -0.003813329385593533949611044775 -0.004416055046021938323974609375 0 0 0 0 
2415833333.3333334923 0.175582066178321810623330634371 -0.059119991958141326904296875000 -0.004002967383712530136108398438 -0.004192324820905923843383789062 0 0 0 0 
2416000000.0000000000 0.175425469875335693359375000000 -0.059557735919952392578125000000 -0.004120917990803718566894531250 -0.004152449779212474822998046875 0 0 0 0 
2416166666.6666665077 0.175564378499984713455361884371 -0.059908203780651092529296875000 -0.004525456111878156661987304688 -0.003911329433321952819824218750 0 0 0 0 
2416333333.3333334923 0.175554022192954989334268134371 -0.060309499502182006835937500000 -0.004582731053233146667480468750 -0.003514537354931234879734658350 0 0 0 0 
2416500000.0000000000 0.175408661365509005447549384371 -0.060764566063880920410156250000 -0.004766843747347593307495117188 -0.003515547607094049887416220557 0 0 0 0 
2416666666.6666665077 0.175181880593299893478231865629 -0.060951769351959228515625000000 -0.005036362446844577789306640625 -0.003306930186226963996887207031 0 0 0 0 
2416833333.3333334923 0.175195559859275790115518134371 -0.061497993767261512065847028907 -0.005179665517061948776245117188 -0.003051854437217115922215127100 0 0 0 0 
2417000000.0000000000 0.174597114324569702148437500000 -0.061774034053087227558176408593 -0.005165391601622104644775390625 -0.002758522285148500962498330225 0 0 0 0 
2417166666.6666665077 0.174317404627799987792968750000 -0.062049102038145072246511091407 -0.005219262558966875076293945312 -0.002511102706193923950195312500 0 0 0 0 
2417333333.3333334923 0.173757448792457608321981865629 -0.062018137425184249877929687500 -0.005417575594037771224975585938 -0.002376648830249906019923544775 0 0 0 0 
2417500000.0000000000 0.173190161585807800292968750000 -0.062589183449745178222656250000 -0.005624436307698488235473632812 -0.001974393147975205941441201318 0 0 0 0 
2417666666.6666665077 0.172708779573440607268963731258 -0.062784552574157714843750000000 -0.005631941370666027069091796875 -0.001861567725427448966382670825 0 0 0 0 
2417833333.3333334923 0.171941086649894686599893134371 -0.062983393669128417968750000000 -0.005623514764010906219482421875 -0.001511983573436737060546875000 0 0 0 0 
2418000000.0000000000 0.171071916818618802169638115629 -0.063434787094593048095703125000 -0.005785857792943716049194335938 -0.001288553932681679942487407153 0 0 0 0 
2418166666.6666665077 0.170323431491851806640625000000 -0.063640937209129333496093750000 -0.005784163717180491361136152051 -0.001067577162757515907287597656 0 0 0 0 
2418333333.3333334923 0.169678449630737304687500000000 -0.064130552113056182861328125000 -0.005707151256501674652099609375 -0.000963397207669913768768310547 0 0 0 0 
2418500000.0000000000 0.168747410178184509277343750000 -0.064529947936534881591796875000 -0.005809290334582328796386718750 -0.000677908770740032196044921875 0 0 0 0 
2418666666.6666665077 0.167743951082229586502236884371 -0.065072603523731231689453125000 -0.005757050123065710067749023438 -0.000346203130902722477912902832 0 0 0 0 
2418833333.3333334923 0.166577890515327509124432481258 -0.065557770431041717529296875000 -0.005780122242867946624755859375 -0.000100324432423803995974125047 0 0 0 0 
2419000000.0000000000 0.165445670485496493240518134371 -0.066065803170204162597656250000 -0.005702495109289884567260742188 0.000196860855794511708334246225 0 0 0 0 
2419166666.6666665077 0.164516970515251187423544365629 -0.066752046346664428710937500000 -0.005660858936607837677001953125 0.000380428158678114414215087891 0 0 0 0 
2419333333.3333334923 0.163250982761383112151776231258 -0.067260459065437316894531250000 -0.005609547719359397888183593750 0.000528677832335233688354492188 0 0 0 0 
2419500000.0000000000 0.162286892533302307128906250000 -0.068154029548168182373046875000 -0.005394665990024805068969726562 0.000744700082577764987945556641 0 0 0 0 
2419666666.6666665077 0.161267742514610290527343750000 -0.069099768996238708496093750000 -0.005421132314950227737426757812 0.000869256560690701007843017578 0 0 0 0 
2419833333.3333334923 0.159978002309799194335937500000 -0.069727167487144470214843750000 -0.005422834306955338391775800488 0.001149633550085126919987343896 0 0 0 0 
