# Hz S RI R 50
2400000000.0000000000 0.155240088701248196700888115629 0.110777556896209702919087192186 -0.001427740091457962989807128906 0.002742708660662173791172646631 0 0 0 0 
2400166666.6666665077 0.154661595821380587478799384371 0.108419261872768402099609375000 -0.001270915614441036961199116284 0.002633763710036873817443847656 0 0 0 0 
2400333333.3333334923 0.154532536864280700683593750000 0.106395401060581193397602817186 -0.001056930050253868103027343750 0.002758470596745609803440713037 0 0 0 0 
2400500000.0000000000 0.154189407825469998458700615629 0.103731617331504794021768134371 -0.001102374517358839945552206885 0.002834531944245100021362304688 0 0 0 0 
2400666666.6666665077 0.154075458645820589920205634371 0.101080052554607405235209682814 -0.000948840577621012926101684570 0.002666904125362635092494345557 0 0 0 0 
2400833333.3333334923 0.153859481215476989746093750000 0.098486617207527160644531250000 -0.000732807966414839029312133789 0.002873016288504004912135458838 0 0 0 0 
2401000000.0000000000 0.153626054525375393966513115629 0.095411054790019989013671875000 -0.000588405586313456296920776367 0.002776682609692215919494628906 0 0 0 0 
2401166666.6666665077 0.153426021337509210784588731258 0.092633336782455444335937500000 -0.000482776958961039781570434570 0.002841471694409846825840615381 0 0 0 0 
2401333333.3333334923 0.153666764497757013518963731258 0.089638769626617431640625000000 -0.000424810597905889207690638409 0.002946892287582159042358398438 0 0 0 0 
2401500000.0000000000 0.153659939765930203536825615629 0.086742460727691650390625000000 -0.000339801801601424813270568848 0.002915482968091965155360556494 0 0 0 0 
2401666666.6666665077 0.153873533010482788085937500000 0.083652213215827941894531250000 -0.000193676751223392811700543814 0.002955444389954208894016884912 0 0 0 0 
2401833333.3333334923 0.154221296310424804687500000000 0.080857649445533752441406250000 0.000004463992809178307652473450 0.002975909039378166198730468750 0 0 0 0 
2402000000.0000000000 0.154915034770965603927450615629 0.077891767024993896484375000000 0.000090562076366040855646133423 0.003173213684931397004368447412 0 0 0 0 
2402166666.6666665077 0.155539363622665405273437500000 0.074910975992679595947265625000 0.000301625550491735284954625262 0.003044372191652656035182333838 0 0 0 0 
2402333333.3333334923 0.156350836157798794845419365629 0.072104275226593017578125000000 0.000553105608560144901275634766 0.002923284191638230843784951318 0 0 0 0 
2402500000.0000000000 0.157374814152717590332031250000 0.069457218050956726074218750000 0.000759225338697433471679687500 0.003125056158751248879673623193 0 0 0 0 
2402666666.6666665077 0.158362686634063692947549384371 0.066443763673305511474609375000 0.000952776405028998851776123047 0.002967557869851589202880859375 0 0 0 0 
2402833333.3333334923 0.159552976489067105392294365629 0.063875287771224975585937500000 0.001145832706242799975751567310 0.002951486967504024939296103369 0 0 0 0 
2403000000.0000000000 0.160926118493080111404580634371 0.061425667256116867065429687500 0.001419978216290473937988281250 0.002921923296526073975803994287 0 0 0 0 
2403166666.6666665077 0.162688821554183987716513115629 0.059023946523666381835937500000 0.001704970607534050941467285156 0.002581534208729863166809082031 0 0 0 0 
2403333333.3333334923 0.164105653762817410568075615629 0.056503478437662131572682966407 0.001969689270481466813328408350 0.002603888511657714843750000000 0 0 0 0 
2403500000.0000000000 0.165870621800422696212606865629 0.054202668368816382671315778907 0.002219177549704908890965127100 0.002225470263510942892787314307 0 0 0 0 
2403666666.6666665077 0.167744025588035611251669365629 0.051957476884126663208007812500 0.002331644995138049125671386719 0.001868655788712203936335898291 0 0 0 0 
2403833333.3333334923 0.169456735253334100921307481258 0.050071991980075843120534528907 0.002312187338247894807102822412 0.001644296338781714005711220850 0 0 0 0 
2404000000.0000000000 0.170966044068336486816406250000 0.048074942082166671752929687500 0.002456169109791516824009560693 0.001275971997529268047930073315 0 0 0 0 
2404166666.6666665077 0.172973081469535799881143134371 0.046413674950599670410156250000 0.002341012703254818916320800781 0.000884101202245801687240600586 0 0 0 0 
2404333333.3333334923 0.174726843833923312088174384371 0.044663317501544952392578125000 0.002311410848051310019252158057 0.000709570769686251878738403320 0 0 0 0 
2404500000.0000000000 0.176445990800857488434161268742 0.043061021715402603149414062500 0.002356573473662137985229492188 0.000334688811562955379486083984 0 0 0 0 
2404666666.6666665077 0.178389832377433804611044365629 0.041848216205835342407226562500 0.002014922210946679115295410156 0.000112712157715577605083742685 0 0 0 0 
2404833333.3333334923 0.180281728506088312347088731258 0.040607556700706481933593750000 0.001842080499045551040052104419 -0.000189039783435873687267303467 0 0 0 0 
2405000000.0000000000 0.181740701198577908614950615629 0.039844948798418051982839216407 0.001727019320242106914520263672 -0.000283632340142503380775451660 0 0 0 0 
2405166666.6666665077 0.183448955416679410079794365629 0.039140380918979651714284528907 0.001447817543521523909327841650 -0.000381867546821013092994689941 0 0 0 0 
2405333333.3333334923 0.185143128037452697753906250000 0.038536589592695243144948591407 0.001263470854610204913495707935 -0.000320769351674243807792663574 0 0 0 0 
2405500000.0000000000 0.186884790658950805664062500000 0.038016330450773239135742187500 0.000909830676391720771789550781 -0.000466857658466324210166931152 0 0 0 0 
2405666666.6666665077 0.188455373048782404143963731258 0.037591312080621719360351562500 0.000953607494011521339416503906 -0.000485461176140233874320983887 0 0 0 0 
2405833333.3333334923 0.189936667680740411956463731258 0.037505295127630226825754533593 0.000748856517020612955093383789 -0.000460905954241752624511718750 0 0 0 0 
2406000000.0000000000 0.191276535391807611663494981258 0.037245828658342361450195312500 0.000622355495579540729522705078 -0.000428203493356704711914062500 0 0 0 0 
2406166666.6666665077 0.192479461431503295898437500000 0.037174131721258163452148437500 0.000433669658377766609191894531 -0.000468810350866988301277160645 0 0 0 0 
2406333333.3333334923 0.193687930703163202483807481258 0.037284426391124732280690778907 0.000270008109509944915771484375 -0.000436085916589945608943384991 0 0 0 0 
2406500000.0000000000 0.194787710905075100997763115629 0.037362366914749152446706403907 0.000113530688395257998578487257 -0.000381246296456083709567469464 0 0 0 0 
2406666666.6666665077 0.195523530244827298263388115629 0.037698809057474143291432966407 0.000097582786111161112785339355 -0.000379489210899919325679224835 0 0 0 0 
2406833333.3333334923 0.196385726332664489746093750000 0.037831284105777740478515625000 -0.000065877480665221810340881348 -0.000454226916190236806869506836 0 0 0 0 
2407000000.0000000000 0.196946337819099398513955634371 0.038256116211414337158203125000 -0.000346195854945108294486999512 -0.000285769696347415501445216046 0 0 0 0 
2407166666.6666665077 0.197508275508880587478799384371 0.038299772888422012329101562500 -0.000394600298022851402133387433 -0.000281227927189320325851440430 0 0 0 0 
2407333333.3333334923 0.197583705186843899825888115629 0.038809522986412048339843750000 -0.000568503630347549915313720703 -0.000197502173250541090965270996 0 0 0 0 
2407500000.0000000000 0.197725042700767489334268134371 0.039142429828643798828125000000 -0.000456267414847388917773646222 -0.000030000695915077809581552812 0 0 0 0 
2407666666.6666665077 0.197919785976409912109375000000 0.039270151406526572490651716407 -0.000670629728119820356369018555 0.000041862014768412336707115173 0 0 0 0 
2407833333.3333334923 0.197517380118370111663494981258 0.039621278643608093261718750000 -0.000853941543027758598327636719 0.000166002602782100411966600961 0 0 0 0 
2408000000.0000000000 0.197560042142867986481036268742 0.039705947041511542583425153907 -0.000967314990703016519546508789 0.000256964849540963823169154034 0 0 0 0 
2408166666.6666665077 0.197036936879157992263955634371 0.039837807416915886615793596093 -0.000856756640132516622543334961 0.000418377516325563192367553711 0 0 0 0 
2408333333.3333334923 0.196645736694335909744424384371 0.039669122546911239624023437500 -0.001111127319745718999149941553 0.000670198409352451562881469727 0 0 0 0 
2408500000.0000000000 0.195869535207748413085937500000 0.039699055254459381103515625000 -0.001027514925226568958879780347 0.000666559091769158840179443359 0 0 0 0 
2408666666.6666665077 0.195322141051292391678018134371 0.039467196911573410034179687500 -0.001038436661474406936048198169 0.000990413827821612358093261719 0 0 0 0 
2408833333.3333334923 0.194659620523452786544638115629 0.039181832224130630493164062500 -0.001043912139721214988111186450 0.001160262268967926935908652197 0 0 0 0 
2409000000.0000000000 0.193617433309555109222088731258 0.038532458245754241943359375000 -0.000979393138550221920013427734 0.001354098436422646045684814453 0 0 0 0 
2409166666.6666665077 0.192536070942878695388955634371 0.037746950984001159667968750000 -0.000892126990947872400283813477 0.001492053619585931084276508862 0 0 0 0 
2409333333.3333334923 0.191522642970085088531817518742 0.037261012941598892211914062500 -0.000741141207981854677200317383 0.001657268381677567958831787109 0 0 0 0 
2409500000.0000000000 0.190455496311187688629473768742 0.036220736801624298095703125000 -0.000655206444207578897476196289 0.001717391307465732097625732422 0 0 0 0 
2409666666.6666665077 0.189174860715866088867187500000 0.035101629793643951416015625000 -0.000516380299814045429229736328 0.002023309236392378807067871094 0 0 0 0 
2409833333.3333334923 0.188130885362625094314736884371 0.034013401716947562480886091407 -0.000351912633050233125686645508 0.002108501037582755088806152344 0 0 0 0 
2410000000.0000000000 0.186952069401741000076455634371 0.032506376504898071289062500000 -0.000246724754106253385543823242 0.002241853158921002907993935693 0 0 0 0 
2410166666.6666665077 0.185744196176528902908486884371 0.030906412750482559204101562500 -0.000133668683702126199572962628 0.002100848825648427009582519531 0 0 0 0 
2410333333.3333334923 0.184475675225257901290731865629 0.029450757429003718984583670704 -0.000010059684427687899972302284 0.002231219084933400154113769531 0 0 0 0 
2410500000.0000000000 0.183298766613006591796875000000 0.027625659480690959585169608204 0.000158399809151887893676757812 0.002173097105696796937229775537 0 0 0 0 
2410666666.6666665077 0.182280629873275812347088731258 0.025437003001570701599121093750 0.000380236160708591287762242450 0.002351752715185285048243857275 0 0 0 0 
2410833333.3333334923 0.181376084685325594803018134371 0.023290913552045818674107735546 0.000478313595522195100784301758 0.002371747978031634850742959131 0 0 0 0 
2411000000.0000000000 0.180490881204605102539062500000 0.021344939246773719787597656250 0.000581721134949475526809692383 0.002368296729400753974914550781 0 0 0 0 
2411166666.6666665077 0.179574504494667108733807481258 0.018970066681504249572753906250 0.000766663346439599990844726562 0.002527994569391012191772460938 0 0 0 0 
2411333333.3333334923 0.178696349263191195388955634371 0.016627253964543339120885079296 0.000785933167207986116409301758 0.002492228522896767096278525244 0 0 0 0 
2411500000.0000000000 0.178066983819007901290731865629 0.014068733900785449636439139454 0.001128118019551038958905864185 0.002568861003965138955357216943 0 0 0 0 
2411666666.6666665077 0.177775025367736788650674384371 0.011601076461374759674072265625 0.001170135219581424973131489331 0.002649339148774743080139160156 0 0 0 0 
2411833333.3333334923 0.177261054515838595291299384371 0.009078308939933776855468750000 0.001355451880954205989837646484 0.002648822031915187835693359375 0 0 0 0 
2412000000.0000000000 0.177175283432006808181924384371 0.006478498224169015884399414062 0.001501444494351745085475302588 0.002724329475313425064086914062 0 0 0 0 
2412166666.6666665077 0.177073463797569302657919365629 0.003944313619285821914672851562 0.001738226739689707972882914966 0.002634964417666196823120117188 0 0 0 0 
2412333333.3333334923 0.176987722516059903243856865629 0.001244291313923894925358437646 0.001952163176611066081403422778 0.002748741535469890074488974463 0 0 0 0 
2412500000.0000000000 0.177402675151825006683026231258 -0.001115967635996639945386577075 0.002261999296024442152736044775 0.002562059788033366203308105469 0 0 0 0 
2412666666.6666665077 0.177864536643028287032919365629 -0.003944049123674631118774414062 0.002436779672279953956604003906 0.002420390024781227111816406250 0 0 0 0 
2412833333.3333334923 0.178560137748718289474325615629 -0.006674689706414937973022460938 0.002686022780835628943202353369 0.002361105056479572816136025537 0 0 0 0 
2413000000.0000000000 0.179145336151123102386151231258 -0.009233556687831878662109375000 0.002999893156811594963073730469 0.002270944649353622956516884912 0 0 0 0 
2413166666.6666665077 0.179800763726234408279580634371 -0.011609791778028009587298008398 0.003231333335861564116237021338 0.002044493332505226135253906250 0 0 0 0 
2413333333.3333334923 0.181008681654930086990518134371 -0.014207818545401099813441092579 0.003496635472401977019069052588 0.001847844803705811934230185400 0 0 0 0 
2413500000.0000000000 0.181664645671844510177450615629 -0.016681659966707229614257812500 0.003679747926071286201477050781 0.001574303139932454066035605322 0 0 0 0 
2413666666.6666665077 0.182996943593025207519531250000 -0.019156228750944141042689139454 0.003701390232890843911411904443 0.001351761980913579897639609229 0 0 0 0 
2413833333.3333334923 0.184145852923393305022869981258 -0.021269761025905609130859375000 0.003953664563596248626708984375 0.000838044565171003341674804688 0 0 0 0 
2414000000.0000000000 0.185435369610786410232705634371 -0.023758023977279659616490548046 0.003982711117714644345755292676 0.000613914919085800647735595703 0 0 0 0 
2414166666.6666665077 0.186782434582710293868856865629 -0.025605488568544391286829764454 0.004148655105382204055786132812 0.000356248085154220516055506573 0 0 0 0 
2414333333.3333334923 0.187964797019958496093750000000 -0.027840966358780860900878906250 0.004151147790253162384033203125 -0.000152628606883808997556409293 0 0 0 0 
2414500000.0000000000 0.189458221197128295898437500000 -0.029563764110207561147669608204 0.004001801367849112424368573926 -0.000424050755100324804156702863 0 0 0 0 
2414666666.6666665077 0.190797254443168612381143134371 -0.031373661011457443237304687500 0.003801880870014429092407226562 -0.000660962192341685295104980469 0 0 0 0 
2414833333.3333334923 0.192232102155685397049111884371 -0.032705333083868026733398437500 0.003681418951600790023803710938 -0.000865272188093513250350952148 0 0 0 0 
2415000000.0000000000 0.193694502115249606033486884371 -0.034418288618326187133789062500 0.003500463441014289855957031250 -0.001059187343344091935398720850 0 0 0 0 
2415166666.6666665077 0.195155620574951199630575615629 -0.035543449223041527484934221093 0.003432843135669827894923544775 -0.001494583208113908984540629810 0 0 0 0 
2415333333.3333334923 0.196532264351844787597656250000 -0.036720477044582366943359375000 0.003270783228799701170680380713 -0.001586793805472552993177104419 0 0 0 0 
2415500000.0000000000 0.197960749268531799316406250000 -0.037619005888700492168386091407 0.002970158355310558839085244287 -0.001629295875318347974064492334 0 0 0 0 
2415666666.6666665077 0.199278458952903803069744981258 -0.038611255586147308349609375000 0.002855090424418448968174599756 -0.001865857047960161945940327222 0 0 0 0 
2415833333.3333334923 0.200466677546501187423544365629 -0.039328604936599731445312500000 0.002622926374897360801696777344 -0.001894787070341408035875629956 0 0 0 0 
2416000000.0000000000 0.201464071869850186446981865629 -0.040049739181995391845703125000 0.002597406273707747893092490088 -0.002029957715421915054321289062 0 0 0 0 
2416166666.6666665077 0.202497586607932988922442518742 -0.040618997067213058471679687500 0.002345888642594217820408486475 -0.002104184357449411912205361475 0 0 0 0 
2416333333.3333334923 0.203516408801078796386718750000 -0.040965985506773001934011091407 0.002139753894880414009094238281 -0.002102769911289215087890625000 0 0 0 0 
2416500000.0000000000 0.204316928982734707931356865629 -0.041246913373470313335378278907 0.001866457983851433017133403247 -0.002293609548360108895542763818 0 0 0 0 
2416666666.6666665077 0.204939812421798706054687500000 -0.041681535542011260986328125000 0.001788393943570554039598774487 -0.002258896827697753906250000000 0 0 0 0 
2416833333.3333334923 0.205378964543342590332031250000 -0.041613489389419562602956403907 0.001633636886253952980041503906 -0.002241409616544843153712607275 0 0 0 0 
2417000000.0000000000 0.205825552344322204589843750000 -0.041645348072052001953125000000 0.001357633271254599094390869141 -0.002357213059440255165100097656 0 0 0 0 
2417166666.6666665077 0.205853179097175598144531250000 -0.041527420282363891601562500000 0.001196626340970396995544433594 -0.002338359132409096197841025244 0 0 0 0 
2417333333.3333334923 0.205805376172065707107705634371 -0.041363544762134552001953125000 0.001003390992991626045824360425 -0.002222881419584155082702636719 0 0 0 0 
2417500000.0000000000 0.205888137221336392501669365629 -0.041310563683509826660156250000 0.000943671155255287885665893555 -0.002314298879355192184448242188 0 0 0 0 
2417666666.6666665077 0.205550119280815096756143134371 -0.040906459093093872070312500000 0.000556448998395353555679321289 -0.002242173301056026978733681787 0 0 0 0 
2417833333.3333334923 0.205311879515647888183593750000 -0.040529489517211907123606096093 0.000627405242994427680969238281 -0.002151438966393471197841025244 0 0 0 0 
2418000000.0000000000 0.204906523227691705901776231258 -0.040116332471370697021484375000 0.000476946879643946886062622070 -0.001991869881749153137207031250 0 0 0 0 
2418166666.6666665077 0.204212814569473294357138115629 -0.039817985147237777709960937500 0.000290813826723024303286951886 -0.002061100443825126127955771338 0 0 0 0 
2418333333.3333334923 0.203417420387268094161825615629 -0.039543922990560531616210937500 0.000251136050792411023944300519 -0.001970692304894328117370605469 0 0 0 0 
2418500000.0000000000 0.202689886093139703948651231258 -0.039412163197994232177734375000 0.000070499270805157721042633057 -0.001796256634406745000126504053 0 0 0 0 
2418666666.6666665077 0.201801359653472900390625000000 -0.039114929735660552978515625000 0.000164271332323551205083569937 -0.001747053116559982082964253003 0 0 0 0 
2418833333.3333334923 0.200540646910667391678018134371 -0.039138503372669219970703125000 0.000115069589810445904731750488 -0.001751051051542162895202636719 0 0 0 0 
2419000000.0000000000 0.199298605322837801834268134371 -0.039255097508430480957031250000 -0.000077338168921414762735366821 -0.001364707713946700096130371094 0 0 0 0 
2419166666.6666665077 0.198126345872879000564736884371 -0.039208780974149697040598283593 0.000017215457774000238964353868 -0.001350170467048883004429482568 0 0 0 0 
2419333333.3333334923 0.196689799427986200530682481258 -0.039505019783973686908762346093 -0.000033383621484972543340136869 -0.001243322971276938915252685547 0 0 0 0 
2419500000.0000000000 0.195260539650917108733807481258 -0.039803914725780487060546875000 -0.000151753600221127298757275992 -0.001079126610420644066454243237 0 0 0 0 
2419666666.6666665077 0.193517193198204012771768134371 -0.040465336292982101440429687500 -0.000046748395106988027691841125 -0.000854708487167954444885253906 0 0 0 0 
2419833333.3333334923 0.191894039511680603027343750000 -0.040857788175344467163085937500 -0.000210345271625556105941218243 -0.000724718265701085329055786133 0 0 0 0 
2420000000.0000000000 0.190168663859367398361044365629 -0.041589986532926559448242187500 -0.000138132716529071303919115610 -0.000800670706667006015777587891 0 0 0 0 
