# Hz S RI R 50
2400000000.0000000000 0.168460369110107394119424384371 0.040777176618576049804687500000 -0.003511871676892042160034179688 0.000417232076870277523994445801 0 0 0 0 
2400166666.6666665077 0.169241964817047091385049384371 0.040263403207063681865651716407 -0.003362829796969891028163290869 0.000547648931387811899185180664 0 0 0 0 
2400333333.3333334923 0.169489234685897799392861884371 0.039407305419445037841796875000 -0.003517717123031616210937500000 0.000545109214726835489273071289 0 0 0 0 
2400500000.0000000000 0.170203030109405489822549384371 0.038686539977788932109792341407 -0.003345712786540389060974121094 0.000691564753651618957519531250 0 0 0 0 
2400666666.6666665077 0.170505419373512295821981865629 0.037837985903024673461914062500 -0.003331966232508420944213867188 0.000740836199838668107986450195 0 0 0 0 
2400833333.3333334923 0.170827075839042691329794365629 0.037064887583255767822265625000 -0.003274396061897277832031250000 0.000617830548435449600219726562 0 0 0 0 
2401000000.0000000000 0.171029701828956604003906250000 0.036019131541252143169362653907 -0.003335649846121668815612792969 0.000628085166681557893753051758 0 0 0 0 
2401166666.6666665077 0.171311378479003906250000000000 0.035267252475023269653320312500 -0.003130502998828887939453125000 0.000740308605600148439407348633 0 0 0 0 
2401333333.3333334923 0.171449080109596307952557481258 0.034353446215391159057617187500 -0.003321378957480192184448242188 0.000793597835581749677658081055 0 0 0 0 
2401500000.0000000000 0.171558037400245694259481865629 0.033591479063034057617187500000 -0.003221012186259030862095498193 0.000825465365778654813766479492 0 0 0 0 
2401666666.6666665077 0.171648442745208712478799384371 0.032897539436817169189453125000 -0.003318876028060913085937500000 0.000844440597575157880783081055 0 0 0 0 
2401833333.3333334923 0.171872422099113492111044365629 0.031940296292304992675781250000 -0.003368208417668939070460654150 0.001035724999383091926574707031 0 0 0 0 
2402000000.0000000000 0.171722859144210787674111884371 0.031061707064509388315221016796 -0.003516538068652153015136718750 0.001016641617752612070796347510 0 0 0 0 
2402166666.6666665077 0.171740636229515103439169365629 0.030032437294721599924107735546 -0.003575963201001286940333701025 0.001022934331558644988416362231 0 0 0 0 
2402333333.3333334923 0.171588614583015386383380018742 0.029157118871808048593541329296 -0.003652595682069658799412392725 0.001230154884979129054425883716 0 0 0 0 
2402500000.0000000000 0.171785280108451787750567518742 0.028292447328567508352259451954 -0.003878944320604205131530761719 0.001495769130997359969495463794 0 0 0 0 
2402666666.6666665077 0.171618372201919611175213731258 0.027260957285761829721471016796 -0.003775529097765684127807617188 0.001589478459209203936933207935 0 0 0 0 
2402833333.3333334923 0.171354576945304898361044365629 0.026179667562246319162388985546 -0.003943758085370063781738281250 0.001770605682395399050471640479 0 0 0 0 
2403000000.0000000000 0.171523585915565490722656250000 0.025314098224043849599818045704 -0.003898949827998877005336142432 0.002229318488389254050013876807 0 0 0 0 
2403166666.6666665077 0.171517655253410311599893134371 0.023945925757288929330846016796 -0.003764628432691096825840615381 0.002380676101893187002894736182 0 0 0 0 
2403333333.3333334923 0.171278685331344604492187500000 0.022951224818825718271275704296 -0.003676980501040815873387002100 0.002492202678695321083068847656 0 0 0 0 
2403500000.0000000000 0.170770376920700100997763115629 0.021791169419884681701660156250 -0.003583165584132074876072548975 0.002680374542251228852512978662 0 0 0 0 
2403666666.6666665077 0.170741811394691495040731865629 0.020250547677278518676757812500 -0.003515864023938775062561035156 0.002937694545835257010218954932 0 0 0 0 
2403833333.3333334923 0.170517742633819607833700615629 0.019197542220354080200195312500 -0.003217049641534686088562011719 0.003037428250536323027369833838 0 0 0 0 
2404000000.0000000000 0.170440673828125000000000000000 0.017880465835332870483398437500 -0.003175704507157206969020224463 0.003256338648498057885410927881 0 0 0 0 
2404166666.6666665077 0.170265033841133089920205634371 0.016466682776808738708496093750 -0.003114974126219749884364462744 0.003295526606962085203883505713 0 0 0 0 
2404333333.3333334923 0.170088574290275601486044365629 0.015289375558495519810686680273 -0.002773861167952417893650673975 0.003457966260612010955810546875 0 0 0 0 
2404500000.0000000000 0.169825360178947504241619981258 0.013682502321898940694788748829 -0.002477010712027550177333212744 0.003702522255480289892909384619 0 0 0 0 
2404666666.6666665077 0.169883966445922907073651231258 0.012417017482221130025843436329 -0.002398761454969644980189658057 0.003532361704856156869175576318 0 0 0 0 
2404833333.3333334923 0.169664278626442011077557481258 0.010908646509051319467564766796 -0.002340173581615089936497353662 0.003641980234533547921421670068 0 0 0 0 
2405000000.0000000000 0.169670715928077697753906250000 0.009404390119016170501708984375 -0.002000883454456924958470009912 0.003733637975528835816624306787 0 0 0 0 
2405166666.6666665077 0.169459208846092196365518134371 0.007798097096383571624755859375 -0.001748635084368288950679160010 0.003893582383170723915100097656 0 0 0 0 
2405333333.3333334923 0.169812679290771512130575615629 0.006105620414018630981445312500 -0.001697914907708764076232910156 0.003827611682936549186706542969 0 0 0 0 
2405500000.0000000000 0.169777482748031588455361884371 0.004454033914953470230102539062 -0.001527578337118030028102255713 0.003877012757584453062770224463 0 0 0 0 
2405666666.6666665077 0.169609785079956110198651231258 0.002996265189722179932835244287 -0.001412365003488958098767924731 0.003867288585752249197718954932 0 0 0 0 
2405833333.3333334923 0.169415533542633112151776231258 0.001396373147144914107081747900 -0.001246384344995022036908793872 0.003893915098160504861118935693 0 0 0 0 
2406000000.0000000000 0.169489935040473910232705634371 -0.000443903903942555189132690430 -0.001208410132676362991333007812 0.003736043348908423943760537256 0 0 0 0 
2406166666.6666665077 0.169281780719757107833700615629 -0.001881046104244888045667338794 -0.001158342813141644001007080078 0.003735646372660994963404990088 0 0 0 0 
2406333333.3333334923 0.169396862387657193282919365629 -0.003661572700366377830505371094 -0.001033632783219218037248920972 0.003680005669593811035156250000 0 0 0 0 
2406500000.0000000000 0.169283971190452603439169365629 -0.005226777400821447372436523438 -0.001140743843279778957366943359 0.003724335459992289976832724463 0 0 0 0 
2406666666.6666665077 0.169036969542503412444744981258 -0.006797548849135637283325195312 -0.000995222711935639381408691406 0.003866245271638036207911826025 0 0 0 0 
2406833333.3333334923 0.169037342071533203125000000000 -0.008296729996800422668457031250 -0.000902691914234310388565063477 0.003809664864093064828159951318 0 0 0 0 
2407000000.0000000000 0.168928846716880798339843750000 -0.009932029992341995239257812500 -0.000615342345554381608963012695 0.003932222723960877332205487988 0 0 0 0 
2407166666.6666665077 0.169014409184455899337606865629 -0.011291997507214549673060233204 -0.000628339010290801525115966797 0.003825828200206160979029990088 0 0 0 0 
2407333333.3333334923 0.168758988380432101150674384371 -0.012768853455781940114954764454 -0.000566173694096505641937255859 0.003966307267546653747558593750 0 0 0 0 
2407500000.0000000000 0.168671220541000393966513115629 -0.013979298993945120030413242773 -0.000337380857672542279392796649 0.003964623901993036270141601562 0 0 0 0 
2407666666.6666665077 0.168634206056594904143963731258 -0.015146816149353979283342930273 -0.000279127707472071105807703839 0.004151174798607826232910156250 0 0 0 0 
2407833333.3333334923 0.168311834335327203948651231258 -0.016340699046850200998326485546 0.000063950348703656345605850220 0.004154076799750328063964843750 0 0 0 0 
2408000000.0000000000 0.168410271406173706054687500000 -0.017536310479044910776158516796 0.000233211059821769595146179199 0.004184488672763109207153320312 0 0 0 0 
2408166666.6666665077 0.168325439095497103592080634371 -0.018360871821641918527623360546 0.000373597227735444903373718262 0.004087678156793118390555097363 0 0 0 0 
2408333333.3333334923 0.168430477380752591232138115629 -0.019455391913652420043945312500 0.000555413542315363883972167969 0.003957319539040327072143554688 0 0 0 0 
2408500000.0000000000 0.168527886271476801116619981258 -0.020458607003092769277552420704 0.000792359409388154853522145959 0.004011001903563737869262695312 0 0 0 0 
2408666666.6666665077 0.168570831418037386795205634371 -0.021268399432301521301269531250 0.000751198036596179008483886719 0.003926353529095649719238281250 0 0 0 0 
2408833333.3333334923 0.168553337454795809646768134371 -0.022296948358416560781458670704 0.000999208656139671802520751953 0.003677054075524210929870605469 0 0 0 0 
2409000000.0000000000 0.168785974383354187011718750000 -0.022951167076826099050501639454 0.001201477600261569023132324219 0.003571746172383428053614951025 0 0 0 0 
2409166666.6666665077 0.169087290763855008224325615629 -0.023730333894491199148157889454 0.001145245274528861045837402344 0.003492077114060521125793457031 0 0 0 0 
2409333333.3333334923 0.169317439198494013030682481258 -0.024717239663004878652552420704 0.001191598945297301032422709888 0.003361548297107220129725790869 0 0 0 0 
2409500000.0000000000 0.169376626610755892654580634371 -0.025870097801089290273646170704 0.001260551391169429042218852466 0.003172481898218392892124795068 0 0 0 0 
2409666666.6666665077 0.169481724500656100174111884371 -0.026591803878545761108398437500 0.001393933431245387034175253760 0.003180294064804912047145224463 0 0 0 0 
2409833333.3333334923 0.169552862644195612151776231258 -0.027379203587770458566685860546 0.001357927452772855975507426685 0.003095633117482066154479980469 0 0 0 0 
2410000000.0000000000 0.169806718826294000823651231258 -0.028104400262236598623255545704 0.001326837460510432937024760669 0.002970690838992596106288290869 0 0 0 0 
2410166666.6666665077 0.169852137565612792968750000000 -0.028955323621630668640136718750 0.001384267234243452982661581885 0.002885800553485751152038574219 0 0 0 0 
2410333333.3333334923 0.169825404882431002517861884371 -0.029839044436812400817871093750 0.001451043412089348056195903247 0.002701881807297468185424804688 0 0 0 0 
2410500000.0000000000 0.169646382331848089020098768742 -0.030791450291872031475026716407 0.001460677478462458090541220557 0.002723771845921874046325683594 0 0 0 0 
2410666666.6666665077 0.169584423303604098220986884371 -0.031813777983188629150390625000 0.001397565240040421919581747900 0.002666429150849581198451376807 0 0 0 0 
2410833333.3333334923 0.169577732682228088378906250000 -0.032394248992204673076589216407 0.001367476768791676001307822119 0.002663441235199571089503622900 0 0 0 0 
2411000000.0000000000 0.169283568859100286285723768742 -0.033320356160402297973632812500 0.001332713407464324994328164209 0.002632158575579524040222167969 0 0 0 0 
2411166666.6666665077 0.169186159968376187423544365629 -0.034214895218610756610910783593 0.001411205506883562044856406104 0.002516377717256546020507812500 0 0 0 0 
2411333333.3333334923 0.169075846672058105468750000000 -0.034925427287817001342773437500 0.001249955152161418957951211084 0.002594273770228027863743447412 0 0 0 0 
2411500000.0000000000 0.168713718652725191970986884371 -0.035758830606937408447265625000 0.001425180700607598044751811450 0.002649284899234772162196493994 0 0 0 0 
2411666666.6666665077 0.168506011366844205001669365629 -0.036717455834150307392160783593 0.001363449031487107060076069409 0.002809404162690043015720986475 0 0 0 0 
2411833333.3333334923 0.168268740177154513260049384371 -0.037437479943037033081054687500 0.001386086689308285930036235278 0.002772831358015536828282021631 0 0 0 0 
2412000000.0000000000 0.167947039008140591720419365629 -0.038400176912546157836914062500 0.001517581171356142000911093604 0.002838145475834608078002929688 0 0 0 0 
2412166666.6666665077 0.167635455727577209472656250000 -0.039397586137056350708007812500 0.001639958471059798977495503003 0.002897792262956500053405761719 0 0 0 0 
2412333333.3333334923 0.167311131954193087478799384371 -0.040239877998828887939453125000 0.001783114392310380935668945312 0.002841416746377944946289062500 0 0 0 0 
2412500000.0000000000 0.166931971907615689376669365629 -0.041103642433881759643554687500 0.001843608682975172996520996094 0.002713814843446015877964638818 0 0 0 0 
2412666666.6666665077 0.166501015424728393554687500000 -0.042173523455858230590820312500 0.001893290784209967093226767432 0.002912920201197267012355185400 0 0 0 0 
2412833333.3333334923 0.166201487183570889571981865629 -0.043218120932579040527343750000 0.002103188773617147965672158350 0.002793950261548161940333701025 0 0 0 0 
2413000000.0000000000 0.165517896413803100585937500000 -0.044028926640748977661132812500 0.002353254240006207986118935693 0.002791390754282474951503134619 0 0 0 0 
2413166666.6666665077 0.165127560496330288986044365629 -0.045169550925493240356445312500 0.002418866381049156188964843750 0.002684097969904541969299316406 0 0 0 0 
2413333333.3333334923 0.164573624730110196212606865629 -0.046098377555608749389648437500 0.002534684492275118827819824219 0.002724966965615748925449990381 0 0 0 0 
2413500000.0000000000 0.164178133010864313323651231258 -0.047055315226316452026367187500 0.002699101343750954107997275244 0.002391246147453784942626953125 0 0 0 0 
2413666666.6666665077 0.163627743721008300781250000000 -0.048122681677341461181640625000 0.002776475157588719887974404443 0.002235137624666095213649130713 0 0 0 0 
2413833333.3333334923 0.163033053278923006912393134371 -0.049069680273532867431640625000 0.003039007773622870011570595850 0.002375517273321748213527060400 0 0 0 0 
2414000000.0000000000 0.162360012531280489822549384371 -0.050195287913084030151367187500 0.003034814726561307907104492188 0.002093713264912366867065429688 0 0 0 0 
2414166666.6666665077 0.162035971879959106445312500000 -0.051159761846065521240234375000 0.002769970567896962165832519531 0.001990468241274356842041015625 0 0 0 0 
2414333333.3333334923 0.161642625927925109863281250000 -0.052190575748682022094726562500 0.003088342025876044793369912256 0.001890316838398575999616313403 0 0 0 0 
2414500000.0000000000 0.161310151219368008712606865629 -0.053003035485744483257253278907 0.003034736961126327948329306494 0.001712263911031187014338827979 0 0 0 0 
2414666666.6666665077 0.161038056015968294998330634371 -0.054033767431974411010742187500 0.002933467971161007881164550781 0.001580905169248580932617187500 0 0 0 0 
2414833333.3333334923 0.160705804824829101562500000000 -0.055190745741128921508789062500 0.003046850208193064169642783057 0.001513337017968297004699707031 0 0 0 0 
2415000000.0000000000 0.160226449370384188553018134371 -0.056183747947216026996652971093 0.002976967487484217123744345557 0.001492488547228276946424174731 0 0 0 0 
2415166666.6666665077 0.160192549228668212890625000000 -0.057352822273969650268554687500 0.003126001218333839936497353662 0.001276249531656503894208598560 0 0 0 0 
2415333333.3333334923 0.160001158714294405838174384371 -0.058409187942743301391601562500 0.002957857912406324906590127100 0.001106791547499597072601318359 0 0 0 0 
2415500000.0000000000 0.159803137183189392089843750000 -0.059621669352054602886159528907 0.002950320020318030877354287256 0.000973994028754532337188720703 0 0 0 0 
2415666666.6666665077 0.159573271870613098144531250000 -0.060683317482471473003347028907 0.002905694302171469168422079932 0.000883987231645733118057250977 0 0 0 0 
2415833333.3333334923 0.159453883767127990722656250000 -0.061863802373409271240234375000 0.002904043532907962799072265625 0.000951196067035198211669921875 0 0 0 0 
2416000000.0000000000 0.159173220396041897872763115629 -0.063279680907726287841796875000 0.002653019968420267105102539062 0.000880378182046115398406982422 0 0 0 0 
2416166666.6666665077 0.159236744046211187164630018742 -0.064436256885528564453125000000 0.002567632822319864793064736475 0.000732905580662190914154052734 0 0 0 0 
2416333333.3333334923 0.158979535102844210525674384371 -0.065744139254093170166015625000 0.002698665950447320938110351562 0.000866176676936447620391845703 0 0 0 0 
2416500000.0000000000 0.158767640590667696853799384371 -0.067008294165134429931640625000 0.002554412698373198942897177588 0.000747721642255783081054687500 0 0 0 0 
2416666666.6666665077 0.158431038260459899902343750000 -0.068225748836994171142578125000 0.002378630219027400016784667969 0.000696865958161652088165283203 0 0 0 0 
2416833333.3333334923 0.158209413290023803710937500000 -0.069578394293785095214843750000 0.002524630632251501083374023438 0.000939434801694005727767944336 0 0 0 0 
2417000000.0000000000 0.157822296023368807693643134371 -0.070660628378391265869140625000 0.002624827902764081954956054688 0.000831299577839672565460205078 0 0 0 0 
2417166666.6666665077 0.157656699419021606445312500000 -0.071721747517585754394531250000 0.002634232630953193144557333838 0.000834927253890782594680786133 0 0 0 0 
2417333333.3333334923 0.157317489385604886154013115629 -0.072817333042621612548828125000 0.002546411240473390059230185400 0.000777558889240026473999023438 0 0 0 0 
2417500000.0000000000 0.156983450055122403243856865629 -0.073981761932373046875000000000 0.002738157287240027947666787256 0.000844453519675880670547485352 0 0 0 0 
2417666666.6666665077 0.156872555613517788986044365629 -0.074731327593326568603515625000 0.002963578328490256829502724756 0.000884074775967746973037719727 0 0 0 0 
2417833333.3333334923 0.156519398093223599532919365629 -0.075717218220233917236328125000 0.002920782892033458189723349463 0.000806847936473786830902099609 0 0 0 0 
2418000000.0000000000 0.156233280897140502929687500000 -0.076664313673973083496093750000 0.002837496111169457001927041162 0.000750170671381056308746337891 0 0 0 0 
2418166666.6666665077 0.155887007713317898849325615629 -0.077439151704311370849609375000 0.002845231676474214033839560400 0.000674142385832965373992919922 0 0 0 0 
2418333333.3333334923 0.156058385968208312988281250000 -0.078316271305084228515625000000 0.002941593993455172018763876807 0.000694977585226297378540039062 0 0 0 0 
2418500000.0000000000 0.155609562993049593826455634371 -0.078992024064064025878906250000 0.003030526451766490936279296875 0.000747400568798184394836425781 0 0 0 0 
2418666666.6666665077 0.155287787318229703048544365629 -0.079885855317115783691406250000 0.002991000423207879066467285156 0.000621290178969502449035644531 0 0 0 0 
2418833333.3333334923 0.154878422617912292480468750000 -0.080575078725814819335937500000 0.003200812498107552962062216650 0.000634899304714053869247436523 0 0 0 0 
2419000000.0000000000 0.154764160513877896407919365629 -0.081357061862945556640625000000 0.003052943851798772811889648438 0.000490789185278117656707763672 0 0 0 0 
2419166666.6666665077 0.154401510953903198242187500000 -0.082006551325321197509765625000 0.003239558078348637060878134619 0.000565119378734380006790161133 0 0 0 0 
2419333333.3333334923 0.153997913002967806717080634371 -0.082446947693824768066406250000 0.003299249801784753799438476562 0.000455184868769720196723937988 0 0 0 0 
2419500000.0000000000 0.153785884380340603927450615629 -0.083220541477203369140625000000 0.003366914112120867209193564307 0.000452811422292143106460571289 0 0 0 0 
2419666666.6666665077 0.153499796986579895019531250000 -0.083715364336967468261718750000 0.003325491677969694137573242188 0.000437464826973155086666661395 0 0 0 0 
2419833333.3333334923 0.152993589639663696289062500000 -0.084014602005481719970703125000 0.003467978676781057877781533350 0.000332596828229725415080469952 0 0 0 0 
2420000000.0000000000 0.152751520276069613357705634371 -0.084583364427089691162109375000 0.003554226597771048979518271338 0.000249213742790743708610534668 0 0 0 0 
