# Hz S RI R 
2400000000.0000000000 0.158307254314422607421875000000 0.062844745814800262451171875000 -0.001155575388111174106597900391 -0.004201586823910474777221679688 0 0 0 0 
2400166666.6666665077 0.158251553773880004882812500000 0.061066951602697372436523437500 -0.001313811750151216983795166016 -0.004046348389238119125366210938 0 0 0 0 
2400333333.3333334923 0.158154144883155794998330634371 0.059211123734712600708007812500 -0.001274247886613010926487588037 -0.003996645566076040267944335938 0 0 0 0 
2400500000.0000000000 0.158102750778198186676348768742 0.057283844798803329467773437500 -0.001499522826634347005131386865 -0.004156709183007478713989257812 0 0 0 0 
2400666666.6666665077 0.158097937703132601638955634371 0.055250909179449081420898437500 -0.001466053887270390987396240234 -0.004112803377211093902587890625 0 0 0 0 
2400833333.3333334923 0.158313333988189697265625000000 0.053336195647716522216796875000 -0.001691055018454789898516010815 -0.003983283881098031997680664062 0 0 0 0 
2401000000.0000000000 0.158291086554527310470419365629 0.051294818520545959472656250000 -0.001676677842624485926387167822 -0.003949406091123819351196289062 0 0 0 0 
2401166666.6666665077 0.158461302518844604492187500000 0.049276672303676612163503278907 -0.001837318064644932963727641528 -0.003884005360305308861973427881 0 0 0 0 
2401333333.3333334923 0.158642366528511102874432481258 0.047212708741426467895507812500 -0.002082669176161289215087890625 -0.003824678715318440957310341943 0 0 0 0 
2401500000.0000000000 0.158994778990745488922442518742 0.045269470661878592754323591407 -0.002069456735625863075256347656 -0.003739143721759318871739052881 0 0 0 0 
2401666666.6666665077 0.159204706549644497970419365629 0.043311864137649543071706403907 -0.002215882297605276107788085938 -0.003655990585684775872471474756 0 0 0 0 
2401833333.3333334923 0.159756794571876498123330634371 0.041260287165641791606862653907 -0.002243801020085812048671103369 -0.003649222431704401969909667969 0 0 0 0 
2402000000.0000000000 0.160050213336944607833700615629 0.039233971387147903442382812500 -0.002522498602047563032862997900 -0.003738989587873220010044716943 0 0 0 0 
2402166666.6666665077 0.160548359155654907226562500000 0.036971349269151687622070312500 -0.002695811446756124930140829932 -0.003568188520148396925685263525 0 0 0 0 
2402333333.3333334923 0.161220431327819796463174384371 0.035254027694463729858398437500 -0.002846644259989262060878134619 -0.003498082747682929039001464844 0 0 0 0 
2402500000.0000000000 0.161986857652664212325888115629 0.033558309078216552734375000000 -0.002908047987148166136500693213 -0.003422414883971213860752724756 0 0 0 0 
2402666666.6666665077 0.162593543529510498046875000000 0.031813412904739379882812500000 -0.002925706794485449790954589844 -0.003220693906769156889674521338 0 0 0 0 
2402833333.3333334923 0.163318589329719487945880018742 0.029958177357912060129185860546 -0.003217366756871343092677451025 -0.003216980956494808197021484375 0 0 0 0 
2403000000.0000000000 0.164057433605194091796875000000 0.028407128527760509145716483204 -0.003354738466441630883457802881 -0.003143714973703027205226279150 0 0 0 0 
2403166666.6666665077 0.165102750062942504882812500000 0.026926387101411819458007812500 -0.003431574674323201179504394531 -0.003217516699805856184718466650 0 0 0 0 
2403333333.3333334923 0.165932700037956210037393134371 0.025455929338932040822962576954 -0.003373301122337580160853720557 -0.002904824679717421965358115088 0 0 0 0 
2403500000.0000000000 0.166687399148941012283486884371 0.024150671437382701528528983204 -0.003707722062245010895970009912 -0.002765867626294494108912802588 0 0 0 0 
2403666666.6666665077 0.167794838547706604003906250000 0.022457012906670570373535156250 -0.003652321174740790887119912256 -0.002598127815872430801391601562 0 0 0 0 
2403833333.3333334923 0.168723449110984802246093750000 0.021205928176641460763951485546 -0.003818696364760398864746093750 -0.002484556287527083916905068506 0 0 0 0 
2404000000.0000000000 0.169686228036880493164062500000 0.020114535465836528432825858204 -0.003857084317132831053492880713 -0.002186860889196395874023437500 0 0 0 0 
2404166666.6666665077 0.170626118779182406326455634371 0.019048711284995079040527343750 -0.003850708249956368966343545068 -0.002270290860906242890598916162 0 0 0 0 
2404333333.3333334923 0.171615764498710604568643134371 0.017839785665273669851282889454 -0.004088171292096376419067382812 -0.002004914684221148924586630713 0 0 0 0 
2404500000.0000000000 0.172413587570190401931924384371 0.016943087801337238657017891796 -0.004197088535875082015991210938 -0.001766089000739156983019184644 0 0 0 0 
2404666666.6666665077 0.173362091183662386795205634371 0.016036715358495708810826485546 -0.004178466740995646390433027051 -0.001493526156991719982744526440 0 0 0 0 
2404833333.3333334923 0.174106955528259305099325615629 0.015158721245825290679931640625 -0.004251949954777956008911132812 -0.001402490539476275010349892725 0 0 0 0 
2405000000.0000000000 0.175094142556190490722656250000 0.014485448598861690866490548046 -0.004254119005054236325735761426 -0.001150096417404711029650044019 0 0 0 0 
2405166666.6666665077 0.175873041152954101562500000000 0.013665591366589069366455078125 -0.004248317331075668334960937500 -0.001283869729377328915836953271 0 0 0 0 
2405333333.3333334923 0.176785483956337002853231865629 0.012904450297355650120745274023 -0.004175729583948850631713867188 -0.000893758959136903285980224609 0 0 0 0 
2405500000.0000000000 0.177504360675811795333700615629 0.012658664956688879185686680273 -0.004294198937714099884033203125 -0.000713080749846994876861572266 0 0 0 0 
2405666666.6666665077 0.178065687417984008789062500000 0.012253184802830219268798828125 -0.004337087739259004592895507812 -0.000494985608384013175964355469 0 0 0 0 
2405833333.3333334923 0.178605571389198303222656250000 0.011851453222334390122383318555 -0.004251372534781694412231445312 -0.000331652932800352573394775391 0 0 0 0 
2406000000.0000000000 0.179174378514289911468182481258 0.011303996667265890294085117773 -0.004014644306153059005737304688 -0.000362944614607840776443481445 0 0 0 0 
2406166666.6666665077 0.179454639554023687164630018742 0.011051381938159469259241873829 -0.004201068077236413955688476562 -0.000222035872866399613305768423 0 0 0 0 
2406333333.3333334923 0.180043607950210599044638115629 0.010803067125380039215087890625 -0.004099427722394466400146484375 -0.000012429258276824839413166046 0 0 0 0 
2406500000.0000000000 0.180235281586647005935830634371 0.010397182777523989241630353320 -0.004074743017554283142089843750 0.000178266884176991907045087271 0 0 0 0 
2406666666.6666665077 0.180498138070106506347656250000 0.010022471658885480708112147852 -0.004164282698184251785278320312 0.000308433722238987684249877930 0 0 0 0 
2406833333.3333334923 0.180549547076225308517294365629 0.009781619533896446228027343750 -0.003869883483275771141052246094 0.000359429541276767904132288800 0 0 0 0 
2407000000.0000000000 0.180651023983955411056356865629 0.009306350722908973693847656250 -0.003944108262658119201660156250 0.000462236581370234489440917969 0 0 0 0 
2407166666.6666665077 0.180823564529419000823651231258 0.009083148092031478881835937500 -0.003899583825841546058654785156 0.000672869733534753322601318359 0 0 0 0 
2407333333.3333334923 0.180676415562629699707031250000 0.008465510793030261993408203125 -0.004095884039998055371756269238 0.000941378006245940923690795898 0 0 0 0 
2407500000.0000000000 0.180502697825431795974893134371 0.008302314206957817077636718750 -0.003809665096923708915710449219 0.000870312331244349479675292969 0 0 0 0 
2407666666.6666665077 0.180233940482139587402343750000 0.007760452106595039367675781250 -0.003731104545295238928553915869 0.001008949708193541006800986182 0 0 0 0 
2407833333.3333334923 0.179786831140518188476562500000 0.007103092502802610397338867188 -0.003684774041175841851475381006 0.001248265150934457995771098560 0 0 0 0 
2408000000.0000000000 0.179373502731323186676348768742 0.006528533063828945159912109375 -0.003616096219047904014587402344 0.001163390115834773020503378760 0 0 0 0 
2408166666.6666665077 0.179080635309219388107138115629 0.006051375064998865127563476562 -0.003644768148660659790039062500 0.001548713073134422085405659253 0 0 0 0 
2408333333.3333334923 0.178805872797966003417968750000 0.005211133044213057431692792676 -0.003441035281866788864135742188 0.001388805336318909905077290112 0 0 0 0 
2408500000.0000000000 0.178198456764221191406250000000 0.004450607579201459884643554688 -0.003353760577738285064697265625 0.001550936605781316974042582935 0 0 0 0 
2408666666.6666665077 0.177565157413482693771200615629 0.003357308916747570037841796875 -0.003514016512781382040736533057 0.001653609215281903960584330981 0 0 0 0 
2408833333.3333334923 0.176869481801986694335937500000 0.002446815371513367132899618994 -0.003232651622965931892395019531 0.001710998243652283928514790112 0 0 0 0 
2409000000.0000000000 0.176265105605125399490518134371 0.001525089377537369944928813403 -0.003174085635691881179809570312 0.001819331082515418963191367041 0 0 0 0 
2409166666.6666665077 0.175583079457282992263955634371 0.000245306204305961673885899677 -0.003009697655215858979466103662 0.001954132923856378035304404150 0 0 0 0 
2409333333.3333334923 0.175024673342704800704794365629 -0.000902826781384646892547607422 -0.002833834150806068940403603662 0.001908166101202368953107524341 0 0 0 0 
2409500000.0000000000 0.174299553036689813811932481258 -0.002495827153325080871582031250 -0.002830733312293887138366699219 0.002006806666031479835510253906 0 0 0 0 
2409666666.6666665077 0.173497200012207003494424384371 -0.003432292025536299185511923682 -0.002750790212303400039672851562 0.001968190539628266854527138818 0 0 0 0 
2409833333.3333334923 0.172744944691657992263955634371 -0.005014580674469470977783203125 -0.002696490380913019180297851562 0.002081298734992742972133017432 0 0 0 0 
2410000000.0000000000 0.172214284539222689529580634371 -0.006512294523417949676513671875 -0.002586413407698274092433310400 0.002045318949967623190638876807 0 0 0 0 
2410166666.6666665077 0.171636521816253689864950615629 -0.007932735607028007507324218750 -0.002496180590242147011997841943 0.002193118678405880928039550781 0 0 0 0 
2410333333.3333334923 0.170945420861244201660156250000 -0.009679347276687622070312500000 -0.002509273122996091842651367188 0.002174076624214649200439453125 0 0 0 0 
2410500000.0000000000 0.170520335435867309570312500000 -0.011557403951883319509486014454 -0.002422583987936377959010458838 0.002177396090701221986057900537 0 0 0 0 
2410666666.6666665077 0.169899180531501797775106865629 -0.013335845433175560342808907421 -0.002236156258732080893275595557 0.002405482809990644888636923682 0 0 0 0 
2410833333.3333334923 0.169630169868469210525674384371 -0.014721743762493130075474923046 -0.002138174837455153898951865088 0.002393824979662895202636718750 0 0 0 0 
2411000000.0000000000 0.169113457202911404708700615629 -0.016588944941759109497070312500 -0.002287784125655889944789267432 0.002268898533657193183898925781 0 0 0 0 
2411166666.6666665077 0.168808877468109103103799384371 -0.018708346411585811269739920704 -0.002046738052740693092346191406 0.002463300712406634850742959131 0 0 0 0 
2411333333.3333334923 0.168529272079467801193075615629 -0.020556036382913589477539062500 -0.002117659430950880050659179688 0.002476486610248684883117675781 0 0 0 0 
2411500000.0000000000 0.168362542986869812011718750000 -0.022657107561826709402064139454 -0.001968956086784601211547851562 0.002475549932569264931919716943 0 0 0 0 
2411666666.6666665077 0.168305769562721307952557481258 -0.024536956101655960083007812500 -0.001913829590193927071214985425 0.002668361878022551970240927588 0 0 0 0 
2411833333.3333334923 0.168221279978752108474893134371 -0.026472663506865501403808593750 -0.001932378858327866034266806494 0.002583528868854045867919921875 0 0 0 0 
2412000000.0000000000 0.168492525815963800628338731258 -0.028405090793967250478724295704 -0.001756946439854800917981791919 0.002628515474498271942138671875 0 0 0 0 
2412166666.6666665077 0.168380737304687500000000000000 -0.030319472774863239633580391796 -0.001802328508347273089765239185 0.002774344058707356886622763525 0 0 0 0 
2412333333.3333334923 0.168771311640739413162393134371 -0.032079193741083152080495466407 -0.001715191523544489903690957178 0.002657467965036631064174033057 0 0 0 0 
2412500000.0000000000 0.168875366449356106857138115629 -0.033920846879482269287109375000 -0.001752453390508889935137104565 0.002758759306743741035461425781 0 0 0 0 
2412666666.6666665077 0.169125512242317199707031250000 -0.036091905087232589721679687500 -0.001624344964511692957637167822 0.002481878735125064849853515625 0 0 0 0 
2412833333.3333334923 0.169414654374122591873330634371 -0.037895120680332176898996721093 -0.001465535955503582954406738281 0.002828114200383425192592001807 0 0 0 0 
2413000000.0000000000 0.169858306646347101409588731258 -0.039646811783313751220703125000 -0.001374886720441282012342143481 0.002770981285721064047572470557 0 0 0 0 
2413166666.6666665077 0.170389711856842013260049384371 -0.041354376822710037231445312500 -0.001368800527416170077082968604 0.003012381028383969826939248193 0 0 0 0 
2413333333.3333334923 0.170731037855148287674111884371 -0.043048344552516937255859375000 -0.001374078099615871906280517578 0.002955219242721796035766601562 0 0 0 0 
2413500000.0000000000 0.171248480677604703048544365629 -0.044641397893428802490234375000 -0.001112314639613031907322548975 0.003135181730613112015965127100 0 0 0 0 
2413666666.6666665077 0.171846866607665987869424384371 -0.046175796538591391826589216407 -0.001178187900222837924957275391 0.003006131388247013092041015625 0 0 0 0 
2413833333.3333334923 0.172388508915901211837606865629 -0.047705732285976409912109375000 -0.000961602549068629741668701172 0.003145363414660096168518066406 0 0 0 0 
2414000000.0000000000 0.172868609428405789474325615629 -0.049145847558975219726562500000 -0.000902756000868976116180419922 0.003371421247720717950108193506 0 0 0 0 
2414166666.6666665077 0.173466309905052212814169365629 -0.050337541848421096801757812500 -0.000851768068969249725341796875 0.003195526078343390984776162256 0 0 0 0 
2414333333.3333334923 0.173983186483383206466513115629 -0.051731631159782409667968750000 -0.000648971821647137403488159180 0.003282075515016912980320595850 0 0 0 0 
2414500000.0000000000 0.174627304077148409744424384371 -0.052874974906444549560546875000 -0.000688046449795365333557128906 0.003150052390992641015293740381 0 0 0 0 
2414666666.6666665077 0.175189509987831087967080634371 -0.053836017847061157226562500000 -0.000405530183343216776847839355 0.003330188337713479995727539062 0 0 0 0 
2414833333.3333334923 0.175642803311347989181356865629 -0.054974764585495002056081403907 -0.000492691120598465204238891602 0.003376582870259881019592285156 0 0 0 0 
2415000000.0000000000 0.175979182124137906173544365629 -0.055748064070940017700195312500 -0.000228014454478397992536267691 0.003273485461249947981593466650 0 0 0 0 
2415166666.6666665077 0.176343470811843899825888115629 -0.056480068713426589965820312500 -0.000126861326862126588821411133 0.003230432514101266860961914062 0 0 0 0 
2415333333.3333334923 0.176942050457000704666299384371 -0.057207927107810967182199846093 -0.000139510011649690595552167349 0.003369471989572048187255859375 0 0 0 0 
2415500000.0000000000 0.177314907312393188476562500000 -0.057900197803974151611328125000 0.000050552018365124240517616272 0.003307000268250703811645507812 0 0 0 0 
2415666666.6666665077 0.177352830767631503006143134371 -0.058436837047338492656667341407 0.000331377465045079588890075684 0.003345489501953125000000000000 0 0 0 0 
2415833333.3333334923 0.177708223462104797363281250000 -0.059012427926063537597656250000 0.000264085829257965087890625000 0.003342518117278813882115029443 0 0 0 0 
2416000000.0000000000 0.177705079317092895507812500000 -0.059397723525762557983398437500 0.000532898819074034690856933594 0.003206729423254727883579873193 0 0 0 0 
2416166666.6666665077 0.177911594510078402420205634371 -0.059672556817531592632253278907 0.000516570871695876121520996094 0.003202817169949411912205361475 0 0 0 0 
2416333333.3333334923 0.177787810564041109939736884371 -0.060047134757041931152343750000 0.000636731449048966169357299805 0.003112138248980044884922646631 0 0 0 0 
2416500000.0000000000 0.177723512053489712814169365629 -0.060453157871961586689035783593 0.000742842908948659896850585938 0.003236105898395181135890341650 0 0 0 0 
2416666666.6666665077 0.177464202046394403655682481258 -0.060576334595680236816406250000 0.000967273081187158823013305664 0.003118192311376332803013466943 0 0 0 0 
2416833333.3333334923 0.177411258220672607421875000000 -0.060910735279321670532226562500 0.000927770161069929599761962891 0.003103059483692049980163574219 0 0 0 0 
2417000000.0000000000 0.176719278097152709960937500000 -0.061086706817150122905690778907 0.001192852505482733032823872144 0.003092596773058176040649414062 0 0 0 0 
2417166666.6666665077 0.176362112164497403243856865629 -0.061347842216491699218750000000 0.001276885624974966049194335938 0.003008769825100899176356650244 0 0 0 0 
2417333333.3333334923 0.175802603363990811446981865629 -0.061460264027118682861328125000 0.001268714549951255104662251050 0.002709628548473120169398642432 0 0 0 0 
2417500000.0000000000 0.175230115652084406097088731258 -0.061856422573328018188476562500 0.001452573924325406985041952979 0.002934795338660479025599814307 0 0 0 0 
2417666666.6666665077 0.174654245376586886306924384371 -0.061849813908338546752929687500 0.001439647399820386929752968896 0.002927575726062058968784951318 0 0 0 0 
2417833333.3333334923 0.173773109912872286697549384371 -0.062116768211126327514648437500 0.001597332186065614006639790112 0.002799067646265029907226562500 0 0 0 0 
2418000000.0000000000 0.172905325889587402343750000000 -0.062582917511463165283203125000 0.001857582945376635031459189307 0.002706235973164439201354980469 0 0 0 0 
2418166666.6666665077 0.171920806169509887695312500000 -0.062831863760948181152343750000 0.001701676403172313950182270581 0.002680130302906035943272256006 0 0 0 0 
2418333333.3333334923 0.171259060502052307128906250000 -0.063241191208362579345703125000 0.001875960384495555920841836084 0.002585774753242731094360351562 0 0 0 0 
2418500000.0000000000 0.170019686222076388260049384371 -0.063662610948085784912109375000 0.001828979002311825969098735278 0.002588912611827253861668252100 0 0 0 0 
2418666666.6666665077 0.169189244508743286132812500000 -0.064038313925266265869140625000 0.002051308983936905860900878906 0.002366021042689681053161621094 0 0 0 0 
2418833333.3333334923 0.167894855141639709472656250000 -0.064568623900413513183593750000 0.002262643771246076063868857275 0.002409755485132337050196982275 0 0 0 0 
2419000000.0000000000 0.166572943329811096191406250000 -0.065289214253425598144531250000 0.002205505967140198187587118994 0.002258567605167626900913857568 0 0 0 0 
2419166666.6666665077 0.165489017963409396072549384371 -0.065913006663322448730468750000 0.002290230477228761152980185400 0.002113754628226161003112792969 0 0 0 0 
2419333333.3333334923 0.164185941219329806228799384371 -0.066352896392345428466796875000 0.002303062472492456002476357568 0.002033831784501671791076660156 0 0 0 0 
2419500000.0000000000 0.163146942853927612304687500000 -0.067478537559509277343750000000 0.002411617664620279832127236475 0.001958023989573121070861816406 0 0 0 0 
2419666666.6666665077 0.162090048193931607345419365629 -0.068449676036834716796875000000 0.002305970061570405960083007812 0.001838566269725560925127338940 0 0 0 0 
2419833333.3333334923 0.160801932215690612792968750000 -0.069258183240890502929687500000 0.002461444819346069855930947412 0.001711656455881894068477011572 0 0 0 0 
