# Hz S RI R 
2400000000.0000000000 0.173431500792503412444744981258 0.049681987613439559936523437500 -0.003148460760712624029872275244 0.006658966653048992156982421875 0 0 0 0 
2400166666.6666665077 0.173923298716545104980468750000 0.049041882157325751567800153907 -0.003056616056710482077357626807 0.006758478935807943344116210938 0 0 0 0 
2400333333.3333334923 0.174368053674697903732138115629 0.048394158482551581645925153907 -0.003002705285325645966770791162 0.006803854368627071380615234375 0 0 0 0 
2400500000.0000000000 0.174889907240867586990518134371 0.047529831528663642192800153907 -0.002797929104417562918422079932 0.007098710164427757263183593750 0 0 0 0 
2400666666.6666665077 0.175144448876380892654580634371 0.046958219259977340698242187500 -0.002678174059838056998011923682 0.007090097758919000625610351562 0 0 0 0 
2400833333.3333334923 0.175476193428039606292401231258 0.046254765242338180541992187500 -0.002669750014320015907287597656 0.007112841587513685226440429688 0 0 0 0 
2401000000.0000000000 0.175595432519912691970986884371 0.045661732554435729980468750000 -0.002554338891059159798863076318 0.007292257621884346008300781250 0 0 0 0 
2401166666.6666665077 0.175847098231315612792968750000 0.044849712401628487323801408593 -0.002325182314962149100062704932 0.007457750383764505386352539062 0 0 0 0 
2401333333.3333334923 0.175647452473640386383380018742 0.044175397604703903198242187500 -0.002095997566357254981994628906 0.007543094456195831298828125000 0 0 0 0 
2401500000.0000000000 0.175912410020828302581463731258 0.043478168547153472900390625000 -0.001970225945115088982823037256 0.007870624773204326629638671875 0 0 0 0 
2401666666.6666665077 0.175907805562019403655682481258 0.042691696435213088989257812500 -0.001627560704946517944335937500 0.007913312874734401702880859375 0 0 0 0 
2401833333.3333334923 0.175871923565864590743856865629 0.041893362998962402343750000000 -0.001486720982939004898071289062 0.008074375800788402557373046875 0 0 0 0 
2402000000.0000000000 0.175641864538192804534588731258 0.041074987500905990600585937500 -0.001200670260004699013353657300 0.008173066191375255584716796875 0 0 0 0 
2402166666.6666665077 0.175310075283050509353799384371 0.040079817175865173339843750000 -0.000987558858469128608703613281 0.008419877849519252777099609375 0 0 0 0 
2402333333.3333334923 0.175190538167953491210937500000 0.039131492376327521587331403907 -0.000759280752390623092651367188 0.008442627266049385070800781250 0 0 0 0 
2402500000.0000000000 0.175160676240920992752236884371 0.038091477006673812866210937500 -0.000437537528341636115878504620 0.008683089166879653930664062500 0 0 0 0 
2402666666.6666665077 0.174747884273529108245526231258 0.037003487348556518554687500000 -0.000053747873607790097594261169 0.008577775210142135620117187500 0 0 0 0 
2402833333.3333334923 0.174569517374038696289062500000 0.035733122378587722778320312500 0.000194631866179406588703709735 0.008725449442863464355468750000 0 0 0 0 
2403000000.0000000000 0.174116194248199490646200615629 0.034332983195781707763671875000 0.000444568810053169673115330829 0.008807944133877754211425781250 0 0 0 0 
2403166666.6666665077 0.173747688531875610351562500000 0.033051535487174987792968750000 0.000899250677321106195449829102 0.008900058455765247344970703125 0 0 0 0 
2403333333.3333334923 0.173451200127601595779580634371 0.031683646142482757568359375000 0.001369938836432992978336953271 0.008948846720159053802490234375 0 0 0 0 
2403500000.0000000000 0.173198565840721102615518134371 0.030182957649230960500696951954 0.001677204621955751939060830225 0.008839919231832027435302734375 0 0 0 0 
2403666666.6666665077 0.172833502292633112151776231258 0.028454240411520000803013985546 0.002142178593203424973728798975 0.008563521318137645721435546875 0 0 0 0 
2403833333.3333334923 0.172371029853820800781250000000 0.026602279394865039480189139454 0.002388400491327046914341591943 0.008633004501461982727050781250 0 0 0 0 
2404000000.0000000000 0.171911284327506991287393134371 0.024904802441596988332728201954 0.002673164242878555817845009912 0.008433899842202663421630859375 0 0 0 0 
2404166666.6666665077 0.171682059764862088302450615629 0.023014126345515251159667968750 0.003074045758694409890415810693 0.008378027938306331634521484375 0 0 0 0 
2404333333.3333334923 0.171247199177742004394531250000 0.021314071491360660898228829296 0.003156484104692935943603515625 0.008352081291377544403076171875 0 0 0 0 
2404500000.0000000000 0.170791566371917696853799384371 0.019199468195438388479212576954 0.003732348792254925207850790869 0.008136229589581489562988281250 0 0 0 0 
2404666666.6666665077 0.170902341604232788085937500000 0.017320979386568069458007812500 0.004001826047897338867187500000 0.008020872250199317932128906250 0 0 0 0 
2404833333.3333334923 0.170502036809921292404013115629 0.015437438152730470139473162305 0.004072972573339939117431640625 0.007805628236383199691772460938 0 0 0 0 
2405000000.0000000000 0.170470684766769409179687500000 0.013296607881784440821637538477 0.004527284763753414154052734375 0.007615118287503719329833984375 0 0 0 0 
2405166666.6666665077 0.170277073979377802093182481258 0.011367512866854669398297694727 0.004543190822005271911621093750 0.007315472699701786041259765625 0 0 0 0 
2405333333.3333334923 0.170343026518821688553018134371 0.009234778583049774169921875000 0.004803711082786321640014648438 0.007241471204906702041625976562 0 0 0 0 
2405500000.0000000000 0.170389994978904696365518134371 0.007296373136341571807861328125 0.005013346206396818161010742188 0.006927288603037595748901367188 0 0 0 0 
2405666666.6666665077 0.170540332794189508636151231258 0.005197886377573013305664062500 0.005272429902106524381155683301 0.006771355401724576950073242188 0 0 0 0 
2405833333.3333334923 0.170520424842834500411825615629 0.003345054341480135917663574219 0.005626880098134279251098632812 0.006538495887070894241333007812 0 0 0 0 
2406000000.0000000000 0.170980527997016906738281250000 0.001033417880535125949262309497 0.005699448287487030029296875000 0.006399065721780061721801757812 0 0 0 0 
2406166666.6666665077 0.171041294932365389724893134371 -0.000761704694014042615890502930 0.006013854406774044036865234375 0.006134471390396356582641601562 0 0 0 0 
2406333333.3333334923 0.171557396650314303299111884371 -0.002784925745800137953517294775 0.006106049753725528717041015625 0.005975057370960712432861328125 0 0 0 0 
2406500000.0000000000 0.171954482793808011154013115629 -0.004849196877330541610717773438 0.006464612670242786407470703125 0.005800782237201929092407226562 0 0 0 0 
2406666666.6666665077 0.172244623303413391113281250000 -0.006875156424939632415771484375 0.006432035006582736968994140625 0.005643025971949101361746503613 0 0 0 0 
2406833333.3333334923 0.173014402389526394943075615629 -0.008768292143940925598144531250 0.006620682310312986373901367188 0.005298144184052944183349609375 0 0 0 0 
2407000000.0000000000 0.173611626029014587402343750000 -0.010653417557477949315081211523 0.006881705950945615768432617188 0.005096099805086851119995117188 0 0 0 0 
2407166666.6666665077 0.174333557486534090896768134371 -0.012430066242814060556431954296 0.007033522706478834152221679688 0.004784984048455953598022460938 0 0 0 0 
2407333333.3333334923 0.174885198473930386642294365629 -0.014382593333721159153948399023 0.007236307952553033828735351562 0.004567136988043785095214843750 0 0 0 0 
2407500000.0000000000 0.175630822777748107910156250000 -0.016056664288043979299525076954 0.007324686739593744277954101562 0.004312340170145034790039062500 0 0 0 0 
2407666666.6666665077 0.176384493708610506912393134371 -0.017641693353652950632115548046 0.007728502620011568069458007812 0.003981894347816705703735351562 0 0 0 0 
2407833333.3333334923 0.177121073007583590408486884371 -0.019432451575994491577148437500 0.007810753770172595977783203125 0.003628743346780538992640829932 0 0 0 0 
2408000000.0000000000 0.177786171436309786697549384371 -0.021063376218080520629882812500 0.007842844352126121520996093750 0.003248323220759630203247070312 0 0 0 0 
2408166666.6666665077 0.178512617945671109298544365629 -0.022291408851742740976353829296 0.007796481717377901077270507812 0.003093005856499075889587402344 0 0 0 0 
2408333333.3333334923 0.179362595081329401214276231258 -0.023761501535773280752161795704 0.007917189970612525939941406250 0.002672426169738173918483115088 0 0 0 0 
2408500000.0000000000 0.179842382669448908050213731258 -0.025123430415987968444824218750 0.007926228456199169158935546875 0.002178497379645704789402627100 0 0 0 0 
2408666666.6666665077 0.180387228727340698242187500000 -0.026451595127582550048828125000 0.007790396921336650848388671875 0.001925528398714960055110312354 0 0 0 0 
2408833333.3333334923 0.180794119834899902343750000000 -0.027453459799289699899693673046 0.008030611090362071990966796875 0.001528294524177908897399902344 0 0 0 0 
2409000000.0000000000 0.181303545832633999923544365629 -0.028545768931508060800572579296 0.007878916338086128234863281250 0.001271117245778440995457314600 0 0 0 0 
2409166666.6666665077 0.181813642382621792892294365629 -0.029409382492303848266601562500 0.007748199161142110824584960938 0.000964930397458374500274658203 0 0 0 0 
2409333333.3333334923 0.182149365544319208343182481258 -0.030412640422582629812220389454 0.007557777687907218933105468750 0.000761463481467217206954956055 0 0 0 0 
2409500000.0000000000 0.182521641254425104339276231258 -0.031230345368385318410853201954 0.007658933289349079132080078125 0.000433253386290744001239222394 0 0 0 0 
2409666666.6666665077 0.182737067341804504394531250000 -0.031742621213197708129882812500 0.007542456500232219696044921875 0.000286198104731738621562403546 0 0 0 0 
2409833333.3333334923 0.182891532778739901443643134371 -0.032254491001367568969726562500 0.007457610219717025756835937500 0.000082710532296914607286453247 0 0 0 0 
2410000000.0000000000 0.183306485414505004882812500000 -0.032385334372520446777343750000 0.007452997379004955291748046875 -0.000043979445763397961854934692 0 0 0 0 
2410166666.6666665077 0.183273866772651700118856865629 -0.032991893589496612548828125000 0.007329956628382205963134765625 -0.000289612216874957084655761719 0 0 0 0 
2410333333.3333334923 0.183378130197524996658486884371 -0.033386606723070151592214216407 0.007259575184434652328491210938 -0.000538512365892529487609863281 0 0 0 0 
2410500000.0000000000 0.183356165885925292968750000000 -0.033707901835441589355468750000 0.007339780218899250030517578125 -0.000702282472047954797744750977 0 0 0 0 
2410666666.6666665077 0.183182045817375210861044365629 -0.034153074026107788085937500000 0.007263132836669684323782636426 -0.000760315393563359975814819336 0 0 0 0 
2410833333.3333334923 0.183215603232383700271768134371 -0.034283678978681557392160783593 0.007170238532125949859619140625 -0.000987163861282169818878173828 0 0 0 0 
2411000000.0000000000 0.183017835021019009689169365629 -0.034422043710947036743164062500 0.006932314485311508178710937500 -0.001200780156068504073499370044 0 0 0 0 
2411166666.6666665077 0.182560250163078308105468750000 -0.035011764615774161601979841407 0.006946521811187267303466796875 -0.001366036362014710903167724609 0 0 0 0 
2411333333.3333334923 0.182149678468704195877236884371 -0.035170909017324447631835937500 0.006958642508834599581246660449 -0.001686399569734930992126464844 0 0 0 0 
2411500000.0000000000 0.181676477193832397460937500000 -0.035595729947090148925781250000 0.006816301494836807250976562500 -0.001763924374245106957079243237 0 0 0 0 
2411666666.6666665077 0.181332245469093294998330634371 -0.035906821489334113384206403907 0.006634530145674943923950195312 -0.002121699275448917908909463037 0 0 0 0 
2411833333.3333334923 0.180486410856247003753338731258 -0.036096863448619842529296875000 0.006616391707211732864379882812 -0.002222253940999507904052734375 0 0 0 0 
2412000000.0000000000 0.179905399680137606521768134371 -0.036775935441255569458007812500 0.006428005173802375793457031250 -0.002346049528568983078002929688 0 0 0 0 
2412166666.6666665077 0.178937628865242004394531250000 -0.037254564464092261577565778907 0.006312941666692495346069335938 -0.002758720191195607185363769531 0 0 0 0 
2412333333.3333334923 0.178132161498069790939169365629 -0.037613898515701287006418596093 0.005979442968964576721191406250 -0.002812604419887065887451171875 0 0 0 0 
2412500000.0000000000 0.176979780197143610198651231258 -0.038082864135503768920898437500 0.005996511317789554595947265625 -0.003045025514438747925999306787 0 0 0 0 
2412666666.6666665077 0.176039367914199801345986884371 -0.038922581821680068969726562500 0.005889215040951967239379882812 -0.003067974699661136107203818213 0 0 0 0 
2412833333.3333334923 0.174926429986953707595986884371 -0.039535652846097953105886091407 0.005688872653990983963012695312 -0.003262371057644485993626259912 0 0 0 0 
2413000000.0000000000 0.173732653260230990310830634371 -0.040425736457109451293945312500 0.005517246201634407043457031250 -0.003455972531810402870178222656 0 0 0 0 
2413166666.6666665077 0.172444656491279602050781250000 -0.041347771883010857318918596093 0.005253607872873544692993164062 -0.003347254125401378111598349463 0 0 0 0 
2413333333.3333334923 0.171019107103347806075888115629 -0.042132958769798278808593750000 0.005149881355464459332937909863 -0.003542588790878653959987021338 0 0 0 0 
2413500000.0000000000 0.169767066836357088943643134371 -0.043159157037734992290456403907 0.005065802484750747680664062500 -0.003501824568957089944126748193 0 0 0 0 
2413666666.6666665077 0.168584197759628295898437500000 -0.044288411736488342285156250000 0.004759429953992366790771484375 -0.003525596810504794120788574219 0 0 0 0 
2413833333.3333334923 0.167377620935440091232138115629 -0.045464649796485900878906250000 0.004523317329585552215576171875 -0.003489098511636257171630859375 0 0 0 0 
2414000000.0000000000 0.165879368782043512542401231258 -0.046567246317863457416574846093 0.004555347375571727752685546875 -0.003548545762896538214442587744 0 0 0 0 
2414166666.6666665077 0.164840698242187500000000000000 -0.047891892492771148681640625000 0.004447160288691520690917968750 -0.003583631245419383049011230469 0 0 0 0 
2414333333.3333334923 0.163559839129447909256143134371 -0.049386441707611077045481096093 0.004404519218951463699340820312 -0.003451344091445208029506064307 0 0 0 0 
2414500000.0000000000 0.162560492753982488434161268742 -0.050820574164390557025949846093 0.004249385558068752288818359375 -0.003630538471043109893798828125 0 0 0 0 
2414666666.6666665077 0.161331117153167696853799384371 -0.052223503589630126953125000000 0.004190080333501101407522870801 -0.003610812593251467184779501807 0 0 0 0 
2414833333.3333334923 0.160344496369361905196981865629 -0.053970459848642349243164062500 0.004012343473732472333426191113 -0.003599401330575346946716308594 0 0 0 0 
2415000000.0000000000 0.159342437982559204101562500000 -0.055512852966785430908203125000 0.003998827654868364334106445312 -0.003753101918846368789672851562 0 0 0 0 
2415166666.6666665077 0.158244982361793490310830634371 -0.057265464216470718383789062500 0.004080167971551418304443359375 -0.003898137714713811874389648438 0 0 0 0 
2415333333.3333334923 0.157579794526100186446981865629 -0.059213399887084960937500000000 0.004060813691467046737670898438 -0.003890540450811386108398437500 0 0 0 0 
2415500000.0000000000 0.156831085681915310958700615629 -0.060965985059738159179687500000 0.004021906759589911374563886426 -0.003827009815722703933715820312 0 0 0 0 
2415666666.6666665077 0.155928194522857693771200615629 -0.062803901731967926025390625000 0.004032859113067389401907636426 -0.003955816850066184997558593750 0 0 0 0 
2415833333.3333334923 0.155291706323623712737713731258 -0.064888834953308105468750000000 0.003920606803148984909057617188 -0.004125043749809265136718750000 0 0 0 0 
2416000000.0000000000 0.154646471142768887618856865629 -0.066864177584648132324218750000 0.003879015799611806869506835938 -0.004158232826739549636840820312 0 0 0 0 
2416166666.6666665077 0.154342263936996487716513115629 -0.068796746432781219482421875000 0.003823164151981472969055175781 -0.004317149054259061813354492188 0 0 0 0 
2416333333.3333334923 0.153761878609657287597656250000 -0.070750989019870758056640625000 0.003704193048179150061366415869 -0.004450647626072168350219726562 0 0 0 0 
2416500000.0000000000 0.153441831469535799881143134371 -0.072786316275596618652343750000 0.003729380434378982023951865088 -0.004628153517842292785644531250 0 0 0 0 
2416666666.6666665077 0.152889743447303799728231865629 -0.074650943279266357421875000000 0.003560200333595275878906250000 -0.004849661141633987426757812500 0 0 0 0 
2416833333.3333334923 0.152795374393463107010049384371 -0.076774910092353820800781250000 0.003446641145274043083190917969 -0.004866504110395908355712890625 0 0 0 0 
2417000000.0000000000 0.152455657720565795898437500000 -0.078533262014389038085937500000 0.003253007307648659186122275244 -0.005002434831112623214721679688 0 0 0 0 
2417166666.6666665077 0.152261659502983093261718750000 -0.080325715243816375732421875000 0.003162121865898371176478720557 -0.004954165779054164886474609375 0 0 0 0 
2417333333.3333334923 0.152265116572380093673544365629 -0.082029320299625396728515625000 0.003069894155487418174743652344 -0.005322698038071393966674804688 0 0 0 0 
2417500000.0000000000 0.152089074254036005218182481258 -0.083925954997539520263671875000 0.002828752156347035928013466943 -0.005326698999851942062377929688 0 0 0 0 
2417666666.6666665077 0.152091369032859802246093750000 -0.085410617291927337646484375000 0.002768853912129998207092285156 -0.005488398019224405288696289062 0 0 0 0 
2417833333.3333334923 0.152224913239479092696981865629 -0.086954988539218902587890625000 0.002670504152774810791015625000 -0.005433934740722179412841796875 0 0 0 0 
2418000000.0000000000 0.152245983481407193282919365629 -0.088428370654582977294921875000 0.002428089501336216926574707031 -0.005516109522432088851928710938 0 0 0 0 
2418166666.6666665077 0.152178794145584106445312500000 -0.089788988232612609863281250000 0.002132782246917486190795898438 -0.005664042662829160690307617188 0 0 0 0 
2418333333.3333334923 0.152680024504661587814169365629 -0.090892076492309570312500000000 0.002023868029937148094177246094 -0.005794224329292774200439453125 0 0 0 0 
2418500000.0000000000 0.152705043554306002517861884371 -0.091954804956912994384765625000 0.001880937605164944908739399487 -0.005803070962429046630859375000 0 0 0 0 
2418666666.6666665077 0.152979120612144497970419365629 -0.093166552484035491943359375000 0.001778407022356986999511718750 -0.005789157934486865997314453125 0 0 0 0 
2418833333.3333334923 0.152971416711807306487713731258 -0.094009943306446075439453125000 0.001645356067456305027008056641 -0.005804881919175386428833007812 0 0 0 0 
2419000000.0000000000 0.153044402599334689041299384371 -0.094729028642177581787109375000 0.001382150803692639090894389575 -0.005754330661147832870483398438 0 0 0 0 
2419166666.6666665077 0.153366342186927795410156250000 -0.095452375710010528564453125000 0.001330618397332727909088134766 -0.005908402614295482635498046875 0 0 0 0 
2419333333.3333334923 0.153371900320053100585937500000 -0.095704793930053710937500000000 0.001079189241863786957384419019 -0.005761298816651105880737304688 0 0 0 0 
2419500000.0000000000 0.153701320290565490722656250000 -0.096342153847217559814453125000 0.000983167905360460281372070312 -0.005960761569440364837646484375 0 0 0 0 
2419666666.6666665077 0.153877362608909606933593750000 -0.096778474748134613037109375000 0.000737541588023304939270019531 -0.005913627333939076337332441113 0 0 0 0 
2419833333.3333334923 0.154032930731773404220419365629 -0.096768163144588470458984375000 0.000612601696047931909561157227 -0.005899555981159210205078125000 0 0 0 0 
