# Version 1.00
#
freq[Hz];re:Trc1_S11;im:Trc1_S11;re:Trc2_S21;im:Trc2_S21;
2.400000000000000E+009;1.552973091602325E-001;1.066865921020508E-001;-5.136598832905293E-003;-3.622535150498152E-003;
2.400166666666667E+009;1.550997644662857E-001;1.043115854263306E-001;-5.311176180839539E-003;-3.350952174514532E-003;
2.400333333333334E+009;1.549444198608398E-001;1.021319851279259E-001;-5.455336999148130E-003;-2.966893604025245E-003;
2.400500000000000E+009;1.549337357282639E-001;9.938810765743256E-002;-5.812794435769320E-003;-2.639729995280504E-003;
2.400666666666667E+009;1.549162864685059E-001;9.675416350364685E-002;-5.791501607745886E-003;-2.343147294595838E-003;
2.400833333333334E+009;1.548574715852737E-001;9.399041533470154E-002;-5.928106140345335E-003;-2.032721415162087E-003;
2.401000000000000E+009;1.551724076271057E-001;9.119545668363571E-002;-5.926606245338917E-003;-1.573091838508844E-003;
2.401166666666667E+009;1.553023755550385E-001;8.837299793958664E-002;-6.007623393088579E-003;-1.263402518816292E-003;
2.401333333333334E+009;1.555846631526947E-001;8.573623746633530E-002;-6.050474476069212E-003;-7.598042138852179E-004;
2.401500000000000E+009;1.560524702072144E-001;8.273103833198547E-002;-5.828754510730505E-003;-4.251553036738187E-004;
2.401666666666667E+009;1.563627272844315E-001;7.990956306457520E-002;-5.570563487708569E-003;-1.554682530695573E-004;
2.401833333333334E+009;1.568657308816910E-001;7.713475823402405E-002;-5.511417053639889E-003;1.866427919594571E-004;
2.402000000000000E+009;1.578425765037537E-001;7.435442507266998E-002;-5.178191699087620E-003;2.912952622864395E-004;
2.402166666666667E+009;1.586422473192215E-001;7.175232470035553E-002;-5.131768994033337E-003;4.981460515409708E-004;
2.402333333333334E+009;1.596869677305222E-001;6.892698258161545E-002;-4.898505285382271E-003;6.829401245340705E-004;
2.402500000000000E+009;1.608190387487412E-001;6.648608297109604E-002;-4.672438371926546E-003;7.713662926107645E-004;
2.402666666666667E+009;1.618400514125824E-001;6.412440538406372E-002;-4.501699004322290E-003;6.868342170491815E-004;
2.402833333333334E+009;1.632307469844818E-001;6.164664775133133E-002;-4.333295859396458E-003;7.451171986758709E-004;
2.403000000000000E+009;1.647801399230957E-001;5.922550335526466E-002;-4.145390819758177E-003;8.093412034213543E-004;
2.403166666666667E+009;1.664019823074341E-001;5.706521496176720E-002;-4.095331765711308E-003;7.790346280671656E-004;
2.403333333333334E+009;1.678128987550736E-001;5.476126074790955E-002;-4.121294710785151E-003;7.707313634455204E-004;
2.403500000000000E+009;1.696340888738632E-001;5.265597254037857E-002;-3.816280281171203E-003;8.627271163277328E-004;
2.403666666666667E+009;1.712536513805389E-001;5.064853653311729E-002;-4.032280296087265E-003;7.941005169413984E-004;
2.403833333333334E+009;1.729696542024612E-001;4.887716099619865E-002;-3.999684471637011E-003;1.060045324265957E-003;
2.404000000000000E+009;1.743639558553696E-001;4.712446406483650E-002;-3.928845748305321E-003;8.876785868778825E-004;
2.404166666666667E+009;1.762369722127914E-001;4.561789333820343E-002;-3.889837069436908E-003;8.982323925010860E-004;
2.404333333333334E+009;1.778981536626816E-001;4.422844946384430E-002;-3.942286595702171E-003;1.113733975216746E-003;
2.404500000000000E+009;1.794533133506775E-001;4.272700846195221E-002;-3.785793902352452E-003;1.089326222427189E-003;
2.404666666666667E+009;1.811176240444183E-001;4.153662174940109E-002;-3.860715311020613E-003;1.177393831312656E-003;
2.404833333333334E+009;1.828470826148987E-001;4.056219011545181E-002;-3.940753173083067E-003;1.322034164331853E-003;
2.405000000000000E+009;1.841878443956375E-001;3.993771597743034E-002;-3.740935586392880E-003;1.587011502124369E-003;
2.405166666666667E+009;1.856747567653656E-001;3.924643620848656E-002;-3.814957104623318E-003;1.419782987795770E-003;
2.405333333333334E+009;1.870214492082596E-001;3.878523409366608E-002;-3.760668914765120E-003;1.677437219768763E-003;
2.405500000000000E+009;1.884063780307770E-001;3.809471800923348E-002;-3.627967555075884E-003;1.753921038471162E-003;
2.405666666666667E+009;1.897035688161850E-001;3.784326463937759E-002;-3.503970801830292E-003;1.837215619161725E-003;
2.405833333333334E+009;1.908530294895172E-001;3.756325691938400E-002;-3.446608316153288E-003;1.917379908263683E-003;
2.406000000000000E+009;1.919133216142654E-001;3.736554086208344E-002;-3.282023826614022E-003;2.105965046212077E-003;
2.406166666666667E+009;1.929197013378143E-001;3.714303299784660E-002;-3.174721961840987E-003;2.046057023108006E-003;
2.406333333333334E+009;1.938247233629227E-001;3.736487776041031E-002;-2.978536533191800E-003;1.977750333026052E-003;
2.406500000000000E+009;1.945839673280716E-001;3.739633411169052E-002;-2.918202662840486E-003;2.019663341343403E-003;
2.406666666666667E+009;1.952068060636520E-001;3.743781149387360E-002;-2.790740458294749E-003;2.167152939364314E-003;
2.406833333333334E+009;1.957979053258896E-001;3.741664439439774E-002;-2.842453075572848E-003;2.025070833042264E-003;
2.407000000000000E+009;1.960475295782089E-001;3.770086914300919E-002;-2.835941733792424E-003;1.965151168406010E-003;
2.407166666666667E+009;1.964218616485596E-001;3.746213391423225E-002;-2.778439549729228E-003;2.029082272201777E-003;
2.407333333333334E+009;1.963805109262466E-001;3.778553754091263E-002;-2.642454346641898E-003;1.916466397233307E-003;
2.407500000000000E+009;1.963051110506058E-001;3.782653436064720E-002;-2.633831230923533E-003;1.951725687831640E-003;
2.407666666666667E+009;1.962774097919464E-001;3.773088380694389E-002;-2.538547851145268E-003;1.951327896676958E-003;
2.407833333333334E+009;1.958266943693161E-001;3.772610425949097E-002;-2.653785049915314E-003;1.825664541684091E-003;
2.408000000000000E+009;1.958627998828888E-001;3.752373903989792E-002;-2.714439993724227E-003;1.734978170134127E-003;
2.408166666666667E+009;1.950752437114716E-001;3.719464689493179E-002;-2.825702773407102E-003;1.961166271939874E-003;
2.408333333333334E+009;1.947512179613113E-001;3.681962192058563E-002;-2.883444773033261E-003;1.724576810374856E-003;
2.408500000000000E+009;1.940122395753861E-001;3.646818548440933E-002;-2.951253904029727E-003;1.753358170390129E-003;
2.408666666666667E+009;1.933672726154327E-001;3.597362712025642E-002;-2.888677408918738E-003;1.882910612039268E-003;
2.408833333333334E+009;1.925899386405945E-001;3.535639867186546E-002;-3.091403981670737E-003;1.770309638231993E-003;
2.409000000000000E+009;1.917136013507843E-001;3.423954546451569E-002;-3.363928291946650E-003;1.965938834473491E-003;
2.409166666666667E+009;1.907714009284973E-001;3.337015956640244E-002;-3.415028797462583E-003;2.018184633925557E-003;
2.409333333333334E+009;1.899104565382004E-001;3.247404098510742E-002;-3.389335703104734E-003;2.098716795444489E-003;
2.409500000000000E+009;1.888523697853088E-001;3.118430823087692E-002;-3.367096884176135E-003;2.192860702052712E-003;
2.409666666666667E+009;1.878436058759689E-001;2.994309738278389E-002;-3.510303562507033E-003;2.399976132437587E-003;
2.409833333333334E+009;1.866973638534546E-001;2.822129242122173E-002;-3.677453147247434E-003;2.558239735662937E-003;
2.410000000000000E+009;1.857898384332657E-001;2.672054246068001E-002;-3.550116205587983E-003;2.988315885886550E-003;
2.410166666666667E+009;1.847999989986420E-001;2.476397156715393E-002;-3.622316056862474E-003;3.033866873010993E-003;
2.410333333333334E+009;1.838716268539429E-001;2.303398400545120E-002;-3.724149893969297E-003;3.271678462624550E-003;
2.410500000000000E+009;1.828155368566513E-001;2.096463181078434E-002;-3.815501229837537E-003;3.504551947116852E-003;
2.410666666666667E+009;1.819281876087189E-001;1.871854811906815E-002;-3.633921965956688E-003;3.683458082377911E-003;
2.410833333333334E+009;1.812016069889069E-001;1.666182093322277E-002;-3.453772747889161E-003;3.995268605649471E-003;
2.411000000000000E+009;1.805279701948166E-001;1.434910017997026E-002;-3.347343299537897E-003;4.239767789840698E-003;
2.411166666666667E+009;1.798708885908127E-001;1.216327678412199E-002;-3.227342385798693E-003;4.474662709981203E-003;
2.411333333333334E+009;1.792375743389130E-001;9.570115245878696E-003;-2.967639593407512E-003;4.703862126916647E-003;
2.411500000000000E+009;1.788591742515564E-001;7.120174355804920E-003;-2.835954306647182E-003;4.764060955494642E-003;
2.411666666666667E+009;1.787648051977158E-001;5.021518096327782E-003;-2.655662829056382E-003;4.771756939589977E-003;
2.411833333333334E+009;1.783344596624374E-001;2.438498660922051E-003;-2.348609967157245E-003;4.997088573873043E-003;
2.412000000000000E+009;1.783491224050522E-001;-2.390540175838396E-004;-2.216272056102753E-003;5.202881991863251E-003;
2.412166666666667E+009;1.786311268806458E-001;-2.610334195196629E-003;-1.819835044443607E-003;5.243555642664433E-003;
2.412333333333334E+009;1.788807660341263E-001;-5.149496253579855E-003;-1.864875317551196E-003;5.277059040963650E-003;
2.412500000000000E+009;1.790957152843475E-001;-7.542596664279699E-003;-1.451322343200445E-003;5.275528877973557E-003;
2.412666666666667E+009;1.795830428600311E-001;-1.005956530570984E-002;-1.305375364609063E-003;5.266913212835789E-003;
2.412833333333334E+009;1.805210113525391E-001;-1.238089706748724E-002;-1.141088898293674E-003;5.165593232959509E-003;
2.413000000000000E+009;1.812985539436340E-001;-1.488225348293781E-002;-1.060368842445314E-003;5.302529316395521E-003;
2.413166666666667E+009;1.819770187139511E-001;-1.714446581900120E-002;-8.332179277203977E-004;5.204618442803621E-003;
2.413333333333334E+009;1.830523014068604E-001;-1.948855258524418E-002;-6.207257392816246E-004;5.220256280153990E-003;
2.413500000000000E+009;1.838709115982056E-001;-2.178261242806912E-002;-5.804104730486870E-004;5.301524419337511E-003;
2.413666666666667E+009;1.850484013557434E-001;-2.401628158986569E-002;-3.815681557171047E-004;5.451624281704426E-003;
2.413833333333334E+009;1.861452460289002E-001;-2.612601593136787E-002;-2.107969048665837E-004;5.263331811875105E-003;
2.414000000000000E+009;1.872606277465820E-001;-2.796592563390732E-002;-1.902892254292965E-004;5.301263649016619E-003;
2.414166666666667E+009;1.884743422269821E-001;-2.983609959483147E-002;-9.458205022383481E-005;5.488739348948002E-003;
2.414333333333334E+009;1.895955055952072E-001;-3.177836537361145E-002;1.975024788407609E-004;5.526120308786631E-003;
2.414500000000000E+009;1.909405440092087E-001;-3.319039568305016E-002;3.473086981102824E-004;5.569956265389919E-003;
2.414666666666667E+009;1.919931024312973E-001;-3.476101905107498E-002;5.771085270680487E-004;5.703212227672339E-003;
2.414833333333334E+009;1.931756734848023E-001;-3.621309995651245E-002;6.936564459465444E-004;5.655605345964432E-003;
2.415000000000000E+009;1.942814886569977E-001;-3.753033652901650E-002;9.404509910382330E-004;5.844438448548317E-003;
2.415166666666667E+009;1.955782473087311E-001;-3.865883499383926E-002;1.059391419403255E-003;5.808140616863966E-003;
2.415333333333334E+009;1.966039836406708E-001;-3.946701064705849E-002;1.447494607418776E-003;5.777304992079735E-003;
2.415500000000000E+009;1.977454274892807E-001;-4.022720456123352E-002;1.618179958313704E-003;5.743704270571470E-003;
2.415666666666667E+009;1.987265050411224E-001;-4.115136340260506E-002;2.123520709574223E-003;5.705988965928555E-003;
2.415833333333334E+009;1.995064467191696E-001;-4.164170473814011E-002;2.143291523680091E-003;5.549508612602949E-003;
2.416000000000000E+009;2.002322077751160E-001;-4.227131605148315E-002;2.552000805735588E-003;5.449818912893534E-003;
2.416166666666667E+009;2.010672539472580E-001;-4.279914498329163E-002;2.839009044691920E-003;5.230864044278860E-003;
2.416333333333334E+009;2.015863656997681E-001;-4.299159720540047E-002;3.225354943424463E-003;5.181380547583103E-003;
2.416500000000000E+009;2.020210176706314E-001;-4.315822198987007E-002;3.458920400589705E-003;5.125910043716431E-003;
2.416666666666667E+009;2.023800313472748E-001;-4.353383183479309E-002;3.547715954482555E-003;4.687310196459293E-003;
2.416833333333334E+009;2.025309801101685E-001;-4.355204850435257E-002;3.630829975008965E-003;4.514022264629602E-003;
2.417000000000000E+009;2.025597989559174E-001;-4.356710612773895E-002;3.925625234842300E-003;4.301141947507858E-003;
2.417166666666667E+009;2.022558748722076E-001;-4.349176958203316E-002;3.910169005393982E-003;4.067953675985336E-003;
2.417333333333334E+009;2.020540237426758E-001;-4.323577880859375E-002;4.050683230161667E-003;3.917405847460032E-003;
2.417500000000000E+009;2.018297016620636E-001;-4.326286166906357E-002;4.151111934334040E-003;3.723208094015718E-003;
2.417666666666667E+009;2.012802511453629E-001;-4.295479506254196E-002;4.203346557915211E-003;3.451926633715630E-003;
2.417833333333334E+009;2.007904499769211E-001;-4.273702949285507E-002;4.291760735213757E-003;3.315675770863891E-003;
2.418000000000000E+009;2.001408338546753E-001;-4.252287372946739E-002;4.170907661318779E-003;2.957151504233480E-003;
2.418166666666667E+009;1.993325352668762E-001;-4.249592125415802E-002;4.242731723934412E-003;2.956537529826164E-003;
2.418333333333334E+009;1.983835250139237E-001;-4.223830625414848E-002;4.254619590938091E-003;2.695632865652442E-003;
2.418500000000000E+009;1.973998993635178E-001;-4.220835119485855E-002;4.360714927315712E-003;2.499883295968175E-003;
2.418666666666667E+009;1.963986009359360E-001;-4.210475087165833E-002;4.439119249582291E-003;2.395365387201309E-003;
2.418833333333334E+009;1.951560527086258E-001;-4.231793433427811E-002;4.345186986029148E-003;2.250707941129804E-003;
2.419000000000000E+009;1.937988400459290E-001;-4.247872903943062E-002;4.474858287721872E-003;2.156683942303062E-003;
2.419166666666667E+009;1.924644708633423E-001;-4.282433167099953E-002;4.346832167357206E-003;1.841004588641226E-003;
2.419333333333334E+009;1.911167651414871E-001;-4.321653768420219E-002;4.262353293597698E-003;1.883246237412095E-003;
2.419500000000000E+009;1.896338611841202E-001;-4.354334250092506E-002;4.368040245026350E-003;1.669220044277608E-003;
2.419666666666667E+009;1.880039274692535E-001;-4.431435093283653E-002;4.253710620105267E-003;1.631123712286353E-003;
2.419833333333334E+009;1.863627135753632E-001;-4.498294740915299E-002;4.225173965096474E-003;1.519592828117311E-003;
2.420000000000000E+009;1.847839355468750E-001;-4.593326151371002E-002;4.418385680764914E-003;1.318231923505664E-003;
2.420166666666667E+009;1.831500083208084E-001;-4.687006771564484E-002;4.224824253469706E-003;1.147823641076684E-003;
2.420333333333334E+009;1.815662831068039E-001;-4.805843904614449E-002;4.260989371687174E-003;1.068346668034792E-003;
2.420500000000000E+009;1.798663437366486E-001;-4.932782799005508E-002;4.215246066451073E-003;7.882023928686976E-004;
2.420666666666667E+009;1.782785058021545E-001;-5.045985430479050E-002;4.167453851550818E-003;7.337923743762076E-004;
2.420833333333334E+009;1.766378879547119E-001;-5.201649293303490E-002;4.058466758579016E-003;5.983455339446664E-004;
2.421000000000000E+009;1.751403361558914E-001;-5.350993573665619E-002;3.901089541614056E-003;4.700156569015235E-004;
2.421166666666667E+009;1.737921386957169E-001;-5.529209226369858E-002;3.906664904206991E-003;3.040851734112948E-004;
2.421333333333334E+009;1.720053851604462E-001;-5.674337968230248E-002;3.745248774066567E-003;1.273990201298147E-004;
2.421500000000000E+009;1.708582043647766E-001;-5.867199972271919E-002;3.530655754730105E-003;1.390460529364646E-004;
2.421666666666667E+009;1.694903075695038E-001;-6.040366739034653E-002;3.400391666218638E-003;8.216712740249932E-005;
2.421833333333334E+009;1.684476137161255E-001;-6.223871558904648E-002;3.177382051944733E-003;4.775494016939774E-005;
2.422000000000000E+009;1.672394275665283E-001;-6.426475197076798E-002;3.185937413945794E-003;5.932513886364177E-005;
2.422166666666667E+009;1.663416773080826E-001;-6.640148907899857E-002;3.077087923884392E-003;5.935736044193618E-005;
2.422333333333334E+009;1.654401719570160E-001;-6.839483231306076E-002;2.881003078073263E-003;2.120174031006172E-004;
2.422500000000000E+009;1.646552383899689E-001;-7.032615691423416E-002;2.880427986383438E-003;3.510198730509728E-004;
2.422666666666667E+009;1.640791743993759E-001;-7.233411818742752E-002;2.966008149087429E-003;5.082525312900543E-004;
2.422833333333334E+009;1.635914444923401E-001;-7.454503327608109E-002;3.005363512784243E-003;4.310781660024077E-004;
2.423000000000000E+009;1.631108224391937E-001;-7.663460820913315E-002;2.958034863695502E-003;5.452276673167944E-004;
2.423166666666667E+009;1.627004891633987E-001;-7.854861766099930E-002;2.982664387673140E-003;6.500918534584343E-004;
2.423333333333334E+009;1.624851375818253E-001;-8.054947853088379E-002;3.055167384445667E-003;5.935635417699814E-004;
2.423500000000000E+009;1.625453233718872E-001;-8.241485059261322E-002;3.055404173210263E-003;5.867137806490064E-004;
2.423666666666667E+009;1.623516082763672E-001;-8.424048125743866E-002;3.159592859447002E-003;7.084137760102749E-004;
2.423833333333334E+009;1.624259203672409E-001;-8.602488040924072E-002;3.289438551291823E-003;7.580961100757122E-004;
2.424000000000000E+009;1.626113355159760E-001;-8.798491954803467E-002;3.313519991934300E-003;5.990178324282169E-004;
2.424166666666667E+009;1.626032292842865E-001;-8.938353508710861E-002;3.470930503681302E-003;6.855199462734163E-004;
2.424333333333334E+009;1.630261391401291E-001;-9.102480113506317E-002;3.456722013652325E-003;5.849322769790888E-004;
2.424500000000000E+009;1.633376479148865E-001;-9.274996817111969E-002;3.495655953884125E-003;5.660640890710056E-004;
2.424666666666667E+009;1.636009365320206E-001;-9.406177699565888E-002;3.638501977548003E-003;6.188686238601804E-004;
2.424833333333334E+009;1.641428768634796E-001;-9.533303976058960E-002;3.866360289976001E-003;7.446696981787682E-004;
2.425000000000000E+009;1.645056456327438E-001;-9.652761369943619E-002;4.011661745607853E-003;4.595139180310071E-004;
2.425166666666667E+009;1.648936271667481E-001;-9.749916940927506E-002;4.036721773445606E-003;4.335207922849804E-004;
2.425333333333334E+009;1.651702672243118E-001;-9.861055761575699E-002;4.188538994640112E-003;1.679436390986666E-004;
2.425500000000000E+009;1.656571477651596E-001;-9.954752773046494E-002;4.362394101917744E-003;1.964275725185871E-004;
2.425666666666667E+009;1.660891473293304E-001;-1.002584844827652E-001;4.427660256624222E-003;-1.309742219746113E-005;
2.425833333333334E+009;1.663495749235153E-001;-1.010366231203079E-001;4.587539471685886E-003;-2.681807964108884E-004;
2.426000000000000E+009;1.668199896812439E-001;-1.014211624860764E-001;4.628086462616921E-003;-3.158340114168823E-004;
2.426166666666667E+009;1.672308146953583E-001;-1.019009873270989E-001;4.746150691062212E-003;-4.325134505052120E-004;
2.426333333333334E+009;1.674230992794037E-001;-1.024913638830185E-001;4.772402346134186E-003;-6.350360345095396E-004;
2.426500000000000E+009;1.677851974964142E-001;-1.027353480458260E-001;4.783500451594591E-003;-8.476868970319629E-004;
2.426666666666667E+009;1.679710298776627E-001;-1.029766052961350E-001;4.784429445862770E-003;-1.133780460804701E-003;
2.426833333333334E+009;1.682142168283463E-001;-1.032311320304871E-001;4.691105335950851E-003;-1.363800372928381E-003;
2.427000000000000E+009;1.683117300271988E-001;-1.034797355532646E-001;4.944749176502228E-003;-1.433998579159379E-003;
2.427166666666667E+009;1.683285981416702E-001;-1.035504788160324E-001;4.814609885215759E-003;-1.677399268373847E-003;
2.427333333333334E+009;1.681793779134750E-001;-1.037712246179581E-001;4.693342838436365E-003;-1.859723590314388E-003;
2.427500000000000E+009;1.680125743150711E-001;-1.038941591978073E-001;4.632736090570688E-003;-1.982107991352677E-003;
2.427666666666667E+009;1.676238030195236E-001;-1.039504036307335E-001;4.587299190461636E-003;-2.133318223059177E-003;
2.427833333333334E+009;1.672303229570389E-001;-1.041051968932152E-001;4.466229584068060E-003;-2.180359559133649E-003;
