# Hz S RI R 
2400000000.0000000000 0.173318073153495788574218750000 0.048730310052633292461354841407 0.001928696525283158042310405200 0.005474918056279420852661132812 0 0 0 0 
2400166666.6666665077 0.173934951424598693847656250000 0.048220701515674591064453125000 0.001926565309986471912981342847 0.005556309130042791366577148438 0 0 0 0 
2400333333.3333334923 0.174273788928985595703125000000 0.047276496887207031250000000000 0.002173252636566758155822753906 0.005497562699019908905029296875 0 0 0 0 
2400500000.0000000000 0.174841120839119013030682481258 0.046666394919157028198242187500 0.002263708971440792083740234375 0.005650657229125499725341796875 0 0 0 0 
2400666666.6666665077 0.175045192241668701171875000000 0.045924279838800430297851562500 0.002299948828294872803928994287 0.005637038964778184890747070312 0 0 0 0 
2400833333.3333334923 0.175413683056831387618856865629 0.045401848852634429931640625000 0.002424734178930521011352539062 0.005813141353428363800048828125 0 0 0 0 
2401000000.0000000000 0.175680607557296808440838731258 0.044647593051195151592214216407 0.002569254487752913995030068506 0.005808756686747074127197265625 0 0 0 0 
2401166666.6666665077 0.175889983773231506347656250000 0.044144574552774429321289062500 0.002738541690632700920104980469 0.005769302602857351303100585938 0 0 0 0 
2401333333.3333334923 0.175963997840881403167401231258 0.043511573225259780883789062500 0.003038432449102402167079306494 0.005785383749753236770629882812 0 0 0 0 
2401500000.0000000000 0.176226884126663208007812500000 0.042638685554265982891042341407 0.003064015181735157966613769531 0.005959354341030120849609375000 0 0 0 0 
2401666666.6666665077 0.176134869456291198730468750000 0.042223688215017318725585937500 0.003264481900259851975681923975 0.005822539795190095901489257812 0 0 0 0 
2401833333.3333334923 0.176182270050048800369424384371 0.041306991130113601684570312500 0.003410021308809518814086914062 0.005718702916055917739868164062 0 0 0 0 
2402000000.0000000000 0.176014468073844909667968750000 0.040477581322193152690847028907 0.003755998564884067015406943213 0.005796998273581266403198242188 0 0 0 0 
2402166666.6666665077 0.175827413797378512283486884371 0.039628665894269943237304687500 0.003899123053997755050659179688 0.005667037330567836761474609375 0 0 0 0 
2402333333.3333334923 0.175687611103057889083700615629 0.038689211010932922363281250000 0.004063898697495461377615644238 0.005620912648737430572509765625 0 0 0 0 
2402500000.0000000000 0.175597012042999295333700615629 0.037660073488950729370117187500 0.004276019986718893051147460938 0.005614830646663904190063476562 0 0 0 0 
2402666666.6666665077 0.175246998667717007736044365629 0.036657948046922676776926408593 0.004466462414711713790893554688 0.005489991046488285064697265625 0 0 0 0 
2402833333.3333334923 0.174918293952941894531250000000 0.035517428070306777954101562500 0.004597886465489864349365234375 0.005515424069017171859741210938 0 0 0 0 
2403000000.0000000000 0.174682676792144803146200615629 0.034381676465272903442382812500 0.004954633302986621856689453125 0.005317892879247665405273437500 0 0 0 0 
2403166666.6666665077 0.174344018101692199707031250000 0.033044066280126571655273437500 0.005144282244145870208740234375 0.005395368672907351580148027637 0 0 0 0 
2403333333.3333334923 0.173960775136947604080361884371 0.031604852527379989624023437500 0.005317226517945528030395507812 0.005131293553858994570260332324 0 0 0 0 
2403500000.0000000000 0.173543170094490106780682481258 0.030170883983373638498326485546 0.005674494896084070205688476562 0.004993756301701068878173828125 0 0 0 0 
2403666666.6666665077 0.173226475715637207031250000000 0.028567198663949969900111014454 0.005858850199729204177856445312 0.004881959874182940396780683301 0 0 0 0 
2403833333.3333334923 0.172928079962730407714843750000 0.026740111410617828369140625000 0.005875416565686464309692382812 0.004766027908772230148315429688 0 0 0 0 
2404000000.0000000000 0.172477647662162808517294365629 0.025116268545389178884486014454 0.006342205218970775604248046875 0.004722981248050928115844726562 0 0 0 0 
2404166666.6666665077 0.172126069664955111404580634371 0.023549064993858340871790701954 0.006454166024923324584960937500 0.004282519221305847167968750000 0 0 0 0 
2404333333.3333334923 0.171839147806167602539062500000 0.021768566220998760568638985546 0.006510551087558270368094159863 0.003980048000812531384939862988 0 0 0 0 
2404500000.0000000000 0.171433076262474087814169365629 0.019642535597085949289342110546 0.006847695447504520416259765625 0.003856598399579524993896484375 0 0 0 0 
2404666666.6666665077 0.171073675155639703948651231258 0.017781713977456089365025704296 0.007004200946539640426635742188 0.003704482456669210953953408350 0 0 0 0 
2404833333.3333334923 0.170834586024284390548544365629 0.015921887010335918771763985546 0.006912918295711278915405273438 0.003646946744993329048156738281 0 0 0 0 
2405000000.0000000000 0.170699611306190490722656250000 0.013893249444663529831855974805 0.007012490183115006360525800488 0.003275662194937468008754111182 0 0 0 0 
2405166666.6666665077 0.170449122786521911621093750000 0.011862324550747869664202305273 0.007333804387599229812622070312 0.003027484985068440003636025537 0 0 0 0 
2405333333.3333334923 0.170469611883163507659588731258 0.009704054333269596099853515625 0.007215821649879217147827148438 0.002935162745416163964512490381 0 0 0 0 
2405500000.0000000000 0.170426771044731112381143134371 0.007968359626829624176025390625 0.007426047232002019882202148438 0.002648120513185859160182333838 0 0 0 0 
2405666666.6666665077 0.170612469315528897384481865629 0.005913129076361656188964843750 0.007611883804202079772949218750 0.002341389423236250877380371094 0 0 0 0 
2405833333.3333334923 0.170487686991691589355468750000 0.003952145110815764340872480176 0.007437721826136112213134765625 0.002163139404729009108302451025 0 0 0 0 
2406000000.0000000000 0.170950964093208312988281250000 0.001654556952416897036908793872 0.007680290844291448593139648438 0.001886423444375395991681743091 0 0 0 0 
2406166666.6666665077 0.171018809080123901367187500000 -0.000236703373957425410121363507 0.007631442509591578569894121387 0.001582013792358339049695659106 0 0 0 0 
2406333333.3333334923 0.171527758240699795821981865629 -0.002287488197907805009129189600 0.007579719647765159606933593750 0.001269884058274328925489116138 0 0 0 0 
2406500000.0000000000 0.171868175268173190017861884371 -0.004336278885602951049804687500 0.007793028838932514190673828125 0.001252748887054621956468891675 0 0 0 0 
2406666666.6666665077 0.172064453363418606857138115629 -0.006349439267069101333618164062 0.007659099064767360687255859375 0.000973776564933359622955322266 0 0 0 0 
2406833333.3333334923 0.172925472259521512130575615629 -0.008252777159214019775390625000 0.007905827835202217102050781250 0.000686341430991888046264648438 0 0 0 0 
2407000000.0000000000 0.173514753580093411544638115629 -0.010181739926338199270228201954 0.007814154960215091705322265625 0.000584457069635391235351562500 0 0 0 0 
2407166666.6666665077 0.174238339066505404373330634371 -0.012043204158544540405273437500 0.007953775115311145782470703125 0.000228841876378282904624938965 0 0 0 0 
2407333333.3333334923 0.174711063504219110686932481258 -0.013989645056426530320137224805 0.007877520285546779632568359375 0.000098140728368889540433883667 0 0 0 0 
2407500000.0000000000 0.175512716174125699142294365629 -0.015682457014918330800989920704 0.007899207994341850280761718750 -0.000184538774192333194330492563 0 0 0 0 
2407666666.6666665077 0.176269546151161193847656250000 -0.017366517335176471364954764454 0.007799801882356405258178710938 -0.000474018481327220797538757324 0 0 0 0 
2407833333.3333334923 0.176804289221763610839843750000 -0.019172424450516700744628906250 0.007898851297795772552490234375 -0.000702512799762189388275146484 0 0 0 0 
2408000000.0000000000 0.177582025527954101562500000000 -0.020827174186706539499303048046 0.007874002680182456970214843750 -0.000999760814011096954345703125 0 0 0 0 
2408166666.6666665077 0.178360834717750604827557481258 -0.022281114012002948415736014454 0.007777899969369173049926757812 -0.001140327774919569926020956885 0 0 0 0 
2408333333.3333334923 0.179026469588279696365518134371 -0.023767614737153049814244454296 0.007828798145055770874023437500 -0.001341788447462022087694477612 0 0 0 0 
2408500000.0000000000 0.179644897580146789550781250000 -0.025297066196799281728724295704 0.007681042887270450592041015625 -0.001846546656452118916752480615 0 0 0 0 
2408666666.6666665077 0.180271983146667508224325615629 -0.026532713323831561696986014454 0.007544005755335093411917402051 -0.001820244244299829006195068359 0 0 0 0 
2408833333.3333334923 0.180699288845062311370526231258 -0.027776818722486499441126639454 0.007478186395019292831420898438 -0.002117153257131576971766806494 0 0 0 0 
2409000000.0000000000 0.181061953306198092361611884371 -0.028889270499348640441894531250 0.007314540445804595947265625000 -0.002171410946175456047058105469 0 0 0 0 
2409166666.6666665077 0.181708887219428988357705634371 -0.029787328094243999826451485546 0.007120843511074781417846679688 -0.002443299395963550047633505713 0 0 0 0 
2409333333.3333334923 0.182116582989692687988281250000 -0.030661802738904949533482735546 0.007310153916478157043457031250 -0.002605263609439135031459189307 0 0 0 0 
2409500000.0000000000 0.182409867644309997558593750000 -0.031440086662769317626953125000 0.007056917995214462280273437500 -0.002810910111293197111842490088 0 0 0 0 
2409666666.6666665077 0.182760372757911709884481865629 -0.032150540500879287719726562500 0.007004216779023408889770507812 -0.002961237449198960824253701318 0 0 0 0 
2409833333.3333334923 0.182848721742630004882812500000 -0.032702114433050162578542341407 0.006824637297540903091430664062 -0.003023059805855154991149902344 0 0 0 0 
2410000000.0000000000 0.183213904500007601638955634371 -0.033248309046030051494557966407 0.006944839376956223574166582324 -0.003105222247540951208827353369 0 0 0 0 
2410166666.6666665077 0.183467090129852294921875000000 -0.033456698060035712505300153907 0.006947117391973733901977539062 -0.003373544663190842108485556494 0 0 0 0 
2410333333.3333334923 0.183467417955398587325888115629 -0.033899858593940741802175153907 0.006876336410641670227050781250 -0.003557871328666805787327431787 0 0 0 0 
2410500000.0000000000 0.183450669050216702560263115629 -0.034285113215446472167968750000 0.006763451267033815383911132812 -0.003654827130958437919616699219 0 0 0 0 
2410666666.6666665077 0.183424696326255798339843750000 -0.034689366817474372173268903907 0.006823648232966662320608808301 -0.003890071995556354956385947119 0 0 0 0 
2410833333.3333334923 0.183470383286476107498330634371 -0.034823995083570480346679687500 0.006766784470528364181518554688 -0.004003633745014668378348066113 0 0 0 0 
2411000000.0000000000 0.183139100670814486404580634371 -0.035219617187976837158203125000 0.006697750650346279144287109375 -0.004381806589663028717041015625 0 0 0 0 
2411166666.6666665077 0.182920619845390292068643134371 -0.035350654274225241924245466407 0.006612262688577175140380859375 -0.004491038620471954345703125000 0 0 0 0 
2411333333.3333334923 0.182522132992744501311932481258 -0.035667046904563896869699846093 0.006532359868288040161132812500 -0.004652298986911773681640625000 0 0 0 0 
2411500000.0000000000 0.182097584009170504470986884371 -0.036239393055439002300222028907 0.006424397695809602737426757812 -0.004878675565123558044433593750 0 0 0 0 
2411666666.6666665077 0.181853279471397399902343750000 -0.036471448838710791851003278907 0.006464957725256680574899004199 -0.005132532678544521331787109375 0 0 0 0 
2411833333.3333334923 0.180972903966903686523437500000 -0.036713078618049621582031250000 0.006357391364872455596923828125 -0.005288784857839345932006835938 0 0 0 0 
2412000000.0000000000 0.180485621094703702071981865629 -0.037316344678401947021484375000 0.006202876102179288864135742188 -0.005669298116117715835571289062 0 0 0 0 
2412166666.6666665077 0.179520264267921503265057481258 -0.037762261927127838134765625000 0.006166865117847920331473066113 -0.005782160442322492599487304688 0 0 0 0 
2412333333.3333334923 0.178791403770446805099325615629 -0.038130730390548712993581403907 0.005944196600466966629028320312 -0.006004218012094497680664062500 0 0 0 0 
2412500000.0000000000 0.177716821432113702972088731258 -0.038801647722721099853515625000 0.005734149832278490066528320312 -0.006289414130151271820068359375 0 0 0 0 
2412666666.6666665077 0.176661103963851900955361884371 -0.039447452872991561889648437500 0.005712656769901514053344726562 -0.006609900388866662979125976562 0 0 0 0 
2412833333.3333334923 0.175428807735443087478799384371 -0.040157217532396323467214216407 0.005384773481637240323538495801 -0.006527268793433904647827148438 0 0 0 0 
2413000000.0000000000 0.174472063779830904861611884371 -0.040763594210147857666015625000 0.005226559005677700042724609375 -0.006855818443000316619873046875 0 0 0 0 
2413166666.6666665077 0.173147514462471008300781250000 -0.041526041924953460693359375000 0.005027086474001407623291015625 -0.007196044083684682846069335938 0 0 0 0 
2413333333.3333334923 0.171947941184043912032919365629 -0.042384386062622070312500000000 0.004746908787637948989868164062 -0.007376614026725292205810546875 0 0 0 0 
2413500000.0000000000 0.170755654573440607268963731258 -0.043517448008060462261159528907 0.004597700200974941253662109375 -0.007543575484305620193481445312 0 0 0 0 
2413666666.6666665077 0.169428840279579190353231865629 -0.044452197849750518798828125000 0.004370313137769699096679687500 -0.007785947993397712707519531250 0 0 0 0 
2413833333.3333334923 0.168101668357849093338174384371 -0.045428089797496802593190778907 0.004172256682068110379690839551 -0.007884363643825054168701171875 0 0 0 0 
2414000000.0000000000 0.166777417063713101486044365629 -0.046684131026268012309987653907 0.003964770119637250900268554688 -0.008000663481652736663818359375 0 0 0 0 
2414166666.6666665077 0.165752097964286804199218750000 -0.048036020249128341674804687500 0.003828983986750245094299316406 -0.008387899957597255706787109375 0 0 0 0 
2414333333.3333334923 0.164449438452720586578692518742 -0.049492035061120986938476562500 0.003427172545343637900111533057 -0.008476104587316513061523437500 0 0 0 0 
2414500000.0000000000 0.163483306765556307693643134371 -0.050700198858976357196848283593 0.002991077722981572151184082031 -0.008557300083339214324951171875 0 0 0 0 
2414666666.6666665077 0.162259563803672790527343750000 -0.052293077111244201660156250000 0.002861990593373775915858603369 -0.008842494338750839233398437500 0 0 0 0 
2414833333.3333334923 0.161098644137382507324218750000 -0.053957793861627578735351562500 0.002484481083229184150695800781 -0.008827283047139644622802734375 0 0 0 0 
2415000000.0000000000 0.159977838397026089767294365629 -0.055469259619712829589843750000 0.002313561039045453071594238281 -0.009057749062776565551757812500 0 0 0 0 
2415166666.6666665077 0.158950015902519198318643134371 -0.057275295257568359375000000000 0.001813157228752970912336039966 -0.009191110730171203613281250000 0 0 0 0 
2415333333.3333334923 0.158379018306732205489950615629 -0.059241965413093566894531250000 0.001527742366306483962415385669 -0.009115177206695079803466796875 0 0 0 0 
2415500000.0000000000 0.157347887754440307617187500000 -0.060906313359737403179128278907 0.001073378371074795939801860278 -0.009179819375276565551757812500 0 0 0 0 
2415666666.6666665077 0.156625479459762600997763115629 -0.062764778733253479003906250000 0.000812651065643876791000366211 -0.009143677540123462677001953125 0 0 0 0 
2415833333.3333334923 0.155919775366783086578692518742 -0.064747989177703857421875000000 0.000511895806994289159774780273 -0.009260984137654304504394531250 0 0 0 0 
2416000000.0000000000 0.155241265892982510665731865629 -0.066702447831630706787109375000 0.000158795417519286302015027457 -0.009295633994042873382568359375 0 0 0 0 
2416166666.6666665077 0.154916778206825311858807481258 -0.068763151764869689941406250000 -0.000263063615420833175808507098 -0.009221098385751247406005859375 0 0 0 0 
2416333333.3333334923 0.154248520731925992111044365629 -0.070693023502826690673828125000 -0.000773922074586153030395507812 -0.009027187712490558624267578125 0 0 0 0 
2416500000.0000000000 0.153799429535865811446981865629 -0.072752788662910461425781250000 -0.000885703950189054012298583984 -0.009077779948711395263671875000 0 0 0 0 
2416666666.6666665077 0.153193324804306002517861884371 -0.074748881161212921142578125000 -0.001167243812233210043666220557 -0.008795099332928657531738281250 0 0 0 0 
2416833333.3333334923 0.152962803840637207031250000000 -0.076873138546943664550781250000 -0.001505187363363801999333047021 -0.008900768123567104339599609375 0 0 0 0 
2417000000.0000000000 0.152624085545539911468182481258 -0.078813031315803527832031250000 -0.001943705836310982921003032153 -0.008851207792758941650390625000 0 0 0 0 
2417166666.6666665077 0.152327418327331487457598768742 -0.080421648919582366943359375000 -0.002201164141297339959385537256 -0.008642282336950302124023437500 0 0 0 0 
2417333333.3333334923 0.152354568243026705642861884371 -0.082263097167015075683593750000 -0.002482651500031352043151855469 -0.008453301154077053070068359375 0 0 0 0 
2417500000.0000000000 0.152040600776672391036825615629 -0.084116801619529724121093750000 -0.002643601736053823991062783350 -0.008246786892414093017578125000 0 0 0 0 
2417666666.6666665077 0.152187019586563110351562500000 -0.085673123598098754882812500000 -0.003043444827198981805088662256 -0.008197319693863391876220703125 0 0 0 0 
2417833333.3333334923 0.152049168944358797928018134371 -0.087275892496109008789062500000 -0.003233709139749408201930380713 -0.007979135960340499877929687500 0 0 0 0 
2418000000.0000000000 0.152078837156295804122763115629 -0.088908985257148742675781250000 -0.003436996834352612929103232275 -0.007833303883671760559082031250 0 0 0 0 
2418166666.6666665077 0.152089968323707608321981865629 -0.089987441897392272949218750000 -0.003620640840381383895874023438 -0.007821895182132720947265625000 0 0 0 0 
2418333333.3333334923 0.152486473321914700607138115629 -0.091404572129249572753906250000 -0.003895365865901112990138388525 -0.007400024216622114181518554688 0 0 0 0 
2418500000.0000000000 0.152533993124961908538494981258 -0.092618569731712341308593750000 -0.003997649066150187578683183887 -0.007149679120630025863647460938 0 0 0 0 
2418666666.6666665077 0.152709558606147793868856865629 -0.093686021864414215087890625000 -0.004246868658810853958129882812 -0.006907523609697818756103515625 0 0 0 0 
2418833333.3333334923 0.152803182601928710937500000000 -0.094736583530902862548828125000 -0.004337494261562824249267578125 -0.006866175681352615356445312500 0 0 0 0 
2419000000.0000000000 0.152844175696373013595419365629 -0.095515862107276916503906250000 -0.004551806487143039703369140625 -0.006592097226530314359183027051 0 0 0 0 
2419166666.6666665077 0.153195261955261202713174384371 -0.096088334918022155761718750000 -0.004545286763459444046020507812 -0.006302681285887956619262695312 0 0 0 0 
2419333333.3333334923 0.153327956795692388336505018742 -0.096550226211547851562500000000 -0.004525646567344666394705487988 -0.006169724743813276290893554688 0 0 0 0 
2419500000.0000000000 0.153348848223686190506143134371 -0.097176000475883483886718750000 -0.004743184428662061691284179688 -0.006083342712372541427612304688 0 0 0 0 
2419666666.6666665077 0.153670251369476290603799384371 -0.097624696791172027587890625000 -0.004807814490050076570992754199 -0.005962410941720008850097656250 0 0 0 0 
2419833333.3333334923 0.153709769248962402343750000000 -0.097797818481922149658203125000 -0.004891157150268554687500000000 -0.005714544560760259628295898438 0 0 0 0 
