# Hz S RI R 
2400000000.0000000000 0.173317924141883905608807481258 0.048656560480594641948659528907 0.002048069611191750006434775244 0.005520032718777657422537519238 0 0 0 0 
2400166666.6666665077 0.173754364252090509612713731258 0.048074863851070397113840471093 0.002141953445971012115478515625 0.005680490285158157348632812500 0 0 0 0 
2400333333.3333334923 0.174402743577957208831463731258 0.047360695898532867431640625000 0.002219519577920436859130859375 0.005643892101943492889404296875 0 0 0 0 
2400500000.0000000000 0.174852281808853204925213731258 0.046726152300834662700612653907 0.002307642251253128051757812500 0.005688072182238101959228515625 0 0 0 0 
2400666666.6666665077 0.175254985690116910079794365629 0.046054851263761520385742187500 0.002397849690169095993041992188 0.005710119847208262357229902051 0 0 0 0 
2400833333.3333334923 0.175548046827316311935263115629 0.045360039919614791870117187500 0.002555518411099911169764853369 0.005630893632769584655761718750 0 0 0 0 
2401000000.0000000000 0.175738066434860201736611884371 0.044761497527360923076589216407 0.002643928164616227149963378906 0.005631666164845228195190429688 0 0 0 0 
2401166666.6666665077 0.175933256745338412185830634371 0.044142164289951317523996721093 0.002768211765214800834655761719 0.005598414223641157150268554688 0 0 0 0 
2401333333.3333334923 0.175902962684631403167401231258 0.043433535844087600708007812500 0.002962576923891901969909667969 0.005874504335224627581124590137 0 0 0 0 
2401500000.0000000000 0.176133707165718106368856865629 0.042706180363893508911132812500 0.003062276169657707214355468750 0.005877722520381212234497070312 0 0 0 0 
2401666666.6666665077 0.176053881645202608963174384371 0.042317938059568412090261091407 0.003271567635238171057460165869 0.005570163950324059400076581738 0 0 0 0 
2401833333.3333334923 0.176052495837211608886718750000 0.041460044682025909423828125000 0.003425119677558540864231728662 0.005773131735622882843017578125 0 0 0 0 
2402000000.0000000000 0.175869867205619812011718750000 0.040562923997640609741210937500 0.003630111226812005043029785156 0.005902339238673449429983808301 0 0 0 0 
2402166666.6666665077 0.175775676965713500976562500000 0.039729204028844833374023437500 0.003894348395988345146179199219 0.005850109737366437911987304688 0 0 0 0 
2402333333.3333334923 0.175528109073638888260049384371 0.038711179047822952270507812500 0.004069768358021975430960370801 0.005629048217087984085083007812 0 0 0 0 
2402500000.0000000000 0.175460174679756192306356865629 0.037729345262050628662109375000 0.004344090353697538375854492188 0.005708175711333751678466796875 0 0 0 0 
2402666666.6666665077 0.175251588225364712814169365629 0.036716926842927932739257812500 0.004324918612837790575509355762 0.005397109314799308776855468750 0 0 0 0 
2402833333.3333334923 0.174902141094207791427450615629 0.035543240606784820556640625000 0.004761789459735155105590820312 0.005451519507914781570434570312 0 0 0 0 
2403000000.0000000000 0.174561530351638793945312500000 0.034427680075168609619140625000 0.004846286959946156415457441113 0.005496338009834290418142987988 0 0 0 0 
2403166666.6666665077 0.174330502748489407638388115629 0.033049885183572769165039062500 0.005064823664724826812744140625 0.005356870591640472412109375000 0 0 0 0 
2403333333.3333334923 0.173962324857711791992187500000 0.031764708459377288818359375000 0.005225873552262783050537109375 0.005101134069263935089111328125 0 0 0 0 
2403500000.0000000000 0.173688754439353887359942518742 0.030218757688999179494837576954 0.005596494767814874649047851562 0.005093168467283248901367187500 0 0 0 0 
2403666666.6666665077 0.173186883330345209319744981258 0.028484174981713298452357108204 0.005694428924471139907836914062 0.004871189128607512387747480176 0 0 0 0 
2403833333.3333334923 0.172860994935035705566406250000 0.027002388611435890197753906250 0.006005253177136182785034179688 0.004763123579323291778564453125 0 0 0 0 
2404000000.0000000000 0.172469109296798706054687500000 0.025233231484889980661412423046 0.006180946715176106366629316113 0.004729534499347209930419921875 0 0 0 0 
2404166666.6666665077 0.171871110796928405761718750000 0.023474501445889469491978829296 0.006256903521716594696044921875 0.004291870631277561187744140625 0 0 0 0 
2404333333.3333334923 0.171724781394004794021768134371 0.021776160225272178649902343750 0.006629760377109050750732421875 0.004158610943704844388479902051 0 0 0 0 
2404500000.0000000000 0.171391427516937311370526231258 0.019705897197127338754674141796 0.006751161534339190396780683301 0.004030324053019285202026367188 0 0 0 0 
2404666666.6666665077 0.171221509575843811035156250000 0.017802339047193530691126639454 0.007057369221001864346975995801 0.003683895105496048927307128906 0 0 0 0 
2404833333.3333334923 0.170910075306892395019531250000 0.015872241929173469543457031250 0.006943201180547475814819335938 0.003676996799185872077941894531 0 0 0 0 
2405000000.0000000000 0.170693919062614413162393134371 0.013842123560607429849644844921 0.006935078185051679611206054688 0.003196549136191606955287314307 0 0 0 0 
2405166666.6666665077 0.170405283570289611816406250000 0.011959087103605270385742187500 0.007201989181339740753173828125 0.003096804954111576080322265625 0 0 0 0 
2405333333.3333334923 0.170551225543022211272869981258 0.009721616283059120178222656250 0.007268392015248537063598632812 0.002790784928947687149047851562 0 0 0 0 
2405500000.0000000000 0.170529186725616510589276231258 0.007706043776124715805053710938 0.007322233635932207107543945312 0.002559585729613900184631347656 0 0 0 0 
2405666666.6666665077 0.170654118061065701583700615629 0.005846216809004545211791992188 0.007402685470879077911376953125 0.002482371637597680091857910156 0 0 0 0 
2405833333.3333334923 0.170618399977683993240518134371 0.003833191236481070952174521338 0.007397778332233428955078125000 0.002248868113383651213404990088 0 0 0 0 
2406000000.0000000000 0.170827969908714294433593750000 0.001581625314429401917698525537 0.007559907622635365399832441113 0.001965731382369995117187500000 0 0 0 0 
2406166666.6666665077 0.171053797006607111175213731258 -0.000241151908994652303770342416 0.007604075130075216293334960938 0.001604835968464612960815429688 0 0 0 0 
2406333333.3333334923 0.171570107340812710861044365629 -0.002277676481753588156459189307 0.007616762071847915649414062500 0.001361130969598888917210244287 0 0 0 0 
2406500000.0000000000 0.172003597021102905273437500000 -0.004229412414133548736572265625 0.007495575118809938430786132812 0.001101228175684809901593852466 0 0 0 0 
2406666666.6666665077 0.172293886542320306975994981258 -0.006142856553196907043457031250 0.007707654964178800582885742188 0.001043945667333900928497314453 0 0 0 0 
2406833333.3333334923 0.172872826457023592849893134371 -0.008190691471099853515625000000 0.007775775156915187835693359375 0.000826251169200986623764038086 0 0 0 0 
2407000000.0000000000 0.173435285687446594238281250000 -0.010306434705853460484514805273 0.007768781855702400207519531250 0.000404585152864456176757812500 0 0 0 0 
2407166666.6666665077 0.174240663647651700118856865629 -0.012081002816557880746861641796 0.007894664071500301361083984375 0.000228607765166088911608019418 0 0 0 0 
2407333333.3333334923 0.174801841378212002853231865629 -0.014028198085725309199323085352 0.007997894659638404846191406250 0.000123973761219531297683715820 0 0 0 0 
2407500000.0000000000 0.175396621227264404296875000000 -0.015759829431772228586217110546 0.007901717908680438995361328125 -0.000145647267345339086934766226 0 0 0 0 
2407666666.6666665077 0.176226764917373712737713731258 -0.017366753891110420227050781250 0.007739453576505184173583984375 -0.000437592243542894721031188965 0 0 0 0 
2407833333.3333334923 0.176842153072357205489950615629 -0.019178681075572970998743826954 0.007697706110775470733642578125 -0.000591374584473669528961181641 0 0 0 0 
2408000000.0000000000 0.177544251084327697753906250000 -0.020824477076530460012415701954 0.007745817303657531738281250000 -0.000960721343290060758590698242 0 0 0 0 
2408166666.6666665077 0.178258702158927889724893134371 -0.022343343123793598520299141796 0.007757659535855054855346679688 -0.001206085900776088020922016675 0 0 0 0 
2408333333.3333334923 0.179103240370750399490518134371 -0.023825131356716159475306326954 0.007739713881164789199829101562 -0.001560165081173181967494345557 0 0 0 0 
2408500000.0000000000 0.179550930857658386230468750000 -0.025311579927802089345911795704 0.007648574654012919339651777051 -0.001528514898382127068163227612 0 0 0 0 
2408666666.6666665077 0.180239021778106689453125000000 -0.026646256446838378906250000000 0.007570736110210418701171875000 -0.001981028588488698005676269531 0 0 0 0 
2408833333.3333334923 0.180737257003784207443075615629 -0.027746506035327911376953125000 0.007430372759699822339529706738 -0.002140051452443004088160849463 0 0 0 0 
2409000000.0000000000 0.181136593222618103027343750000 -0.028828799724578860891321951954 0.007386356126517057418823242188 -0.002193247899413108825683593750 0 0 0 0 
2409166666.6666665077 0.181673631072044400314169365629 -0.029775971546769138681431954296 0.007192558143287897109985351562 -0.002355691976845264001133584131 0 0 0 0 
2409333333.3333334923 0.182100951671600286285723768742 -0.030700888484716418874720389454 0.007089791353791952133178710938 -0.002656176220625638961791992188 0 0 0 0 
2409500000.0000000000 0.182426258921623202224893134371 -0.031603634357452392578125000000 0.007135868538171052932739257812 -0.002699169563129543824436806787 0 0 0 0 
2409666666.6666665077 0.182650730013847406585369981258 -0.032102596014738082885742187500 0.007041580975055694580078125000 -0.002848990494385362105128622900 0 0 0 0 
2409833333.3333334923 0.182855367660522488693075615629 -0.032610226422548287128488908593 0.006909390445798636350149823926 -0.003061222378164529800415039062 0 0 0 0 
2410000000.0000000000 0.183168694376945495605468750000 -0.033044379204511642456054687500 0.006814692169427871704101562500 -0.003164642257615923881530761719 0 0 0 0 
2410166666.6666665077 0.183404892683029202560263115629 -0.033540531992912292480468750000 0.006922231055796146392822265625 -0.003151174867525697188136435400 0 0 0 0 
2410333333.3333334923 0.183578491210937500000000000000 -0.033777676522731781005859375000 0.006752691697329282760620117188 -0.003526404267176986174342490088 0 0 0 0 
2410500000.0000000000 0.183557644486427307128906250000 -0.034386388957500457763671875000 0.006711069028824567794799804688 -0.003611596301198006109950400244 0 0 0 0 
2410666666.6666665077 0.183549046516418512542401231258 -0.034696936607360839843750000000 0.006736279465258122357840253613 -0.003831584239378571943995810400 0 0 0 0 
2410833333.3333334923 0.183380126953125000000000000000 -0.034862667322158806537668596093 0.006765719503164291381835937500 -0.003968960605561733245849609375 0 0 0 0 
2411000000.0000000000 0.183173090219497708419638115629 -0.035026278346776962280273437500 0.006809771060943604382986737988 -0.004256957210600376129150390625 0 0 0 0 
2411166666.6666665077 0.182984039187431307693643134371 -0.035410568118095397949218750000 0.006607667077332735061645507812 -0.004474290180951356887817382812 0 0 0 0 
2411333333.3333334923 0.182576119899749811370526231258 -0.035707443952560431743581403907 0.006628589238971471786499023438 -0.004726475570350885391235351562 0 0 0 0 
2411500000.0000000000 0.181960865855217007736044365629 -0.036186493933200843120534528907 0.006508190184831619262695312500 -0.004908609203994274139404296875 0 0 0 0 
2411666666.6666665077 0.181645378470420809646768134371 -0.036378201097249991680104841407 0.006284612696617841720581054688 -0.005092670675367116928100585938 0 0 0 0 
2411833333.3333334923 0.181026652455329895019531250000 -0.036852888762950897216796875000 0.006428340915590524673461914062 -0.005205371417105197906494140625 0 0 0 0 
2412000000.0000000000 0.180494591593742398361044365629 -0.037197697907686226581613908593 0.006223324686288833618164062500 -0.005624625831842423352713300488 0 0 0 0 
2412166666.6666665077 0.179451987147331210037393134371 -0.037754740566015236591379533593 0.006088636815547943115234375000 -0.005870480556041002273559570312 0 0 0 0 
2412333333.3333334923 0.178791910409927395919638115629 -0.038170617073774337768554687500 0.006002711597830057144165039062 -0.006056588608771562576293945312 0 0 0 0 
2412500000.0000000000 0.177659511566162109375000000000 -0.038649961352348327636718750000 0.005784342996776103973388671875 -0.006289331708103418350219726562 0 0 0 0 
2412666666.6666665077 0.176781415939331110198651231258 -0.039372615516185760498046875000 0.005557538475841283798217773438 -0.006471445783972740173339843750 0 0 0 0 
2412833333.3333334923 0.175557613372802706619424384371 -0.040071029216051101684570312500 0.005310480017215014371390058301 -0.006693185307085514068603515625 0 0 0 0 
2413000000.0000000000 0.174439340829849187652911268742 -0.040694911032915122295339216407 0.005229541100561618804931640625 -0.006912234239280223846435546875 0 0 0 0 
2413166666.6666665077 0.173219218850135803222656250000 -0.041564479470252990722656250000 0.004900319967418909072875976562 -0.007133996114134789380545331738 0 0 0 0 
2413333333.3333334923 0.171869710087776211837606865629 -0.042373400181531913066823591407 0.004854611121118068695068359375 -0.007295430637896060943603515625 0 0 0 0 
2413500000.0000000000 0.170630767941474886795205634371 -0.043430708348751068115234375000 0.004585233982652425765991210938 -0.007382439449429512023925781250 0 0 0 0 
2413666666.6666665077 0.169413298368454007247763115629 -0.044486932456493377685546875000 0.004331542644649744033813476562 -0.007523095235228539380545331738 0 0 0 0 
2413833333.3333334923 0.168140038847923306564169365629 -0.045555472373962402343750000000 0.004212599713355302810668945312 -0.007876374758780002593994140625 0 0 0 0 
2414000000.0000000000 0.166839718818664606292401231258 -0.046654373407363891601562500000 0.004022725392132998380179120801 -0.007987811230123043060302734375 0 0 0 0 
2414166666.6666665077 0.165665388107299804687500000000 -0.048024851828813552856445312500 0.003652158193290234045741415869 -0.008214028552174568176269531250 0 0 0 0 
2414333333.3333334923 0.164219334721565302093182481258 -0.049294270575046539306640625000 0.003418205305933951897862099756 -0.008313507772982120513916015625 0 0 0 0 
2414500000.0000000000 0.163376793265342712402343750000 -0.050884332507848739624023437500 0.003278422635048627853393554688 -0.008439300581812858581542968750 0 0 0 0 
2414666666.6666665077 0.162250593304634094238281250000 -0.052320722490549087524414062500 0.002770912135019897980930947412 -0.008743220008909702301025390625 0 0 0 0 
2414833333.3333334923 0.161119982600212097167968750000 -0.053866062313318252563476562500 0.002581207547336816787719726562 -0.008797736838459968566894531250 0 0 0 0 
2415000000.0000000000 0.159979388117790194412393134371 -0.055536810308694839477539062500 0.002222939627245068983790732275 -0.008773029781877994537353515625 0 0 0 0 
2415166666.6666665077 0.159106418490409906585369981258 -0.057217314839363098144531250000 0.001814696472138165993931435693 -0.008992660790681838989257812500 0 0 0 0 
2415333333.3333334923 0.158243373036384610275106865629 -0.059288688004016883159597028907 0.001573388115502893924713134766 -0.009124260395765304565429687500 0 0 0 0 
2415500000.0000000000 0.157421886920929010589276231258 -0.060919973999261863017995466407 0.001163198612630367062212299878 -0.009174515493214130401611328125 0 0 0 0 
2415666666.6666665077 0.156656160950660705566406250000 -0.062766976654529571533203125000 0.000918804900720715522766113281 -0.009129619225859642028808593750 0 0 0 0 
2415833333.3333334923 0.155894100666046087066973768742 -0.064773425459861755371093750000 0.000500033318530768156051635742 -0.009141893126070499420166015625 0 0 0 0 
2416000000.0000000000 0.155182167887687710861044365629 -0.066765837371349334716796875000 -0.000100291304988786605283460074 -0.009236627258360385894775390625 0 0 0 0 
2416166666.6666665077 0.154835626482963589767294365629 -0.068832933902740478515625000000 -0.000213982610148377689436235971 -0.009058709256350994110107421875 0 0 0 0 
2416333333.3333334923 0.154147669672966003417968750000 -0.070766761898994445800781250000 -0.000559826265089213848114013672 -0.009215051308274269104003906250 0 0 0 0 
2416500000.0000000000 0.153775215148925809005575615629 -0.072743542492389678955078125000 -0.000838235951960086822509765625 -0.009153006598353385925292968750 0 0 0 0 
2416666666.6666665077 0.153356775641441400725994981258 -0.074688471853733062744140625000 -0.001335419015958905003191303784 -0.009074837900698184967041015625 0 0 0 0 
2416833333.3333334923 0.152987524867057800292968750000 -0.076750062406063079833984375000 -0.001571243046782911040662455981 -0.008969692513346672058105468750 0 0 0 0 
2417000000.0000000000 0.152527078986167907714843750000 -0.078746825456619262695312500000 -0.001961785601451992988586425781 -0.008712389506399631500244140625 0 0 0 0 
2417166666.6666665077 0.152405157685279901702557481258 -0.080529093742370605468750000000 -0.002241252455860375924351357568 -0.008598110638558864593505859375 0 0 0 0 
2417333333.3333334923 0.152290269732475308517294365629 -0.082239113748073577880859375000 -0.002631896641105413003208779443 -0.008527416735887527465820312500 0 0 0 0 
2417500000.0000000000 0.152142420411109896560830634371 -0.084232270717620849609375000000 -0.002866262570023537115809775244 -0.008372972719371318817138671875 0 0 0 0 
2417666666.6666665077 0.152207344770431490799111884371 -0.085602618753910064697265625000 -0.003168900497257709936854697119 -0.008200997486710548400878906250 0 0 0 0 
2417833333.3333334923 0.152205377817153902908486884371 -0.087179347872734069824218750000 -0.003267918480560183958766318213 -0.007902562618255615234375000000 0 0 0 0 
2418000000.0000000000 0.152040868997573908050213731258 -0.088895782828330993652343750000 -0.003495457815006374879124306787 -0.007721879519522190093994140625 0 0 0 0 
2418166666.6666665077 0.152105569839477511306924384371 -0.090109989047050476074218750000 -0.003748150309547781944274902344 -0.007581082172691822052001953125 0 0 0 0 
2418333333.3333334923 0.152419716119766207595986884371 -0.091477632522583007812500000000 -0.004066730849444866180419921875 -0.007482327520847321424002362988 0 0 0 0 
2418500000.0000000000 0.152454808354377802093182481258 -0.092650212347507476806640625000 -0.004109331872314214706420898438 -0.007200498133897781372070312500 0 0 0 0 
2418666666.6666665077 0.152650907635688809493856865629 -0.093745440244674682617187500000 -0.004308714065700769424438476562 -0.006967264227569103240966796875 0 0 0 0 
2418833333.3333334923 0.152730911970138605315838731258 -0.094696916639804840087890625000 -0.004359891638159751892089843750 -0.006694583222270011901855468750 0 0 0 0 
2419000000.0000000000 0.152948722243308993240518134371 -0.095513373613357543945312500000 -0.004559077322483062744140625000 -0.006546250544488430023193359375 0 0 0 0 
2419166666.6666665077 0.153144806623458890060263115629 -0.096161171793937683105468750000 -0.004589985590428113937377929688 -0.006282713264226914319510175488 0 0 0 0 
2419333333.3333334923 0.153249725699424688141192518742 -0.096553035080432891845703125000 -0.004791183397173882398123456738 -0.006092573516070842742919921875 0 0 0 0 
2419500000.0000000000 0.153548091650009210784588731258 -0.097339510917663574218750000000 -0.004810230340808629989624023438 -0.005999005399644374847412109375 0 0 0 0 
2419666666.6666665077 0.153752341866493197342080634371 -0.097675040364265441894531250000 -0.004805296659469605359549237988 -0.005812649149447680387015058301 0 0 0 0 
2419833333.3333334923 0.153694912791252108474893134371 -0.097771003842353820800781250000 -0.004949382971972227096557617188 -0.005649912636727094650268554688 0 0 0 0 
