# Hz S RI R 50
2400000000.0000000000 0.168040186166763305664062500000 0.040630050003528601909597028907 0.002357305726036428971531533350 -0.001180117134936154105542827075 0 0 0 0 
2400166666.6666665077 0.168720200657844487945880018742 0.039917498826980590820312500000 0.002396599622443317933323525537 -0.001206092187203466892242431641 0 0 0 0 
2400333333.3333334923 0.169173672795295687576455634371 0.038982257246971130371093750000 0.002406299114227294921875000000 -0.001279906951822340922114706885 0 0 0 0 
2400500000.0000000000 0.169675067067146301269531250000 0.038081370294094092632253278907 0.002509653335437179045436240088 -0.001439023530110717036603618091 0 0 0 0 
2400666666.6666665077 0.170122221112251309493856865629 0.037251833826303482055664062500 0.002614910481497644944431923975 -0.001673731952905654907226562500 0 0 0 0 
2400833333.3333334923 0.170446023344993591308593750000 0.036494910717010498046875000000 0.002571898512542248205897665869 -0.001733805984258651950238871997 0 0 0 0 
2401000000.0000000000 0.170775651931762695312500000000 0.035577457398176193237304687500 0.002627579262480140166041708838 -0.001902595511637628078460693359 0 0 0 0 
2401166666.6666665077 0.171100869774818392654580634371 0.034585412591695792461354841407 0.002750155283138155937194824219 -0.002041292609646915955784463037 0 0 0 0 
2401333333.3333334923 0.171161666512489291092080634371 0.033856410533189766620676408593 0.002779385540634394125697470557 -0.002351401606574655012843466650 0 0 0 0 
2401500000.0000000000 0.171542137861251803299111884371 0.033127728849649429321289062500 0.002742405282333492799046181787 -0.002390761859714984893798828125 0 0 0 0 
2401666666.6666665077 0.171451225876808194259481865629 0.032371673732995986938476562500 0.002539711073040961785557412256 -0.002804995514452456994297646631 0 0 0 0 
2401833333.3333334923 0.171761631965637207031250000000 0.031269337981939322734792341407 0.002452216809615492820739746094 -0.002941015874966979026794433594 0 0 0 0 
2402000000.0000000000 0.171643435955047607421875000000 0.030523326247930530202845389454 0.002242080168798565864562988281 -0.002922760555520654158351279150 0 0 0 0 
2402166666.6666665077 0.171806991100311307052450615629 0.029504455626010901714284528907 0.002103431848809123039245605469 -0.003096986329182982011082314600 0 0 0 0 
2402333333.3333334923 0.171462237834930392166299384371 0.028549358248710628854771798046 0.001955103361979126930236816406 -0.003123932518064976172206259619 0 0 0 0 
2402500000.0000000000 0.171960920095443697830361884371 0.027767170220613479614257812500 0.001620032475329935984370566260 -0.003143091686069964928867959131 0 0 0 0 
2402666666.6666665077 0.171608403325080899337606865629 0.026670826599001880991002266796 0.001592540065757930061937641675 -0.003266128478571773009059286963 0 0 0 0 
2402833333.3333334923 0.171615973114967401702557481258 0.025690149515867229806920235546 0.001403057016432285091997456128 -0.003434256883338094191310263525 0 0 0 0 
2403000000.0000000000 0.171406403183937100509481865629 0.024573406204581260681152343750 0.001195304095745087103602743994 -0.003271168097853661017176962744 0 0 0 0 
2403166666.6666665077 0.171497046947479303558026231258 0.023532839491963390005091483204 0.000955599010922014713287353516 -0.003176411380991340117213583838 0 0 0 0 
2403333333.3333334923 0.171469181776046808440838731258 0.022511295974254611623743826954 0.000974402588326483964920043945 -0.003373727668076754050013876807 0 0 0 0 
2403500000.0000000000 0.171284779906272888183593750000 0.021419268101453781127929687500 0.000585898756980895996093750000 -0.003086731536313890977146767725 0 0 0 0 
2403666666.6666665077 0.171126902103424100021200615629 0.020176153630018230783482735546 0.000655433395877480506896972656 -0.003155073383823037147521972656 0 0 0 0 
2403833333.3333334923 0.171186015009880093673544365629 0.018901932984590530395507812500 0.000436621456174179911613464355 -0.003194327699020504951477050781 0 0 0 0 
2404000000.0000000000 0.170788258314132690429687500000 0.017765043303370479238489920704 0.000568494549952447414398193359 -0.003082324052229524092433310400 0 0 0 0 
2404166666.6666665077 0.170714423060417203048544365629 0.016289075836539268493652343750 0.000480949180200695991516113281 -0.002858513500541449026820517432 0 0 0 0 
2404333333.3333334923 0.170558065176010104080361884371 0.015050306916236879176129725977 0.000486193894175812602043151855 -0.002928394824266434149501181494 0 0 0 0 
2404500000.0000000000 0.170294314622879000564736884371 0.013629009015858169900914376171 0.000236529827816411907046717511 -0.002757972106337546868565224756 0 0 0 0 
2404666666.6666665077 0.170403957366943387130575615629 0.012161904014647010457972342579 0.000166806494235061109066009521 -0.002931497292593121962306357275 0 0 0 0 
2404833333.3333334923 0.170228108763694790939169365629 0.010806279256939889735211757227 0.000317558500682935118675231934 -0.003068879013881086869480752100 0 0 0 0 
2405000000.0000000000 0.170315518975257901290731865629 0.009300955571234226226806640625 0.000161916745128110105365198956 -0.003090665675699710845947265625 0 0 0 0 
2405166666.6666665077 0.170099034905433710296307481258 0.007726389914751052856445312500 0.000051767954573733732104301453 -0.003129617311060429053065634619 0 0 0 0 
2405333333.3333334923 0.170167639851570101638955634371 0.006088561844080686569213867188 -0.000138338858960196402951917105 -0.003325152909383178190944052588 0 0 0 0 
2405500000.0000000000 0.170170649886131286621093750000 0.004636765923351049423217773438 -0.000099917211628053337335586548 -0.003291413653641939163208007812 0 0 0 0 
2405666666.6666665077 0.170036792755127008636151231258 0.003054406028240919113159179688 -0.000393573631299659609794616699 -0.003392906161025166945216513525 0 0 0 0 
2405833333.3333334923 0.169958487153053311446981865629 0.001437925500795244953752827222 -0.000416904746089130585819798602 -0.003315624548122286796569824219 0 0 0 0 
2406000000.0000000000 0.169938862323760986328125000000 -0.000437520007835701107978820801 -0.000463647185824811512797755109 -0.003206054447218776182887411963 0 0 0 0 
2406166666.6666665077 0.169690191745758112151776231258 -0.001764116110280155918718647534 -0.000721884309314191341400146484 -0.003115600906312466101405478369 0 0 0 0 
2406333333.3333334923 0.169784322381019592285156250000 -0.003467365168035029931309365381 -0.000857640174217522144317626953 -0.003044882556423544883728027344 0 0 0 0 
2406500000.0000000000 0.169534891843795804122763115629 -0.005034156609326601028442382812 -0.001017342554405332045314169775 -0.003025439567863941192626953125 0 0 0 0 
2406666666.6666665077 0.169312343001365689376669365629 -0.006641030777245759963989257812 -0.000868993927724659442901611328 -0.002815765561535954909083701025 0 0 0 0 
2406833333.3333334923 0.169292628765106201171875000000 -0.008235468529164791107177734375 -0.001038998947478831031202006763 -0.002818123903125524954554892432 0 0 0 0 
2407000000.0000000000 0.169215306639671297928018134371 -0.009689760394394397735595703125 -0.001164587214589118957519531250 -0.002745949663221836090087890625 0 0 0 0 
2407166666.6666665077 0.168990314006805392166299384371 -0.011103966273367410141914568555 -0.001210796181112528064130473560 -0.002544962801039218902587890625 0 0 0 0 
2407333333.3333334923 0.168727844953536987304687500000 -0.012540430761873720341692539648 -0.001139672356657684066175151294 -0.002464895369485021071193076025 0 0 0 0 
2407500000.0000000000 0.168651968240737887283486884371 -0.013895881362259389704694179102 -0.001313041197136044935939169775 -0.002281760331243277029750204932 0 0 0 0 
2407666666.6666665077 0.168542712926864596267861884371 -0.015027851797640320169469063671 -0.001346896402537822940229106372 -0.002393039176240562958958291162 0 0 0 0 
2407833333.3333334923 0.168207749724388094803018134371 -0.016324672847986221313476562500 -0.001261725439690053896663046729 -0.002249360317364335060119628906 0 0 0 0 
2408000000.0000000000 0.168242797255516107757244981258 -0.017481546849012378347376639454 -0.001275724731385708072065043872 -0.002164506353437900976893759619 0 0 0 0 
2408166666.6666665077 0.168078333139419611175213731258 -0.018548287451267238962193673046 -0.001332080224528908946393657153 -0.002095066243782639937159872900 0 0 0 0 
2408333333.3333334923 0.168184280395507812500000000000 -0.019438061863183978689173514454 -0.001333875814452766938450478662 -0.001955671235918999151942587744 0 0 0 0 
2408500000.0000000000 0.168179541826248196700888115629 -0.020347807556390758859654610546 -0.001216798322275280952453613281 -0.001957072876393795013427734375 0 0 0 0 
2408666666.6666665077 0.168216794729232788085937500000 -0.021405991166830059396763985546 -0.001187999732792377905604697119 -0.001831207424402236938476562500 0 0 0 0 
2408833333.3333334923 0.168127149343490600585937500000 -0.022231034934520721435546875000 -0.001240862184204160950304340894 -0.001911544124595820903778076172 0 0 0 0 
2409000000.0000000000 0.168233782052993802169638115629 -0.023078231140971180307408516796 -0.001215798198245465972303080981 -0.001850522239692508957506489331 0 0 0 0 
2409166666.6666665077 0.168470442295074490646200615629 -0.023873191326856609689732735546 -0.001064335810951888994929648291 -0.001860817545093595981597900391 0 0 0 0 
2409333333.3333334923 0.168687850236892700195312500000 -0.024762883782386779785156250000 -0.001072686165571212985395121997 -0.001862570294179022095323872144 0 0 0 0 
2409500000.0000000000 0.168777063488960293868856865629 -0.025888169184327129018763358204 -0.000999504467472434043884277344 -0.001770808128640056090113974463 0 0 0 0 
2409666666.6666665077 0.168890640139579800704794365629 -0.026600839570164680480957031250 -0.001040814444422722079633403247 -0.001975819468498229980468750000 0 0 0 0 
2409833333.3333334923 0.169191390275955200195312500000 -0.027576830238103870046595389454 -0.001019187853671609921696328271 -0.002018917584791779951808310400 0 0 0 0 
2410000000.0000000000 0.169084727764129610916299384371 -0.028385028243064880371093750000 -0.001094292849302292086957621997 -0.002250181511044501824619912256 0 0 0 0 
2410166666.6666665077 0.169224619865417508224325615629 -0.029230473563075069082239920704 -0.001004219171591103076934814453 -0.002196012530475854873657226562 0 0 0 0 
2410333333.3333334923 0.169156894087791387359942518742 -0.030179750174283981323242187500 -0.001117666950449347929713583838 -0.002242494141682982011082314600 0 0 0 0 
2410500000.0000000000 0.169267833232879610916299384371 -0.030895691365003589284876639454 -0.001138645107857882976531982422 -0.002266085473820567131042480469 0 0 0 0 
2410666666.6666665077 0.169018179178237887283486884371 -0.032030362635850913310964216407 -0.001230644527822732925415039062 -0.002177873626351356940028525244 0 0 0 0 
2410833333.3333334923 0.169183030724525507171307481258 -0.032586295157670981670339216407 -0.001369677716866136030909872900 -0.002375646028667687936070107568 0 0 0 0 
2411000000.0000000000 0.168984577059745788574218750000 -0.033546712249517440795898437500 -0.001420303480699657960178994287 -0.002323778579011559920070029150 0 0 0 0 
2411166666.6666665077 0.168939635157585088531817518742 -0.034551654011011116718332658593 -0.001575563801452517943141318213 -0.002406317973509430885314941406 0 0 0 0 
2411333333.3333334923 0.168675661087036105056924384371 -0.035209368914365768432617187500 -0.001668166602030396895167685400 -0.002424719976261258125305175781 0 0 0 0 
2411500000.0000000000 0.168449461460113497635049384371 -0.036186572164297096942942033593 -0.001881092437542974948883056641 -0.002493934938684105873107910156 0 0 0 0 
2411666666.6666665077 0.168338343501091003417968750000 -0.036962937563657760620117187500 -0.001996084349229931831359863281 -0.002385344821959733963012695312 0 0 0 0 
2411833333.3333334923 0.167877033352851895431356865629 -0.037873715162277221679687500000 -0.001886130659841001033782958984 -0.002355199074372649192810058594 0 0 0 0 
2412000000.0000000000 0.167980521917343111892861884371 -0.038714796304702758789062500000 -0.002045171102508902983424521338 -0.002298609120771288871765136719 0 0 0 0 
2412166666.6666665077 0.167518720030784606933593750000 -0.039656803011894233013112653907 -0.002032121177762746810913085938 -0.002405293518677353858947753906 0 0 0 0 
2412333333.3333334923 0.167361795902252197265625000000 -0.040492095053195953369140625000 -0.002386807696893810792210244287 -0.002220214810222386880161904443 0 0 0 0 
2412500000.0000000000 0.166822969913482693771200615629 -0.041479915380477912212331403907 -0.002322528976947069168090820312 -0.002300268737599254088160849463 0 0 0 0 
2412666666.6666665077 0.166530132293701199630575615629 -0.042546335607767112041432966407 -0.002430873224511743025538779150 -0.002404024824500083923339843750 0 0 0 0 
2412833333.3333334923 0.166236162185669000823651231258 -0.043630301952362060546875000000 -0.002701435936614871025085449219 -0.002475248416885734038112021338 0 0 0 0 
2413000000.0000000000 0.165807038545608492752236884371 -0.044354148209095001220703125000 -0.002803293755277990861179970850 -0.002450110856443644003627158057 0 0 0 0 
2413166666.6666665077 0.165203511714935302734375000000 -0.045488249510526657104492187500 -0.002972535090520977973937988281 -0.002397696953266859054565429688 0 0 0 0 
2413333333.3333334923 0.164695709943771390060263115629 -0.046442329883575439453125000000 -0.003227287903428078131434775244 -0.002383040031418203873875283350 0 0 0 0 
2413500000.0000000000 0.164432451128959711272869981258 -0.047426648437976837158203125000 -0.003562322352081536813023232568 -0.002418063115328549905064248193 0 0 0 0 
2413666666.6666665077 0.164059877395629910568075615629 -0.048530541360378272319753278907 -0.003634960390627384185791015625 -0.002243624534457921981811523438 0 0 0 0 
2413833333.3333334923 0.163370892405510004241619981258 -0.049568414688110351562500000000 -0.003900266950950026945826865088 -0.002117872005328536033630371094 0 0 0 0 
2414000000.0000000000 0.162882298231124905685263115629 -0.050560817122459411621093750000 -0.003984484355896711349487304688 -0.002040699822828174071071005713 0 0 0 0 
2414166666.6666665077 0.162499949336051913162393134371 -0.051557805389165878295898437500 -0.004343079403042793273925781250 -0.001731015974655746979954384912 0 0 0 0 
2414333333.3333334923 0.161971837282180786132812500000 -0.052560552954673767089843750000 -0.004552256781607866287231445312 -0.001514734118245542049407958984 0 0 0 0 
2414500000.0000000000 0.161862239241600008865518134371 -0.053537331521511077880859375000 -0.004684844054281711578369140625 -0.001203107065521181063411093604 0 0 0 0 
2414666666.6666665077 0.161379918456077603439169365629 -0.054398868232965469360351562500 -0.004752143286168575286865234375 -0.000984321814030408859252929688 0 0 0 0 
2414833333.3333334923 0.160909548401832608321981865629 -0.055564485490322113037109375000 -0.004905092529952526092529296875 -0.000663279788568615913391113281 0 0 0 0 
2415000000.0000000000 0.160798966884613009353799384371 -0.056483149528503417968750000000 -0.004868795163929462432861328125 -0.000321686209645122289657592773 0 0 0 0 
2415166666.6666665077 0.160400256514549310882244981258 -0.057511813938617713237722028907 -0.005036622285842896375174237988 0.000096200201369356364011764526 0 0 0 0 
2415333333.3333334923 0.160328030586242703536825615629 -0.058770887553691857074777971093 -0.004970297683030366897583007812 0.000463385425973683595657348633 0 0 0 0 
2415500000.0000000000 0.160216093063354492187500000000 -0.059875600039958946918527971093 -0.004921065177768468856811523438 0.000661408994346857070922851562 0 0 0 0 
2415666666.6666665077 0.160046204924583407303018134371 -0.060919560492038726806640625000 -0.004699834156781435012817382812 0.000993184628896415233612060547 0 0 0 0 
2415833333.3333334923 0.159895956516265896896200615629 -0.062186859548091888427734375000 -0.004636238329112529754638671875 0.001366281183436512947082519531 0 0 0 0 
2416000000.0000000000 0.159491807222366305252236884371 -0.063413500785827636718750000000 -0.004326264373958110809326171875 0.001732021919451653957366943359 0 0 0 0 
2416166666.6666665077 0.159526631236076410491619981258 -0.064655557274818420410156250000 -0.004131702706217765808105468750 0.001889563049189745946171425928 0 0 0 0 
2416333333.3333334923 0.159236297011375399490518134371 -0.065759718418121337890625000000 -0.003954259678721427917480468750 0.002042107284069060845616006006 0 0 0 0 
2416500000.0000000000 0.158970296382904108245526231258 -0.067180559039115905761718750000 -0.003532826667651534080505371094 0.002059722552075982093811035156 0 0 0 0 
2416666666.6666665077 0.158525928854942294021768134371 -0.068277031183242797851562500000 -0.003492181655019522146937704932 0.002186907455325127081630087744 0 0 0 0 
2416833333.3333334923 0.158428296446800204178018134371 -0.069521076977252960205078125000 -0.003046493977308272881748818506 0.002252408768981695175170898438 0 0 0 0 
2417000000.0000000000 0.157904475927352905273437500000 -0.070618152618408203125000000000 -0.002789510879665613174438476562 0.002234608167782425880432128906 0 0 0 0 
2417166666.6666665077 0.157553195953369112869424384371 -0.071709036827087402343750000000 -0.002795611973851919174194335938 0.002201460069045424895045615088 0 0 0 0 
2417333333.3333334923 0.157356455922126797775106865629 -0.072650909423828125000000000000 -0.002688919194042683081385947119 0.002116017509251832962036132812 0 0 0 0 
2417500000.0000000000 0.156923279166221590896768134371 -0.073836810886859893798828125000 -0.002596750156953930854797363281 0.002163421362638473944423056494 0 0 0 0 
2417666666.6666665077 0.156798437237739590743856865629 -0.074615284800529479980468750000 -0.002308152616024016900303506006 0.002105091698467731909510947119 0 0 0 0 
2417833333.3333334923 0.156383126974105807205361884371 -0.075438067317008972167968750000 -0.002440683078020811080932617188 0.001986183458939195112941122900 0 0 0 0 
2418000000.0000000000 0.156036272644996587555255018742 -0.076666377484798431396484375000 -0.002258251421153544945957802881 0.001998074818402529196498251807 0 0 0 0 
2418166666.6666665077 0.155705124139785794357138115629 -0.077222190797328948974609375000 -0.002258314983919262886047363281 0.001995021477341651916503906250 0 0 0 0 
2418333333.3333334923 0.155771061778068486969317518742 -0.078156493604183197021484375000 -0.002344510518014430999755859375 0.002057106699794530868530273438 0 0 0 0 
2418500000.0000000000 0.155327647924423190017861884371 -0.078930124640464782714843750000 -0.002192246261984109878540039062 0.002204131335020064873936318506 0 0 0 0 
2418666666.6666665077 0.155133634805679293533486884371 -0.079626776278018951416015625000 -0.002124350983649491830113076318 0.002078560646623373031616210938 0 0 0 0 
2418833333.3333334923 0.154721200466156005859375000000 -0.080474779009819030761718750000 -0.002046439563855528831481933594 0.002167760161682962937595986475 0 0 0 0 
2419000000.0000000000 0.154353260993957491775674384371 -0.081064760684967041015625000000 -0.002172130858525633811950683594 0.002175091067329049110412597656 0 0 0 0 
2419166666.6666665077 0.154121682047843905349893134371 -0.081881448626518249511718750000 -0.002013735705986618995666503906 0.002232532249763607978820800781 0 0 0 0 
2419333333.3333334923 0.153724133968353299239950615629 -0.082302652299404144287109375000 -0.002020545769482851028442382812 0.002146421233192085786106728662 0 0 0 0 
2419500000.0000000000 0.153353288769722012618856865629 -0.083170659840106964111328125000 -0.001897261012345552010777138818 0.002154813380911945863011025537 0 0 0 0 
2419666666.6666665077 0.153252899646759005447549384371 -0.083707846701145172119140625000 -0.001901714014820754961726523291 0.002178437775000929832458496094 0 0 0 0 
2419833333.3333334923 0.152690947055816705901776231258 -0.084220983088016510009765625000 -0.001925128046423197009442973560 0.002189607592299581007716513525 0 0 0 0 
