# Version 1.00
#
freq[Hz];re:Trc1_S11;im:Trc1_S11;re:Trc2_S21;im:Trc2_S21;
2.400000000000000E+009;1.584906578063965E-001;6.295455992221832E-002;-4.067922011017799E-003;1.839237957028672E-004;
2.400166666666667E+009;1.583213210105896E-001;6.152471899986267E-002;-3.810461843386293E-003;3.385811287444085E-004;
2.400333333333334E+009;1.579354703426361E-001;5.945492163300514E-002;-3.859673161059618E-003;5.773056764155626E-004;
2.400500000000000E+009;1.580990552902222E-001;5.763585492968559E-002;-3.992370329797268E-003;4.846130323130637E-004;
2.400666666666667E+009;1.577609330415726E-001;5.577267333865166E-002;-3.939026035368443E-003;6.321548135019839E-004;
2.400833333333334E+009;1.578779369592667E-001;5.389469489455223E-002;-3.934307023882866E-003;7.061389042064548E-004;
2.401000000000000E+009;1.580292880535126E-001;5.169782042503357E-002;-3.869486274197698E-003;8.627932402305305E-004;
2.401166666666667E+009;1.581447124481201E-001;4.962527379393578E-002;-3.969334531575441E-003;9.927626233547926E-004;
2.401333333333334E+009;1.581257730722427E-001;4.764928296208382E-002;-3.919424954801798E-003;1.082735252566636E-003;
2.401500000000000E+009;1.585611402988434E-001;4.560014605522156E-002;-3.946020267903805E-003;1.273741712793708E-003;
2.401666666666667E+009;1.587114334106445E-001;4.355945065617561E-002;-3.837105818092823E-003;1.295619062148035E-003;
2.401833333333334E+009;1.590677350759506E-001;4.137470573186874E-002;-3.849026747047901E-003;1.485229004174471E-003;
2.402000000000000E+009;1.593818515539169E-001;3.946419060230255E-002;-3.901484422385693E-003;1.562885008752346E-003;
2.402166666666667E+009;1.600056141614914E-001;3.734748438000679E-002;-3.875475609675050E-003;1.735155936330557E-003;
2.402333333333334E+009;1.604406088590622E-001;3.535255417227745E-002;-3.731844248250127E-003;1.898426678963006E-003;
2.402500000000000E+009;1.611646264791489E-001;3.364928439259529E-002;-3.704415867105126E-003;1.875401008874178E-003;
2.402666666666667E+009;1.618399471044540E-001;3.187632188200951E-002;-3.579455194994807E-003;2.181382616981864E-003;
2.402833333333334E+009;1.626631766557694E-001;3.005552850663662E-002;-3.454243997111917E-003;2.287212293595076E-003;
2.403000000000000E+009;1.634724140167236E-001;2.834159880876541E-002;-3.458297578617930E-003;2.358092693611980E-003;
2.403166666666667E+009;1.642469018697739E-001;2.670832723379135E-002;-3.426347859203816E-003;2.357580466195941E-003;
2.403333333333334E+009;1.653101891279221E-001;2.527153678238392E-002;-3.471706528216600E-003;2.646739128977060E-003;
2.403500000000000E+009;1.660024225711823E-001;2.382090501487255E-002;-3.315725130960345E-003;2.870693104341626E-003;
2.403666666666667E+009;1.668963134288788E-001;2.218054234981537E-002;-3.250502049922943E-003;2.992513822391629E-003;
2.403833333333334E+009;1.681295931339264E-001;2.090415172278881E-002;-3.046316327527165E-003;3.185096895322204E-003;
2.404000000000000E+009;1.691445410251617E-001;1.991249248385429E-002;-2.927526598796248E-003;3.289903979748488E-003;
2.404166666666667E+009;1.699995398521423E-001;1.862110756337643E-002;-2.763407304883003E-003;3.357158740982413E-003;
2.404333333333334E+009;1.709246337413788E-001;1.749773509800434E-002;-2.701230812817812E-003;3.495704382658005E-003;
2.404500000000000E+009;1.717928797006607E-001;1.640029624104500E-002;-2.592266304418445E-003;3.708107396960259E-003;
2.404666666666667E+009;1.730011105537415E-001;1.543803792446852E-002;-2.372924238443375E-003;3.830927889794111E-003;
2.404833333333334E+009;1.737764477729797E-001;1.465384103357792E-002;-2.375398995354772E-003;3.860016353428364E-003;
2.405000000000000E+009;1.746678501367569E-001;1.379054505378008E-002;-2.158842282369733E-003;3.917994908988476E-003;
2.405166666666667E+009;1.757126152515411E-001;1.303228456526995E-002;-2.020588377490640E-003;4.065791144967079E-003;
2.405333333333334E+009;1.764343231916428E-001;1.236540265381336E-002;-1.722171902656555E-003;4.082004539668560E-003;
2.405500000000000E+009;1.773599386215210E-001;1.207777950912714E-002;-1.563760917633772E-003;4.211469087749720E-003;
2.405666666666667E+009;1.779036521911621E-001;1.155136618763208E-002;-1.219809986650944E-003;4.295707680284977E-003;
2.405833333333334E+009;1.784997135400772E-001;1.110216975212097E-002;-1.053334912285209E-003;4.412367474287748E-003;
2.406000000000000E+009;1.793063580989838E-001;1.072390284389257E-002;-8.480758406221867E-004;4.358567297458649E-003;
2.406166666666667E+009;1.796421855688095E-001;1.037100143730640E-002;-6.095399148762226E-004;4.665315616875887E-003;
2.406333333333334E+009;1.802559345960617E-001;1.004396751523018E-002;-5.118720582686365E-004;4.463338293135166E-003;
2.406500000000000E+009;1.805112957954407E-001;9.621722623705864E-003;-2.894183562602848E-004;4.351545125246048E-003;
2.406666666666667E+009;1.805948317050934E-001;9.423962794244289E-003;-5.783369488199242E-005;4.521550145000219E-003;
2.406833333333334E+009;1.809657663106918E-001;8.993979543447495E-003;8.850439189700410E-005;4.406644497066736E-003;
2.407000000000000E+009;1.811057776212692E-001;8.668384514749050E-003;3.147333627566695E-004;4.478741437196732E-003;
2.407166666666667E+009;1.812466531991959E-001;8.401260711252689E-003;6.449317443184555E-004;4.384778439998627E-003;
2.407333333333334E+009;1.810286343097687E-001;7.873298600316048E-003;7.175802602432668E-004;4.119542893022299E-003;
2.407500000000000E+009;1.809711456298828E-001;7.505134679377079E-003;1.046106568537653E-003;4.020255524665117E-003;
2.407666666666667E+009;1.807075142860413E-001;7.277667522430420E-003;1.258150208741427E-003;4.098840989172459E-003;
2.407833333333334E+009;1.803716570138931E-001;6.567365955561400E-003;1.375155174173415E-003;4.050956573337317E-003;
2.408000000000000E+009;1.800090223550797E-001;5.945963785052300E-003;1.465793116949499E-003;3.965000621974468E-003;
2.408166666666667E+009;1.795078366994858E-001;5.425316747277975E-003;1.494009513407946E-003;3.691111924126744E-003;
2.408333333333334E+009;1.792303621768951E-001;4.781413823366165E-003;1.772702089510858E-003;3.594360081478953E-003;
2.408500000000000E+009;1.785379946231842E-001;3.965003415942192E-003;1.861216267570853E-003;3.415874904021621E-003;
2.408666666666667E+009;1.781004667282105E-001;3.088739700615406E-003;2.035477198660374E-003;3.383276285603643E-003;
2.408833333333334E+009;1.772838532924652E-001;2.177858725190163E-003;2.076228149235249E-003;3.194415010511875E-003;
2.409000000000000E+009;1.766174882650375E-001;1.176719786599279E-003;2.279310254380107E-003;3.152129007503390E-003;
2.409166666666667E+009;1.759387254714966E-001;9.679632785264403E-005;2.221312839537859E-003;3.079967107623816E-003;
2.409333333333334E+009;1.753931343555450E-001;-1.030604238621891E-003;2.363183535635471E-003;2.932114992290735E-003;
2.409500000000000E+009;1.744996756315231E-001;-2.442009048536420E-003;2.415571827441454E-003;2.813717350363731E-003;
2.409666666666667E+009;1.738017648458481E-001;-3.737316001206636E-003;2.378854434937239E-003;2.704151673242450E-003;
2.409833333333334E+009;1.730157136917114E-001;-4.865673370659351E-003;2.563709160313010E-003;2.586939139291644E-003;
2.410000000000000E+009;1.724211871623993E-001;-6.343720015138388E-003;2.599997445940971E-003;2.386636566370726E-003;
2.410166666666667E+009;1.717800647020340E-001;-7.979917339980602E-003;2.570711076259613E-003;2.235614694654942E-003;
2.410333333333334E+009;1.710724532604218E-001;-9.527092799544334E-003;2.664013765752316E-003;2.005426911637187E-003;
2.410500000000000E+009;1.706093698740006E-001;-1.116514299064875E-002;2.759963041171432E-003;2.083288040012121E-003;
2.410666666666667E+009;1.698658168315888E-001;-1.296603679656982E-002;2.669627079740167E-003;1.794899231754243E-003;
2.410833333333334E+009;1.693920344114304E-001;-1.474309246987104E-002;2.647486282512546E-003;1.610728213563561E-003;
2.411000000000000E+009;1.690305769443512E-001;-1.635541953146458E-002;2.845696406438947E-003;1.453566132113338E-003;
2.411166666666667E+009;1.685193479061127E-001;-1.837396249175072E-002;2.996007446199656E-003;1.348183024674654E-003;
2.411333333333334E+009;1.683116406202316E-001;-2.014266699552536E-002;2.726356498897076E-003;1.355283777229488E-003;
2.411500000000000E+009;1.680690497159958E-001;-2.217007987201214E-002;2.877908293157816E-003;1.259038341231644E-003;
2.411666666666667E+009;1.680855154991150E-001;-2.408593706786633E-002;2.927300287410617E-003;1.009970786981285E-003;
2.411833333333334E+009;1.676361709833145E-001;-2.600925602018833E-002;2.772698877379298E-003;8.977754041552544E-004;
2.412000000000000E+009;1.679861992597580E-001;-2.803064323961735E-002;2.846259623765945E-003;7.401056354865432E-004;
2.412166666666667E+009;1.677328199148178E-001;-2.982389368116856E-002;2.912556286901236E-003;6.550992839038372E-004;
2.412333333333334E+009;1.681515723466873E-001;-3.194288164377213E-002;3.040568903088570E-003;5.445206770673394E-004;
2.412500000000000E+009;1.682744473218918E-001;-3.374461084604263E-002;2.789959311485291E-003;2.806429984048009E-004;
2.412666666666667E+009;1.685132533311844E-001;-3.580497577786446E-002;2.885504858568311E-003;1.373764534946531E-004;
2.412833333333334E+009;1.689223051071167E-001;-3.743661567568779E-002;2.523276256397367E-003;1.257707335753366E-004;
2.413000000000000E+009;1.693382561206818E-001;-3.934201598167419E-002;2.519406378269196E-003;5.764210800407454E-005;
2.413166666666667E+009;1.696577817201614E-001;-4.119854047894478E-002;2.765967277809978E-003;-1.747721689753234E-004;
2.413333333333334E+009;1.700002998113632E-001;-4.277437552809715E-002;2.384589519351721E-003;-1.404475042363629E-004;
2.413500000000000E+009;1.706022173166275E-001;-4.453140497207642E-002;2.426950260996819E-003;-1.470236311433837E-004;
2.413666666666667E+009;1.712520420551300E-001;-4.616353288292885E-002;2.411989029496908E-003;-4.972360329702497E-004;
2.413833333333334E+009;1.715711057186127E-001;-4.745635762810707E-002;2.408433239907026E-003;-4.004799993708730E-004;
2.414000000000000E+009;1.720502525568008E-001;-4.922384023666382E-002;2.242973307147622E-003;-7.754942635074258E-004;
2.414166666666667E+009;1.726737171411514E-001;-5.044614896178246E-002;2.102260710671544E-003;-6.284828996285796E-004;
2.414333333333334E+009;1.731803268194199E-001;-5.167736485600472E-002;2.029580064117909E-003;-7.375497953034937E-004;
2.414500000000000E+009;1.740420907735825E-001;-5.284935608506203E-002;2.124498598277569E-003;-7.286069449037314E-004;
2.414666666666667E+009;1.743318736553192E-001;-5.379611253738403E-002;1.865821424871683E-003;-8.148302440531552E-004;
2.414833333333334E+009;1.748187988996506E-001;-5.500549450516701E-002;1.883760211057961E-003;-8.242108160629869E-004;
2.415000000000000E+009;1.754194647073746E-001;-5.577043816447258E-002;1.812554779462516E-003;-9.773890487849712E-004;
2.415166666666667E+009;1.758341789245606E-001;-5.649023130536079E-002;1.770983217284083E-003;-9.417904657311738E-004;
2.415333333333334E+009;1.762485206127167E-001;-5.746817961335182E-002;1.574178459122777E-003;-8.857421926222742E-004;
2.415500000000000E+009;1.766695380210877E-001;-5.800997093319893E-002;1.632861094549298E-003;-9.670435101725161E-004;
2.415666666666667E+009;1.769405752420425E-001;-5.859468132257462E-002;1.445464440621436E-003;-1.027308637276292E-003;
2.415833333333334E+009;1.771878153085709E-001;-5.915702134370804E-002;1.441243453882635E-003;-9.435113752260804E-004;
2.416000000000000E+009;1.772038340568543E-001;-5.970981717109680E-002;1.272585708647966E-003;-9.178487816825509E-004;
2.416166666666667E+009;1.775723844766617E-001;-6.003602594137192E-002;1.332423882558942E-003;-9.730036254040897E-004;
2.416333333333334E+009;1.774963885545731E-001;-6.022626161575317E-002;1.321017742156982E-003;-8.947171736508608E-004;
2.416500000000000E+009;1.774616539478302E-001;-6.074997037649155E-002;1.166120753623545E-003;-8.430667221546173E-004;
2.416666666666667E+009;1.771814227104187E-001;-6.085905060172081E-002;1.222475548274815E-003;-9.439588175155222E-004;
2.416833333333334E+009;1.771441549062729E-001;-6.118480861186981E-002;1.099322573281825E-003;-1.026291982270777E-003;
2.417000000000000E+009;1.766421347856522E-001;-6.144237518310547E-002;1.139265252277255E-003;-1.011943677440286E-003;
2.417166666666667E+009;1.762501746416092E-001;-6.159131973981857E-002;1.033338718116283E-003;-9.814954828470945E-004;
2.417333333333334E+009;1.758560240268707E-001;-6.183667108416557E-002;1.039960770867765E-003;-1.063986914232373E-003;
2.417500000000000E+009;1.751258522272110E-001;-6.204921379685402E-002;9.618224576115608E-004;-9.499135194346309E-004;
2.417666666666667E+009;1.747036129236221E-001;-6.231391057372093E-002;1.069806050509214E-003;-9.872891241684556E-004;
2.417833333333334E+009;1.738645732402802E-001;-6.256293505430222E-002;8.708240347914398E-004;-9.939325973391533E-004;
2.418000000000000E+009;1.730313599109650E-001;-6.299505382776260E-002;9.228997514583170E-004;-1.011063228361309E-003;
2.418166666666667E+009;1.721543371677399E-001;-6.311063468456268E-002;8.626538328826428E-004;-9.972092229872942E-004;
2.418333333333334E+009;1.713371723890305E-001;-6.360116600990295E-002;9.246125118806958E-004;-9.316360228694975E-004;
2.418500000000000E+009;1.702399551868439E-001;-6.374795734882355E-002;7.230966002680361E-004;-1.118816551752389E-003;
2.418666666666667E+009;1.692042052745819E-001;-6.438825279474258E-002;8.413616451434791E-004;-1.106920535676181E-003;
2.418833333333334E+009;1.679619848728180E-001;-6.504014134407044E-002;6.752853514626622E-004;-1.075749867595732E-003;
2.419000000000000E+009;1.667405217885971E-001;-6.533842533826828E-002;5.964541342109442E-004;-1.113662961870432E-003;
2.419166666666667E+009;1.656570732593536E-001;-6.609166413545609E-002;5.471685435622931E-004;-1.054718391969800E-003;
2.419333333333334E+009;1.642986387014389E-001;-6.661740690469742E-002;6.781714037060738E-004;-9.788913885131478E-004;
2.419500000000000E+009;1.632193177938461E-001;-6.756353378295898E-002;5.239443853497505E-004;-1.088145538233221E-003;
2.419666666666667E+009;1.621180921792984E-001;-6.854255497455597E-002;5.251707625575364E-004;-8.975783712230623E-004;
2.419833333333334E+009;1.607552021741867E-001;-6.912949681282044E-002;5.061163683421910E-004;-1.025850535370410E-003;
2.420000000000000E+009;1.597730070352554E-001;-7.044173777103424E-002;2.559662389103323E-004;-1.106190960854292E-003;
2.420166666666667E+009;1.585819423198700E-001;-7.137935608625412E-002;2.345225511817262E-004;-9.973988635465503E-004;
2.420333333333334E+009;1.575338244438171E-001;-7.266204059123993E-002;2.426787978038192E-004;-8.325135568156838E-004;
2.420500000000000E+009;1.565405279397965E-001;-7.354523986577988E-002;2.772436419036239E-004;-9.709409205242991E-004;
2.420666666666667E+009;1.552824229001999E-001;-7.495445758104324E-002;2.266755473101512E-004;-8.280756301246584E-004;
2.420833333333334E+009;1.545471996068955E-001;-7.640696316957474E-002;1.485142711317167E-004;-9.457527194172144E-004;
2.421000000000000E+009;1.534649282693863E-001;-7.780701667070389E-002;6.423237209673971E-005;-8.632951066829264E-004;
2.421166666666667E+009;1.527074277400971E-001;-7.906850427389145E-002;-5.194541245145956E-006;-6.788833998143673E-004;
2.421333333333334E+009;1.522218883037567E-001;-8.080679923295975E-002;-1.030049897963181E-004;-8.517940295860171E-004;
2.421500000000000E+009;1.512694209814072E-001;-8.229510486125946E-002;7.828019988664892E-006;-7.952257292345166E-004;
2.421666666666667E+009;1.509199589490891E-001;-8.400113880634308E-002;2.256196012240253E-006;-6.987793021835387E-004;
2.421833333333334E+009;1.503460258245468E-001;-8.557796478271484E-002;-9.593128197593615E-005;-4.793870029971004E-004;
2.422000000000000E+009;1.499143689870834E-001;-8.740266412496567E-002;-7.193785859271884E-005;-4.031462594866753E-004;
2.422166666666667E+009;1.497842073440552E-001;-8.922701328992844E-002;1.757384598022327E-005;-4.275920218788087E-004;
2.422333333333334E+009;1.495752036571503E-001;-9.070279449224472E-002;-1.050582723109983E-004;-4.045045934617519E-004;
2.422500000000000E+009;1.493199616670609E-001;-9.243497252464294E-002;-4.205425284453668E-005;-5.266934167593718E-004;
2.422666666666667E+009;1.491341590881348E-001;-9.422501921653748E-002;-7.967490819282830E-005;-4.876762977801263E-004;
2.422833333333334E+009;1.492798924446106E-001;-9.581414610147476E-002;1.019292358250823E-005;-2.053299685940146E-004;
2.423000000000000E+009;1.493767052888870E-001;-9.736691415309906E-002;-5.881647302885540E-005;-1.993411424336955E-004;
2.423166666666667E+009;1.495159268379211E-001;-9.920246154069901E-002;6.513797416118905E-005;-2.421985846012831E-004;
2.423333333333334E+009;1.497884988784790E-001;-1.006178483366966E-001;-1.399043048877502E-005;-2.971447829622775E-004;
2.423500000000000E+009;1.501279324293137E-001;-1.024048998951912E-001;1.418994270352414E-005;-1.419710752088577E-004;
2.423666666666667E+009;1.503921747207642E-001;-1.039645373821259E-001;1.646406744839624E-004;-1.794503041310236E-004;
2.423833333333334E+009;1.509393453598023E-001;-1.052909865975380E-001;1.411719422321767E-004;-2.380104560870677E-004;
2.424000000000000E+009;1.511576473712921E-001;-1.066109314560890E-001;1.708885683910921E-004;-1.286297483602539E-004;
2.424166666666667E+009;1.515749096870422E-001;-1.081177145242691E-001;1.968805881915614E-004;3.506286930132774E-006;
2.424333333333334E+009;1.522269845008850E-001;-1.092818826436997E-001;2.120079443557188E-004;6.874982318549883E-006;
2.424500000000000E+009;1.526295691728592E-001;-1.106557175517082E-001;2.929472830146551E-004;2.688952736207284E-005;
2.424666666666667E+009;1.531139463186264E-001;-1.115356534719467E-001;2.240415924461559E-004;-3.805296364589594E-005;
2.424833333333334E+009;1.534742414951325E-001;-1.125625520944595E-001;3.459392173681408E-004;-1.068989149644040E-004;
2.425000000000000E+009;1.539350003004074E-001;-1.136198490858078E-001;4.618594539351761E-004;-6.322398985503241E-005;
2.425166666666667E+009;1.543886065483093E-001;-1.144353300333023E-001;4.601010296028107E-004;9.785265137907118E-005;
2.425333333333334E+009;1.547573506832123E-001;-1.151465550065041E-001;3.477896971162409E-004;-1.018227339955047E-005;
2.425500000000000E+009;1.553015410900116E-001;-1.158885806798935E-001;5.202100728638470E-004;5.161247463547625E-005;
2.425666666666667E+009;1.553524136543274E-001;-1.165222227573395E-001;5.977682303637266E-004;5.123540904605761E-005;
2.425833333333334E+009;1.556427180767059E-001;-1.171348392963409E-001;7.165531860664487E-004;-3.410144927329384E-005;
2.426000000000000E+009;1.559014767408371E-001;-1.175609827041626E-001;6.357384263537824E-004;-8.278529276140034E-005;
2.426166666666667E+009;1.562146544456482E-001;-1.179902255535126E-001;6.859289715066552E-004;-2.983670565299690E-004;
2.426333333333334E+009;1.563168168067932E-001;-1.183618456125259E-001;7.538521895185113E-004;-2.967334003187716E-004;
2.426500000000000E+009;1.562789380550385E-001;-1.186322867870331E-001;6.814452353864908E-004;-3.642410447355360E-004;
2.426666666666667E+009;1.563412398099899E-001;-1.187504008412361E-001;8.881265530362725E-004;-2.613266697153449E-004;
2.426833333333334E+009;1.561282277107239E-001;-1.189515367150307E-001;8.464345592074096E-004;-3.867911582347006E-004;
2.427000000000000E+009;1.559024304151535E-001;-1.193114519119263E-001;9.244506363756955E-004;-4.864053044002503E-004;
2.427166666666667E+009;1.554725915193558E-001;-1.192621514201164E-001;8.805567631497979E-004;-3.810872731264681E-004;
2.427333333333334E+009;1.549711674451828E-001;-1.194388791918755E-001;8.899726672098041E-004;-5.880004027858377E-004;
2.427500000000000E+009;1.546445786952972E-001;-1.194431930780411E-001;8.948252652771771E-004;-4.047996480949223E-004;
2.427666666666667E+009;1.538629978895187E-001;-1.196277812123299E-001;8.547730394639075E-004;-6.742842961102724E-004;
2.427833333333334E+009;1.530221700668335E-001;-1.196776852011681E-001;1.011486980132759E-003;-6.274674087762833E-004;
