# Hz S RI R 
2400000000.0000000000 0.171425119042396600921307481258 0.040235206484794616699218750000 0.001775075914338231086730957031 0.000167744336067698895931243896 0 0 0 0 
2400166666.6666665077 0.172028988599777193924111884371 0.039781402796506881713867187500 0.001703158020973206000087118994 0.000246457260800525600284022198 0 0 0 0 
2400333333.3333334923 0.172357067465782193282919365629 0.039117097854614257812500000000 0.001710457727313041903852153247 0.000222153059439733597353258676 0 0 0 0 
2400500000.0000000000 0.172931835055351312835369981258 0.038589593023061752319335937500 0.001679823384620249054552387769 0.000343956839060410911410731183 0 0 0 0 
2400666666.6666665077 0.173440247774124201018963731258 0.038017537444829940795898437500 0.001580047188326715989353798975 0.000425235921284183914035242902 0 0 0 0 
2400833333.3333334923 0.173596516251563998123330634371 0.037494223564863211894948591407 0.001550373039208352999446249854 0.000371694448404014110565185547 0 0 0 0 
2401000000.0000000000 0.173717245459556607345419365629 0.036648880690336227416992187500 0.001603459473699331066728901440 0.000450151477707549875408726825 0 0 0 0 
2401166666.6666665077 0.173922628164291409591513115629 0.035957105457782752300222028907 0.001669178367592393918278359521 0.000544783135410398244857788086 0 0 0 0 
2401333333.3333334923 0.173881992697715787032919365629 0.035257112234830863262136091407 0.001627522287890315055847167969 0.000804365496151149272918701172 0 0 0 0 
2401500000.0000000000 0.173826143145561190506143134371 0.034668717533349990844726562500 0.001848563319072126908543252100 0.000651798152830451726913452148 0 0 0 0 
2401666666.6666665077 0.173730999231338500976562500000 0.034124787896871566772460937500 0.001721874694339931011199951172 0.000866744201630353927612304688 0 0 0 0 
2401833333.3333334923 0.173555776476860101897869981258 0.033143121749162667011301408593 0.001775854616425932104226137476 0.001065072836354375102399516528 0 0 0 0 
2402000000.0000000000 0.173256725072860690017861884371 0.032554294914007186889648437500 0.001927538542076945088030170972 0.000889143615495413541793823242 0 0 0 0 
2402166666.6666665077 0.173135131597518893142861884371 0.031729362905025482177734375000 0.001980529399588704109191894531 0.000941648089792579412460327148 0 0 0 0 
2402333333.3333334923 0.172615274786949213225994981258 0.031083364039659500122070312500 0.002383255399763584136962890625 0.000975656148511916399002075195 0 0 0 0 
2402500000.0000000000 0.172571480274200411697549384371 0.030140755698084831237792968750 0.002456368179991840882542275537 0.001022056792862712903263711084 0 0 0 0 
2402666666.6666665077 0.172333896160125704666299384371 0.029263917356729510915736014454 0.002598842838779091835021972656 0.001171728363260627009748149341 0 0 0 0 
2402833333.3333334923 0.171921044588088989257812500000 0.028150208294391628610631173046 0.002828868338838220076320029150 0.000911343668121844530105590820 0 0 0 0 
2403000000.0000000000 0.171439245343208312988281250000 0.026990069076418880117396170704 0.002925176406279205842259072412 0.000866487913299351930618286133 0 0 0 0 
2403166666.6666665077 0.171232312917709406097088731258 0.025923989713191989553431326954 0.003080693073570727868321084131 0.000676568539347499608993530273 0 0 0 0 
2403333333.3333334923 0.170839309692382812500000000000 0.024733424186706539499303048046 0.003175848396494985060450888525 0.000619772123172879219055175781 0 0 0 0 
2403500000.0000000000 0.170448392629623413085937500000 0.023448448628187179565429687500 0.003287755884230136871337890625 0.000533641024958342313766479492 0 0 0 0 
2403666666.6666665077 0.170069962739944513518963731258 0.022045336663722988473912423046 0.003421547589823604063746786963 0.000209698031540028805106562482 0 0 0 0 
2403833333.3333334923 0.169873669743537902832031250000 0.020581286400556560861607735546 0.003363515948876738981959677588 0.000281949905911460518836975098 0 0 0 0 
2404000000.0000000000 0.169414371252059908767861884371 0.019273802638053890573521798046 0.003515537828207015991210937500 0.000040141156205208972096443176 0 0 0 0 
2404166666.6666665077 0.168917223811149597167968750000 0.017542406916618350637415701954 0.003579765325412154197692871094 -0.000126315266243182095602312631 0 0 0 0 
2404333333.3333334923 0.168795078992843600174111884371 0.016165660694241520273228829296 0.003594832262024282975437783350 -0.000426231476012617403834742413 0 0 0 0 
2404500000.0000000000 0.168394520878791809082031250000 0.014481087215244770050048828125 0.003742122324183582825901650537 -0.000480267131933942382961827411 0 0 0 0 
2404666666.6666665077 0.168264657258987399002236884371 0.012927682138979440171211443555 0.003766264766454697088954306494 -0.000846821814775466918945312500 0 0 0 0 
2404833333.3333334923 0.168151557445526095291299384371 0.011244722642004489898681640625 0.003691878868266940116882324219 -0.000807208241894841194152832031 0 0 0 0 
2405000000.0000000000 0.168063715100288391113281250000 0.009592033922672271728515625000 0.003690750570967793898341513525 -0.000931264366954565048217773438 0 0 0 0 
2405166666.6666665077 0.167855978012084988693075615629 0.007620139047503471374511718750 0.003774614073336123986485146631 -0.001307323575019835992100381006 0 0 0 0 
2405333333.3333334923 0.167891964316368103027343750000 0.005793575663119555387015058301 0.003744544694200158119201660156 -0.001281220815144479057909321362 0 0 0 0 
2405500000.0000000000 0.167774453759193392654580634371 0.003971632570028305053710937500 0.003810042981058359146118164062 -0.001672448008321226076838827979 0 0 0 0 
2405666666.6666665077 0.167821034789085388183593750000 0.002088784705847502188441611182 0.003634457942098379135131835938 -0.001830625580623745918273925781 0 0 0 0 
2405833333.3333334923 0.167685568332672091385049384371 0.000285231246380135416984558105 0.003631879808381199836730957031 -0.001934505417011678002001118237 0 0 0 0 
2406000000.0000000000 0.167903259396553011795205634371 -0.001753802178427577018737792969 0.003744341898709536032435751807 -0.001956508727744222120997763525 0 0 0 0 
2406166666.6666665077 0.167720064520835904220419365629 -0.003405297407880425886866904150 0.003628816688433289961573935400 -0.002436781534925103187561035156 0 0 0 0 
2406333333.3333334923 0.167887598276138305664062500000 -0.005293556023389101028442382812 0.003451209980994462966918945312 -0.002333227777853608131408691406 0 0 0 0 
2406500000.0000000000 0.167892292141914395431356865629 -0.007086477708071470260620117188 0.003399176290258764786961220850 -0.002356206998229026794433593750 0 0 0 0 
2406666666.6666665077 0.167795136570930508712606865629 -0.008826606906950473785400390625 0.003474522382020949883701943506 -0.002687260508537292914149618994 0 0 0 0 
2406833333.3333334923 0.167931541800498990157919365629 -0.010589891113340859848945818555 0.003237394616007804870605468750 -0.002901393687352538108825683594 0 0 0 0 
2407000000.0000000000 0.168003857135772705078125000000 -0.012307084165513520676582537305 0.003259015269577503204345703125 -0.003103962168097496032714843750 0 0 0 0 
2407166666.6666665077 0.168213963508606012542401231258 -0.013744289055466650181780430273 0.003068325342610477967503213037 -0.003234364790841937065124511719 0 0 0 0 
2407333333.3333334923 0.168156474828720092773437500000 -0.015360368415713310241699218750 0.002865404821932315826416015625 -0.003502944717183709144592285156 0 0 0 0 
2407500000.0000000000 0.168229699134826687911825615629 -0.016811072826385501516321951954 0.002840122673660517172572470557 -0.003641922958195209936854697119 0 0 0 0 
2407666666.6666665077 0.168369144201278686523437500000 -0.017873210832476619375208670704 0.002941029146313666863682412256 -0.003738435916602611975428915869 0 0 0 0 
2407833333.3333334923 0.168279647827148409744424384371 -0.019289502874016758310338204296 0.002611266216263175010681152344 -0.004058031365275382995605468750 0 0 0 0 
2408000000.0000000000 0.168481737375259399414062500000 -0.020396634936332699167271798046 0.002398898359388113021850585938 -0.004181884229183197021484375000 0 0 0 0 
2408166666.6666665077 0.168569520115852411468182481258 -0.021271988749504089355468750000 0.002197577850893139839172363281 -0.004145092330873013410086347363 0 0 0 0 
2408333333.3333334923 0.169031396508216913421307481258 -0.022361917421221729623814766796 0.001748173148371279022814106519 -0.004287949297577142715454101562 0 0 0 0 
2408500000.0000000000 0.169229224324226407150106865629 -0.023189470171928409231165701954 0.001639346242882310910465859521 -0.004690498579293490323538495801 0 0 0 0 
2408666666.6666665077 0.169473037123680086990518134371 -0.024078918620944019662877266796 0.001331037492491305091260600513 -0.004526040982455015182495117188 0 0 0 0 
2408833333.3333334923 0.169676005840301513671875000000 -0.024628406390547748910924141796 0.001039896858856081962585449219 -0.004721252713352441787719726562 0 0 0 0 
2409000000.0000000000 0.170084521174430902679119981258 -0.025335257872939109802246093750 0.000798751250840723514556884766 -0.004744039848446846008300781250 0 0 0 0 
2409166666.6666665077 0.170349881052970886230468750000 -0.026191391050815578805943673046 0.000495618267450481653213500977 -0.004683469887822865572457597949 0 0 0 0 
2409333333.3333334923 0.170712411403656005859375000000 -0.026881963014602661132812500000 0.000395960698369890505641383038 -0.004730118904262781143188476562 0 0 0 0 
2409500000.0000000000 0.171036943793296786209268134371 -0.027738461270928379404088204296 0.000051600240112747997045516968 -0.004598058760166168212890625000 0 0 0 0 
2409666666.6666665077 0.171281203627586392501669365629 -0.028366154059767719614049141796 -0.000205696371267549693584442139 -0.004601390101015567779541015625 0 0 0 0 
2409833333.3333334923 0.171572014689445495605468750000 -0.028913330286741260183314139454 -0.000543516536708921194076538086 -0.004349368158727884292602539062 0 0 0 0 
2410000000.0000000000 0.171747699379920987228231865629 -0.029611097648739821697194685157 -0.000725327816326171159744262695 -0.004223530646413564682006835938 0 0 0 0 
2410166666.6666665077 0.171888813376426696777343750000 -0.030214544385671619070032889454 -0.000761589210014790296554565430 -0.004071056377142667770385742188 0 0 0 0 
2410333333.3333334923 0.171918705105781610686932481258 -0.030802883207798000680943673046 -0.000996762188151478767395019531 -0.004091192968189716339111328125 0 0 0 0 
2410500000.0000000000 0.171824112534523010253906250000 -0.031527861952781677246093750000 -0.001153181656263769106623984229 -0.003826370928436518149134970557 0 0 0 0 
2410666666.6666665077 0.171640455722808810135049384371 -0.032418914139270782470703125000 -0.001102591981180012009264301831 -0.003679158166050910949707031250 0 0 0 0 
2410833333.3333334923 0.171593517065048190017861884371 -0.032796755433082580566406250000 -0.001314931781962513923645019531 -0.003520731348544359207153320312 0 0 0 0 
2411000000.0000000000 0.171691760420799310882244981258 -0.033253815025091171264648437500 -0.001371424063108861012699746240 -0.003307243110612034797668457031 0 0 0 0 
2411166666.6666665077 0.171122238039970397949218750000 -0.034021697938442230224609375000 -0.001525460509583353996276855469 -0.003284107660874723954441689600 0 0 0 0 
2411333333.3333334923 0.171111062169075012207031250000 -0.034475900232791900634765625000 -0.001560117118060589053510356372 -0.003000703174620867209193564307 0 0 0 0 
2411500000.0000000000 0.170543432235717801193075615629 -0.035433210432529449462890625000 -0.001572244917042552991154336084 -0.002856090664863585992100381006 0 0 0 0 
2411666666.6666665077 0.170408681035041809082031250000 -0.035764783620834350585937500000 -0.001566896098665893077850341797 -0.002731967251747847037074423682 0 0 0 0 
2411833333.3333334923 0.170051619410514803787393134371 -0.036423966288566589355468750000 -0.001321577699854969978332519531 -0.002667893422767519950866699219 0 0 0 0 
2412000000.0000000000 0.169715076684951809982138115629 -0.037267576903104782104492187500 -0.001409248216077684922459267725 -0.002623835578560829162597656250 0 0 0 0 
2412166666.6666665077 0.168993771076202392578125000000 -0.037981010973453521728515625000 -0.001494233380071819045423198169 -0.002546254079788922829868935693 0 0 0 0 
2412333333.3333334923 0.168731525540351895431356865629 -0.038790274411439902568776716407 -0.001389596378430723927141499097 -0.002485878067091106934788369287 0 0 0 0 
2412500000.0000000000 0.167979300022125188629473768742 -0.039510942995548248291015625000 -0.001529964734800159931182861328 -0.002576716011390089988708496094 0 0 0 0 
2412666666.6666665077 0.167355805635452298263388115629 -0.040560774505138397216796875000 -0.001447665155865252017974853516 -0.002488065976649523215052939307 0 0 0 0 
2412833333.3333334923 0.166824802756309509277343750000 -0.041561573743820190429687500000 -0.001457004575058818080304789966 -0.002465206896886229948756552588 0 0 0 0 
2413000000.0000000000 0.166313767433166503906250000000 -0.042223941534757607196848283593 -0.001581128104589879946467734229 -0.002396744443103671073913574219 0 0 0 0 
2413166666.6666665077 0.165336668491363497635049384371 -0.043486963957548141479492187500 -0.001597061171196400902391743237 -0.002417075680568813843968056787 0 0 0 0 
2413333333.3333334923 0.164712294936180086990518134371 -0.044410884380340583110768903907 -0.001685257419012486934661865234 -0.002339425263926386833190917969 0 0 0 0 
2413500000.0000000000 0.164119273424148587325888115629 -0.045540947467088699340820312500 -0.001659800764173269055010151440 -0.002251775935292243957519531250 0 0 0 0 
2413666666.6666665077 0.163360297679901095291299384371 -0.046669553965330116962473283593 -0.001704475376754998943926167065 -0.002203902695327997207641601562 0 0 0 0 
2413833333.3333334923 0.162586197257041903396768134371 -0.047755718231201171875000000000 -0.001759429113008081912994384766 -0.002180455252528191046473837744 0 0 0 0 
2414000000.0000000000 0.161708846688270596603231865629 -0.048831898719072341918945312500 -0.001906516030430793979047465747 -0.002109851688146591186523437500 0 0 0 0 
2414166666.6666665077 0.161301776766777010818643134371 -0.049807343631982803344726562500 -0.001759069040417670986772846753 -0.002150401007384061813354492188 0 0 0 0 
2414333333.3333334923 0.160572201013565091232138115629 -0.050980951637029647827148437500 -0.002097980119287968115565634619 -0.002009038347750902175903320312 0 0 0 0 
2414500000.0000000000 0.160196095705032404143963731258 -0.052110269665718078613281250000 -0.001807993627153337001800537109 -0.001894538523629307963727641528 0 0 0 0 
2414666666.6666665077 0.159718424081802395919638115629 -0.053225032985210418701171875000 -0.001931870123371481895446777344 -0.001820237725041806914685893481 0 0 0 0 
2414833333.3333334923 0.159278094768524197677450615629 -0.054597195237874991680104841407 -0.001805295119993389086482382666 -0.001747294678352772972704243237 0 0 0 0 
2415000000.0000000000 0.158851683139800997635049384371 -0.055765800178051001811940778907 -0.001840247423388063907623291016 -0.001847430481575429005863808740 0 0 0 0 
2415166666.6666665077 0.158524960279464693924111884371 -0.057067163288593292236328125000 -0.001827027066610753969905234229 -0.001682281843386590914485312354 0 0 0 0 
2415333333.3333334923 0.158303126692771911621093750000 -0.058502651751041412353515625000 -0.001948107732459902980207133716 -0.001764560234732925891876220703 0 0 0 0 
2415500000.0000000000 0.157988846302032498458700615629 -0.059787955135107040405273437500 -0.002021201187744737105128622900 -0.001737691811285912990570068359 0 0 0 0 
2415666666.6666665077 0.158028811216354397872763115629 -0.061173219233751296997070312500 -0.001948117278516293005702353369 -0.001739930594339966990827250903 0 0 0 0 
2415833333.3333334923 0.157734841108322088043536268742 -0.062649264931678771972656250000 -0.002098733326420187950134277344 -0.001775877550244330926182412256 0 0 0 0 
2416000000.0000000000 0.157277971506118802169638115629 -0.064236789941787719726562500000 -0.002064280677586793899536132812 -0.001748551730997859997990273584 0 0 0 0 
2416166666.6666665077 0.157372310757636996170205634371 -0.065738514065742492675781250000 -0.002348901471123098893406533350 -0.001567057799547910907148051685 0 0 0 0 
2416333333.3333334923 0.157140776515006991287393134371 -0.066999092698097229003906250000 -0.002231342950835824012756347656 -0.001575852977111936049220419775 0 0 0 0 
2416500000.0000000000 0.156877949833869906326455634371 -0.068546518683433532714843750000 -0.002167806262150406837463378906 -0.001336082234047353050829243237 0 0 0 0 
2416666666.6666665077 0.156701952219009399414062500000 -0.069844000041484832763671875000 -0.002339216647669672966003417969 -0.001246333355084062056300497900 0 0 0 0 
2416833333.3333334923 0.156625181436538696289062500000 -0.071443572640419006347656250000 -0.002311036456376314163208007812 -0.001171548035927117087720561450 0 0 0 0 
2417000000.0000000000 0.156113550066947909256143134371 -0.072727762162685394287109375000 -0.002419439610093832015991210938 -0.001162139116786419911625527490 0 0 0 0 
2417166666.6666665077 0.156114861369132995605468750000 -0.073748163878917694091796875000 -0.002246861113235353989842080225 -0.000914888107217848300933837891 0 0 0 0 
2417333333.3333334923 0.156019017100334195236044365629 -0.075031772255897521972656250000 -0.002367963315919042067286826025 -0.001026299898512662107583071069 0 0 0 0 
2417500000.0000000000 0.155865207314491299728231865629 -0.076236851513385772705078125000 -0.002199914772063494162318564307 -0.000868213362991809844970703125 0 0 0 0 
2417666666.6666665077 0.155841648578643798828125000000 -0.077118329703807830810546875000 -0.002221243223175406889674521338 -0.000685840437654405832290649414 0 0 0 0 
2417833333.3333334923 0.155696228146553011795205634371 -0.078066982328891754150390625000 -0.002101561985909938812255859375 -0.000707469589542597532272338867 0 0 0 0 
2418000000.0000000000 0.155515149235725402832031250000 -0.079168148338794708251953125000 -0.002220915630459785895106650244 -0.000603685737587511539459228516 0 0 0 0 
2418166666.6666665077 0.155484393239021301269531250000 -0.079894594848155975341796875000 -0.002074296353384851975681923975 -0.000563441426493227481842041016 0 0 0 0 
2418333333.3333334923 0.155745267868041992187500000000 -0.080869771540164947509765625000 -0.001932147890329360961914062500 -0.000581063097342848777770996094 0 0 0 0 
2418500000.0000000000 0.155558377504348810393963731258 -0.081442676484584808349609375000 -0.001941936090588570074794150244 -0.000476678338600322604179382324 0 0 0 0 
2418666666.6666665077 0.155597180128097506424111884371 -0.082391113042831420898437500000 -0.001812258036807180101510073023 -0.000275126716587692499160766602 0 0 0 0 
2418833333.3333334923 0.155337393283843994140625000000 -0.083032250404357910156250000000 -0.001682798960246145942090678638 -0.000523182214237749576568603516 0 0 0 0 
2419000000.0000000000 0.155154943466186495681924384371 -0.083515129983425140380859375000 -0.001541648642159997983219765771 -0.000461441843071952516406458722 0 0 0 0 
2419166666.6666665077 0.155276954174041803558026231258 -0.084186799824237823486328125000 -0.001467913854867219924926757812 -0.000411001848988234996795654297 0 0 0 0 
2419333333.3333334923 0.155004575848579406738281250000 -0.084552168846130371093750000000 -0.001308124396018683910369873047 -0.000569334253668785095214843750 0 0 0 0 
2419500000.0000000000 0.154918909072876004318075615629 -0.085092999041080474853515625000 -0.001325417659245430989506386865 -0.000816842133644968271255493164 0 0 0 0 
2419666666.6666665077 0.154807418584823608398437500000 -0.085799746215343475341796875000 -0.001183758256956934928894042969 -0.000766842218581587076187133789 0 0 0 0 
2419833333.3333334923 0.154427826404571505447549384371 -0.085972584784030914306640625000 -0.001318081398494542078730917822 -0.000889465212821960449218750000 0 0 0 0 
