# Version 1.00
#
freq[Hz];re:Trc1_S11;im:Trc1_S11;re:Trc2_S21;im:Trc2_S21;
2.400000000000000E+009;1.682289689779282E-001;4.086874797940254E-002;-2.445824211463332E-003;-1.013259286992252E-003;
2.400166666666667E+009;1.689229756593704E-001;4.020247980952263E-002;-2.406384795904160E-003;-8.998597040772438E-004;
2.400333333333334E+009;1.694333702325821E-001;3.908681496977806E-002;-2.244846429675818E-003;-9.333426714874804E-004;
2.400500000000000E+009;1.699396371841431E-001;3.830916061997414E-002;-2.425652462989092E-003;-7.966191624291241E-004;
2.400666666666667E+009;1.703062057495117E-001;3.751281276345253E-002;-2.295823767781258E-003;-7.633444620296359E-004;
2.400833333333334E+009;1.708985567092896E-001;3.680790588259697E-002;-2.351682865992189E-003;-6.266500568017364E-004;
2.401000000000000E+009;1.712696254253388E-001;3.576139360666275E-002;-2.162291668355465E-003;-5.808699643239379E-004;
2.401166666666667E+009;1.712924689054489E-001;3.480558842420578E-002;-2.342074178159237E-003;-4.939378122799099E-004;
2.401333333333334E+009;1.713739782571793E-001;3.401980176568031E-002;-2.183442935347557E-003;-3.833293740171939E-004;
2.401500000000000E+009;1.715463697910309E-001;3.318636864423752E-002;-2.224964322522283E-003;-4.997967043891549E-004;
2.401666666666667E+009;1.717525571584702E-001;3.237694501876831E-002;-2.336852019652724E-003;-3.731454489752650E-004;
2.401833333333334E+009;1.717651188373566E-001;3.151105716824532E-002;-2.263851463794708E-003;-2.194556727772579E-004;
2.402000000000000E+009;1.716818660497665E-001;3.064978495240212E-002;-2.305346308276057E-003;-5.355575922294520E-005;
2.402166666666667E+009;1.718764156103134E-001;2.971263974905014E-002;-2.122205914929509E-003;8.896178769646213E-005;
2.402333333333334E+009;1.715510487556458E-001;2.898350171744824E-002;-2.055363263934851E-003;-7.036871829768643E-005;
2.402500000000000E+009;1.719011962413788E-001;2.785798162221909E-002;-2.089085523039103E-003;2.479538670741022E-004;
2.402666666666667E+009;1.717071831226349E-001;2.684857323765755E-002;-1.849990803748369E-003;2.227115619461983E-004;
2.402833333333334E+009;1.715658307075501E-001;2.589300833642483E-002;-1.827919739298523E-003;2.516621316317469E-004;
2.403000000000000E+009;1.715824306011200E-001;2.479606494307518E-002;-1.605477300472558E-003;1.165547073469497E-004;
2.403166666666667E+009;1.714938580989838E-001;2.382123097777367E-002;-1.624443219043315E-003;1.349074154859409E-004;
2.403333333333334E+009;1.713630557060242E-001;2.261340990662575E-002;-1.310906838625670E-003;2.506830423953943E-005;
2.403500000000000E+009;1.711459308862686E-001;2.154328860342503E-002;-1.459120772778988E-003;2.182078751502559E-004;
2.403666666666667E+009;1.710281968116760E-001;2.015381120145321E-002;-1.273799687623978E-003;-9.702106763143092E-005;
2.403833333333334E+009;1.710868477821350E-001;1.893355138599873E-002;-1.299940631724894E-003;-3.295333590358496E-004;
2.404000000000000E+009;1.707343012094498E-001;1.754750497639179E-002;-1.440324471332133E-003;-3.676410415209830E-004;
2.404166666666667E+009;1.706322133541107E-001;1.620095409452915E-002;-1.361679751425982E-003;-5.310727865435183E-004;
2.404333333333334E+009;1.706427186727524E-001;1.509583927690983E-002;-1.557648763991892E-003;-5.784580134786665E-004;
2.404500000000000E+009;1.703068017959595E-001;1.372113637626171E-002;-1.636260189116001E-003;-7.175060454756022E-004;
2.404666666666667E+009;1.702278554439545E-001;1.216866075992584E-002;-1.541002886369824E-003;-7.261355640366674E-004;
2.404833333333334E+009;1.701755225658417E-001;1.065363921225071E-002;-1.815808471292257E-003;-7.677909452468157E-004;
2.405000000000000E+009;1.702600717544556E-001;9.165793657302856E-003;-1.880224212072790E-003;-8.660040330141783E-004;
2.405166666666667E+009;1.700231581926346E-001;7.604869548231363E-003;-1.978456042706966E-003;-8.400916703976691E-004;
2.405333333333334E+009;1.701425313949585E-001;6.119928322732449E-003;-2.218983834609389E-003;-8.601967711001635E-004;
2.405500000000000E+009;1.701761931180954E-001;4.450643900781870E-003;-2.503885887563229E-003;-7.993767503648996E-004;
2.405666666666667E+009;1.700518578290939E-001;2.813150174915791E-003;-2.564654219895601E-003;-8.985209278762341E-004;
2.405833333333334E+009;1.699004173278809E-001;1.313178683631122E-003;-2.767347497865558E-003;-7.415673462674022E-004;
2.406000000000000E+009;1.698030382394791E-001;-5.371975712478161E-004;-2.947244094684720E-003;-5.370504804886878E-004;
2.406166666666667E+009;1.695541590452194E-001;-2.056190045550466E-003;-2.979530720040202E-003;-3.737482184078544E-004;
2.406333333333334E+009;1.695933192968369E-001;-3.728323383256793E-003;-3.233514260500670E-003;-1.670522760832682E-004;
2.406500000000000E+009;1.695017516613007E-001;-5.270167719572783E-003;-3.357322653755546E-003;2.069956826744601E-005;
2.406666666666667E+009;1.690676361322403E-001;-6.816163193434477E-003;-3.418079111725092E-003;7.765857299091294E-005;
2.406833333333334E+009;1.691913604736328E-001;-8.508188650012016E-003;-3.541639074683189E-003;4.481779760681093E-004;
2.407000000000000E+009;1.689823865890503E-001;-9.860360063612461E-003;-3.418402280658484E-003;6.223634118214250E-004;
2.407166666666667E+009;1.689964979887009E-001;-1.124975737184286E-002;-3.554543713107705E-003;8.610889199189842E-004;
2.407333333333334E+009;1.686995029449463E-001;-1.267852354794741E-002;-3.490429604426026E-003;1.164367189630866E-003;
2.407500000000000E+009;1.685646623373032E-001;-1.386556494981051E-002;-3.471390344202519E-003;1.268796855583787E-003;
2.407666666666667E+009;1.684888005256653E-001;-1.508602872490883E-002;-3.222767496481538E-003;1.516181393526495E-003;
2.407833333333334E+009;1.682081222534180E-001;-1.639969460666180E-002;-3.321290947496891E-003;1.894771121442318E-003;
2.408000000000000E+009;1.681229323148727E-001;-1.750945672392845E-002;-3.018346615135670E-003;1.815068302676082E-003;
2.408166666666667E+009;1.679510921239853E-001;-1.841632835566998E-002;-3.019530093297362E-003;1.983801368623972E-003;
2.408333333333334E+009;1.680561900138855E-001;-1.933397166430950E-002;-2.747970167547464E-003;2.276216167956591E-003;
2.408500000000000E+009;1.682328879833221E-001;-2.029740996658802E-002;-2.652082126587629E-003;2.308578696101904E-003;
2.408666666666667E+009;1.682201474905014E-001;-2.133541367948055E-002;-2.524283248931170E-003;2.418737858533859E-003;
2.408833333333334E+009;1.682130247354507E-001;-2.211463637650013E-002;-2.415319671854377E-003;2.389195375144482E-003;
2.409000000000000E+009;1.683726310729981E-001;-2.290418557822704E-002;-2.290748059749603E-003;2.371155191212893E-003;
2.409166666666667E+009;1.686195731163025E-001;-2.371275238692761E-002;-2.109480556100607E-003;2.472989493981004E-003;
2.409333333333334E+009;1.688540577888489E-001;-2.461859211325645E-002;-2.040190156549215E-003;2.500491449609399E-003;
2.409500000000000E+009;1.691674143075943E-001;-2.569093182682991E-002;-2.043096348643303E-003;2.408383414149284E-003;
2.409666666666667E+009;1.691929996013641E-001;-2.650640904903412E-002;-1.878703362308443E-003;2.552153309807181E-003;
2.409833333333334E+009;1.693097651004791E-001;-2.734616585075855E-002;-1.807117834687233E-003;2.685049083083868E-003;
2.410000000000000E+009;1.694415211677551E-001;-2.813962288200855E-002;-1.847668667323887E-003;2.694234251976013E-003;
2.410166666666667E+009;1.695291697978973E-001;-2.893949300050736E-002;-1.637058565393090E-003;2.694101538509131E-003;
2.410333333333334E+009;1.694809049367905E-001;-2.986298128962517E-002;-1.568156294524670E-003;2.724752295762301E-003;
2.410500000000000E+009;1.695290207862854E-001;-3.089651279151440E-002;-1.536866882815957E-003;2.777087735012174E-003;
2.410666666666667E+009;1.693082153797150E-001;-3.188515827059746E-002;-1.574569731019437E-003;2.790545811876655E-003;
2.410833333333334E+009;1.692686527967453E-001;-3.270919248461723E-002;-1.314921537414193E-003;2.796777058392763E-003;
2.411000000000000E+009;1.691389828920364E-001;-3.346316888928413E-002;-1.373007777146995E-003;2.755761612206698E-003;
2.411166666666667E+009;1.688800603151321E-001;-3.435578197240830E-002;-1.104320283047855E-003;2.968695247545838E-003;
2.411333333333334E+009;1.687674075365067E-001;-3.507992997765541E-002;-1.173320808447897E-003;2.945468062534928E-003;
2.411500000000000E+009;1.684903949499130E-001;-3.611187264323235E-002;-1.030661747790873E-003;2.893926342949271E-003;
2.411666666666667E+009;1.683874726295471E-001;-3.693175315856934E-002;-1.006876700557768E-003;2.980896271765232E-003;
2.411833333333334E+009;1.679752022027969E-001;-3.765191510319710E-002;-8.888277225196362E-004;3.057622816413641E-003;
2.412000000000000E+009;1.678473502397537E-001;-3.858010470867157E-002;-7.499678176827729E-004;2.972068730741739E-003;
2.412166666666667E+009;1.674183905124664E-001;-3.935089334845543E-002;-7.226689485833049E-004;3.165221307426691E-003;
2.412333333333334E+009;1.672560125589371E-001;-4.033199325203896E-002;-7.274248637259007E-004;3.100239904597402E-003;
2.412500000000000E+009;1.667757183313370E-001;-4.116713628172875E-002;-6.273604813031852E-004;3.166529117152095E-003;
2.412666666666667E+009;1.664970368146896E-001;-4.252481833100319E-002;-5.627241916954517E-004;3.263817168772221E-003;
2.412833333333334E+009;1.660448610782623E-001;-4.321210831403732E-002;-3.860139695461839E-004;3.191471565514803E-003;
2.413000000000000E+009;1.656997650861740E-001;-4.423368349671364E-002;-4.705738101620227E-004;3.287639934569597E-003;
2.413166666666667E+009;1.650965809822083E-001;-4.515030607581139E-002;-2.115563984261826E-004;3.429355332627893E-003;
2.413333333333334E+009;1.646063178777695E-001;-4.620518535375595E-002;-1.697761035757139E-004;3.380030859261751E-003;
2.413500000000000E+009;1.641975343227387E-001;-4.730333015322685E-002;-9.763465641299263E-006;3.598849056288600E-003;
2.413666666666667E+009;1.638021171092987E-001;-4.829867929220200E-002;1.316952966590179E-005;3.403662936761975E-003;
2.413833333333334E+009;1.632623076438904E-001;-4.928457364439964E-002;1.370667014271021E-004;3.441560314968228E-003;
2.414000000000000E+009;1.627022325992584E-001;-5.026105046272278E-002;4.122625687159598E-004;3.453005105257034E-003;
2.414166666666667E+009;1.623652726411820E-001;-5.120464414358139E-002;4.552422906272113E-004;3.468115348368883E-003;
2.414333333333334E+009;1.619093120098114E-001;-5.222348496317864E-002;6.596313905902207E-004;3.446090035140514E-003;
2.414500000000000E+009;1.616376042366028E-001;-5.318718031048775E-002;8.772942819632590E-004;3.319768467918038E-003;
2.414666666666667E+009;1.613130569458008E-001;-5.423618480563164E-002;8.669909439049661E-004;3.292662557214499E-003;
2.414833333333334E+009;1.609492599964142E-001;-5.529957264661789E-002;8.022771799005568E-004;3.287761239334941E-003;
2.415000000000000E+009;1.607446074485779E-001;-5.626029148697853E-002;1.044352422468364E-003;3.222499508410692E-003;
2.415166666666667E+009;1.603606194257736E-001;-5.735030025243759E-002;1.174048404209316E-003;3.255594987422228E-003;
2.415333333333334E+009;1.604117602109909E-001;-5.848407372832298E-002;1.325355726294220E-003;3.366060787811875E-003;
2.415500000000000E+009;1.601645946502686E-001;-5.972179770469666E-002;1.556401723064482E-003;3.200509585440159E-003;
2.415666666666667E+009;1.599270850419998E-001;-6.083263084292412E-002;1.562252175062895E-003;2.930897753685713E-003;
2.415833333333334E+009;1.598723977804184E-001;-6.212838739156723E-002;1.670719590038061E-003;3.078697714954615E-003;
2.416000000000000E+009;1.594779193401337E-001;-6.324338167905808E-002;1.959715737029910E-003;3.011581022292376E-003;
2.416166666666667E+009;1.594724655151367E-001;-6.460519134998322E-002;2.099480712786317E-003;2.850294811651111E-003;
2.416333333333334E+009;1.591407805681229E-001;-6.576734036207199E-002;1.974459504708648E-003;2.746204147115350E-003;
2.416500000000000E+009;1.589150726795197E-001;-6.698057055473328E-002;2.155757043510675E-003;2.622053958475590E-003;
2.416666666666667E+009;1.585826575756073E-001;-6.821741163730621E-002;2.330680843442679E-003;2.538849133998156E-003;
2.416833333333334E+009;1.583749204874039E-001;-6.952331215143204E-002;2.441094955429435E-003;2.455209381878376E-003;
2.417000000000000E+009;1.578068882226944E-001;-7.055344432592392E-002;2.509762998670340E-003;2.404398284852505E-003;
2.417166666666667E+009;1.576072722673416E-001;-7.158065587282181E-002;2.495383843779564E-003;2.236861735582352E-003;
2.417333333333334E+009;1.573781222105026E-001;-7.263423502445221E-002;2.472993219271302E-003;2.165818819776177E-003;
2.417500000000000E+009;1.569789052009583E-001;-7.378696650266647E-002;2.663170453161001E-003;2.098781755194068E-003;
2.417666666666667E+009;1.567523181438446E-001;-7.454034686088562E-002;2.628373680636287E-003;1.911488012410700E-003;
2.417833333333334E+009;1.564644724130631E-001;-7.541020959615707E-002;2.767255762591958E-003;1.848062151111662E-003;
2.418000000000000E+009;1.561155468225479E-001;-7.648190855979919E-002;2.689571818336844E-003;1.674113678745925E-003;
2.418166666666667E+009;1.559335142374039E-001;-7.707680761814117E-002;2.746984362602234E-003;1.675265259109438E-003;
2.418333333333334E+009;1.558413356542587E-001;-7.807682454586029E-002;2.851377008482814E-003;1.439647981896997E-003;
2.418500000000000E+009;1.554807573556900E-001;-7.875841110944748E-002;2.849634038284421E-003;1.422763220034540E-003;
2.418666666666667E+009;1.552099585533142E-001;-7.967606931924820E-002;2.869655610993505E-003;1.178874052129686E-003;
2.418833333333334E+009;1.549188196659088E-001;-8.045384287834168E-002;2.887033391743898E-003;9.750502649694681E-004;
2.419000000000000E+009;1.546013951301575E-001;-8.104547113180161E-002;3.086454700678587E-003;9.801469277590513E-004;
2.419166666666667E+009;1.542925685644150E-001;-8.178897202014923E-002;3.081209259107709E-003;8.039708482101560E-004;
2.419333333333334E+009;1.539649814367294E-001;-8.222755044698715E-002;3.086518030613661E-003;5.602861056104302E-004;
2.419500000000000E+009;1.534816771745682E-001;-8.306787908077240E-002;2.939792349934578E-003;4.485748359002173E-004;
2.419666666666667E+009;1.534987986087799E-001;-8.372340351343155E-002;2.814656356349587E-003;3.309370367787778E-004;
2.419833333333334E+009;1.530047357082367E-001;-8.407166600227356E-002;2.852979581803083E-003;1.875675807241350E-004;
2.420000000000000E+009;1.527967303991318E-001;-8.474863320589066E-002;2.636272925883532E-003;3.067817669943906E-005;
2.420166666666667E+009;1.525520682334900E-001;-8.520983904600143E-002;2.614652970805764E-003;-1.563620171509683E-004;
2.420333333333334E+009;1.521876603364945E-001;-8.579848706722260E-002;2.543053822591901E-003;-3.142889472655952E-004;
2.420500000000000E+009;1.518492102622986E-001;-8.623582869768143E-002;2.333081094548106E-003;-2.692806010600179E-004;
2.420666666666667E+009;1.514597386121750E-001;-8.685387670993805E-002;2.180691808462143E-003;-2.895092184189707E-004;
2.420833333333334E+009;1.511429995298386E-001;-8.745651692152023E-002;2.219231799244881E-003;-4.172924382146448E-004;
2.421000000000000E+009;1.505027711391449E-001;-8.829968422651291E-002;1.949311234056950E-003;-4.063276574015617E-004;
2.421166666666667E+009;1.503314524888992E-001;-8.871380239725113E-002;1.763855922035873E-003;-4.375275457277894E-004;
2.421333333333334E+009;1.499571502208710E-001;-8.923573791980743E-002;1.726231887005270E-003;-5.040757241658866E-004;
2.421500000000000E+009;1.493259370326996E-001;-9.006161987781525E-002;1.713157980702817E-003;-2.865002024918795E-004;
2.421666666666667E+009;1.486753821372986E-001;-9.078517556190491E-002;1.421564957126975E-003;-1.609800820006058E-004;
2.421833333333334E+009;1.482223570346832E-001;-9.136813879013062E-002;1.294355373829603E-003;-2.511357015464455E-004;
2.422000000000000E+009;1.474808007478714E-001;-9.216468036174774E-002;1.242249389179051E-003;-1.060807771864347E-004;
2.422166666666667E+009;1.468486636877060E-001;-9.323253482580185E-002;1.106808078475297E-003;-1.118549698730931E-004;
2.422333333333334E+009;1.463769376277924E-001;-9.363408386707306E-002;1.276507740840316E-003;7.189909956650809E-005;
2.422500000000000E+009;1.456383317708969E-001;-9.425010532140732E-002;1.162833534181118E-003;7.436424493789673E-005;
2.422666666666667E+009;1.449293941259384E-001;-9.515412151813507E-002;1.220189384184778E-003;3.251270973123610E-004;
2.422833333333334E+009;1.444545388221741E-001;-9.598826617002487E-002;1.205376349389553E-003;3.434465907048434E-004;
2.423000000000000E+009;1.437206566333771E-001;-9.688454121351242E-002;1.329175778664649E-003;6.770365289412439E-004;
2.423166666666667E+009;1.431787461042404E-001;-9.760830551385880E-002;1.411026343703270E-003;8.049733005464077E-004;
2.423333333333334E+009;1.426035761833191E-001;-9.846215695142746E-002;1.581714255735278E-003;9.104998316615820E-004;
2.423500000000000E+009;1.417419165372849E-001;-9.943847358226776E-002;1.627582358196378E-003;8.889827295206487E-004;
2.423666666666667E+009;1.410050839185715E-001;-1.004562079906464E-001;2.119583077728748E-003;7.715401006862521E-004;
2.423833333333334E+009;1.404399871826172E-001;-1.013744249939919E-001;2.161279786378145E-003;8.257848676294088E-004;
2.424000000000000E+009;1.395287960767746E-001;-1.023246347904205E-001;2.430037129670382E-003;8.878687513060868E-004;
2.424166666666667E+009;1.388991624116898E-001;-1.031934469938278E-001;2.482917858287692E-003;7.490314310416579E-004;
2.424333333333334E+009;1.383468359708786E-001;-1.040954291820526E-001;2.633100142702460E-003;6.416914984583855E-004;
2.424500000000000E+009;1.376973539590836E-001;-1.051422059535980E-001;2.764332108199596E-003;5.239294841885567E-004;
2.424666666666667E+009;1.371600627899170E-001;-1.058003604412079E-001;2.924308879300952E-003;2.942840801551938E-004;
2.424833333333334E+009;1.364336162805557E-001;-1.068849936127663E-001;3.046137280762196E-003;2.778462949208915E-004;
2.425000000000000E+009;1.359354108572006E-001;-1.079589873552322E-001;3.114145481958985E-003;-6.957213918212801E-005;
2.425166666666667E+009;1.350940465927124E-001;-1.089302301406860E-001;3.201877698302269E-003;-1.643330906517804E-004;
2.425333333333334E+009;1.347981393337250E-001;-1.099075824022293E-001;3.179402556270361E-003;-4.325077461544424E-004;
2.425500000000000E+009;1.342460066080093E-001;-1.110923141241074E-001;3.136424114927650E-003;-6.026037735864520E-004;
2.425666666666667E+009;1.336694210767746E-001;-1.120897680521011E-001;3.127570729702711E-003;-7.564804982393980E-004;
2.425833333333334E+009;1.332101821899414E-001;-1.130475699901581E-001;3.219665260985494E-003;-8.449879824183881E-004;
2.426000000000000E+009;1.326850503683090E-001;-1.141565442085266E-001;3.238871693611145E-003;-1.063847914338112E-003;
2.426166666666667E+009;1.325092166662216E-001;-1.151795685291290E-001;3.064300632104278E-003;-1.203689607791603E-003;
2.426333333333334E+009;1.318008899688721E-001;-1.160397082567215E-001;2.979148644953966E-003;-1.318439259193838E-003;
2.426500000000000E+009;1.314551085233688E-001;-1.169344931840897E-001;2.789361402392387E-003;-1.417971448972821E-003;
2.426666666666667E+009;1.311758607625961E-001;-1.177012175321579E-001;2.872326178476214E-003;-1.598212518729270E-003;
2.426833333333334E+009;1.305713951587677E-001;-1.186207532882690E-001;2.987344283610582E-003;-1.727158436551690E-003;
2.427000000000000E+009;1.302620321512222E-001;-1.195771992206574E-001;2.610704628750682E-003;-1.891418709419668E-003;
2.427166666666667E+009;1.299192309379578E-001;-1.202061548829079E-001;2.560711931437254E-003;-1.951553742401302E-003;
2.427333333333334E+009;1.295143961906433E-001;-1.209867894649506E-001;2.581957494840026E-003;-2.015053294599056E-003;
2.427500000000000E+009;1.292915493249893E-001;-1.218358576297760E-001;2.443886827677488E-003;-2.193920314311981E-003;
2.427666666666667E+009;1.288842856884003E-001;-1.224357038736343E-001;2.360783284530044E-003;-2.284010406583548E-003;
