# Version 1.00
#
freq[Hz];re:Trc1_S11;im:Trc1_S11;re:Trc2_S21;im:Trc2_S21;
2.400000000000000E+009;1.627568602561951E-001;5.229882895946503E-002;2.570776036009193E-003;1.899618073366582E-003;
2.400166666666667E+009;1.628006100654602E-001;5.081024020910263E-002;2.387245884165168E-003;1.887812046334148E-003;
2.400333333333334E+009;1.624350100755692E-001;4.881758242845535E-002;2.437091898173094E-003;1.758314552716911E-003;
2.400500000000000E+009;1.623989641666412E-001;4.714594036340714E-002;2.802126808091998E-003;1.769685535691679E-003;
2.400666666666667E+009;1.623088717460632E-001;4.524533078074455E-002;2.537521999329329E-003;1.776664517819881E-003;
2.400833333333334E+009;1.626163572072983E-001;4.342068359255791E-002;2.686694730073214E-003;1.655607018619776E-003;
2.401000000000000E+009;1.625298112630844E-001;4.138907790184021E-002;2.882315311580896E-003;1.636618748307228E-003;
2.401166666666667E+009;1.624884456396103E-001;3.935111686587334E-002;2.750540850684047E-003;1.588436542078853E-003;
2.401333333333334E+009;1.625603139400482E-001;3.734196349978447E-002;2.864900045096874E-003;1.709840027615428E-003;
2.401500000000000E+009;1.628296375274658E-001;3.529806435108185E-002;2.826676005497575E-003;1.458626589737833E-003;
2.401666666666667E+009;1.629338413476944E-001;3.334794938564301E-002;3.043063217774034E-003;1.573631074279547E-003;
2.401833333333334E+009;1.634479016065598E-001;3.134367242455483E-002;3.070391481742263E-003;1.478740130551159E-003;
2.402000000000000E+009;1.633843034505844E-001;2.938412688672543E-002;3.409130498766899E-003;1.258287695236504E-003;
2.402166666666667E+009;1.638965904712677E-001;2.737081423401833E-002;3.216800047084689E-003;1.375293708406389E-003;
2.402333333333334E+009;1.642032563686371E-001;2.546954341232777E-002;3.382355207577348E-003;1.151409116573632E-003;
2.402500000000000E+009;1.650440096855164E-001;2.367764897644520E-002;3.494092728942633E-003;1.207071705721319E-003;
2.402666666666667E+009;1.653852611780167E-001;2.193889580667019E-002;3.595420625060797E-003;1.026242272928357E-003;
2.402833333333334E+009;1.658924967050552E-001;2.022204734385014E-002;3.605626756325364E-003;9.423695737496018E-004;
2.403000000000000E+009;1.666381061077118E-001;1.857157982885838E-002;3.818762721493840E-003;8.245430653914809E-004;
2.403166666666667E+009;1.672776341438294E-001;1.690516248345375E-002;3.789670066908002E-003;5.491191986948252E-004;
2.403333333333334E+009;1.681355088949204E-001;1.547412667423487E-002;3.890334861353040E-003;5.664894706569612E-004;
2.403500000000000E+009;1.687113344669342E-001;1.410645432770252E-002;4.086737520992756E-003;2.896970545407385E-004;
2.403666666666667E+009;1.695809364318848E-001;1.262529008090496E-002;4.060677252709866E-003;2.462264674250037E-004;
2.403833333333334E+009;1.701917201280594E-001;1.119073294103146E-002;4.182186909019947E-003;3.718248535733437E-006;
2.404000000000000E+009;1.710789948701859E-001;1.014207303524017E-002;4.227291792631149E-003;-3.289228188805282E-004;
2.404166666666667E+009;1.721018552780151E-001;8.758245967328548E-003;4.140319768339396E-003;-4.166975850239396E-004;
2.404333333333334E+009;1.727784872055054E-001;7.863219827413559E-003;4.166176542639732E-003;-8.755710441619158E-004;
2.404500000000000E+009;1.734478473663330E-001;6.704409141093493E-003;4.041162785142660E-003;-8.933269418776035E-004;
2.404666666666667E+009;1.742248535156250E-001;5.987239535897970E-003;4.071323666721582E-003;-1.106689916923642E-003;
2.404833333333334E+009;1.752410084009171E-001;5.052717402577400E-003;4.083999432623386E-003;-1.416772953234613E-003;
2.405000000000000E+009;1.758462190628052E-001;4.296995233744383E-003;4.029769916087389E-003;-1.610951148904860E-003;
2.405166666666667E+009;1.764696389436722E-001;3.633526619523764E-003;3.943567164242268E-003;-1.787936198525131E-003;
2.405333333333334E+009;1.772968024015427E-001;2.763598924502730E-003;3.905888181179762E-003;-1.962056383490562E-003;
2.405500000000000E+009;1.777797788381577E-001;2.507520141080022E-003;3.736730199307203E-003;-2.046681474894285E-003;
2.405666666666667E+009;1.783888041973114E-001;1.919159665703774E-003;3.688750555738807E-003;-2.255283994600177E-003;
2.405833333333334E+009;1.787503659725189E-001;1.510841073468328E-003;3.517740406095982E-003;-2.486336044967175E-003;
2.406000000000000E+009;1.794271618127823E-001;1.111662015318871E-003;3.429902251809835E-003;-2.497776178643107E-003;
2.406166666666667E+009;1.796824336051941E-001;8.503135759383440E-004;3.230037400498986E-003;-2.575043821707368E-003;
2.406333333333334E+009;1.801154315471649E-001;4.402433405630291E-004;3.076789202168584E-003;-2.622155239805579E-003;
2.406500000000000E+009;1.803594827651978E-001;1.267561892746016E-004;2.789754653349519E-003;-2.931631170213223E-003;
2.406666666666667E+009;1.803857684135437E-001;-9.964800119632855E-005;2.804119372740388E-003;-2.964224666357040E-003;
2.406833333333334E+009;1.806101351976395E-001;-4.786278877872974E-004;2.539277775213122E-003;-3.105437383055687E-003;
2.407000000000000E+009;1.807126253843308E-001;-7.810004753991962E-004;2.324205357581377E-003;-3.323851153254509E-003;
2.407166666666667E+009;1.807745248079300E-001;-9.167019743472338E-004;2.330756979063153E-003;-3.290695138275623E-003;
2.407333333333334E+009;1.806202828884125E-001;-1.525667845271528E-003;2.076078671962023E-003;-3.294996218755841E-003;
2.407500000000000E+009;1.803941279649735E-001;-1.793851028196514E-003;1.935049425810576E-003;-3.398321801796556E-003;
2.407666666666667E+009;1.802792847156525E-001;-2.095730975270271E-003;1.865093479864299E-003;-3.503379644826055E-003;
2.407833333333334E+009;1.795983314514160E-001;-2.857019426301122E-003;1.658745924942195E-003;-3.637954825535417E-003;
2.408000000000000E+009;1.793814301490784E-001;-3.304310375824571E-003;1.567474915646017E-003;-3.592526772990823E-003;
2.408166666666667E+009;1.787862628698349E-001;-3.647397970780730E-003;1.293471315875650E-003;-3.481815801933408E-003;
2.408333333333334E+009;1.785413026809692E-001;-4.440227989107370E-003;1.168606569990516E-003;-3.540693316608667E-003;
2.408500000000000E+009;1.779211163520813E-001;-5.167908035218716E-003;9.227340342476964E-004;-3.814607160165906E-003;
2.408666666666667E+009;1.772051155567169E-001;-5.904813297092915E-003;8.503084536641836E-004;-3.870842512696981E-003;
2.408833333333334E+009;1.764656007289887E-001;-6.796427071094513E-003;7.300337310880423E-004;-3.603929188102484E-003;
2.409000000000000E+009;1.757428795099258E-001;-7.594554685056210E-003;6.141266203485429E-004;-3.663284238427877E-003;
2.409166666666667E+009;1.750697344541550E-001;-8.750535547733307E-003;2.702900092117488E-004;-3.661933587864041E-003;
2.409333333333334E+009;1.745800524950028E-001;-9.834394790232182E-003;2.103363076457754E-004;-3.667732467874885E-003;
2.409500000000000E+009;1.736372113227844E-001;-1.102618500590324E-002;1.594166860741098E-005;-3.537871176376939E-003;
2.409666666666667E+009;1.728653609752655E-001;-1.229621842503548E-002;-2.633378026075661E-004;-3.690087236464024E-003;
2.409833333333334E+009;1.721010655164719E-001;-1.346633862704039E-002;-2.867934235837311E-004;-3.415399231016636E-003;
2.410000000000000E+009;1.714574396610260E-001;-1.503958646208048E-002;-4.733655950985849E-004;-3.475461388006806E-003;
2.410166666666667E+009;1.708297580480576E-001;-1.665036752820015E-002;-3.226398257538676E-004;-3.389606950804591E-003;
2.410333333333334E+009;1.701213270425797E-001;-1.802991516888142E-002;-7.045114762149751E-004;-3.230099100619555E-003;
2.410500000000000E+009;1.694781780242920E-001;-1.961923390626907E-002;-9.134784922935069E-004;-3.243859857320786E-003;
2.410666666666667E+009;1.686984449625015E-001;-2.152693457901478E-002;-7.527658599428833E-004;-3.100706730037928E-003;
2.410833333333334E+009;1.683993935585022E-001;-2.323185093700886E-002;-1.001112861558795E-003;-3.004013327881694E-003;
2.411000000000000E+009;1.678065061569214E-001;-2.493971213698387E-002;-1.022770768031478E-003;-2.982872072607279E-003;
2.411166666666667E+009;1.671971231698990E-001;-2.685035206377506E-002;-1.215075841173530E-003;-2.877489197999239E-003;
2.411333333333334E+009;1.670094430446625E-001;-2.872630394995213E-002;-1.292794826440513E-003;-2.773287240415812E-003;
2.411500000000000E+009;1.665676385164261E-001;-3.095882013440132E-002;-1.306961523368955E-003;-2.614897442981601E-003;
2.411666666666667E+009;1.664651185274124E-001;-3.255883604288101E-002;-1.443787245079875E-003;-2.775113331153989E-003;
2.411833333333334E+009;1.661005318164825E-001;-3.441077098250389E-002;-1.436575665138662E-003;-2.515582600608468E-003;
2.412000000000000E+009;1.661793142557144E-001;-3.643806278705597E-002;-1.497812569141388E-003;-2.523681148886681E-003;
2.412166666666667E+009;1.658509969711304E-001;-3.852145373821259E-002;-1.631551305763423E-003;-2.371178008615971E-003;
2.412333333333334E+009;1.661473363637924E-001;-4.048759117722511E-002;-1.703274319879711E-003;-2.229532226920128E-003;
2.412500000000000E+009;1.657862663269043E-001;-4.217657446861267E-002;-1.716283150017262E-003;-2.125659957528114E-003;
2.412666666666667E+009;1.660953313112259E-001;-4.431944712996483E-002;-1.945032970979810E-003;-2.022176980972290E-003;
2.412833333333334E+009;1.664820015430450E-001;-4.627654328942299E-002;-1.874269684776664E-003;-2.146550221368671E-003;
2.413000000000000E+009;1.667476892471314E-001;-4.794951900839806E-002;-1.856373623013496E-003;-1.997498096898198E-003;
2.413166666666667E+009;1.669560074806213E-001;-4.975155740976334E-002;-2.038697712123394E-003;-1.905761542730033E-003;
2.413333333333334E+009;1.670357286930084E-001;-5.151553452014923E-002;-1.941588940098882E-003;-1.779124955646694E-003;
2.413500000000000E+009;1.676727831363678E-001;-5.331397801637650E-002;-2.076805103570223E-003;-1.725047826766968E-003;
2.413666666666667E+009;1.679244190454483E-001;-5.492670834064484E-002;-2.229969948530197E-003;-1.581718563102186E-003;
2.413833333333334E+009;1.683196723461151E-001;-5.641068890690804E-002;-2.104254672303796E-003;-1.411749282851815E-003;
2.414000000000000E+009;1.686312407255173E-001;-5.771256238222122E-002;-2.156470902264118E-003;-1.319524249993265E-003;
2.414166666666667E+009;1.692433804273605E-001;-5.909442901611328E-002;-2.121490659192205E-003;-1.326988916844130E-003;
2.414333333333334E+009;1.697464138269424E-001;-6.040692329406738E-002;-2.225388539955020E-003;-1.202348154038191E-003;
2.414500000000000E+009;1.704583615064621E-001;-6.164114922285080E-002;-2.387462183833122E-003;-1.197015750221908E-003;
2.414666666666667E+009;1.708109080791473E-001;-6.272124499082565E-002;-2.203394193202257E-003;-8.460303652100265E-004;
2.414833333333334E+009;1.712020635604858E-001;-6.380579620599747E-002;-2.226691693067551E-003;-7.545949774794281E-004;
2.415000000000000E+009;1.717188656330109E-001;-6.472358107566834E-002;-2.222274197265506E-003;-7.208098541013897E-004;
2.415166666666667E+009;1.719927638769150E-001;-6.547559052705765E-002;-2.280782209709287E-003;-7.682117866352201E-004;
2.415333333333334E+009;1.724933981895447E-001;-6.640060245990753E-002;-2.291651442646980E-003;-6.290069431997836E-004;
2.415500000000000E+009;1.727710515260696E-001;-6.695153564214706E-002;-2.379051409661770E-003;-5.784446839243174E-004;
2.415666666666667E+009;1.731031686067581E-001;-6.752657890319824E-002;-2.282632514834404E-003;-3.779497637879103E-004;
2.415833333333334E+009;1.733901351690292E-001;-6.799848377704620E-002;-2.126972423866391E-003;-3.304146230220795E-004;
2.416000000000000E+009;1.733740270137787E-001;-6.848806142807007E-002;-2.148394240066409E-003;-2.908186288550496E-004;
2.416166666666667E+009;1.735915988683701E-001;-6.888579577207565E-002;-2.096538431942463E-003;-2.116769028361887E-004;
2.416333333333334E+009;1.736185848712921E-001;-6.905295699834824E-002;-1.984740374609828E-003;-4.954652104061097E-005;
2.416500000000000E+009;1.735363304615021E-001;-6.945896148681641E-002;-1.964089693501592E-003;2.163490426028147E-004;
2.416666666666667E+009;1.733078360557556E-001;-6.970147788524628E-002;-2.112077549099922E-003;7.019862096058205E-005;
2.416833333333334E+009;1.732775568962097E-001;-7.002934813499451E-002;-1.928677433170378E-003;1.390682155033574E-004;
2.417000000000000E+009;1.727722734212875E-001;-7.018512487411499E-002;-1.831708825193346E-003;1.965426199603826E-004;
2.417166666666667E+009;1.724485903978348E-001;-7.024754583835602E-002;-1.860838267020881E-003;3.740338433999568E-004;
2.417333333333334E+009;1.719596534967423E-001;-7.040721923112869E-002;-1.927674631588161E-003;4.996150964871049E-004;
2.417500000000000E+009;1.714319437742233E-001;-7.074206322431564E-002;-1.776378485374153E-003;4.324298352003098E-004;
2.417666666666667E+009;1.707762777805328E-001;-7.076755911111832E-002;-1.882384531199932E-003;5.856822244822979E-004;
2.417833333333334E+009;1.701098829507828E-001;-7.100702077150345E-002;-1.674790401011705E-003;6.979254540055990E-004;
2.418000000000000E+009;1.692431122064591E-001;-7.125212252140045E-002;-1.647048396989703E-003;8.518394315615296E-004;
2.418166666666667E+009;1.682195961475372E-001;-7.130903750658035E-002;-1.483920379541814E-003;6.984845967963338E-004;
2.418333333333334E+009;1.676145046949387E-001;-7.170622050762177E-002;-1.402877154760063E-003;8.437794167548418E-004;
2.418500000000000E+009;1.665043532848358E-001;-7.209267467260361E-002;-1.229962450452149E-003;8.575926767662168E-004;
2.418666666666667E+009;1.653904616832733E-001;-7.231652736663818E-002;-1.307987375184894E-003;9.486184571869671E-004;
2.418833333333334E+009;1.640651077032089E-001;-7.282014936208725E-002;-1.056660898029804E-003;8.497645612806082E-004;
2.419000000000000E+009;1.628818958997726E-001;-7.340918481349945E-002;-1.182753010652959E-003;9.138380410149694E-004;
2.419166666666667E+009;1.618736833333969E-001;-7.391834259033203E-002;-1.089418423362076E-003;9.140084148384631E-004;
2.419333333333334E+009;1.604476124048233E-001;-7.427290081977844E-002;-9.796369122341275E-004;1.003191922791302E-003;
2.419500000000000E+009;1.591719686985016E-001;-7.510808855295181E-002;-8.490206673741341E-004;1.057914691045880E-003;
2.419666666666667E+009;1.580607593059540E-001;-7.598365098237991E-002;-8.696229197084904E-004;1.067390083335340E-003;
2.419833333333334E+009;1.567150950431824E-001;-7.665406912565231E-002;-7.666378514841199E-004;9.884377941489220E-004;
2.420000000000000E+009;1.554051488637924E-001;-7.759786397218704E-002;-6.203250959515572E-004;1.036292756907642E-003;
2.420166666666667E+009;1.542408764362335E-001;-7.876461744308472E-002;-6.734196795150638E-004;9.814368095248938E-004;
2.420333333333334E+009;1.531648486852646E-001;-7.981948554515839E-002;-5.240953760221601E-004;9.923508623614907E-004;
2.420500000000000E+009;1.521239727735519E-001;-8.092691004276276E-002;-3.509260423015803E-004;8.906382718123496E-004;
2.420666666666667E+009;1.509363055229187E-001;-8.200725167989731E-002;-3.016109694726765E-004;1.079900190234184E-003;
2.420833333333334E+009;1.498997062444687E-001;-8.353933691978455E-002;-2.828825672622770E-004;9.811407653614879E-004;
2.421000000000000E+009;1.487571448087692E-001;-8.495350182056427E-002;-2.990389184560627E-004;7.981554372236133E-004;
2.421166666666667E+009;1.478709429502487E-001;-8.627447485923767E-002;3.176683094352484E-005;9.066732018254697E-004;
2.421333333333334E+009;1.472014784812927E-001;-8.794813603162766E-002;-6.143696373328567E-005;8.100051200017333E-004;
2.421500000000000E+009;1.461990326642990E-001;-8.934284001588821E-002;7.939881470520049E-005;8.157339761964977E-004;
2.421666666666667E+009;1.455645561218262E-001;-9.096819162368774E-002;3.035232657566667E-004;6.757169612683356E-004;
2.421833333333334E+009;1.450992375612259E-001;-9.262844920158386E-002;2.270285476697609E-004;7.144808187149465E-004;
2.422000000000000E+009;1.445769816637039E-001;-9.450464695692062E-002;1.564891863381490E-004;7.029168191365898E-004;
2.422166666666667E+009;1.440138220787048E-001;-9.625425934791565E-002;2.535846142563969E-004;4.806059005204588E-004;
2.422333333333334E+009;1.437185853719711E-001;-9.790868312120438E-002;3.885948099195957E-004;4.658546240534633E-004;
2.422500000000000E+009;1.434558480978012E-001;-9.949266165494919E-002;2.665604697540402E-004;4.063099913764745E-004;
2.422666666666667E+009;1.430976390838623E-001;-1.013786271214485E-001;2.777167828753591E-004;2.196288551203907E-004;
2.422833333333334E+009;1.430929452180862E-001;-1.031943783164024E-001;4.576077917590737E-004;1.814440765883774E-004;
2.423000000000000E+009;1.430931240320206E-001;-1.048876270651817E-001;2.554882667027414E-004;-2.211252649431117E-006;
2.423166666666667E+009;1.431365013122559E-001;-1.067539006471634E-001;2.760757924988866E-004;-5.854067421751097E-005;
2.423333333333334E+009;1.431361585855484E-001;-1.082692444324493E-001;2.769236743915826E-004;-2.555226383265108E-004;
2.423500000000000E+009;1.433129310607910E-001;-1.099780350923538E-001;4.157465882599354E-004;-1.927187258843333E-004;
2.423666666666667E+009;1.433438956737518E-001;-1.115484088659287E-001;1.971688616322354E-004;-2.085855812765658E-004;
2.423833333333334E+009;1.437401771545410E-001;-1.131610348820686E-001;1.185681612696499E-004;-3.815010422840715E-004;
2.424000000000000E+009;1.440310180187225E-001;-1.144987642765045E-001;1.880948548205197E-005;-3.397623659111559E-004;
2.424166666666667E+009;1.442258954048157E-001;-1.159820035099983E-001;4.647985406336375E-005;-3.781071573030204E-004;
2.424333333333334E+009;1.446607857942581E-001;-1.171472966670990E-001;-8.148304914357141E-006;-5.060391849838197E-004;
2.424500000000000E+009;1.451563239097595E-001;-1.185946613550186E-001;-4.710602297564037E-005;-4.878246400039643E-004;
2.424666666666667E+009;1.455577760934830E-001;-1.195562779903412E-001;-1.924431999213994E-004;-5.534847150556743E-004;
2.424833333333334E+009;1.458649188280106E-001;-1.206758841872215E-001;-2.656809811014682E-004;-5.960964481346309E-004;
2.425000000000000E+009;1.463047862052918E-001;-1.216801777482033E-001;-3.683239629026502E-004;-6.556966109201312E-004;
2.425166666666667E+009;1.464075893163681E-001;-1.225129067897797E-001;-4.173120541963726E-004;-5.887534935027361E-004;
2.425333333333334E+009;1.469157785177231E-001;-1.233188286423683E-001;-5.347224068827927E-004;-6.429122295230627E-004;
2.425500000000000E+009;1.473452299833298E-001;-1.241798773407936E-001;-4.650782211683691E-004;-6.442806916311383E-004;
2.425666666666667E+009;1.474788337945938E-001;-1.245792806148529E-001;-6.472080131061375E-004;-5.486384034156799E-004;
2.425833333333334E+009;1.478506326675415E-001;-1.252072304487228E-001;-6.233018357306719E-004;-5.328741972334683E-004;
2.426000000000000E+009;1.480105519294739E-001;-1.257737129926682E-001;-6.584346992895007E-004;-4.651776107493788E-004;
2.426166666666667E+009;1.484032720327377E-001;-1.260598003864288E-001;-8.290353580377996E-004;-4.088955174665898E-004;
2.426333333333334E+009;1.482622772455216E-001;-1.263495981693268E-001;-8.301698835566640E-004;-3.280888486187905E-004;
2.426500000000000E+009;1.483725309371948E-001;-1.265888363122940E-001;-8.121018181554973E-004;-3.741079417522997E-004;
2.426666666666667E+009;1.483461707830429E-001;-1.266234070062637E-001;-8.100630948320031E-004;-3.770966432057321E-004;
2.426833333333334E+009;1.482967138290405E-001;-1.268157660961151E-001;-7.982489769347012E-004;-3.145245718769729E-004;
2.427000000000000E+009;1.479802876710892E-001;-1.269342899322510E-001;-8.737262687645853E-004;-2.059888793155551E-004;
2.427166666666667E+009;1.476395279169083E-001;-1.268225163221359E-001;-9.136206936091185E-004;-1.903916127048433E-004;
2.427333333333334E+009;1.471829563379288E-001;-1.268830448389053E-001;-7.745244074612856E-004;-1.351850514765829E-004;
2.427500000000000E+009;1.468425095081329E-001;-1.268552243709564E-001;-9.617189643904567E-004;-2.367590786889195E-004;
2.427666666666667E+009;1.461812108755112E-001;-1.267142891883850E-001;-8.190369117073715E-004;-8.397839701501653E-005;
