# Version 1.00
#
freq[Hz];re:Trc1_S11;im:Trc1_S11;re:Trc2_S21;im:Trc2_S21;
2.400000000000000E+009;1.627657413482666E-001;5.233522877097130E-002;2.425175160169601E-003;1.916975248605013E-003;
2.400166666666667E+009;1.626511812210083E-001;5.073299258947372E-002;2.481058007106185E-003;1.911279396153987E-003;
2.400333333333334E+009;1.624840348958969E-001;4.892885684967041E-002;2.593637676909566E-003;1.978073269128799E-003;
2.400500000000000E+009;1.626578271389008E-001;4.706588014960289E-002;2.546010073274374E-003;1.863419776782394E-003;
2.400666666666667E+009;1.623534262180328E-001;4.521074518561363E-002;2.593309851363301E-003;1.734883524477482E-003;
2.400833333333334E+009;1.624796688556671E-001;4.339016228914261E-002;2.735321875661612E-003;1.868540421128273E-003;
2.401000000000000E+009;1.625659912824631E-001;4.147531837224960E-002;2.746255137026310E-003;1.687059993855655E-003;
2.401166666666667E+009;1.625070720911026E-001;3.935884684324265E-002;2.800601534545422E-003;1.741089858114719E-003;
2.401333333333334E+009;1.626177579164505E-001;3.730459138751030E-002;2.803727053105831E-003;1.807855325751007E-003;
2.401500000000000E+009;1.631126552820206E-001;3.514583781361580E-002;2.998597221449018E-003;1.578977215103805E-003;
2.401666666666667E+009;1.630687117576599E-001;3.344358876347542E-002;3.023748751729727E-003;1.563824480399489E-003;
2.401833333333334E+009;1.633414179086685E-001;3.143450990319252E-002;3.226748900488019E-003;1.214147778227925E-003;
2.402000000000000E+009;1.633984893560410E-001;2.946109324693680E-002;3.305275691673160E-003;1.424613990820944E-003;
2.402166666666667E+009;1.638951897621155E-001;2.738440409302712E-002;3.388847922906280E-003;1.453930512070656E-003;
2.402333333333334E+009;1.642916351556778E-001;2.546623535454273E-002;3.378677181899548E-003;1.155690290033817E-003;
2.402500000000000E+009;1.649899184703827E-001;2.364091947674751E-002;3.496888326480985E-003;1.199346035718918E-003;
2.402666666666667E+009;1.654539108276367E-001;2.191290073096752E-002;3.674166044220328E-003;1.174927456304431E-003;
2.402833333333334E+009;1.659855395555496E-001;2.027487009763718E-002;3.776428988203406E-003;8.982871077023447E-004;
2.403000000000000E+009;1.666915267705917E-001;1.856604591012001E-002;3.700944595038891E-003;8.216568967327476E-004;
2.403166666666667E+009;1.675464957952499E-001;1.694271154701710E-002;3.898014081642032E-003;5.677595618180931E-004;
2.403333333333334E+009;1.680557429790497E-001;1.552681531757116E-002;3.820632118731737E-003;6.437652627937496E-004;
2.403500000000000E+009;1.687927395105362E-001;1.414500735700131E-002;3.959294408559799E-003;2.195884298998863E-004;
2.403666666666667E+009;1.694043129682541E-001;1.263602636754513E-002;4.075285047292709E-003;1.897474867291749E-004;
2.403833333333334E+009;1.704821139574051E-001;1.104737631976605E-002;4.221442621201277E-003;1.020721265376778E-005;
2.404000000000000E+009;1.711894273757935E-001;1.014542952179909E-002;4.144722130149603E-003;-1.817078737076372E-004;
2.404166666666667E+009;1.719635277986527E-001;8.849642239511013E-003;4.200694151222706E-003;-4.703597223851830E-004;
2.404333333333334E+009;1.728009283542633E-001;7.804575841873884E-003;4.075155127793551E-003;-7.099370122887194E-004;
2.404500000000000E+009;1.735670119524002E-001;6.735071539878845E-003;4.172503948211670E-003;-9.269011206924915E-004;
2.404666666666667E+009;1.743228137493134E-001;5.904118996113539E-003;4.145187791436911E-003;-9.950371459126473E-004;
2.404833333333334E+009;1.750998198986054E-001;5.007347557693720E-003;3.956702072173357E-003;-1.210576272569597E-003;
2.405000000000000E+009;1.757785081863403E-001;4.248991608619690E-003;4.016562364995480E-003;-1.477942336350679E-003;
2.405166666666667E+009;1.764399111270905E-001;3.539337776601315E-003;3.936765715479851E-003;-1.851548091508448E-003;
2.405333333333334E+009;1.771857738494873E-001;2.732116496190429E-003;3.837274853140116E-003;-1.788371358998120E-003;
2.405500000000000E+009;1.778818815946579E-001;2.460899297147989E-003;3.719601314514875E-003;-1.946722273714840E-003;
2.405666666666667E+009;1.783961206674576E-001;2.019396051764488E-003;3.565874882042408E-003;-2.207743702456355E-003;
2.405833333333334E+009;1.787812858819962E-001;1.635614549741149E-003;3.366590011864901E-003;-2.526047173887491E-003;
2.406000000000000E+009;1.793900281190872E-001;1.032732194289565E-003;3.434222424402833E-003;-2.576095750555396E-003;
2.406166666666667E+009;1.795657575130463E-001;8.013311307877302E-004;3.234059782698751E-003;-2.509760670363903E-003;
2.406333333333334E+009;1.800502836704254E-001;5.030069150961936E-004;3.051508218050003E-003;-2.905369736254215E-003;
2.406500000000000E+009;1.802177429199219E-001;1.468718401156366E-004;2.929393434897065E-003;-2.920925617218018E-003;
2.406666666666667E+009;1.803222894668579E-001;-1.069249447027687E-005;2.759928349405527E-003;-3.185980953276157E-003;
2.406833333333334E+009;1.805358678102493E-001;-4.997962969355285E-004;2.692207926884294E-003;-3.081855364143848E-003;
2.407000000000000E+009;1.807152181863785E-001;-7.833599229343236E-004;2.618767088279128E-003;-3.369788173586130E-003;
2.407166666666667E+009;1.806671917438507E-001;-9.063747129403055E-004;2.274413593113422E-003;-3.295790404081345E-003;
2.407333333333334E+009;1.804951280355454E-001;-1.450071809813380E-003;2.178788883611560E-003;-3.409930039197207E-003;
2.407500000000000E+009;1.802375167608261E-001;-1.846183906309307E-003;1.978545216843486E-003;-3.403069218620658E-003;
2.407666666666667E+009;1.801081746816635E-001;-2.117143943905830E-003;1.905815675854683E-003;-3.499815007671714E-003;
2.407833333333334E+009;1.795692592859268E-001;-2.674496965482831E-003;1.779454876668751E-003;-3.437964478507638E-003;
2.408000000000000E+009;1.793421506881714E-001;-3.272339934483171E-003;1.584966434165835E-003;-3.523517865687609E-003;
2.408166666666667E+009;1.788769364356995E-001;-3.553915070369840E-003;1.280416967347264E-003;-3.626889782026410E-003;
2.408333333333334E+009;1.785571575164795E-001;-4.359662067145109E-003;1.159232575446367E-003;-3.610213054344058E-003;
2.408500000000000E+009;1.779372245073319E-001;-5.114077124744654E-003;9.630025597289205E-004;-3.671130398288369E-003;
2.408666666666667E+009;1.772843152284622E-001;-5.827053915709257E-003;7.075886242091656E-004;-3.694454440847039E-003;
2.408833333333334E+009;1.764416843652725E-001;-6.626527756452560E-003;7.852063863538206E-004;-3.691752674058080E-003;
2.409000000000000E+009;1.757936775684357E-001;-7.650230545550585E-003;4.581979883369058E-004;-3.719996195286512E-003;
2.409166666666667E+009;1.750704497098923E-001;-8.732463233172894E-003;4.203163553029299E-004;-3.683016402646899E-003;
2.409333333333334E+009;1.745079159736633E-001;-9.674671106040478E-003;3.404842864256352E-004;-3.689758013933897E-003;
2.409500000000000E+009;1.735973507165909E-001;-1.109088025987148E-002;7.502781954826787E-005;-3.611675230786204E-003;
2.409666666666667E+009;1.728693842887878E-001;-1.230156514793634E-002;-5.292686910252087E-005;-3.445541718974710E-003;
2.409833333333334E+009;1.721413582563400E-001;-1.343496236950159E-002;-2.955816162284464E-004;-3.399771405383945E-003;
2.410000000000000E+009;1.715247035026550E-001;-1.501316670328379E-002;-2.712807909119874E-004;-3.377231303602457E-003;
2.410166666666667E+009;1.707048267126083E-001;-1.649511605501175E-002;-4.319441213738173E-004;-3.447559196501970E-003;
2.410333333333334E+009;1.700785905122757E-001;-1.810462959110737E-002;-6.664000684395433E-004;-3.391509177163243E-003;
2.410500000000000E+009;1.695968359708786E-001;-1.964908465743065E-002;-6.572104175575078E-004;-3.299900097772479E-003;
2.410666666666667E+009;1.687268018722534E-001;-2.154015563428402E-002;-8.813597960397601E-004;-3.136823186650872E-003;
2.410833333333334E+009;1.683982014656067E-001;-2.319262735545635E-002;-8.833314641378820E-004;-3.140744986012578E-003;
2.411000000000000E+009;1.678603589534760E-001;-2.506824210286140E-002;-1.091916812583804E-003;-3.019565483555198E-003;
2.411166666666667E+009;1.673630625009537E-001;-2.690955251455307E-002;-1.230718102306128E-003;-2.890039468184114E-003;
2.411333333333334E+009;1.667362451553345E-001;-2.872180193662643E-002;-1.352937077172101E-003;-2.890100469812751E-003;
2.411500000000000E+009;1.665764451026917E-001;-3.064757026731968E-002;-1.247972482815385E-003;-2.688952721655369E-003;
2.411666666666667E+009;1.663084328174591E-001;-3.271944448351860E-002;-1.410571858286858E-003;-2.626910805702210E-003;
2.411833333333334E+009;1.662444174289703E-001;-3.442774713039398E-002;-1.627452205866575E-003;-2.533461898565292E-003;
2.412000000000000E+009;1.659800112247467E-001;-3.651166707277298E-002;-1.559814554639161E-003;-2.547178650274873E-003;
2.412166666666667E+009;1.658787280321121E-001;-3.865172713994980E-002;-1.558720832690597E-003;-2.380836056545377E-003;
2.412333333333334E+009;1.660447567701340E-001;-4.037233442068100E-002;-1.755805569700897E-003;-2.233989536762238E-003;
2.412500000000000E+009;1.659519225358963E-001;-4.231187701225281E-002;-1.715612481348217E-003;-2.181285759434104E-003;
2.412666666666667E+009;1.662164479494095E-001;-4.442680254578590E-002;-1.743422937579453E-003;-2.026160946115851E-003;
2.412833333333334E+009;1.663927137851715E-001;-4.613203555345535E-002;-1.943120034411550E-003;-2.180681563913822E-003;
2.413000000000000E+009;1.665030121803284E-001;-4.810629040002823E-002;-1.930949743837118E-003;-1.962549984455109E-003;
2.413166666666667E+009;1.667422950267792E-001;-4.989933595061302E-002;-1.797627075575292E-003;-1.842491212300956E-003;
2.413333333333334E+009;1.669987291097641E-001;-5.149553716182709E-002;-2.112215384840965E-003;-1.886131474748254E-003;
2.413500000000000E+009;1.674671620130539E-001;-5.321712419390678E-002;-2.073625335469842E-003;-1.686945208348334E-003;
2.413666666666667E+009;1.680183261632919E-001;-5.471592396497726E-002;-2.025271067395806E-003;-1.436925027519465E-003;
2.413833333333334E+009;1.684155762195587E-001;-5.640387535095215E-002;-2.116390969604254E-003;-1.477391109801829E-003;
2.414000000000000E+009;1.686129868030548E-001;-5.794403329491615E-002;-2.048963448032737E-003;-1.297562848776579E-003;
2.414166666666667E+009;1.691435873508453E-001;-5.907887965440750E-002;-2.308188937604427E-003;-1.353197847492993E-003;
2.414333333333334E+009;1.695422083139420E-001;-6.045377999544144E-002;-2.167010214179754E-003;-1.134387101046741E-003;
2.414500000000000E+009;1.703950613737106E-001;-6.168670579791069E-002;-2.160832984372973E-003;-1.059382339008153E-003;
2.414666666666667E+009;1.708509027957916E-001;-6.278005987405777E-002;-2.132948720827699E-003;-1.007759245112538E-003;
2.414833333333334E+009;1.711615025997162E-001;-6.367452442646027E-002;-2.285900060087442E-003;-7.609337335452437E-004;
2.415000000000000E+009;1.716144233942032E-001;-6.468684971332550E-002;-2.178159076720476E-003;-8.168019121512771E-004;
2.415166666666667E+009;1.719569861888886E-001;-6.547845900058746E-002;-2.191788051277399E-003;-6.765726138837636E-004;
2.415333333333334E+009;1.724403202533722E-001;-6.628012657165527E-002;-2.175030065700412E-003;-4.375135758891702E-004;
2.415500000000000E+009;1.727646291255951E-001;-6.688381731510162E-002;-2.212260384112597E-003;-5.336077883839607E-004;
2.415666666666667E+009;1.729251444339752E-001;-6.736860424280167E-002;-2.018370199948549E-003;-3.664480173029006E-004;
2.415833333333334E+009;1.732767522335053E-001;-6.799341738224030E-002;-2.059325808659196E-003;-1.415849983459339E-004;
2.416000000000000E+009;1.733426004648209E-001;-6.834610551595688E-002;-2.023312030360103E-003;-1.365859352517873E-004;
2.416166666666667E+009;1.736599355936050E-001;-6.868161261081696E-002;-2.043267013505101E-003;4.352082396508195E-005;
2.416333333333334E+009;1.736208051443100E-001;-6.903030723333359E-002;-2.153363544493914E-003;1.098539905797225E-005;
2.416500000000000E+009;1.735951900482178E-001;-6.941423565149307E-002;-2.159438794478774E-003;1.849286345532164E-004;
2.416666666666667E+009;1.733165979385376E-001;-6.956239789724350E-002;-2.090282039716840E-003;1.356919383397326E-004;
2.416833333333334E+009;1.732241958379746E-001;-6.995692104101181E-002;-1.999447355046868E-003;1.303405442740768E-004;
2.417000000000000E+009;1.727407872676849E-001;-7.014589011669159E-002;-1.957588363438845E-003;3.402713336981833E-004;
2.417166666666667E+009;1.724369525909424E-001;-7.017292082309723E-002;-1.774118980392814E-003;4.324463952798396E-004;
2.417333333333334E+009;1.719452887773514E-001;-7.043801993131638E-002;-1.864231307990849E-003;5.330246640369296E-004;
2.417500000000000E+009;1.713843196630478E-001;-7.066098600625992E-002;-1.728485804051161E-003;4.922344232909381E-004;
2.417666666666667E+009;1.707522869110107E-001;-7.071577757596970E-002;-1.659818110056222E-003;7.196940714493394E-004;
2.417833333333334E+009;1.700965166091919E-001;-7.097281515598297E-002;-1.715418882668018E-003;6.649976712651551E-004;
2.418000000000000E+009;1.692892909049988E-001;-7.127650082111359E-002;-1.622739015147090E-003;6.532087572850287E-004;
2.418166666666667E+009;1.683185696601868E-001;-7.129609584808350E-002;-1.501639606431127E-003;6.851220969110727E-004;
2.418333333333334E+009;1.675828993320465E-001;-7.173204421997070E-002;-1.515535404905677E-003;8.077384554781020E-004;
2.418500000000000E+009;1.663872003555298E-001;-7.197684049606323E-002;-1.341289607807994E-003;9.639969794079661E-004;
2.418666666666667E+009;1.655555814504623E-001;-7.237287610769272E-002;-1.195119344629347E-003;9.678663918748498E-004;
2.418833333333334E+009;1.641333699226379E-001;-7.279239594936371E-002;-1.198239624500275E-003;9.329681051895022E-004;
2.419000000000000E+009;1.628535687923431E-001;-7.325849682092667E-002;-1.007221639156342E-003;9.971167892217636E-004;
2.419166666666667E+009;1.617321223020554E-001;-7.381914556026459E-002;-1.131630269810557E-003;1.024093595333397E-003;
2.419333333333334E+009;1.603864282369614E-001;-7.419250905513763E-002;-9.463534806855023E-004;1.047927537001669E-003;
2.419500000000000E+009;1.592114269733429E-001;-7.518681138753891E-002;-8.427082793787122E-004;9.868271881714463E-004;
2.419666666666667E+009;1.580346822738648E-001;-7.599754631519318E-002;-7.255453383550048E-004;1.057751709595323E-003;
2.419833333333334E+009;1.566618829965591E-001;-7.662068307399750E-002;-8.320966735482216E-004;9.181900531984866E-004;
2.420000000000000E+009;1.555265784263611E-001;-7.771628350019455E-002;-6.292996695265174E-004;8.942220010794699E-004;
2.420166666666667E+009;1.544379591941834E-001;-7.873834669589996E-002;-5.536624812521040E-004;9.807861642912030E-004;
2.420333333333334E+009;1.531377583742142E-001;-7.995790243148804E-002;-5.826538545079529E-004;1.037342357449234E-003;
2.420500000000000E+009;1.520991772413254E-001;-8.095584064722061E-002;-2.839121734723449E-004;1.111637568101287E-003;
2.420666666666667E+009;1.508656591176987E-001;-8.220271766185761E-002;-3.341418050695211E-004;9.318228112533689E-004;
2.420833333333334E+009;1.498565971851349E-001;-8.353050798177719E-002;-2.578122075647116E-004;1.034853863529861E-003;
2.421000000000000E+009;1.487266719341278E-001;-8.500958234071732E-002;-2.509561018086970E-004;9.044390753842890E-004;
2.421166666666667E+009;1.479874402284622E-001;-8.644052594900131E-002;-1.349647063761950E-004;1.031848834827542E-003;
2.421333333333334E+009;1.470699757337570E-001;-8.811884373426437E-002;-1.178942111437209E-004;8.314696024172008E-004;
2.421500000000000E+009;1.463305503129959E-001;-8.937352150678635E-002;7.888474647188559E-005;8.683988125994802E-004;
2.421666666666667E+009;1.455971598625183E-001;-9.091079235076904E-002;-2.139366188202985E-005;7.885515224188566E-004;
2.421833333333334E+009;1.450450271368027E-001;-9.276757389307022E-002;1.384107890771702E-004;7.975970511324704E-004;
2.422000000000000E+009;1.442800313234329E-001;-9.449450671672821E-002;1.450523122912273E-004;6.365174776874483E-004;
2.422166666666667E+009;1.440874785184860E-001;-9.650860726833344E-002;1.552226021885872E-004;7.128070574253798E-004;
2.422333333333334E+009;1.435588002204895E-001;-9.790422022342682E-002;3.878959396388382E-004;4.647447203751653E-004;
2.422500000000000E+009;1.431307345628738E-001;-9.957374632358551E-002;2.013758639805019E-004;4.970345180481672E-004;
2.422666666666667E+009;1.429481506347656E-001;-1.013361215591431E-001;3.462281019892544E-004;2.255557337775827E-004;
2.422833333333334E+009;1.429790407419205E-001;-1.032031401991844E-001;2.193818363593891E-004;1.566192077007145E-004;
2.423000000000000E+009;1.429881304502487E-001;-1.049563735723496E-001;4.074700409546495E-004;4.102319508092478E-005;
2.423166666666667E+009;1.429575681686401E-001;-1.066546291112900E-001;2.719829499255866E-004;1.123731490224600E-004;
2.423333333333334E+009;1.430716514587402E-001;-1.082428693771362E-001;3.311749896965921E-004;-1.130456439568661E-004;
2.423500000000000E+009;1.431563049554825E-001;-1.099050566554070E-001;3.258108918089420E-004;-1.075733889592812E-004;
2.423666666666667E+009;1.433689892292023E-001;-1.115497052669525E-001;3.829795459751040E-004;-2.141535514965653E-004;
2.423833333333334E+009;1.436223983764648E-001;-1.131314113736153E-001;1.610007602721453E-004;-2.507674507796764E-004;
2.424000000000000E+009;1.439542323350906E-001;-1.143379583954811E-001;3.523470950312913E-004;-2.296019374625757E-004;
2.424166666666667E+009;1.442323476076126E-001;-1.158476620912552E-001;4.089560025022365E-005;-5.487501039169729E-004;
2.424333333333334E+009;1.446748673915863E-001;-1.170572713017464E-001;9.217260958394036E-005;-4.030870913993567E-004;
2.424500000000000E+009;1.449305415153503E-001;-1.183424741029739E-001;-7.973491301527247E-005;-4.504802636802197E-004;
2.424666666666667E+009;1.455931812524796E-001;-1.193066611886025E-001;-1.120061861001886E-004;-5.617078859359026E-004;
2.424833333333334E+009;1.459080725908279E-001;-1.205098479986191E-001;-2.150456275558099E-004;-4.816421133000404E-004;
2.425000000000000E+009;1.461938619613648E-001;-1.216148436069489E-001;-1.333484542556107E-004;-5.255838041193783E-004;
2.425166666666667E+009;1.465253233909607E-001;-1.224827989935875E-001;-4.034831072203815E-004;-5.180426524020731E-004;
2.425333333333334E+009;1.469139307737351E-001;-1.231977641582489E-001;-2.720758202485740E-004;-5.161082954145968E-004;
2.425500000000000E+009;1.473650336265564E-001;-1.239573284983635E-001;-5.899245152249932E-004;-5.130677018314600E-004;
2.425666666666667E+009;1.475893706083298E-001;-1.247330009937286E-001;-7.200660766102374E-004;-4.478270129766315E-004;
2.425833333333334E+009;1.477679312229157E-001;-1.251326948404312E-001;-4.739842843264341E-004;-2.946561144199222E-004;
2.426000000000000E+009;1.479717046022415E-001;-1.257571727037430E-001;-6.893650279380381E-004;-4.610206815414131E-004;
2.426166666666667E+009;1.484182476997376E-001;-1.260673850774765E-001;-6.198838818818331E-004;-3.419124695938081E-004;
2.426333333333334E+009;1.483313143253326E-001;-1.263432502746582E-001;-7.364333141595125E-004;-3.666858538053930E-004;
2.426500000000000E+009;1.484658420085907E-001;-1.266171932220459E-001;-7.646240992471576E-004;-2.759692724794149E-004;
2.426666666666667E+009;1.484375894069672E-001;-1.266330182552338E-001;-9.483995381742716E-004;-3.760129329748452E-004;
2.426833333333334E+009;1.481730341911316E-001;-1.267357468605042E-001;-7.535801851190627E-004;-2.587808703538030E-004;
2.427000000000000E+009;1.479500234127045E-001;-1.269283741712570E-001;-8.791714790277183E-004;-2.017832011915743E-004;
2.427166666666667E+009;1.476465314626694E-001;-1.268414407968521E-001;-9.311362518928945E-004;-1.659589033806697E-004;
2.427333333333334E+009;1.470888555049896E-001;-1.268711984157562E-001;-8.339615887962282E-004;5.383246389101259E-006;
2.427500000000000E+009;1.468299627304077E-001;-1.267667859792709E-001;-9.447946213185787E-004;-1.442160137230530E-004;
2.427666666666667E+009;1.461169868707657E-001;-1.268665492534638E-001;-1.001437078230083E-003;-1.106900381273590E-004;
