# Version 1.00
#
freq[Hz];re:Trc1_S11;im:Trc1_S11;re:Trc2_S21;im:Trc2_S21;
2.400000000000000E+009;1.627323776483536E-001;5.225895345211029E-002;2.363543026149273E-003;1.988069852814078E-003;
2.400166666666667E+009;1.629545390605927E-001;5.084218457341194E-002;2.497680718079209E-003;1.665547373704612E-003;
2.400333333333334E+009;1.625027358531952E-001;4.882354289293289E-002;2.592599717900157E-003;1.796475378796458E-003;
2.400500000000000E+009;1.626216322183609E-001;4.704311117529869E-002;2.445179503411055E-003;1.815597992390394E-003;
2.400666666666667E+009;1.623572856187820E-001;4.515410587191582E-002;2.660167869180441E-003;1.793934148736298E-003;
2.400833333333334E+009;1.625143289566040E-001;4.329226166009903E-002;2.674738643690944E-003;1.735900412313640E-003;
2.401000000000000E+009;1.626077592372894E-001;4.140101373195648E-002;2.782628173008561E-003;1.768494956195355E-003;
2.401166666666667E+009;1.625030189752579E-001;3.925309330224991E-002;2.796472515910864E-003;1.715788152068853E-003;
2.401333333333334E+009;1.626846194267273E-001;3.727278485894203E-002;2.859656699001789E-003;1.785208238288760E-003;
2.401500000000000E+009;1.630384624004364E-001;3.512871637940407E-002;2.950154012069106E-003;1.639760215766728E-003;
2.401666666666667E+009;1.631267070770264E-001;3.329276293516159E-002;3.003076184540987E-003;1.560981734655798E-003;
2.401833333333334E+009;1.633665263652802E-001;3.132294118404388E-002;3.184976754710078E-003;1.471897470764816E-003;
2.402000000000000E+009;1.635693609714508E-001;2.935714647173882E-002;3.277817275375128E-003;1.459238701499999E-003;
2.402166666666667E+009;1.639814972877502E-001;2.732167392969132E-002;3.257239703088999E-003;1.430030097253621E-003;
2.402333333333334E+009;1.643980443477631E-001;2.559709362685680E-002;3.444373374804854E-003;1.190964831039310E-003;
2.402500000000000E+009;1.649868786334992E-001;2.367889322340488E-002;3.425355302169919E-003;9.636520990170538E-004;
2.402666666666667E+009;1.654645502567291E-001;2.191717177629471E-002;3.644877811893821E-003;1.003215205855668E-003;
2.402833333333334E+009;1.660492122173309E-001;2.030466124415398E-002;3.781819250434637E-003;8.394300239160657E-004;
2.403000000000000E+009;1.667358875274658E-001;1.844225451350212E-002;3.706840565428138E-003;7.087396807037294E-004;
2.403166666666667E+009;1.674921959638596E-001;1.693957485258579E-002;3.754544770345092E-003;5.909675965085626E-004;
2.403333333333334E+009;1.680856198072434E-001;1.562702842056751E-002;3.891650121659041E-003;5.303567158989608E-004;
2.403500000000000E+009;1.688312143087387E-001;1.412770710885525E-002;3.940230235457420E-003;2.497444220352918E-004;
2.403666666666667E+009;1.694399714469910E-001;1.261731702834368E-002;4.006709903478622E-003;1.171954063465819E-004;
2.403833333333334E+009;1.703591048717499E-001;1.120816636830568E-002;4.080063197761774E-003;-3.117991354883998E-006;
2.404000000000000E+009;1.712953597307205E-001;1.020374428480864E-002;4.111026879400015E-003;-3.678023058455437E-004;
2.404166666666667E+009;1.719303429126740E-001;8.785695768892765E-003;4.131116904318333E-003;-4.808176017832011E-004;
2.404333333333334E+009;1.728046536445618E-001;7.762354798614979E-003;4.264899995177984E-003;-6.836659158580005E-004;
2.404500000000000E+009;1.733478456735611E-001;6.656904704868794E-003;4.305040463805199E-003;-8.565509924665093E-004;
2.404666666666667E+009;1.744082868099213E-001;5.781196523457766E-003;4.077936057001352E-003;-1.074688741937280E-003;
2.404833333333334E+009;1.751016974449158E-001;5.060767289251089E-003;4.078740719705820E-003;-1.292330096475780E-003;
2.405000000000000E+009;1.758165359497070E-001;4.388242028653622E-003;4.070685710757971E-003;-1.553464913740754E-003;
2.405166666666667E+009;1.764472275972366E-001;3.523753723129630E-003;4.070872440934181E-003;-1.790105248801410E-003;
2.405333333333334E+009;1.773114651441574E-001;2.768208738416433E-003;3.882641671225429E-003;-1.861998811364174E-003;
2.405500000000000E+009;1.779512912034988E-001;2.396157244220376E-003;3.706573508679867E-003;-2.031564945355058E-003;
2.405666666666667E+009;1.783337444067001E-001;1.909274025820196E-003;3.640532726421952E-003;-2.303248504176736E-003;
2.405833333333334E+009;1.788416802883148E-001;1.460991916246712E-003;3.486190689727664E-003;-2.400069497525692E-003;
2.406000000000000E+009;1.793201863765717E-001;1.092945691198111E-003;3.306439146399498E-003;-2.634670818224549E-003;
2.406166666666667E+009;1.795886904001236E-001;8.327411487698555E-004;3.258364507928491E-003;-2.764084143564105E-003;
2.406333333333334E+009;1.802039444446564E-001;5.366462282836437E-004;3.028398612514138E-003;-2.822227776050568E-003;
2.406500000000000E+009;1.803221553564072E-001;9.644620877224952E-005;2.988794585689902E-003;-2.853883197531104E-003;
2.406666666666667E+009;1.803483366966248E-001;-1.175900433736388E-005;2.785006305202842E-003;-3.068012185394764E-003;
2.406833333333334E+009;1.806197315454483E-001;-4.991679452359676E-004;2.720134099945426E-003;-3.117405809462071E-003;
2.407000000000000E+009;1.807362288236618E-001;-8.186665945686400E-004;2.552529331296682E-003;-3.271736204624176E-003;
2.407166666666667E+009;1.807159632444382E-001;-1.119771623052657E-003;2.252707257866859E-003;-3.236124990507960E-003;
2.407333333333334E+009;1.804610192775726E-001;-1.488710055127740E-003;2.180575393140316E-003;-3.464967012405396E-003;
2.407500000000000E+009;1.804227083921433E-001;-1.774648670107126E-003;2.031181007623673E-003;-3.389513120055199E-003;
2.407666666666667E+009;1.800646632909775E-001;-2.148290630429983E-003;1.767416950315237E-003;-3.456804435700178E-003;
2.407833333333334E+009;1.796077936887741E-001;-2.739883493632078E-003;1.673928811214864E-003;-3.606227226555347E-003;
2.408000000000000E+009;1.793589442968369E-001;-3.368455450981855E-003;1.514075789600611E-003;-3.526204265654087E-003;
2.408166666666667E+009;1.788454353809357E-001;-3.725833026692271E-003;1.276236958801746E-003;-3.793874289840460E-003;
2.408333333333334E+009;1.785494536161423E-001;-4.454298876225948E-003;1.325151650235057E-003;-3.565427381545305E-003;
2.408500000000000E+009;1.777812093496323E-001;-5.141295958310366E-003;8.909887401387096E-004;-3.670822596177459E-003;
2.408666666666667E+009;1.772788912057877E-001;-5.999682005494833E-003;8.335545426234603E-004;-3.715348662808538E-003;
2.408833333333334E+009;1.765626966953278E-001;-6.795512512326241E-003;8.353695739060640E-004;-3.660510992631316E-003;
2.409000000000000E+009;1.758692413568497E-001;-7.696547079831362E-003;5.639852024614811E-004;-3.595766378566623E-003;
2.409166666666667E+009;1.750973612070084E-001;-8.843186311423779E-003;3.787395835388452E-004;-3.769456641748548E-003;
2.409333333333334E+009;1.745517551898956E-001;-9.988854639232159E-003;8.700304897502065E-005;-3.516183234751225E-003;
2.409500000000000E+009;1.737580299377441E-001;-1.123058330267668E-002;2.689224675123114E-005;-3.579008858650923E-003;
2.409666666666667E+009;1.727965623140335E-001;-1.244907267391682E-002;-1.212256247526966E-004;-3.602640237659216E-003;
2.409833333333334E+009;1.721608191728592E-001;-1.359451841562986E-002;-3.349993785377592E-004;-3.527176566421986E-003;
2.410000000000000E+009;1.714186221361160E-001;-1.494381390511990E-002;-3.163105284329504E-004;-3.604135941714048E-003;
2.410166666666667E+009;1.707773208618164E-001;-1.638885773718357E-002;-4.565136914607137E-004;-3.221162827685475E-003;
2.410333333333334E+009;1.699509322643280E-001;-1.818620972335339E-002;-8.231569663621485E-004;-3.232741495594382E-003;
2.410500000000000E+009;1.694600284099579E-001;-1.982114836573601E-002;-8.068030583672226E-004;-3.205531043931842E-003;
2.410666666666667E+009;1.687216311693192E-001;-2.159195952117443E-002;-8.996305987238884E-004;-3.229748923331499E-003;
2.410833333333334E+009;1.683372706174851E-001;-2.317575365304947E-002;-8.418158395215869E-004;-3.212849376723170E-003;
2.411000000000000E+009;1.677881926298142E-001;-2.506714314222336E-002;-1.029680483043194E-003;-2.964283572509885E-003;
2.411166666666667E+009;1.673566848039627E-001;-2.694979868829250E-002;-1.158441067673266E-003;-2.871183212846518E-003;
2.411333333333334E+009;1.667771637439728E-001;-2.865916304290295E-002;-1.223920146003366E-003;-2.807287033647299E-003;
2.411500000000000E+009;1.664883792400360E-001;-3.081874549388886E-002;-1.515224226750433E-003;-2.823807531967759E-003;
2.411666666666667E+009;1.664268225431442E-001;-3.268248215317726E-002;-1.392386388033629E-003;-2.520701615139842E-003;
2.411833333333334E+009;1.661762893199921E-001;-3.455770760774612E-002;-1.318694907240570E-003;-2.646817127242684E-003;
2.412000000000000E+009;1.661185622215271E-001;-3.674449026584625E-002;-1.513294642791152E-003;-2.601182786747813E-003;
2.412166666666667E+009;1.658193469047546E-001;-3.868065401911736E-002;-1.607974409125745E-003;-2.325525972992182E-003;
2.412333333333334E+009;1.660452783107758E-001;-4.044329747557640E-002;-1.636435859836638E-003;-2.283753361552954E-003;
2.412500000000000E+009;1.658245623111725E-001;-4.224425926804543E-002;-1.727889408357441E-003;-2.325049135833979E-003;
2.412666666666667E+009;1.661725640296936E-001;-4.437398165464401E-002;-1.718442654237151E-003;-2.155697904527187E-003;
2.412833333333334E+009;1.664599776268005E-001;-4.637223482131958E-002;-1.822817488573492E-003;-2.100977813825011E-003;
2.413000000000000E+009;1.665974706411362E-001;-4.807196930050850E-002;-1.891956781037152E-003;-1.888925209641457E-003;
2.413166666666667E+009;1.669212132692337E-001;-4.995648190379143E-002;-1.983601832762361E-003;-1.967576798051596E-003;
2.413333333333334E+009;1.671764105558395E-001;-5.155684798955917E-002;-1.988206058740616E-003;-1.906594960018992E-003;
2.413500000000000E+009;1.676520705223084E-001;-5.327014625072479E-002;-2.230111276730895E-003;-1.631518476642668E-003;
2.413666666666667E+009;1.679171025753021E-001;-5.490785092115402E-002;-2.096367534250021E-003;-1.639304333366454E-003;
2.413833333333334E+009;1.683955937623978E-001;-5.644739046692848E-002;-2.067205728963018E-003;-1.476097153499723E-003;
2.414000000000000E+009;1.685681790113449E-001;-5.800297111272812E-002;-2.216490916907787E-003;-1.313593471422792E-003;
2.414166666666667E+009;1.692782193422318E-001;-5.916040390729904E-002;-2.263219794258475E-003;-1.311923260800540E-003;
2.414333333333334E+009;1.697252243757248E-001;-6.049906834959984E-002;-2.218479523435235E-003;-1.135722850449383E-003;
2.414500000000000E+009;1.704756170511246E-001;-6.164890527725220E-002;-2.264118753373623E-003;-9.087328799068928E-004;
2.414666666666667E+009;1.708132922649384E-001;-6.276976317167282E-002;-2.173659857362509E-003;-1.021978911012411E-003;
2.414833333333334E+009;1.712856441736221E-001;-6.381191313266754E-002;-2.176085487008095E-003;-8.807319100014865E-004;
2.415000000000000E+009;1.715524941682816E-001;-6.472635269165039E-002;-2.197269350290299E-003;-8.861424867063761E-004;
2.415166666666667E+009;1.720347255468369E-001;-6.553517282009125E-002;-2.002216409891844E-003;-6.135351140983403E-004;
2.415333333333334E+009;1.724538207054138E-001;-6.626271456480026E-002;-2.144615165889263E-003;-6.146327359601855E-004;
2.415500000000000E+009;1.727854460477829E-001;-6.688152253627777E-002;-2.173069398850203E-003;-4.213959327898920E-004;
2.415666666666667E+009;1.732543557882309E-001;-6.754446774721146E-002;-2.150853862985969E-003;-3.550769761204720E-004;
2.415833333333334E+009;1.733148545026779E-001;-6.802115589380264E-002;-2.054091310128570E-003;-2.218393929069862E-004;
2.416000000000000E+009;1.733655631542206E-001;-6.836751103401184E-002;-2.080601872876287E-003;-1.640331465750933E-004;
2.416166666666667E+009;1.736590117216110E-001;-6.896204501390457E-002;-2.100871410220861E-003;-3.594929148675874E-005;
2.416333333333334E+009;1.736393123865128E-001;-6.918889284133911E-002;-2.194475382566452E-003;-4.985299142390431E-007;
2.416500000000000E+009;1.735461354255676E-001;-6.951478868722916E-002;-2.076292876154184E-003;9.283579129260033E-005;
2.416666666666667E+009;1.734373867511749E-001;-6.955084204673767E-002;-2.111945766955614E-003;3.554998329491355E-005;
2.416833333333334E+009;1.732955276966095E-001;-7.000935822725296E-002;-2.097475808113813E-003;2.467254817020148E-004;
2.417000000000000E+009;1.728338748216629E-001;-7.024233043193817E-002;-1.792974770069122E-003;3.783569554798305E-004;
2.417166666666667E+009;1.724726110696793E-001;-7.018746435642242E-002;-1.932777697220445E-003;4.022668872494251E-004;
2.417333333333334E+009;1.719603985548019E-001;-7.048151642084122E-002;-2.019279403612018E-003;4.653003998100758E-004;
2.417500000000000E+009;1.713015735149384E-001;-7.075090706348419E-002;-1.812161062844098E-003;7.116904016584158E-004;
2.417666666666667E+009;1.709172576665878E-001;-7.077179849147797E-002;-1.757653080858290E-003;6.079028244130313E-004;
2.417833333333334E+009;1.701394319534302E-001;-7.095806300640106E-002;-1.629483187571168E-003;5.733048310503364E-004;
2.418000000000000E+009;1.692041456699371E-001;-7.125638425350189E-002;-1.530951936729252E-003;6.462218589149416E-004;
2.418166666666667E+009;1.684005409479141E-001;-7.128584384918213E-002;-1.516292337328196E-003;7.301009609363973E-004;
2.418333333333334E+009;1.675756424665451E-001;-7.174964249134064E-002;-1.378998276777566E-003;8.586345938965678E-004;
2.418500000000000E+009;1.664302051067352E-001;-7.204653322696686E-002;-1.281116623431444E-003;7.467458490282297E-004;
2.418666666666667E+009;1.654399484395981E-001;-7.238897681236267E-002;-1.363127608783543E-003;8.972199866548181E-004;
2.418833333333334E+009;1.640849262475967E-001;-7.292917370796204E-002;-1.213306095451117E-003;7.800085586495698E-004;
2.419000000000000E+009;1.629671603441238E-001;-7.324275374412537E-002;-1.182904117740691E-003;9.755757055245340E-004;
2.419166666666667E+009;1.618629097938538E-001;-7.379513978958130E-002;-9.524591150693595E-004;9.564077481627464E-004;
2.419333333333334E+009;1.604303419589996E-001;-7.424201071262360E-002;-1.077859196811914E-003;9.265468106605113E-004;
2.419500000000000E+009;1.592286527156830E-001;-7.511969655752182E-002;-8.503900025971234E-004;8.720468031242490E-004;
2.419666666666667E+009;1.580145061016083E-001;-7.589942216873169E-002;-7.495593163184822E-004;1.069774967618287E-003;
2.419833333333334E+009;1.566856652498245E-001;-7.672532647848129E-002;-7.673641666769981E-004;8.962604915723205E-004;
2.420000000000000E+009;1.555887311697006E-001;-7.771409302949905E-002;-5.038107046857476E-004;9.978186571970582E-004;
2.420166666666667E+009;1.544272601604462E-001;-7.879173010587692E-002;-6.116526783443987E-004;9.674030006863177E-004;
2.420333333333334E+009;1.531355232000351E-001;-7.983859628438950E-002;-5.793650634586811E-004;1.032058615237474E-003;
2.420500000000000E+009;1.519573330879211E-001;-8.087079972028732E-002;-4.362767213024199E-004;9.352933848276734E-004;
2.420666666666667E+009;1.506948471069336E-001;-8.202373981475830E-002;-3.238920180592686E-004;1.059867558069527E-003;
2.420833333333334E+009;1.497875750064850E-001;-8.339580148458481E-002;-4.472222353797406E-004;1.024401979520917E-003;
2.421000000000000E+009;1.488523483276367E-001;-8.481285721063614E-002;-2.035183861153200E-004;9.734114282764494E-004;
2.421166666666667E+009;1.480057537555695E-001;-8.623596280813217E-002;4.170472493569832E-006;8.751493296585977E-004;
2.421333333333334E+009;1.471531093120575E-001;-8.790549635887146E-002;-9.920501906890422E-005;8.922950946725905E-004;
2.421500000000000E+009;1.461867243051529E-001;-8.941899240016937E-002;-1.290616783080623E-004;8.305826922878623E-004;
2.421666666666667E+009;1.455745398998261E-001;-9.115324914455414E-002;1.302383461734280E-004;6.264113471843302E-004;
2.421833333333334E+009;1.449649631977081E-001;-9.277807176113129E-002;1.504858810221776E-004;7.900290074758232E-004;
2.422000000000000E+009;1.443975418806076E-001;-9.427272528409958E-002;1.292223169002682E-004;5.543063161894679E-004;
2.422166666666667E+009;1.439584493637085E-001;-9.623250365257263E-002;1.671371428528801E-004;5.294077564030886E-004;
2.422333333333334E+009;1.436642408370972E-001;-9.796708077192307E-002;3.481294261291623E-004;6.090505048632622E-004;
2.422500000000000E+009;1.434354186058044E-001;-9.958967566490173E-002;2.694028371479362E-004;3.278148651588708E-004;
2.422666666666667E+009;1.429391652345657E-001;-1.013644188642502E-001;4.728385247290134E-004;3.865892358589917E-004;
2.422833333333334E+009;1.429847180843353E-001;-1.033753678202629E-001;4.296392726246268E-004;3.091535836574622E-005;
2.423000000000000E+009;1.428402066230774E-001;-1.049474254250526E-001;4.523868847172707E-004;7.093869498930872E-005;
2.423166666666667E+009;1.430576890707016E-001;-1.066479980945587E-001;3.251009038649499E-004;-1.969509467016906E-004;
2.423333333333334E+009;1.431414186954498E-001;-1.083158478140831E-001;3.608416591305286E-004;-1.273044181289151E-004;
2.423500000000000E+009;1.433172523975372E-001;-1.100331693887711E-001;2.478555834386498E-004;-2.130755165126175E-004;
2.423666666666667E+009;1.432484537363052E-001;-1.116641908884049E-001;1.113465114030987E-004;-2.446837315801531E-004;
2.423833333333334E+009;1.438465863466263E-001;-1.132435351610184E-001;7.136123167583719E-005;-4.439537879079580E-004;
2.424000000000000E+009;1.439636051654816E-001;-1.145401224493980E-001;1.208639660035260E-004;-5.125538446009159E-004;
2.424166666666667E+009;1.443336755037308E-001;-1.159920319914818E-001;-3.145744267385453E-005;-5.348579725250602E-004;
2.424333333333334E+009;1.448408812284470E-001;-1.171854510903359E-001;-1.034331580740400E-004;-4.919705679640174E-004;
2.424500000000000E+009;1.450970619916916E-001;-1.185392886400223E-001;-9.475255501456559E-005;-5.876431823708117E-004;
2.424666666666667E+009;1.456043422222138E-001;-1.196018382906914E-001;-2.142336015822366E-004;-5.023145931772888E-004;
2.424833333333334E+009;1.457910835742950E-001;-1.206152662634850E-001;-2.576889819465578E-004;-7.148549193516374E-004;
2.425000000000000E+009;1.463209986686707E-001;-1.216958016157150E-001;-3.178788465447724E-004;-6.430429639294744E-004;
2.425166666666667E+009;1.464116573333740E-001;-1.224654242396355E-001;-4.670339985750616E-004;-6.114355055615306E-004;
2.425333333333334E+009;1.469387114048004E-001;-1.233117580413818E-001;-5.701191839762032E-004;-5.175106925889850E-004;
2.425500000000000E+009;1.474031805992127E-001;-1.241652444005013E-001;-4.656445235013962E-004;-5.770726711489260E-004;
2.425666666666667E+009;1.474445462226868E-001;-1.247170194983482E-001;-7.041371427476406E-004;-6.669125286862254E-004;
2.425833333333334E+009;1.478722095489502E-001;-1.252500116825104E-001;-6.625095847994089E-004;-5.476566730067134E-004;
2.426000000000000E+009;1.480120718479157E-001;-1.257531195878983E-001;-8.014811319299042E-004;-4.211584455333650E-004;
2.426166666666667E+009;1.482609361410141E-001;-1.261627525091171E-001;-7.998399669304490E-004;-6.113506969995797E-004;
2.426333333333334E+009;1.483175605535507E-001;-1.264581829309464E-001;-7.986072450876236E-004;-4.268833436071873E-004;
2.426500000000000E+009;1.483801603317261E-001;-1.266407519578934E-001;-8.646861533634365E-004;-3.576817398425192E-004;
2.426666666666667E+009;1.484700888395309E-001;-1.266309469938278E-001;-9.277998469769955E-004;-4.874527512583882E-004;
2.426833333333334E+009;1.481589525938034E-001;-1.267801821231842E-001;-9.212224977090955E-004;-2.057147357845679E-004;
2.427000000000000E+009;1.478859484195709E-001;-1.269411444664002E-001;-8.930527837947011E-004;-2.802313829306513E-004;
2.427166666666667E+009;1.477082371711731E-001;-1.267572790384293E-001;-9.396090754307807E-004;-1.368030789308250E-004;
2.427333333333334E+009;1.471619009971619E-001;-1.268637180328369E-001;-8.700433536432684E-004;-4.365770655567758E-005;
2.427500000000000E+009;1.468334943056107E-001;-1.268114745616913E-001;-9.182209032587707E-004;-6.692605529678986E-005;
2.427666666666667E+009;1.462158113718033E-001;-1.268586367368698E-001;-8.471923065371811E-004;-4.856161103816703E-005;
