# Hz S RI R 50
2400000000.0000000000 0.173736691474914606292401231258 0.049029603600502007221262346093 0.002648202236741780801060341943 0.008880221284925937652587890625 0 0 0 0 
2400166666.6666665077 0.174248903989791897872763115629 0.048577867448329932476003278907 0.002865487011149526076075888525 0.008836776949465274810791015625 0 0 0 0 
2400333333.3333334923 0.174698740243911687652911268742 0.047638710588216781616210937500 0.003238795790821313858032226562 0.008755813352763652801513671875 0 0 0 0 
2400500000.0000000000 0.175219610333442687988281250000 0.046998716890811920166015625000 0.003356279339641333060023642432 0.008662170730531215667724609375 0 0 0 0 
2400666666.6666665077 0.175289690494537409026776231258 0.046374615281820297241210937500 0.003392237704247235818150185693 0.008346498943865299224853515625 0 0 0 0 
2400833333.3333334923 0.175625950098037691970986884371 0.045812197029590606689453125000 0.003755175508558750152587890625 0.008496339432895183563232421875 0 0 0 0 
2401000000.0000000000 0.175683021545410211761151231258 0.044978566467761993408203125000 0.003965445328503847122192382812 0.008363414555788040161132812500 0 0 0 0 
2401166666.6666665077 0.175729915499687194824218750000 0.044255897402763366699218750000 0.004278974607586860656738281250 0.008377350866794586181640625000 0 0 0 0 
2401333333.3333334923 0.175790250301361111739950615629 0.043716352432966232299804687500 0.004507387988269329071044921875 0.008223035372793674468994140625 0 0 0 0 
2401500000.0000000000 0.175798282027244595626669365629 0.042949073016643517231027971093 0.004784541204571723937988281250 0.008137556724250316619873046875 0 0 0 0 
2401666666.6666665077 0.175789162516593905349893134371 0.042188279330730438232421875000 0.005032018292695283889770507812 0.007950679399073123931884765625 0 0 0 0 
2401833333.3333334923 0.175821542739868191818075615629 0.041451212018728263164479841407 0.005329183302819728851318359375 0.007888738997280597686767578125 0 0 0 0 
2402000000.0000000000 0.175504624843597412109375000000 0.040515996515750891948659528907 0.005598818417638540267944335938 0.007545069791376590728759765625 0 0 0 0 
2402166666.6666665077 0.175404340028762789627236884371 0.039614450186491012573242187500 0.006098650395870208740234375000 0.007457874249666929244995117188 0 0 0 0 
2402333333.3333334923 0.174879774451255798339843750000 0.038752853870391852642018903907 0.006351904943585395812988281250 0.007164128590375185012817382812 0 0 0 0 
2402500000.0000000000 0.175054654479026794433593750000 0.037590280175209052349050153907 0.006582228001207113265991210938 0.006921347230672836303710937500 0 0 0 0 
2402666666.6666665077 0.174558505415916387359942518742 0.036546975374221801757812500000 0.006993043236434459686279296875 0.006648935377597808837890625000 0 0 0 0 
2402833333.3333334923 0.174404844641685513595419365629 0.035393502563238136982004533593 0.007223865948617458343505859375 0.006398235447704792022705078125 0 0 0 0 
2403000000.0000000000 0.174092605710029602050781250000 0.034167028963565833354909528907 0.007512367796152830123901367188 0.006125770974904298782348632812 0 0 0 0 
2403166666.6666665077 0.173715993762016296386718750000 0.032827083021402359008789062500 0.007731994614005088806152343750 0.005815110635012388229370117188 0 0 0 0 
2403333333.3333334923 0.173404484987258911132812500000 0.031423632055521011352539062500 0.007833958603441715240478515625 0.005350067280232906341552734375 0 0 0 0 
2403500000.0000000000 0.172876715660095187088174384371 0.029973316937685009347935860546 0.007846719585359096527099609375 0.004897854756563901901245117188 0 0 0 0 
2403666666.6666665077 0.172402963042259188553018134371 0.028181584551930431020716483204 0.008154815062880516052246093750 0.004644736647605895996093750000 0 0 0 0 
2403833333.3333334923 0.172116219997406005859375000000 0.026572594419121738779088204296 0.008092337287962436676025390625 0.004424350336194038391113281250 0 0 0 0 
2404000000.0000000000 0.171787381172180203536825615629 0.024931393563747409475306326954 0.008240393362939357757568359375 0.003940498922020196914672851562 0 0 0 0 
2404166666.6666665077 0.171233519911766107757244981258 0.023009492084383971477468122657 0.008216368965804576873779296875 0.003589427098631858825683593750 0 0 0 0 
2404333333.3333334923 0.170879140496253995040731865629 0.021125566214323040353795235546 0.008350362069904804229736328125 0.003297467716038227081298828125 0 0 0 0 
2404500000.0000000000 0.170162051916122408767861884371 0.019041322171688079833984375000 0.008340343832969665527343750000 0.002674230374395846886875771631 0 0 0 0 
2404666666.6666665077 0.170953288674354608733807481258 0.017756354063749309885045235546 0.008491722866892814636230468750 0.002854743041098117828369140625 0 0 0 0 
2404833333.3333334923 0.170026481151580810546875000000 0.015281609259545799600621407421 0.008317987434566020965576171875 0.002154098823666573004481650244 0 0 0 0 
2405000000.0000000000 0.170490443706512506683026231258 0.013626171275973320007324218750 0.008399348706007003784179687500 0.002291388344019650979282998193 0 0 0 0 
2405166666.6666665077 0.169252887368202209472656250000 0.010001282207667829340924647852 0.008111876435577869415283203125 0.000719213276170194149017333984 0 0 0 0 
2405333333.3333334923 0.169829234480857904632244981258 0.009765624068677425384521484375 0.007911812514066696166992187500 0.001576054957695304913761757959 0 0 0 0 
2405500000.0000000000 0.170404359698295593261718750000 0.008010718040168285369873046875 0.008172049187123775482177734375 0.001533046597614883942845009912 0 0 0 0 
2405666666.6666665077 0.169531360268592806717080634371 0.005717338994145393371582031250 0.007668467238545417785644531250 0.000952349102590233087539672852 0 0 0 0 
2405833333.3333334923 0.170688450336456298828125000000 0.003268505912274121804478310693 0.008256238885223865509033203125 0.000626421475317329168319702148 0 0 0 0 
2406000000.0000000000 0.169983714818954495529013115629 0.001036355039104819080950092847 0.007703419309109449386596679688 0.000361687503755092620849609375 0 0 0 0 
2406166666.6666665077 0.170630380511283902267294365629 -0.000690251414198428392410278320 0.007779388222843408584594726562 0.000179349895915947908728999005 0 0 0 0 
2406333333.3333334923 0.171668827533721896072549384371 -0.002649524714797735214233398438 0.007924211211502552032470703125 0.000127060120576061308383941650 0 0 0 0 
2406500000.0000000000 0.172328621149063110351562500000 -0.005108144599944353103637695312 0.007989918813109397888183593750 -0.000345574109815061092376708984 0 0 0 0 
2406666666.6666665077 0.172181248664856012542401231258 -0.006778922863304615020751953125 0.007713443133980035781860351562 -0.000511892954818904399871826172 0 0 0 0 
2406833333.3333334923 0.173426806926727294921875000000 -0.007460237480700016021728515625 0.008136834949254989624023437500 -0.000000614365262663341127336025 0 0 0 0 
2407000000.0000000000 0.173774212598800686935263115629 -0.010172527283430099487304687500 0.007817219011485576629638671875 -0.000571162847336381673812866211 0 0 0 0 
2407166666.6666665077 0.173458307981491088867187500000 -0.012263952754437919961949532421 0.007210678420960903167724609375 -0.000911773298867046833038330078 0 0 0 0 
2407333333.3333334923 0.174801930785179110428018134371 -0.013906059786677360534667968750 0.007577269803732633590698242188 -0.001070283469744027094600058447 0 0 0 0 
2407500000.0000000000 0.175604999065399197677450615629 -0.015713674947619441640833670704 0.007552258204668760299682617188 -0.001344572752714157104492187500 0 0 0 0 
2407666666.6666665077 0.176250874996185302734375000000 -0.016980573534965518606165701954 0.007324684411287307739257812500 -0.001502276631072164015529013525 0 0 0 0 
2407833333.3333334923 0.176837474107742309570312500000 -0.018844854086637500417689139454 0.007372121326625347137451171875 -0.001882081502117217020747519385 0 0 0 0 
2408000000.0000000000 0.177865430712699890136718750000 -0.020626027137041088449498360546 0.007325534708797931671142578125 -0.002057729987427591843845986475 0 0 0 0 
2408166666.6666665077 0.178460463881492586990518134371 -0.022235423326492309570312500000 0.007274676579982042312622070312 -0.002579409396275877952575683594 0 0 0 0 
2408333333.3333334923 0.179236590862274197677450615629 -0.023135874420404430734654610546 0.007152003236114978790283203125 -0.002715004608035088019130087744 0 0 0 0 
2408500000.0000000000 0.179883867502212496658486884371 -0.024397462606430050241490548046 0.007077259942889214429373456738 -0.002981508150696754889247275244 0 0 0 0 
2408666666.6666665077 0.180778637528419494628906250000 -0.026061680167913440359095389454 0.006917651742696762084960937500 -0.003328575752675532860996865381 0 0 0 0 
2408833333.3333334923 0.180935665965080288986044365629 -0.026968793943524360656738281250 0.006671620067209005355834960938 -0.003366067772731184959411621094 0 0 0 0 
2409000000.0000000000 0.181546106934547396560830634371 -0.027884917333722121501882185157 0.006462103221565485000610351562 -0.003775513498112558884861611475 0 0 0 0 
2409166666.6666665077 0.182096883654594393631143134371 -0.028980137780308719980260079296 0.006239132955670356750488281250 -0.003877051174640655951258993994 0 0 0 0 
2409333333.3333334923 0.182691439986228887359942518742 -0.029905322939157489431361014454 0.006084361579269170761108398438 -0.004319845698773860931396484375 0 0 0 0 
2409500000.0000000000 0.183185353875160189529580634371 -0.031132560223340991628626639454 0.005731171928346157073974609375 -0.004706018604338169097900390625 0 0 0 0 
2409666666.6666665077 0.182957962155342102050781250000 -0.031449791043996810913085937500 0.005219446960836648941040039062 -0.004469242878258228302001953125 0 0 0 0 
2409833333.3333334923 0.183451756834983797928018134371 -0.031839348375797271728515625000 0.005150698125362396240234375000 -0.004612636286765336990356445312 0 0 0 0 
2410000000.0000000000 0.183905169367790194412393134371 -0.032156325876712799072265625000 0.004988371394574642181396484375 -0.004857998341321945190429687500 0 0 0 0 
2410166666.6666665077 0.183757230639457702636718750000 -0.032804019749164581298828125000 0.004760933574289084348196698926 -0.004953463561832904815673828125 0 0 0 0 
2410333333.3333334923 0.184009462594985989669638115629 -0.033209387212991707538645158593 0.004464782774448394775390625000 -0.004992264788597822189331054688 0 0 0 0 
2410500000.0000000000 0.183912694454193087478799384371 -0.033536288887262337421457658593 0.004219805821776390075683593750 -0.005012585315853357315063476562 0 0 0 0 
2410666666.6666665077 0.183668866753578213790731865629 -0.034146875143051147460937500000 0.004007875453680753707885742188 -0.005151911173015832901000976562 0 0 0 0 
2410833333.3333334923 0.183637574315071105957031250000 -0.034367874264717102050781250000 0.003584795165807009176967001807 -0.005074233282357454299926757812 0 0 0 0 
2411000000.0000000000 0.183588668704032897949218750000 -0.034549504518508911132812500000 0.003464816836640239195582724463 -0.005087411962449550628662109375 0 0 0 0 
2411166666.6666665077 0.183039367198944091796875000000 -0.035150561481714248657226562500 0.003263941733166574998142861475 -0.005093011539429426193237304688 0 0 0 0 
2411333333.3333334923 0.182816714048385592361611884371 -0.035052131861448287963867187500 0.003039691830053925947902060400 -0.005179930478334426879882812500 0 0 0 0 
2411500000.0000000000 0.182088464498519897460937500000 -0.035546004772186279296875000000 0.002823497401550412178039550781 -0.005151418037712574005126953125 0 0 0 0 
2411666666.6666665077 0.181583955883979797363281250000 -0.035962514579296112060546875000 0.002386131789535284042358398438 -0.005091641563922166824340820312 0 0 0 0 
2411833333.3333334923 0.181080624461174011230468750000 -0.036502338945865631103515625000 0.002276582643389701843261718750 -0.004971176385879516601562500000 0 0 0 0 
2412000000.0000000000 0.180179789662361200530682481258 -0.036861091852188110351562500000 0.002068473026156425909755087744 -0.004862914793193340301513671875 0 0 0 0 
2412166666.6666665077 0.178980752825736999511718750000 -0.037422001361846916889231096093 0.001767415553331374905229878003 -0.004932156763970851898193359375 0 0 0 0 
2412333333.3333334923 0.178375482559204101562500000000 -0.037802256643772132183034528907 0.001726351212710141918779682690 -0.004809432663023471832275390625 0 0 0 0 
2412500000.0000000000 0.177359789609909113128338731258 -0.038314159959554672241210937500 0.001357391709461807987810444409 -0.004665288608521223068237304688 0 0 0 0 
2412666666.6666665077 0.176309332251548794845419365629 -0.039294585585594177246093750000 0.001420431653968990065931010669 -0.004547814838588237762451171875 0 0 0 0 
2412833333.3333334923 0.175107374787330599685830634371 -0.039884030818939208984375000000 0.001074511790648102977155375903 -0.004529027733951807022094726562 0 0 0 0 
2413000000.0000000000 0.173868879675865201095419365629 -0.040626943111419677734375000000 0.000874940829817205667495727539 -0.004212405998259782791137695312 0 0 0 0 
2413166666.6666665077 0.172419399023056002517861884371 -0.041415087878704071044921875000 0.000840146385598927736282348633 -0.004100509919226169586181640625 0 0 0 0 
2413333333.3333334923 0.171208888292312594314736884371 -0.042523633688688278198242187500 0.000700044678524136543273925781 -0.003921851515769959363455487988 0 0 0 0 
2413500000.0000000000 0.170132234692573602874432481258 -0.043399471789598471904714216407 0.000641251739580184221267700195 -0.003721935907378793196437216650 0 0 0 0 
2413666666.6666665077 0.168745547533035306075888115629 -0.044502791017293930053710937500 0.000598958285991102457046508789 -0.003692411584779620170593261719 0 0 0 0 
2413833333.3333334923 0.167419418692588806152343750000 -0.045635983347892761230468750000 0.000553670804947614669799804688 -0.003511733608320354981663369287 0 0 0 0 
2414000000.0000000000 0.166009336709976196289062500000 -0.046639245003461837768554687500 0.000557605118956416953741872522 -0.003311961190775036811828613281 0 0 0 0 
2414166666.6666665077 0.164989829063415499588174384371 -0.047978028655052191997487653907 0.000633122399449348449707031250 -0.003107850439846516089198447119 0 0 0 0 
2414333333.3333334923 0.163660109043121310135049384371 -0.049331534653902046894113908593 0.000756161345634609460830688477 -0.002973748603835701942443847656 0 0 0 0 
2414500000.0000000000 0.162721142172813387771768134371 -0.050705604255199432373046875000 0.000859884428791701793670654297 -0.002803806215524673895594931494 0 0 0 0 
2414666666.6666665077 0.161433473229408291915731865629 -0.052296154201030731201171875000 0.000801628339104354381561279297 -0.002709941938519477844238281250 0 0 0 0 
2414833333.3333334923 0.160263553261756896972656250000 -0.053842134773731231689453125000 0.000975194387137889862060546875 -0.002761927898973226980922079932 0 0 0 0 
2415000000.0000000000 0.159305930137634305099325615629 -0.055535994470119483257253278907 0.001140935230068862004521035303 -0.002699099713936448097229003906 0 0 0 0 
2415166666.6666665077 0.158336028456687899490518134371 -0.057298392057418823242187500000 0.001289008418098092079162597656 -0.002561503089964389801025390625 0 0 0 0 
2415333333.3333334923 0.157565250992774991134481865629 -0.059057582169771187519113908593 0.001225133659318089918849326025 -0.002524714684113860130310058594 0 0 0 0 
2415500000.0000000000 0.156821668148040799239950615629 -0.060933716595172882080078125000 0.001553313806653022982953715747 -0.002460341202095150947570800781 0 0 0 0 
2415666666.6666665077 0.155972003936767605880575615629 -0.062697231769561767578125000000 0.001573178451508284048793173682 -0.002671923954039812088012695312 0 0 0 0 
2415833333.3333334923 0.155410185456275912185830634371 -0.064707390964031219482421875000 0.001844266080297529914258647388 -0.002731999382376670837402343750 0 0 0 0 
2416000000.0000000000 0.154667705297470092773437500000 -0.066584534943103790283203125000 0.001839543110691010951995849609 -0.002848924370482563972473144531 0 0 0 0 
2416166666.6666665077 0.154270514845848111251669365629 -0.068679325282573699951171875000 0.001960281282663344903233193506 -0.002920119324699043793919228662 0 0 0 0 
2416333333.3333334923 0.153800070285797091385049384371 -0.070537701249122619628906250000 0.002166250953450798988342285156 -0.003199192695319652991053915869 0 0 0 0 
2416500000.0000000000 0.153363555669784601409588731258 -0.072489127516746520996093750000 0.002099249046295880837681435693 -0.003241974394768476919886923682 0 0 0 0 
2416666666.6666665077 0.153050899505615206619424384371 -0.074367888271808624267578125000 0.002185000805184245109558105469 -0.003329740604385734038112021338 0 0 0 0 
2416833333.3333334923 0.152845263481140108963174384371 -0.076430395245552062988281250000 0.002029981231316924095153808594 -0.003685691161081194877624511719 0 0 0 0 
2417000000.0000000000 0.152434319257736206054687500000 -0.078353680670261383056640625000 0.002060758648440241813659667969 -0.003729544114321469826939248193 0 0 0 0 
2417166666.6666665077 0.152349755167961092849893134371 -0.079918168485164642333984375000 0.002012330340221523804905556787 -0.004082442261278629302978515625 0 0 0 0 
2417333333.3333334923 0.152373731136321993728799384371 -0.081790953874588012695312500000 0.002083497587591410116908408057 -0.004058326128870248794555664062 0 0 0 0 
2417500000.0000000000 0.152206733822822598556356865629 -0.083643279969692230224609375000 0.001870202017016709067701030200 -0.004337986465543509397024823926 0 0 0 0 
2417666666.6666665077 0.152302846312522888183593750000 -0.085036903619766235351562500000 0.001861418248154222965240478516 -0.004629945382475852966308593750 0 0 0 0 
2417833333.3333334923 0.152284964919090298751669365629 -0.086669720709323883056640625000 0.001749725313857197978376079028 -0.004618749953806400299072265625 0 0 0 0 
2418000000.0000000000 0.152324810624122591873330634371 -0.088191978633403778076171875000 0.001554407295770942947985004956 -0.004809492733329535398001386426 0 0 0 0 
2418166666.6666665077 0.152525305747985812088174384371 -0.089406050741672515869140625000 0.001442422391846776008605957031 -0.005019091535359621047973632812 0 0 0 0 
2418333333.3333334923 0.152849018573760986328125000000 -0.090692408382892608642578125000 0.001360552851110697009442973560 -0.005123714450746774673461914062 0 0 0 0 
2418500000.0000000000 0.153028279542923001388388115629 -0.091853208839893341064453125000 0.001075912965461611964582133716 -0.005388945806771516799926757812 0 0 0 0 
2418666666.6666665077 0.153265446424484308440838731258 -0.092943727970123291015625000000 0.000941496575251221656799316406 -0.005480012856423854827880859375 0 0 0 0 
2418833333.3333334923 0.153345182538032503982705634371 -0.093982532620429992675781250000 0.000580132589675486087799072266 -0.005777996499091386795043945312 0 0 0 0 
2419000000.0000000000 0.153458893299102810958700615629 -0.094769075512886047363281250000 0.000441707641584798693656921387 -0.005743598565459251403808593750 0 0 0 0 
2419166666.6666665077 0.153705537319183405120526231258 -0.095415122807025909423828125000 0.000113197718746960203774036546 -0.005837726406753063201904296875 0 0 0 0 
2419333333.3333334923 0.153816372156143188476562500000 -0.095835126936435699462890625000 -0.000061061531596351414918899536 -0.005750507116317749023437500000 0 0 0 0 
2419500000.0000000000 0.154140755534172113616619981258 -0.096544921398162841796875000000 -0.000488561461679637432098388672 -0.005916195921599864959716796875 0 0 0 0 
2419666666.6666665077 0.154358491301536587814169365629 -0.096956662833690643310546875000 -0.000526164541952311992645263672 -0.005834287032485008239746093750 0 0 0 0 
2419833333.3333334923 0.154347717761993408203125000000 -0.096917010843753814697265625000 -0.000814797705970704555511474609 -0.005831820424646139144897460938 0 0 0 0 
